"Freq [GHz]","re(S(Tx_p1,Tx_p1)) []","im(S(Tx_p1,Tx_p1)) []"
1,0.1214054743,0.1194120175
1.01,0.1307246624,0.1091693127
1.02,0.1391850437,0.09819217036
1.03,0.1467279936,0.08655259824
1.04,0.1533009606,0.07432733837
1.05,0.1588578512,0.06159734993
1.06,0.1633593694,0.04844726107
1.07,0.1667733107,0.03496479342
1.08,0.169074806,0.02124016324
1.09,0.1702465153,0.007365463328
1.1,0.1702787682,-0.006565969725
1.11,0.1691696516,-0.02046019874
1.12,0.166925043,-0.03422333492
1.13,0.1635585887,-0.04776218797
1.14,0.1590916286,-0.06098491297
1.15,0.1535530654,-0.07380164914
1.16,0.1469791821,-0.08612514622
1.17,0.139413406,-0.0978713738
1.18,0.1309060236,-0.1089601094
1.19,0.1215138454,-0.1193155013
1.2,0.1112998262,-0.1288666012
1.21,0.1003326396,-0.1375478646
1.22,0.08868621391,-0.1452996134
1.23,0.07643922903,-0.1520684588
1.24,0.06367457981,-0.1578076808
1.25,0.05047880913,-0.1624775617
1.26,0.03694151449,-0.1660456715
1.27,0.02315473244,-0.1684871022
1.28,0.009212305061,-0.1697846509
1.29,-0.004790767014,-0.1699289482
1.3,-0.01875898057,-0.1689185332
1.31,-0.03259699012,-0.1667598726
1.32,-0.04621026788,-0.1634673251
1.33,-0.05950575889,-0.1590630504
1.34,-0.07239252661,-0.1535768633
1.35,-0.08478238431,-0.1470460353
1.36,-0.09659050813,-0.139515043
1.37,-0.1077360271,-0.1310352664
1.38,-0.1181425864,-0.1216646387
1.39,-0.1277388792,-0.1114672505
1.4,-0.1364591443,-0.1005129099
1.41,-0.1442436251,-0.08887666328
1.42,-0.1510389874,-0.07663827865
1.43,-0.1567986921,-0.06388169585
1.44,-0.1614833219,-0.05069444739
1.45,-0.165060857,-0.03716705381
1.46,-0.1675069012,-0.0233923979
1.47,-0.1688048535,-0.009465082067
1.48,-0.1689460262,0.004519226548
1.49,-0.1679297079,0.01846445873
1.5,-0.1657631705,0.03227480892
1.51,-0.1624616211,0.04585539933
1.52,-0.1580480984,0.0591129379
1.53,-0.1525533142,0.07195636534
1.54,-0.1460154419,0.08429748686
1.55,-0.1384798524,0.09605158403
1.56,-0.1299988003,0.1071380026
1.57,-0.1206310618,0.1174807121
1.58,-0.1104415271,0.1270088332
1.59,-0.09950075029,0.1356571294
1.6,-0.08788445937,0.1433664594
1.61,-0.07567303089,0.1500841867
1.62,-0.06295093146,0.1557645444
1.63,-0.0498061312,0.1603689519
1.64,-0.03632949262,0.1638662813
1.65,-0.02261413949,0.1662330719
1.66,-0.008754809947,0.1674536917
1.67,0.005152801524,0.1675204439
1.68,0.01901270868,0.1664336177
1.69,0.03272930001,0.1642014846
1.7,0.04620800247,0.1608402378
1.71,0.05935593781,0.1563738773
1.72,0.07208256691,0.1508340399
1.73,0.08430031764,0.144259777
1.74,0.0959251918,0.1366972796
1.75,0.106877347,0.1281995545
1.76,0.1170816491,0.1188260529
1.77,0.1264681923,0.1086422541
1.78,0.1349727814,0.09771920745
1.79,0.1425373753,0.0861330356
1.8,0.1491104865,0.07396440279
1.81,0.1546475351,0.06129795159
1.82,0.1591111544,0.04822171227
1.83,0.162471446,0.03482648886
1.84,0.1647061827,0.02120522622
1.85,0.1658009578,0.007452362544
1.86,0.1657492799,-0.006336828075
1.87,0.1645526124,-0.0200668986
1.88,0.1622203571,-0.03364289269
1.89,0.1587697835,-0.0469710045
1.9,0.154225902,-0.05995923004
1.91,0.1486212842,-0.07251800538
1.92,0.1419958302,-0.08456082753
1.93,0.134396485,-0.09600485335
1.94,0.1258769061,-0.1067714726
1.95,0.1164970845,-0.116786851
1.96,0.1063229218,-0.1259824394
1.97,0.09542576659,-0.1342954457
1.98,0.08388191313,-0.1416692668
1.99,0.07177206597,-0.1480538758
2,0.05918077437,-0.153406164
2.01,0.04619584042,-0.1576902345
2.02,0.03290770497,-0.160877644
2.03,0.01940881584,-0.1629475938
2.04,0.005792982495,-0.1638870662
2.05,-0.007845277964,-0.1636909075
2.06,-0.02141139923,-0.1623618551
2.07,-0.0348114238,-0.1599105103
2.08,-0.04795265613,-0.156355256
2.09,-0.06074430621,-0.1517221198
2.1,-0.07309811926,-0.146044585
2.11,-0.08492898701,-0.1393633485
2.12,-0.09615553631,-0.1317260298
2.13,-0.1067006912,-0.1231868314
2.14,-0.116492204,-0.1138061537
2.15,-0.1254631529,-0.1036501673
2.16,-0.1335524007,-0.09279034578
2.17,-0.1407050135,-0.08130296136
2.18,-0.1468726357,-0.06926854844
2.19,-0.1520138178,-0.05677133761
2.2,-0.1560942966,-0.04389866472
2.21,-0.1590872243,-0.03074035901
2.22,-0.1609733461,-0.01738811469
2.23,-0.1617411241,-0.00393485014
2.24,-0.1613868073,0.009525940376
2.25,-0.1599144479,0.02290083836
2.26,-0.157335862,0.03609715123
2.27,-0.1536705375,0.04902355662
2.28,-0.1489454873,0.06159073616
2.29,-0.1431950511,0.07371199455
2.3,-0.1364606465,0.08530385935
2.31,-0.1287904702,0.09628665761
2.32,-0.1202391531,0.1065850651
2.33,-0.110867371,0.1161286243
2.34,-0.100741413,0.1248522282
2.35,-0.08993271223,0.1326965656
2.36,-0.07851734106,0.1396085253
2.37,-0.06657547439,0.1455415569
2.38,-0.05419082559,0.1504559854
2.39,-0.04145005835,0.1543192762
2.4,-0.0284421789,0.1571062519
2.41,-0.01525791283,0.1587992553
2.42,-0.001989070842,0.1593882616
2.43,0.01127209206,0.1588709359
2.44,0.02443351949,0.1572526377
2.45,0.03740399423,0.1545463714
2.46,0.05009377192,0.1507726837
2.47,0.0624152034,0.1459595087
2.48,0.07428334158,0.1401419614
2.49,0.08561652836,0.1333620819
2.5,0.0963369578,0.1256685312
2.51,0.1063712113,0.1171162421
2.52,0.1156507618,0.1077660261
2.53,0.124112442,0.09768414047
2.54,0.1316988762,0.08694181809
2.55,0.1383588687,0.07561476316
2.56,0.144047751,0.06378261677
2.57,0.1487276806,0.05152839585
2.58,0.1523678935,0.0389379096
2.59,0.1549449058,0.0260991574
2.6,0.1564426646,0.01310171261
2.61,0.1568526471,3.609631109E-05
2.62,0.1561739064,-0.01300685429
2.63,0.1544130652,-0.02593661869
2.64,0.1515842558,-0.03866362244
2.65,0.1477090092,-0.05109985896
2.66,0.1428160914,-0.06315949912
2.67,0.1369412903,-0.0747594847
2.68,0.1301271546,-0.08582010136
2.69,0.1224226847,-0.0962655273
2.7,0.1138829803,-0.1060243538
2.71,0.104568846,-0.1150300742
2.72,0.0945463576,-0.1232215372
2.73,0.08388639226,-0.130543363
2.74,0.07266412695,-0.1369463176
2.75,0.06095850706,-0.142387644
2.76,0.04885169013,-0.1468313475
2.77,0.03642846825,-0.1502484333
2.78,0.02377567313,-0.152617095
2.79,0.01098156817,-0.153922853
2.8,-0.001864768313,-0.1541586407
2.81,-0.01467406428,-0.1533248397
2.82,-0.02735747536,-0.1514292628
2.83,-0.03982720198,-0.1484870853
2.84,-0.0519970981,-0.144520725
2.85,-0.0637832671,-0.1395596723
2.86,-0.07510464092,-0.133640271
2.87,-0.08588353831,-0.1268054525
2.88,-0.0960461984,-0.1191044235
2.89,-0.1055232858,-0.1105923122
2.9,-0.1142503642,-0.1013297723
2.91,-0.1221683341,-0.09138255072
2.92,-0.1292238338,-0.08082102005
2.93,-0.1353695982,-0.06971967984
2.94,-0.1405647754,-0.0581566303
2.95,-0.1447751979,-0.04621302197
2.96,-0.1479736059,-0.03397248534
2.97,-0.1501398232,-0.02152054429
2.98,-0.151260883,-0.008944017753
2.99,-0.1513311025,0.003669586571
3,-0.1503521079,0.01623268185
3.01,-0.148332808,0.02865821113
3.02,-0.1452893164,0.04086025131
3.03,-0.1412448252,0.05275460792
3.04,-0.1362294285,0.06425939671
3.05,-0.1302798989,0.07529560775
3.06,-0.1234394177,0.08578764849
3.07,-0.1157572616,0.09566386173
3.08,-0.1072884466,0.1048570152
3.09,-0.09809333431,0.1133047592
3.1,-0.08823720061,0.1209500494
3.11,-0.07778977172,0.1277415318
3.12,-0.06682473018,0.1336338869
3.13,-0.05541919449,0.138588132
3.14,-0.0436531759,0.1425718777
3.15,-0.03160901637,0.1455595389
3.16,-0.01937081158,0.1475324974
3.17,-0.007023822994,0.1484792162
3.18,0.005346116827,0.1483953039
3.19,0.01765320154,0.1472835293
3.2,0.02981224682,0.1451537866
3.21,0.04173928047,0.1420230109
3.22,0.0533521228,0.1379150449
3.23,0.06457095317,0.1328604577
3.24,0.07531885889,0.1268963179
3.25,0.08552236263,0.1200659216
3.26,0.09511192475,0.1124184777
3.27,0.1040224172,0.1040087532
3.28,0.1121935653,0.09489668015
3.29,0.1195703556,0.08514692846
3.3,0.1261034053,0.07482844593
3.31,0.131749292,0.06401397017
3.32,0.1364708419,0.05277951518
3.33,0.140237373,0.0412038364
3.34,0.1430248934,0.02936787794
3.35,0.1448162518,0.017354206
3.36,0.1456012413,0.005246432292
3.37,0.1453766539,-0.006871368407
3.38,0.1441462863,-0.01891524251
3.39,0.1419208976,-0.03080193967
3.4,0.1387181181,-0.04244948853
3.41,0.1345623115,-0.05377776224
3.42,0.1294843894,-0.06470902979
3.43,0.1235215823,-0.07516848942
3.44,0.1167171661,-0.08508478037
3.45,0.1091201479,-0.09439046954
3.46,0.1007849128,-0.1030225097
3.47,0.09177083406,-0.1109226663
3.48,0.08214184948,-0.1180379095
3.49,0.07196600765,-0.1243207694
3.5,0.06131498628,-0.129729652
3.51,0.05026358682,-0.1342291133
3.52,0.03888920858,-0.13779009
3.53,0.02727130612,-0.1403900859
3.54,0.01549083378,-0.1420133118
3.55,0.003629681102,-0.1426507786
3.56,-0.008229896707,-0.1423003434
3.57,-0.02000584956,-0.1409667077
3.58,-0.03161690035,-0.1386613681
3.59,-0.04298310605,-0.1354025203
3.6,-0.05402640818,-0.1312149164
3.61,-0.06467116879,-0.1261296781
3.62,-0.07484468838,-0.120184065
3.63,-0.08447770214,-0.113421202
3.64,-0.09350485104,-0.1058897657
3.65,-0.1018651249,-0.09764363461
3.66,-0.1095022737,-0.08874150241
3.67,-0.116365186,-0.07924646035
3.68,-0.1224082289,-0.06922554941
3.69,-0.1275915515,-0.05874928654
3.7,-0.1318813455,-0.04789116796
3.71,-0.1352500645,-0.03672715314
3.72,-0.137676599,-0.02533513299
3.73,-0.1391464066,-0.01379438612
3.74,-0.1396515958,-0.002185026787
3.75,-0.1391909641,0.009412551398
3.76,-0.13776999,0.02091823238
3.77,-0.1354007775,0.03225273113
3.78,-0.1321019565,0.04333813996
3.79,-0.127898537,0.05409846392
3.8,-0.1228217203,0.06446014146
3.81,-0.1169086676,0.07435254707
3.82,-0.1102022278,0.08370847215
3.83,-0.1027506268,0.09246458104
3.84,-0.09460712088,0.1005618391
3.85,-0.08582961507,0.1079459098
3.86,-0.07648025163,0.1145675186
3.87,-0.06662496945,0.1203827803
3.88,-0.05633303869,0.1253534888
3.89,-0.04567657358,0.1294473666
3.9,-0.03473002678,0.1326382727
3.91,-0.02356966897,0.1349063674
3.92,-0.01227305719,0.1362382332
3.93,-0.0009184957735,0.1366269513
3.94,0.01041550654,0.1360721323
3.95,0.02165077942,0.1345799021
3.96,0.03271002996,0.1321628431
3.97,0.04351737424,0.1288398904
3.98,0.05399885771,0.1246361846
3.99,0.06408296089,0.1195828823
4,0.07370108682,0.1137169252
4.01,0.08278802714,0.1070807702
4.02,0.09128240338,0.09972208204
4.03,0.09912708075,0.09169339041
4.04,0.1062695514,0.08305171506
4.05,0.112662285,0.07385816045
4.06,0.1182630431,0.06417748339
4.07,0.1230351578,0.05407763666
4.08,0.1269477693,0.0436292918
4.09,0.129976024,0.03290534443
4.1,0.1321012305,0.02198040548
4.11,0.1333109716,0.01093028208
4.12,0.1335991745,-0.0001685485089
4.13,0.1329661352,-0.0112394681
4.14,0.1314185001,-0.02220624636
4.15,0.1289692035,-0.03299356541
4.16,0.1256373617,-0.04352753683
4.17,0.1214481249,-0.05373620728
4.18,0.1164324882,-0.06355004944
4.19,0.1106270621,-0.07290243494
4.2,0.1040738057,-0.08173008593
4.21,0.09681972309,-0.08997350233
4.22,0.08891652616,-0.09757736196
4.23,0.08042026587,-0.1044908906
4.24,0.07139093445,-0.1106682001
4.25,0.06189204166,-0.116068591
4.26,0.0519901679,-0.1206568198
4.27,0.04175449741,-0.124403327
4.28,0.03125633484,-0.1272844255
4.29,0.02056860847,-0.1292824482
4.3,0.00976536368,-0.1303858539
4.31,-0.001078749956,-0.13058929
4.32,-0.01188899426,-0.1298936135
4.33,-0.02259105726,-0.1283058681
4.34,-0.03311156369,-0.1258392193
4.35,-0.04337857755,-0.1225128474
4.36,-0.05332209344,-0.1183518
4.37,-0.06287451325,-0.1133868029
4.38,-0.07197110492,-0.1076540345
4.39,-0.08055044023,-0.1011948617
4.4,-0.08855480867,-0.09405554148
4.41,-0.09593060456,-0.08628688983
4.42,-0.1026286848,-0.07794391961
4.43,-0.1086046952,-0.06908545113
4.44,-0.1138193624,-0.05977369726
4.45,-0.1182387507,-0.05007382652
4.46,-0.1218344809,-0.04005350694
4.47,-0.1245839108,-0.02978243409
4.48,-0.1264702755,-0.01933184639
4.49,-0.1274827865,-0.008774031174
4.5,-0.1276166905,0.001818175043
4.51,-0.1268732855,0.01237188876
4.52,-0.1252598955,0.02281468055
4.53,-0.1227898045,0.0330750717
4.54,-0.1194821487,0.04308302283
4.55,-0.1153617697,0.05277041135
4.56,-0.1104590283,0.06207149439
4.57,-0.1048095809,0.07092335413
4.58,-0.09845412093,0.07926632239
4.59,-0.09143808511,0.08704438185
4.6,-0.08381132908,0.09420554101
4.61,-0.07562777293,0.1007021804
4.62,-0.06694502005,0.106491368
4.63,-0.05782395165,0.1115351413
4.64,-0.04832829997,0.1158007548
4.65,-0.03852420304,0.1192608905
4.66,-0.02847974418,0.1218938315
4.67,-0.01826447942,0.1236835953
4.68,-0.007948956112,0.1246200286
4.69,0.002395773896,0.1246988612
4.7,0.01269864324,0.1239217193
4.71,0.02288905673,0.1222960991
4.72,0.03289737452,0.119835299
4.73,0.04265538727,0.116558313
4.74,0.0520967803,0.1124896854
4.75,0.0611575834,0.107659327
4.76,0.0697766033,0.1021022962
4.77,0.07789583595,0.09585854417
4.78,0.08546085574,0.08897262814
4.79,0.09242117916,0.08149339333
4.8,0.09873060037,0.07347362665
4.81,0.1043474965,0.06496968414
4.82,0.109235101,0.05604109515
4.83,0.1133617421,0.04675014573
4.84,0.1167010469,0.03716144431
4.85,0.1192321077,0.02734147274
4.86,0.1209396107,0.0173581256
4.87,0.1218139257,0.007280241213
4.88,0.1218511575,-0.002822872581
4.89,0.1210531569,-0.01288191453
4.9,0.1194274927,-0.02282806474
4.91,0.1169873848,-0.03259345481
4.92,0.1137515982,-0.0421116302
4.93,0.1097443003,-0.05131800163
4.94,0.1049948803,-0.06015028241
4.95,0.09953773479,-0.06854890892
4.96,0.09341201824,-0.0764574412
4.97,0.08666136267,-0.08382294106
4.98,0.07933356694,-0.09059632526
4.99,0.07148025841,-0.09673269127
5,0.06315652945,-0.1021916135
5.01,0.05442055116,-0.1069374083
5.02,0.04533316704,-0.1109393652
5.03,0.03595746959,-0.1141719446
5.04,0.02635836258,-0.1166149382
5.05,0.01660211218,-0.1182535935
5.06,0.006755889986,-0.1190787002
5.07,-0.003112688931,-0.1190866387
5.08,-0.01293602972,-0.1182793901
5.09,-0.02264702005,-0.1166645078
5.1,-0.03217948789,-0.1142550511
5.11,-0.04146865156,-0.1110694818
5.12,-0.05045155913,-0.107131523
5.13,-0.05906751403,-0.1024699839
5.14,-0.0672584842,-0.09711854898
5.15,-0.07496949179,-0.09111553487
5.16,-0.0821489811,-0.08450361656
5.17,-0.08874916199,-0.07732952406
5.18,-0.09472632669,-0.06964371246
5.19,-0.1000411379,-0.06150000734
5.2,-0.1046588863,-0.05295522807
5.21,-0.1085497155,-0.04406879179
5.22,-0.1116888135,-0.03490230056
5.23,-0.1140565692,-0.02551911479
5.24,-0.1156386927,-0.01598391581
5.25,-0.1164262993,-0.006362260488
5.26,-0.1164159559,0.003279868802
5.27,-0.1156096907,0.01287651603
5.28,-0.1140149649,0.02236220193
5.29,-0.1116446077,0.03167236995
5.3,-0.108516715,0.04074382475
5.31,-0.1046545124,0.04951516024
5.32,-0.1000861828,0.05792717424
5.33,-0.09484466188,0.06592326705
5.34,-0.08896740056,0.07344982116
5.35,-0.08249609804,0.08045655963
5.36,-0.07547640611,0.08689688074
5.37,-0.06795760745,0.09272816664
5.38,-0.05999227001,0.09791206408
5.39,-0.05163587984,0.1024147353
5.4,-0.04294645497,0.1062070772
5.41,-0.03398414309,0.1092649084
5.42,-0.02481080572,0.111569121
5.43,-0.01548959175,0.1131057988
5.44,-0.00608450339,0.1138662984
5.45,0.003340042653,0.1138472953
5.46,0.01271965562,0.1130507931
5.47,0.02199040984,0.1114840958
5.48,0.0310892796,0.1091597455
5.49,0.0399545667,0.106095423
5.5,0.04852631788,0.1023138144
5.51,0.05674672927,0.09784244404
5.52,0.0645605352,0.09271347466
5.53,0.0719153786,0.08696347629
5.54,0.07876216074,0.08063316605
5.55,0.08505536783,0.07376712017
5.56,0.09075337234,0.0664134605
5.57,0.09581870711,0.05862351764
5.58,0.1002183104,0.0504514731
5.59,0.1039237402,0.04195398295
5.6,0.106911357,0.0331897855
5.61,0.1091624724,0.02421929592
5.62,0.1106634649,0.01510419034
5.63,0.1114058598,0.005906982509
5.64,0.1113863744,-0.003309404258
5.65,0.1106069276,-0.01248206679
5.66,0.1090746144,-0.02154855057
5.67,0.1068016442,-0.03044727412
5.68,0.1038052458,-0.0391179464
5.69,0.1001075375,-0.04750197432
5.7,0.0957353645,-0.05554285772
5.71,0.09072010475,-0.06318656915
5.72,0.08509744407,-0.07038191578
5.73,0.07890712277,-0.07708088124
5.74,0.07219265522,-0.0832389449
5.75,0.0650010244,-0.0888153766
5.76,0.05738235364,-0.09377350488
5.77,0.04938955779,-0.09808095695
5.78,0.04107797623,-0.1017098687
5.79,0.03250499032,-0.1046370638
5.8,0.02372962786,-0.1068441999
5.81,0.01481215733,-0.1083178825
5.82,0.005813674681,-0.1090497439
5.83,-0.003204314529,-0.1090364885
5.84,-0.01218031472,-0.1082799028
5.85,-0.02105325884,-0.1067868319
5.86,-0.02976292296,-0.1045691202
5.87,-0.03825033416,-0.1016435197
5.88,-0.0464581689,-0.09803156379
5.89,-0.05433113925,-0.09375941006
5.9,-0.06181636434,-0.0888576511
5.91,-0.06886372452,-0.08336109617
5.92,-0.07542619599,-0.07730852438
5.93,-0.08146016349,-0.0707424117
5.94,-0.08692570914,-0.06370863333
5.95,-0.09178687543,-0.05625614371
5.96,-0.09601190066,-0.04843663643
5.97,-0.09957342534,-0.04030418614
5.98,-0.1024486681,-0.03191487533
5.99,-0.1046195704,-0.02332640815
6,-0.1060729079,-0.01459771428
