"Freq [GHz]","re(S(Tx_p1,Tx_p1)) []","im(S(Tx_p1,Tx_p1)) []"
1,0.1055517575,0.08912066157
1.01,0.1122989289,0.08003449747
1.02,0.1182677069,0.07043425304
1.03,0.1234185353,0.06038671446
1.04,0.1277176284,0.04996173675
1.05,0.131137209,0.03923174036
1.06,0.1336557026,0.02827118943
1.07,0.1352578851,0.01715605583
1.08,0.135934985,0.005963272775
1.09,0.1356847368,-0.005229817781
1.1,0.1345113883,-0.01634601986
1.11,0.1324256589,-0.02730883619
1.12,0.1294446516,-0.03804301486
1.13,0.1255917183,-0.04847508579
1.14,0.1208962796,-0.05853388314
1.15,0.1153936012,-0.06815104979
1.16,0.1091245274,-0.07726152015
1.17,0.1021351755,-0.08580397791
1.18,0.09447659191,-0.09372128523
1.19,0.08620437332,-0.1009608805
1.2,0.07737825603,-0.1074751413
1.21,0.06806167611,-0.1132217114
1.22,0.05832130395,-0.1181637866
1.23,0.04822655675,-0.1222703617
1.24,0.03784909253,-0.1255164322
1.25,0.02726228952,-0.1278831532
1.26,0.01654071482,-0.1293579524
1.27,0.005759586242,-0.1299345971
1.28,-0.005005768635,-0.129613215
1.29,-0.01568045216,-0.1284002684
1.3,-0.02619053115,-0.1263084829
1.31,-0.03646356231,-0.1233567305
1.32,-0.04642910475,-0.1195698684
1.33,-0.05601921571,-0.1149785356
1.34,-0.06516892617,-0.1096189076
1.35,-0.07381669275,-0.1035324122
1.36,-0.0819048226,-0.09676540868
1.37,-0.08937986855,-0.08936883231
1.38,-0.09619299148,-0.08139780718
1.39,-0.1023002875,-0.0729112307
1.4,-0.1076630776,-0.06397133258
1.41,-0.1122481584,-0.05464321171
1.42,-0.1160280108,-0.04499435466
1.43,-0.1189809675,-0.0350941392
1.44,-0.1210913363,-0.02501332674
1.45,-0.1223494796,-0.01482354739
1.46,-0.1227518495,-0.004596781522
1.47,-0.1223009784,0.005595158329
1.48,-0.1210054253,0.01568114148
1.49,-0.1188796794,0.02559122519
1.5,-0.1159440196,0.03525714917
1.51,-0.1122243348,0.04461281497
1.52,-0.1077519027,0.05359474674
1.53,-0.1025631317,0.06214253019
1.54,-0.09669926715,0.07019922649
1.55,-0.09020606393,0.0777117584
1.56,-0.08313342843,0.08463126578
1.57,-0.07553503283,0.09091342822
1.58,-0.0674679044,0.09651875254
1.59,-0.05899199317,0.1014128232
1.6,-0.05016972133,0.1055665142
1.61,-0.04106551762,0.1089561611
1.62,-0.03174534051,0.1115636919
1.63,-0.02227619344,0.1133767167
1.64,-0.01272563609,0.114388575
1.65,-0.003161294987,0.1145983413
1.66,0.006349622723,0.1140107889
1.67,0.01574080886,0.1126363123
1.68,0.02494732368,0.1104908094
1.69,0.0339060518,0.1075955248
1.7,0.0425561414,0.103976855
1.71,0.05083942344,0.09966611778
1.72,0.05870080819,0.09469928787
1.73,0.06608865603,0.08911670028
1.74,0.07295512035,0.08296272474
1.75,0.07925645982,0.07628541321
1.76,0.08495331841,0.06913612355
1.77,0.09001097099,0.06156912222
1.78,0.09439953323,0.05364116921
1.79,0.09809413444,0.04541108829
1.8,0.1010750524,0.03693932597
1.81,0.1033278094,0.02828750247
1.82,0.1048432297,0.0195179581
1.83,0.1056174569,0.01069329843
1.84,0.1056519338,0.001875941621
1.85,0.1049533421,-0.006872328761
1.86,0.1035335062,-0.01549080218
1.87,0.1014092593,-0.02392026772
1.88,0.09860227447,-0.03210342564
1.89,0.09513886235,-0.03998528126
1.9,0.09104973664,-0.04751351807
1.91,0.08636974994,-0.05463884786
1.92,0.08113760191,-0.06131533526
1.93,0.07539552232,-0.06750069467
1.94,0.06918893148,-0.07315655756
1.95,0.0625660808,-0.07824870851
1.96,0.05557767639,-0.08274728861
1.97,0.04827648863,-0.08662696493
1.98,0.04071695068,-0.08986706518
1.99,0.03295474911,-0.09245167702
2,0.0250464097,-0.0943697115
2.01,0.01704888154,-0.09561493069
2.02,0.009019122558,-0.09618593955
2.03,0.001013689438,-0.0960861425
2.04,-0.006911664935,-0.09532366551
2.05,-0.01470238375,-0.09391124448
2.06,-0.02230548539,-0.09186608127
2.07,-0.0296699267,-0.08920966871
2.08,-0.03674694805,-0.08596758625
2.09,-0.04349039759,-0.08216926814
2.1,-0.0498570328,-0.0778477461
2.11,-0.05580679711,-0.07303936879
2.12,-0.06130307002,-0.06778350027
2.13,-0.06631288908,-0.06212220016
2.14,-0.07080714242,-0.05609988781
2.15,-0.0747607308,-0.04976299347
2.16,-0.07815269827,-0.04315959897
2.17,-0.08096633091,-0.03633907076
2.18,-0.08318922333,-0.0293516883
2.19,-0.08481331273,-0.02224827033
2.2,-0.0858348808,-0.01507980208
2.21,-0.08625452379,-0.007897066085
2.22,-0.08607709133,-0.0007502792188
2.23,-0.08531159499,0.006311261248
2.24,-0.08397108753,0.01323952021
2.25,-0.08207251419,0.01998805341
2.26,-0.07963653745,0.02651232004
2.27,-0.07668733703,0.03276997712
2.28,-0.07325238677,0.03872115365
2.29,-0.06936221059,0.04432870289
2.3,-0.06505011941,0.0495584311
2.31,-0.06035193148,0.05437930134
2.32,-0.05530567827,0.05876361125
2.33,-0.04995129839,0.06268714375
2.34,-0.04433032204,0.06612929
2.35,-0.03848554837,0.06907314407
2.36,-0.03246071837,0.071505569
2.37,-0.02630018578,0.0734172342
2.38,-0.0200485885,0.07480262434
2.39,-0.01375052287,0.07566002015
2.4,-0.007450223427,0.07599145147
2.41,-0.001191250237,0.07580262368
2.42,0.004983813869,0.07510281814
2.43,0.01103365403,0.07390476799
2.44,0.01691850009,0.07222451057
2.45,0.02260038751,0.07008121791
2.46,0.02804340067,0.06749700698
2.47,0.03321389708,0.06449673137
2.48,0.03808071116,0.06110775634
2.49,0.04261533622,0.05735971919
2.5,0.04679208389,0.05328427699
2.51,0.05058821996,0.04891484372
2.52,0.05398407609,0.04428631914
2.53,0.056963137,0.03943481138
2.54,0.0595121028,0.03439735563
2.55,0.06162092656,0.02921163098
2.56,0.06328282716,0.0239156777
2.57,0.06449427777,0.01854761697
2.58,0.06525497059,0.01314537525
2.59,0.06556775842,0.007746415203
2.6,0.06543857399,0.002387475188
2.61,0.06487632811,-0.002895680992
2.62,0.06389278768,-0.008068502265
2.63,0.06250243506,-0.01309787485
2.64,0.06072231004,-0.0179523318
2.65,0.05857183603,-0.02260224608
2.66,0.05607263215,-0.02702000627
2.67,0.05324831279,-0.03118017364
2.68,0.05012427661,-0.03505961994
2.69,0.04672748662,-0.03863764517
2.7,0.04308624325,-0.04189607488
2.71,0.03922995246,-0.04481933664
2.72,0.03518889044,-0.04739451548
2.73,0.0309939671,-0.04961138849
2.74,0.02667649002,-0.05146243853
2.75,0.02226793062,-0.05294284758
2.76,0.01779969451,-0.0540504701
2.77,0.01330289742,-0.05478578708
2.78,0.008808148569,-0.05515184164
2.79,0.004345342779,-0.05515415692
2.8,-5.653710575E-05,-0.0548006375
2.81,-0.004369606309,-0.05410145529
2.82,-0.008567251489,-0.05306892131
2.83,-0.01262429036,-0.05171734453
2.84,-0.01651711661,-0.05006287935
2.85,-0.02022382944,-0.04812336296
2.86,-0.02372434694,-0.04591814431
2.87,-0.02700050297,-0.04346790609
2.88,-0.03003612703,-0.04079448134
2.89,-0.03281710714,-0.03792066622
2.9,-0.03533143539,-0.03487003064
2.91,-0.03756923654,-0.03166672807
2.92,-0.03952277964,-0.02833530623
2.93,-0.04118647319,-0.02490052014
2.94,-0.04255684422,-0.02138714875
2.95,-0.04363250198,-0.01781981676
2.96,-0.04441408686,-0.01422282273
2.97,-0.0449042054,-0.01061997475
2.98,-0.04510735232,-0.007034434733
2.99,-0.04502982052,-0.003488572341
3,-0.04467960013,-3.829504719E-06
3.01,-0.04406626784,0.003399403802
3.02,-0.04320086745,0.006701901767
3.03,-0.0420957832,0.009885702419
3.04,-0.04076460682,0.01293419434
3.05,-0.03922199978,0.01583219011
3.06,-0.03748355194,0.01856598628
3.07,-0.03556563788,0.02112340987
3.08,-0.03348527219,0.02349385132
3.09,-0.03125996488,0.02566828424
3.1,-0.02890757821,0.02763927202
3.11,-0.02644618605,0.02940096193
3.12,-0.02389393677,0.03094906691
3.13,-0.02126892084,0.03228083591
3.14,-0.01858904398,0.03339501323
3.15,-0.01587190682,0.03429178766
3.16,-0.01313469177,0.03497273224
3.17,-0.01039405788,0.03544073555
3.18,-0.007666044304,0.03569992528
3.19,-0.004965982796,0.03575558522
3.2,-0.002308419768,0.03561406652
3.21,0.0002929518781,0.03528269434
3.22,0.002825350871,0.03476967073
3.23,0.00527695555,0.03408397499
3.24,0.007636941692,0.03323526226
3.25,0.009895510267,0.03223376158
3.26,0.01204390529,0.03109017413
3.27,0.01407442204,0.02981557282
3.28,0.015980406,0.02842130391
3.29,0.01775624294,0.02691889159
3.3,0.0193973406,0.02531994631
3.31,0.02090010263,0.0236360775
3.32,0.02226189533,0.02187881134
3.33,0.02348100786,0.02005951421
3.34,0.02455660671,0.01818932222
3.35,0.02548868507,0.01627907724
3.36,0.02627800798,0.01433926987
3.37,0.02692605398,0.0123799894
3.38,0.02743495407,0.01041088107
3.39,0.02780742882,0.008441110672
3.4,0.02804672435,0.006479336409
3.41,0.02815654801,0.004533688032
3.42,0.0281410045,0.002611753009
3.43,0.02800453315,0.0007205695315
3.44,0.02775184694,-0.00113337398
3.45,0.02738787414,-0.00294413322
3.46,0.02691770282,-0.004706296638
3.47,0.02634652904,-0.006414968856
3.48,0.02567960902,-0.008065749385
3.49,0.02492221577,-0.009654707224
3.5,0.02407960047,-0.01117835194
3.51,0.02315695887,-0.01263360181
3.52,0.02215940293,-0.01401774982
3.53,0.02109193772,-0.01532842788
3.54,0.01995944381,-0.01656357028
3.55,0.01876666494,-0.01772137674
3.56,0.01751820091,-0.01880027578
3.57,0.01621850561,-0.01979888914
3.58,0.0148718899,-0.0207159976
3.59,0.01348252903,-0.02155050902
3.6,0.01205447424,-0.02230142885
3.61,0.01059166823,-0.02296783382
3.62,0.009097963951,-0.02354884904
3.63,0.007577146219,-0.02404362891
3.64,0.006032955749,-0.02445134227
3.65,0.004469114901,-0.02477116185
3.66,0.002889354665,-0.02500225824
3.67,0.001297442246,-0.02514379859
3.68,-0.0003027913278,-0.02519494998
3.69,-0.001907424185,-0.02515488737
3.7,-0.003512417749,-0.02502280622
3.71,-0.005113592651,-0.02479793948
3.72,-0.006706606924,-0.02447957863
3.73,-0.00828693703,-0.02406709882
3.74,-0.009849862213,-0.02355998729
3.75,-0.01139045262,-0.02295787511
3.76,-0.01290356161,-0.02226057147
3.77,-0.01438382256,-0.02146810016
3.78,-0.01582565054,-0.02058073776
3.79,-0.017223249,-0.01959905273
3.8,-0.01857062174,-0.01852394515
3.81,-0.01986159021,-0.01735668612
3.82,-0.02108981611,-0.01609895651
3.83,-0.02224882951,-0.01475288419
3.84,-0.02333206199,-0.01332107926
3.85,-0.02433288509,-0.01180666653
3.86,-0.02524465339,-0.01021331476
3.87,-0.02606075226,-0.008545261975
3.88,-0.02677464969,-0.00680733633
3.89,-0.02737995188,-0.00500497203
3.9,-0.02787046202,-0.003144219803
3.91,-0.02824024181,-0.0012317515
3.92,-0.02848367499,0.0007251415371
3.93,-0.02859553243,0.002718556662
3.94,-0.02857103792,0.004739994905
3.95,-0.02840593405,0.006780382922
3.96,-0.02809654746,0.008830102036
3.97,-0.02763985272,0.01087902437
3.98,-0.02703353399,0.01291655607
3.99,-0.02627604392,0.01493168744
4,-0.02536665873,0.01691304985
4.01,-0.02430552914,0.01884897908
4.02,-0.02309372601,0.02072758482
4.03,-0.02173328039,0.02253682579
4.04,-0.02022721714,0.02426459015
4.05,-0.01857958148,0.02589878039
4.06,-0.01679545819,0.02742740235
4.07,-0.0148809826,0.02883865748
4.08,-0.01284334335,0.03012103768
4.09,-0.0106907762,0.03126342191
4.1,-0.008432548938,0.03225517374
4.11,-0.006078936947,0.03308623907
4.12,-0.00364118945,0.03374724296
4.13,-0.001131486368,0.03422958481
4.14,0.001437114153,0.03452553094
4.15,0.004050737394,0.03462830366
4.16,0.006694762654,0.03453216588
4.17,0.009353902458,0.03423250042
4.18,0.01201228998,0.03372588319
4.19,0.01465357416,0.03301014929
4.2,0.01726102194,0.0320844514
4.21,0.01981762702,0.03094930956
4.22,0.02230622426,0.0296066518
4.23,0.02470960912,0.02805984492
4.24,0.02701066108,0.02631371487
4.25,0.02919247026,0.02437455634
4.26,0.03123846619,0.02225013113
4.27,0.03313254777,0.01994965494
4.28,0.03485921329,0.01748377254
4.29,0.03640368958,0.01486452101
4.3,0.03775205905,0.01210528126
4.31,0.03889138359,0.009220717739
4.32,0.03980982431,0.006226706671
4.33,0.04049675586,0.003140252991
4.34,0.04094287451,-2.06035033E-05
4.35,0.04114029875,-0.003236892357
4.36,0.04108266151,-0.006488826398
4.37,0.04076519312,-0.00975592472
4.38,0.04018479402,-0.01301714394
4.39,0.03934009651,-0.01625101686
4.4,0.03823151474,-0.01943579757
4.41,0.03686128226,-0.02254961203
4.42,0.03523347673,-0.02557061296
4.43,0.03335403106,-0.02847713807
4.44,0.0312307309,-0.0312478702
4.45,0.02887319796,-0.03386199838
4.46,0.02629285917,-0.03629937849
4.47,0.02350290162,-0.0385406921
4.48,0.02051821331,-0.04056760251
4.49,0.0173553099,-0.04236290641
4.5,0.01403224781,-0.04391068007
4.51,0.01056852406,-0.04519641884
4.52,0.006984963435,-0.04620716859
4.53,0.003303593512,-0.04693164808
4.54,-0.0004524915698,-0.0473603611
4.55,-0.004259277823,-0.04748569732
4.56,-0.008091987634,-0.04730202087
4.57,-0.01192524445,-0.04680574576
4.58,-0.01573324479,-0.04599539739
4.59,-0.01948993644,-0.04487165941
4.6,-0.02316920144,-0.04343740524
4.61,-0.02674504274,-0.04169771395
4.62,-0.03019177287,-0.03965986999
4.63,-0.03348420355,-0.03733334652
4.64,-0.03659783449,-0.03472977232
4.65,-0.03950904015,-0.03186288216
4.66,-0.0421952529,-0.02874845087
4.67,-0.04463514117,-0.02540421121
4.68,-0.04680878111,-0.02184975617
4.69,-0.04869782052,-0.01810642599
4.7,-0.05028563344,-0.01419718063
4.71,-0.05155746435,-0.01014645851
4.72,-0.05250056058,-0.005980022273
4.73,-0.05310429189,-0.001724792704
4.74,-0.05336025603,0.002591328255
4.75,-0.05326236936,0.006939644071
4.76,-0.05280694169,0.01129085855
4.77,-0.05199273446,0.01561527778
4.78,-0.05082100176,0.0198830176
4.79,-0.0492955135,0.02406421519
4.8,-0.04742256052,0.02812924317
4.81,-0.04521094119,0.03204892468
4.82,-0.04267192955,0.03579474776
4.83,-0.03981922488,0.03933907762
4.84,-0.03666888296,0.04265536487
4.85,-0.03323922921,0.04571834846
4.86,-0.02955075431,0.04850425142
4.87,-0.0256259927,0.05099096812
4.88,-0.02148938482,0.05315824147
4.89,-0.0171671239,0.0549878285
4.9,-0.01268698818,0.05646365324
4.91,-0.008078159844,0.05757194533
4.92,-0.003371031662,0.05830136339
4.93,0.001402997168,0.058643102
4.94,0.006211734698,0.05859098132
4.95,0.01102241789,0.05814151852
4.96,0.01580194066,0.05729398031
4.97,0.02051708678,0.05605041604
4.98,0.02513476586,0.05441567081
4.99,0.02962225068,0.05239737852
5,0.03394741429,0.05000593444
5.01,0.03807896495,0.04725444759
5.02,0.04198667716,0.04415867292
5.03,0.04564161725,0.04073692365
5.04,0.04901636153,0.03700996427
5.05,0.05208520551,0.03300088481
5.06,0.05482436255,0.02873495711
5.07,0.0572121503,0.02423947405
5.08,0.05922916359,0.01954357269
5.09,0.06085843226,0.01467804265
5.1,0.06208556273,0.009675120796
5.11,0.06289886204,0.004568273847
5.12,0.06328944351,-0.0006080297593
5.13,0.06325131282,-0.005818557054
5.14,0.06278143398,-0.01102755515
5.15,0.06187977441,-0.01619900154
5.16,0.06054932866,-0.02129685827
5.17,0.05879612049,-0.02628532819
5.18,0.05662918311,-0.03112911137
5.19,0.05406051755,-0.03579365986
5.2,0.05110502929,-0.04024542889
5.21,0.04778044355,-0.04445212264
5.22,0.04410719964,-0.04838293277
5.23,0.04010832496,-0.05200876792
5.24,0.03580928959,-0.05530247239
5.25,0.03123784219,-0.05823903245
5.26,0.02642382848,-0.06079576855
5.27,0.02139899339,-0.06295251204
5.28,0.01619676824,-0.06469176498
5.29,0.0108520445,-0.06599884178
5.3,0.005400935492,-0.06686199154
5.31,-0.0001194720405,-0.06727249998
5.32,-0.005671374991,-0.06722477031
5.33,-0.0112165176,-0.06671638211
5.34,-0.01671646001,-0.06574812778
5.35,-0.02213284972,-0.06432402616
5.36,-0.02742769397,-0.06245131306
5.37,-0.03256363115,-0.06014040866
5.38,-0.03750419914,-0.05740486191
5.39,-0.04221409875,-0.05426127218
5.4,-0.04665945026,-0.05072918861
5.41,-0.05080804107,-0.04683098779
5.42,-0.05462956289,-0.04259173057
5.43,-0.05809583636,-0.03803899885
5.44,-0.06118102169,-0.03320271354
5.45,-0.06386181359,-0.02811493483
5.46,-0.06611761897,-0.02280964616
5.47,-0.06793071625,-0.01732252343
5.48,-0.06928639474,-0.01169069091
5.49,-0.07017307329,-0.005952465737
5.5,-0.07058239702,-0.0001470926437
5.51,-0.07050931155,0.005685529144
5.52,-0.06995211387,0.0115051249
5.53,-0.0689124796,0.0172713273
5.54,-0.06739546623,0.02294396126
5.55,-0.06540949218,0.02848332853
5.56,-0.06296629186,0.03385049017
5.57,-0.06008084691,0.03900754474
5.58,-0.05677129389,0.04391790019
5.59,-0.05305880924,0.04854653755
5.6,-0.04896747208,0.05286026439
5.61,-0.04452410577,0.05682795627
5.62,-0.03975809937,0.0604207844
5.63,-0.03470121012,0.06361242767
5.64,-0.02938734842,0.06637926778
5.65,-0.02385234667,0.06870056566
5.66,-0.01813371358,0.07055861812
5.67,-0.01227037582,0.0719388934
5.68,-0.006302408635,0.07283014465
5.69,-0.0002707574492,0.0732245004
5.7,0.005783047649,0.07311753133
5.71,0.01181718245,0.07250829283
5.72,0.01778982215,0.07139934286
5.73,0.02365943583,0.06979673511
5.74,0.02938507964,0.06770998717
5.75,0.03492668674,0.06515202413
5.76,0.04024535179,0.06213909782
5.77,0.04530360805,0.05869068214
5.78,0.05006569495,0.05482934538
5.79,0.05449781435,0.05058060013
5.8,0.05856837353,0.04597273202
5.81,0.06224821311,0.04103660835
5.82,0.06551081841,0.03580546789
5.83,0.06833251247,0.03031469345
5.84,0.07069262949,0.02460156869
5.85,0.07257366734,0.01870502094
5.86,0.07396141801,0.01266535174
5.87,0.07484507506,0.006523957142
5.88,0.07521731718,0.0003230396281
5.89,0.07507436733,-0.005894686251
5.9,0.07441602691,-0.01208629247
5.91,0.0732456847,-0.01820893822
5.92,0.07157030042,-0.02422017053
5.93,0.06940036316,-0.03007822274
5.94,0.06674982463,-0.03574230863
5.95,0.06363600796,-0.04117291017
5.96,0.06007949251,-0.04633205678
5.97,0.05610397547,-0.05118359411
5.98,0.05173611131,-0.05569344048
5.99,0.04700533003,-0.05982982903
6,0.04194363567,-0.06356353394
