"Freq [GHz]","re(S(Tx_p1,Tx_p1)) []","im(S(Tx_p1,Tx_p1)) []"
1,0.0901476233,0.07797295373
1.01,0.09617125919,0.07029270232
1.02,0.1015437689,0.06214296484
1.03,0.1062281178,0.0535790037
1.04,0.110191992,0.0446590337
1.05,0.1134080346,0.03544381504
1.06,0.1158540466,0.02599622743
1.07,0.1175131508,0.01638082859
1.08,0.1183739181,0.006663400116
1.09,0.1184304543,-0.003089515774
1.1,0.1176824474,-0.01281108544
1.11,0.1161351748,-0.02243465544
1.12,0.1137994709,-0.03189422312
1.13,0.1106916541,-0.04112490296
1.14,0.1068334153,-0.05006338502
1.15,0.1022516671,-0.05864838237
1.16,0.09697835615,-0.0668210642
1.17,0.09105023945,-0.07452547146
1.18,0.08450862583,-0.08170891203
1.19,0.07739908519,-0.08832233262
1.2,0.06977112725,-0.0943206646
1.21,0.06167785216,-0.0996631415
1.22,0.05317557551,-0.1043135856
1.23,0.04432343055,-0.1082406617
1.24,0.03518295039,-0.1114180964
1.25,0.02581763321,-0.1138248614
1.26,0.01629249378,-0.1154453185
1.27,0.006673604287,-0.1162693271
1.28,-0.002972372049,-0.1162923117
1.29,-0.01257865123,-0.1155152904
1.3,-0.02207879925,-0.1139448627
1.31,-0.03140720003,-0.1115931585
1.32,-0.04049951702,-0.1084777469
1.33,-0.04929314536,-0.1046215067
1.34,-0.05772765112,-0.1000524597
1.35,-0.06574519476,-0.09480356686
1.36,-0.07329093547,-0.08891249005
1.37,-0.08031341385,-0.08242132024
1.38,-0.08676490986,-0.07537627501
1.39,-0.0926017739,-0.06782736673
1.4,-0.09778472826,-0.05982804445
1.41,-0.1022791372,-0.05143481181
1.42,-0.1060552436,-0.04270682381
1.43,-0.1090883703,-0.03370546539
1.44,-0.1113590855,-0.02449391491
1.45,-0.1128533301,-0.01513669557
1.46,-0.1135625068,-0.0056992181
1.47,-0.1134835305,0.003752682013
1.48,-0.112618839,0.01315320943
1.49,-0.1109763646,0.02243707271
1.5,-0.1085694671,0.03153994348
1.51,-0.1054168278,0.04039890792
1.52,-0.101542306,0.04895290715
1.53,-0.09697476003,0.05714316355
1.54,-0.09174783144,0.0649135899
1.55,-0.08589969731,0.07221117852
1.56,-0.07947279003,0.07898636761
1.57,-0.07251348793,0.08519338229
1.58,-0.06507177843,0.09079054788
1.59,-0.05720089657,0.09574057339
1.6,-0.04895694133,0.1000108031
1.61,-0.0403984726,0.1035734345
1.62,-0.03158609178,0.1064057017
1.63,-0.02258200902,0.1084900218
1.64,-0.01344960017,0.1098141049
1.65,-0.004252956754,0.1103710257
1.66,0.004943567934,0.1101592571
1.67,0.01407581323,0.1091826654
1.68,0.02308026287,0.1074504672
1.69,0.03189449081,0.1049771484
1.7,0.04045759803,0.1017823462
1.71,0.04871063711,0.09789069498
1.72,0.05659702177,0.09333163709
1.73,0.06406291825,0.08813920014
1.74,0.07105761605,0.08235174262
1.75,0.07753387529,0.07601166946
1.76,0.08344824832,0.06916512001
1.77,0.08876137345,0.06186163042
1.78,0.09343823866,0.05415377322
1.79,0.09744841369,0.04609677643
1.8,0.1007662488,0.03774812537
1.81,0.1033710388,0.02916714962
1.82,0.1052471522,0.02041459856
1.83,0.1063841226,0.01155220823
1.84,0.1067767048,0.002642262797
1.85,0.1064248923,-0.006252846267
1.86,0.1053338986,-0.01507106016
1.87,0.1035141009,-0.02375108876
1.88,0.1009809482,-0.03223283951
1.89,0.09775483324,-0.04045783629
1.9,0.09386092987,-0.04836962515
1.91,0.08932899779,-0.0559141642
1.92,0.08419315503,-0.06304019498
1.93,0.07849162079,-0.06969959255
1.94,0.07226643008,-0.07584769207
1.95,0.06556312264,-0.08144358965
1.96,0.05843040826,-0.08645041526
1.97,0.05091981104,-0.09083557603
1.98,0.04308529519,-0.09457096839
1.99,0.03498287515,-0.09763315737
2,0.02667021286,-0.1000035224
2.01,0.01820620498,-0.1016683681
2.02,0.009650563294,-0.1026190001
2.03,0.001063390968,-0.1028517652
2.04,-0.007495241968,-0.1023680553
2.05,-0.01596572114,-0.1011742758
2.06,-0.02428930526,-0.09928177945
2.07,-0.03240853549,-0.09670676418
2.08,-0.04026763402,-0.09347013831
2.09,-0.04781288885,-0.08959735253
2.1,-0.05499302232,-0.08511820065
2.11,-0.06175954076,-0.08006659064
2.12,-0.06806706282,-0.07448028764
2.13,-0.07387362434,-0.06840063089
2.14,-0.07914095769,-0.0618722268
2.15,-0.08383474365,-0.05494262034
2.16,-0.08792483426,-0.04766194732
2.17,-0.09138544518,-0.04008256996
2.18,-0.09419531629,-0.03225869852
2.19,-0.09633783966,-0.02424600178
2.2,-0.09780115403,-0.01610120904
2.21,-0.09857820533,-0.007881706602
2.22,-0.0986667731,0.0003548683142
2.23,-0.09806946256,0.008551033531
2.24,-0.0967936628,0.01664986467
2.25,-0.09485147142,0.02459539198
2.26,-0.09225958635,0.03233298846
2.27,-0.08903916585,0.03980974647
2.28,-0.08521565772,0.04697484043
2.29,-0.08081859929,0.05377987283
2.3,-0.0758813895,0.0601792015
2.31,-0.07044103507,0.06613024564
2.32,-0.06453787259,0.07159376881
2.33,-0.05821526858,0.07653413677
2.34,-0.05151929983,0.08091954872
2.35,-0.04449841645,0.08472224022
2.36,-0.03720308987,0.08791865669
2.37,-0.02968544866,0.09048959637
2.38,-0.02199890461,0.09242032181
2.39,-0.01419777177,0.09370063945
2.4,-0.006336881377,0.09432494677
2.41,0.001528804923,0.09429224688
2.42,0.009344580466,0.09360613076
2.43,0.01705637511,0.09227472721
2.44,0.02461113017,0.09031062137
2.45,0.03195716407,0.08773074223
2.46,0.03904452638,0.08455622039
2.47,0.04582533755,0.08081221706
2.48,0.05225411226,0.0765277258
2.49,0.05828806409,0.07173534841
2.5,0.0638873895,0.06647104689
2.51,0.06901552919,0.06077387321
2.52,0.07363940526,0.05468567896
2.53,0.07772963248,0.04825080713
2.54,0.08126070255,0.04151576818
2.55,0.08421113996,0.03452890284
2.56,0.08656362877,0.0273400341
2.57,0.08830510941,0.02000011088
2.58,0.08942684515,0.01256084592
2.59,0.08992445788,0.005074350563
2.6,0.08979793309,-0.002407231116
2.61,0.08905159438,-0.009832086156
2.62,0.08769404771,-0.01714909202
2.63,0.08573809597,-0.02430816887
2.64,0.08320062486,-0.03126062243
2.65,0.08010246079,-0.03795947493
2.66,0.07646820216,-0.04435978217
2.67,0.07232602533,-0.05041893418
2.68,0.0677074668,-0.05609693789
2.69,0.06264718323,-0.06135667961
2.7,0.05718269128,-0.06616416577
2.71,0.05135408903,-0.07048874039
2.72,0.04520376121,-0.0743032778
2.73,0.0387760703,-0.07758434958
2.74,0.03211703585,-0.08031236451
2.75,0.02527400433,-0.08247168094
2.76,0.01829531176,-0.08405069088
2.77,0.01122994176,-0.08504187541
2.78,0.00412718118,-0.08544183118
2.79,-0.002963724012,-0.08525126816
2.8,-0.009993910387,-0.08447497863
2.81,-0.01691523375,-0.08312177804
2.82,-0.02368059862,-0.08120441822
2.83,-0.03024427822,-0.07873947371
2.84,-0.0365622228,-0.07574720233
2.85,-0.04259235425,-0.07225138103
2.86,-0.04829484502,-0.0682791183
2.87,-0.05363237949,-0.0638606448
2.88,-0.05857039615,-0.05902908362
2.89,-0.06307730901,-0.053820202
2.9,-0.06712470676,-0.0482721464
2.91,-0.07068752858,-0.04242516287
2.92,-0.07374421551,-0.0363213047
2.93,-0.07627683642,-0.03000412963
2.94,-0.07827118796,-0.02351838857
2.95,-0.07971686797,-0.01690970837
2.96,-0.08060732201,-0.01022427058
2.97,-0.08093986292,-0.003508488672
2.98,-0.08071566342,0.003191314104
2.99,-0.07993972201,0.009829223988
3,-0.07862080268,0.01636005089
3.01,-0.07677134888,0.02273963533
3.02,-0.07440737275,0.02892514611
3.03,-0.07154832035,0.03487536664
3.04,-0.06821691413,0.04055096809
3.05,-0.06443897391,0.04591476752
3.06,-0.06024321771,0.05093196933
3.07,-0.05566104395,0.05557038851
3.08,-0.05072629677,0.0598006542
3.09,-0.04547501612,0.06359639241
3.1,-0.03994517453,0.06693438668
3.11,-0.03417640245,0.06979471578
3.12,-0.02820970415,0.07216086775
3.13,-0.02208716621,0.07401982955
3.14,-0.01585166075,0.07536215189
3.15,-0.009546545384,0.07618198916
3.16,-0.003215362004,0.0764771141
3.17,0.003098463393,0.07624890758
3.18,0.009351917917,0.0755023235
3.19,0.01550269393,0.07424582951
3.2,0.02150947415,0.07249132385
3.21,0.02733220786,0.07025402937
3.22,0.0329323763,0.06755236542
3.23,0.03827324555,0.06440779875
3.24,0.0433201053,0.06084467459
3.25,0.04804049186,0.05689002934
3.26,0.05240439414,0.05257338608
3.27,0.05638444118,0.04792653466
3.28,0.05995607021,0.04298329789
3.29,0.06309767417,0.03777928559
3.3,0.06579072783,0.03235163824
3.31,0.06801989185,0.02673876217
3.32,0.06977309429,0.02098005807
3.33,0.07104158906,0.01511564475
3.34,0.0718199912,0.009186080204
3.35,0.07210628895,0.003232081758
3.36,0.07190183259,-0.002705752711
3.37,0.07121130051,-0.008587220552
3.38,0.07004264268,-0.01437278529
3.39,0.06840700238,-0.02002384093
3.4,0.06631861662,-0.02550296783
3.41,0.06379469634,-0.03077417853
3.42,0.0608552872,-0.03580315186
3.43,0.0575231122,-0.04055745386
3.44,0.05382339726,-0.04500674413
3.45,0.04978368116,-0.0491229663
3.46,0.04543361119,-0.05288052145
3.47,0.04080472617,-0.05625642346
3.48,0.0359302282,-0.05923043535
3.49,0.03084474498,-0.06178518587
3.5,0.02558408436,-0.0639062657
3.51,0.02018498273,-0.06558230276
3.52,0.0146848492,-0.06680501632
3.53,0.009121507223,-0.06756924974
3.54,0.003532935434,-0.06787298166
3.55,-0.002042990438,-0.06771731599
3.56,-0.00756875293,-0.06710645069
3.57,-0.01300744373,-0.06604762595
3.58,-0.01832300841,-0.06455105207
3.59,-0.02348048346,-0.06262981797
3.6,-0.02844622397,-0.06029978085
3.61,-0.03318812065,-0.05757943811
3.62,-0.03767580465,-0.0544897824
3.63,-0.04188083906,-0.05105414103
3.64,-0.0457768957,-0.04729800093
3.65,-0.04933991642,-0.04324882041
3.66,-0.05254825763,-0.0389358292
3.67,-0.05538281748,-0.03438981812
3.68,-0.0578271449,-0.02964292
3.69,-0.0598675298,-0.02472838329
3.7,-0.06149307423,-0.01968034002
3.71,-0.06269574395,-0.0145335697
3.72,-0.06347040034,-0.009323260807
3.73,-0.06381481264,-0.004084771416
3.74,-0.06372965052,0.001146609302
3.75,-0.06321845723,0.006335897209
3.76,-0.06228760375,0.01144864536
3.77,-0.06094622425,0.01645117063
3.78,-0.05920613366,0.02131077343
3.79,-0.05708172787,0.02599594899
3.8,-0.05458986753,0.03047658892
3.81,-0.05174974623,0.0347241718
3.82,-0.04858274424,0.03871194161
3.83,-0.04511226875,0.04241507283
3.84,-0.0413635819,0.04581082135
3.85,-0.03736361782,0.04887866022
3.86,-0.03314079005,0.05160039951
3.87,-0.02872479059,0.05396028957
3.88,-0.02414638213,0.05594510716
3.89,-0.01943718478,0.05754422408
3.9,-0.01462945895,0.05874965791
3.91,-0.009755885575,0.05955610475
3.92,-0.004849345508,0.05996095384
3.93,5.730073549E-05,0.05996428415
3.94,0.004931431229,0.05956884315
3.95,0.009740877544,0.05878000795
3.96,0.01445413488,0.0576057294
3.97,0.01904056609,0.05605645946
3.98,0.02347059826,0.05414506265
3.99,0.02771591063,0.05188671215
4,0.0317496127,0.04929877153
4.01,0.03554641144,0.04640066286
4.02,0.03908276644,0.04321372236
4.03,0.04233703239,0.03976104442
4.04,0.04528958767,0.03606731543
4.05,0.04792294869,0.03215863831
4.06,0.05022186903,0.02806234916
4.07,0.05217342316,0.02380682726
4.08,0.053767074,0.0194212997
4.09,0.0549947243,0.01493564203
4.1,0.05585075152,0.01038017624
4.11,0.05633202599,0.0057854674
4.12,0.05643791273,0.001182120405
4.13,0.05617025659,-0.003399421972
4.14,0.05553335142,-0.007929078289
4.15,0.05453389322,-0.01237732368
4.16,0.05318091799,-0.0167153799
4.17,0.05148572465,-0.02091539887
4.18,0.04946178375,-0.02495063874
4.19,0.04712463266,-0.02879563125
4.2,0.04449175804,-0.03242633934
4.21,0.04158246645,-0.03582030427
4.22,0.03841774413,-0.03895678106
4.23,0.03502010682,-0.04181686178
4.24,0.03141344083,-0.04438358577
4.25,0.02762283634,-0.04664203626
4.26,0.0236744142,-0.04857942287
4.27,0.01959514735,-0.05018514962
4.28,0.01541267804,-0.05145086798
4.29,0.01115513213,-0.05237051489
4.3,0.006850931771,-0.05294033564
4.31,0.002528607462,-0.05315889138
4.32,-0.001783388998,-0.05302705158
4.33,-0.006056869672,-0.05254797153
4.34,-0.01026409246,-0.05172705504
4.35,-0.01437793878,-0.05057190289
4.36,-0.01837208583,-0.04909224735
4.37,-0.02222117235,-0.04729987334
4.38,-0.02590095684,-0.04520852689
4.39,-0.02938846735,-0.04283381154
4.4,-0.03266214185,-0.04019307349
4.41,-0.03570195842,-0.03730527628
4.42,-0.03848955441,-0.03419086601
4.43,-0.04100833402,-0.03087162788
4.44,-0.04324356358,-0.0273705352
4.45,-0.04518245407,-0.0237115918
4.46,-0.04681423045,-0.01991966898
4.47,-0.04813018742,-0.01602033804
4.48,-0.04912373142,-0.01203969952
4.49,-0.04979040863,-0.008004210331
4.5,-0.050127919,-0.003940509799
4.51,-0.0501361162,0.0001247541581
4.52,-0.04981699375,0.004165097647
4.53,-0.04917465735,0.0081543711
4.54,-0.04821528393,0.01206692618
4.55,-0.04694706748,0.01587777826
4.56,-0.04538015241,0.01956276344
4.57,-0.04352655478,0.02309868917
4.58,-0.04140007203,0.02646347755
4.59,-0.03901618189,0.0296363004
4.6,-0.03639193128,0.03259770539
4.61,-0.03354581574,0.03532973242
4.62,-0.03049765058,0.03781601956
4.63,-0.02726843435,0.04004189805
4.64,-0.02388020563,0.04199447568
4.65,-0.02035589425,0.04366270829
4.66,-0.01671916771,0.04503745888
4.67,-0.01299427397,0.04611154402
4.68,-0.009205881601,0.04687976752
4.69,-0.005378918262,0.04733894111
4.7,-0.001538408689,0.04748789206
4.71,0.002290686914,0.04732745791
4.72,0.006083632959,0.04686046831
4.73,0.009816076074,0.0460917143
4.74,0.01346419921,0.04502790519
4.75,0.0170048713,0.04367761345
4.76,0.02041579157,0.04205120811
4.77,0.02367562761,0.04016077703
4.78,0.02676414633,0.03802003877
4.79,0.0296623371,0.03564424455
4.8,0.03235252627,0.03305007106
4.81,0.03481848246,0.03025550489
4.82,0.03704551191,0.0272797193
4.83,0.03902054354,0.02414294416
4.84,0.04073220301,0.02086633003
4.85,0.04217087559,0.01747180718
4.86,0.0433287574,0.01398194045
4.87,0.04419989475,0.01041978109
4.88,0.04478021155,0.006808716251
4.89,0.0450675245,0.003172317322
4.9,0.04506154623,-0.000465811987
4.91,0.04476387622,-0.004082186902
4.92,0.04417797989,-0.007653591172
4.93,0.04330915592,-0.01115722407
4.94,0.04216449197,-0.0145708439
4.95,0.04075280947,-0.01787290709
4.96,0.03908459757,-0.02104270211
4.97,0.03717193684,-0.02406047723
4.98,0.03502841344,-0.02690756157
4.99,0.03266902402,-0.0295664785
5,0.0301100723,-0.03202105088
5.01,0.0273690579,-0.03425649742
5.02,0.02446455814,-0.03625951968
5.03,0.0214161037,-0.03801837911
5.04,0.01824404883,-0.03952296383
5.05,0.01496943713,-0.04076484472
5.06,0.01161386351,-0.04173732044
5.07,0.008199333583,-0.04243545133
5.08,0.004748120993,-0.04285608193
5.09,0.001282623928,-0.042997852
5.1,-0.00217477849,-0.04286119618
5.11,-0.005601868926,-0.04244833215
5.12,-0.008976732812,-0.04176323765
5.13,-0.01227789669,-0.04081161633
5.14,-0.01548446306,-0.03960085291
5.15,-0.01857624091,-0.03813995785
5.16,-0.02153387109,-0.03643950199
5.17,-0.02433894587,-0.03451154159
5.18,-0.02697412177,-0.03236953435
5.19,-0.02942322521,-0.03002824689
5.2,-0.03167135014,-0.02750365439
5.21,-0.03370494722,-0.02481283306
5.22,-0.03551190398,-0.02197384609
5.23,-0.03708161543,-0.01900562387
5.24,-0.03840504485,-0.0159278393
5.25,-0.03947477433,-0.0127607789
5.26,-0.04028504476,-0.009525210675
5.27,-0.0408317852,-0.006242249433
5.28,-0.04111263135,-0.0029332206
5.29,-0.04112693312,0.0003804767796
5.3,-0.04087575126,0.003677506871
5.31,-0.04036184325,0.006936732898
5.32,-0.03958963832,0.01013735114
5.33,-0.03856520213,0.01325902225
5.34,-0.03729619105,0.01628199906
5.35,-0.03579179669,0.01918725009
5.36,-0.03406268082,0.02195657806
5.37,-0.03212090118,0.02457273248
5.38,-0.02997982886,0.02701951596
5.39,-0.02765405757,0.02928188322
5.4,-0.0251593055,0.03134603252
5.41,-0.02251231053,0.03319948873
5.42,-0.01973071921,0.03483117773
5.43,-0.01683297058,0.03623149156
5.44,-0.01383817524,0.03739234402
5.45,-0.01076599071,0.03830721639
5.46,-0.007636493766,0.03897119298
5.47,-0.004470050573,0.03938098643
5.48,-0.001287185462,0.03953495247
5.49,0.001891550802,0.03943309421
5.5,0.005045712447,0.039077056
5.51,0.008155088976,0.03847010672
5.52,0.01119983349,0.03761711297
5.53,0.01416058822,0.03652450204
5.54,0.01701860654,0.03520021517
5.55,0.01975587063,0.03365365126
5.56,0.02235520409,0.03189560157
5.57,0.02480037885,0.02993817569
5.58,0.02707621561,0.02779471945
5.59,0.02916867731,0.02547972514
5.6,0.03106495498,0.02300873481
5.61,0.03275354548,0.02039823712
5.62,0.0342243207,0.01766555855
5.63,0.03546858767,0.01482874959
5.64,0.03647913941,0.01190646666
5.65,0.03725029609,0.008917850626
5.66,0.03777793633,0.005882402508
5.67,0.03805951846,0.002819857331
5.68,0.03809409156,-0.0002499431254
5.69,0.03788229643,-0.003307177872
5.7,0.03742635622,-0.006332173734
5.71,0.03673005718,-0.009305531031
5.72,0.03579871926,-0.01220824715
5.73,0.03463915719,-0.01502183717
5.74,0.03325963194,-0.01772845087
5.75,0.03166979322,-0.02031098529
5.76,0.02988061318,-0.0227531922
5.77,0.02790431181,-0.02503977976
5.78,0.02575427471,-0.0271565078
5.79,0.02344496341,-0.02909027608
5.8,0.02099181928,-0.03082920495
5.81,0.01841116128,-0.03236270806
5.82,0.01572007842,-0.03368155648
5.83,0.01293631759,-0.03477793398
5.84,0.01007816748,-0.03564548309
5.85,0.007164339323,-0.03627934171
5.86,0.004213845287,-0.03667616995
5.87,0.001245875223,-0.0368341672
5.88,-0.001720327359,-0.03675307924
5.89,-0.004665589348,-0.03643419538
5.9,-0.007570931298,-0.03588033575
5.91,-0.01041768913,-0.03509582871
5.92,-0.01318763348,-0.03408647868
5.93,-0.01586308594,-0.03285952457
5.94,-0.01842703146,-0.03142358903
5.95,-0.0208632262,-0.02978861899
5.96,-0.02315630011,-0.02796581782
5.97,-0.02529185365,-0.02596756954
5.98,-0.02725654801,-0.02380735566
5.99,-0.02903818826,-0.02149966514
6,-0.03062579893,-0.0190598981
