"Freq [GHz]","re(S(Antenna1_1_1,Antenna1_1_1)) []","im(S(Antenna1_1_1,Antenna1_1_1)) []"
1,0.372414095033975,0.0293931141365673
1.004,0.366686350255071,0.00986728594336582
1.008,0.360062653526122,-0.00924544344707106
1.012,0.352559469089621,-0.0278938214102424
1.016,0.344196519581731,-0.0460258948021086
1.02,0.334997119190324,-0.0635891923333129
1.024,0.324988504952224,-0.0805309771469622
1.028,0.314202153274109,-0.0967985715948677
1.032,0.302674068259557,-0.112339753958902
1.036,0.290445028356584,-0.127103224469765
1.04,0.27756077811338,-0.141039135611844
1.044,0.264072152552832,-0.15409967937151
1.048,0.250035122788488,-0.166239721848011
1.052,0.235510752995837,-0.177417473648198
1.056,0.220565060672609,-0.187595182667753
1.06,0.205268774277377,-0.196739834402371
1.064,0.18963625206218,-0.204768292150984
1.068,0.173733535676634,-0.211591751663938
1.072,0.157763732247471,-0.217280689277672
1.076,0.141819499794976,-0.221837078023298
1.08,0.125993711844711,-0.225272032516047
1.084,0.110378388902122,-0.227605911137518
1.088,0.0950636092060605,-0.228868276805952
1.092,0.0801364191021968,-0.229097712993
1.096,0.0656797637842737,-0.228341494726618
1.1,0.0517714591764324,-0.226655117534488
1.104,0.0384832251972843,-0.224101690209771
1.108,0.0258797996545544,-0.220751200452891
1.112,0.0140181506942402,-0.216679665157247
1.116,0.00294680358693303,-0.211968179771268
1.12,-0.00729470409712066,-0.206701883393618
1.124,-0.0166762281439854,-0.200968858216708
1.128,-0.0249280319511964,-0.194920666718213
1.132,-0.0322299678215856,-0.188683173381209
1.136,-0.0386830470852988,-0.182330452246241
1.14,-0.0443112660141388,-0.175941262685241
1.144,-0.0491458978451434,-0.169588958405484
1.148,-0.0532245964197386,-0.163340782417334
1.152,-0.0565904298151941,-0.157257300973414
1.156,-0.0592908651461474,-0.151391983185256
1.16,-0.0613767262255177,-0.145790929735748
1.164,-0.0629011458159445,-0.140492751043988
1.168,-0.0639185337964994,-0.135528591860304
1.172,-0.0644835816621177,-0.130922296534977
1.176,-0.0646503224611261,-0.126690705949176
1.18,-0.0644712635783232,-0.122844074920144
1.184,-0.0639966076623356,-0.119386596354071
1.188,-0.0632735747131508,-0.116317016575291
1.192,-0.0623458356834316,-0.113629324736421
1.196,-0.0612530652235377,-0.111313498112615
1.2,-0.0600306183562662,-0.109356284389751
1.204,-0.0587093329142857,-0.107742001827288
1.208,-0.0573154568026638,-0.106453338395882
1.212,-0.0558706963172619,-0.105472131614365
1.216,-0.054392379141005,-0.10478011182184
1.22,-0.0528937232707487,-0.104359593028837
1.224,-0.0513842011886877,-0.104194097181393
1.228,-0.049869986358556,-0.104268899672938
1.232,-0.0483544681602451,-0.104571486157746
1.236,-0.0468388199412867,-0.105091912957273
1.24,-0.0453226042927837,-0.105823066066177
1.244,-0.0438043993100481,-0.106760815992545
1.248,-0.0422824296531767,-0.107904068356924
1.252,-0.0406896941703552,-0.109018025151726
1.256,-0.0389390084867285,-0.110140820356796
1.26,-0.0370766900959401,-0.111544425828664
1.264,-0.0351187305424566,-0.113256725205146
1.268,-0.0330861150662553,-0.115304952338791
1.272,-0.0310047480602011,-0.11771490651683
1.276,-0.0289052649288196,-0.120510191599033
1.28,-0.0268227369160858,-0.123711494572123
1.284,-0.0247962770479611,-0.127335917546839
1.288,-0.0228685572154163,-0.131396375607525
1.292,-0.021085247977224,-0.135901071156914
1.296,-0.0194943933927965,-0.14085305342956
1.3,-0.0181457345248606,-0.146249869843134
1.304,-0.0170899951451641,-0.152083313771641
1.308,-0.0163781438731799,-0.158339271248466
1.312,-0.0160606464065717,-0.164997667255117
1.316,-0.0161867213856519,-0.172032509999099
1.32,-0.0168036126090044,-0.179412030281928
1.324,-0.0179558894899468,-0.187098911156347
1.328,-0.0196847865613799,-0.195050601639768
1.332,-0.0220275915871597,-0.203219707276726
1.336,-0.0250170905569145,-0.211554449324587
1.34,-0.0286810763788354,-0.219999183290172
1.344,-0.0330419266959418,-0.228494967609882
1.348,-0.0381162547768596,-0.236980172429519
1.352,-0.0439146360774836,-0.245391118689071
1.356,-0.0504414117211898,-0.253662737786028
1.36,-0.057694568835561,-0.261729242306195
1.364,-0.0656656966937155,-0.269524798825822
1.368,-0.0743400165185017,-0.276984194325958
1.372,-0.0836964819148011,-0.284043488441492
1.376,-0.0938040289339754,-0.290605631263697
1.38,-0.104796969877228,-0.296485020404261
1.384,-0.1163223547477,-0.301702626754046
1.388,-0.128322513823588,-0.306215325207822
1.392,-0.140736503911784,-0.30998601328299
1.396,-0.153500772753178,-0.312983829537744
1.4,-0.166549831464014,-0.315184299893899
1.404,-0.179816927905151,-0.316569413131767
1.408,-0.193234714142868,-0.317127627058266
1.412,-0.206735901571013,-0.31685380774398
1.416,-0.220253897718306,-0.315749104294742
1.42,-0.233723419116475,-0.31382076245532
1.424,-0.247081075040937,-0.31108188011441
1.428,-0.26026591729421,-0.307551108633579
1.432,-0.273219951579475,-0.303252303802018
1.436,-0.285888606398693,-0.298214130586128
1.44,-0.298221155635727,-0.292469626181103
1.444,-0.310171091569783,-0.286055725901869
1.448,-0.321696445027655,-0.279012756826584
1.452,-0.33276005016319,-0.271383904265304
1.456,-0.343329751346638,-0.263214656371463
1.46,-0.353378550201014,-0.254552232438946
1.464,-0.36288469123224,-0.245445000668395
1.468,-0.371831684948723,-0.235941891383944
1.472,-0.380208267755299,-0.226091811921942
1.476,-0.388008298539253,-0.215943069551985
1.48,-0.395230592506615,-0.205542808967351
1.484,-0.401878693243174,-0.194936471016988
1.488,-0.407960584907673,-0.184167279276755
1.492,-0.413488347012538,-0.17327576121665
1.496,-0.418477755056366,-0.162299310488252
1.5,-0.422947831060171,-0.151271796620322
1.504,-0.426903908154718,-0.140529185217147
1.508,-0.430461627581754,-0.12979348354561
1.512,-0.433646714570062,-0.119072702232551
1.516,-0.436483834146651,-0.108370369613511
1.52,-0.43899598027735,-0.0976857674669911
1.524,-0.441203897685827,-0.0870142434534311
1.528,-0.443125545798731,-0.0763475964529379
1.532,-0.444775613686406,-0.0656745298799003
1.536,-0.446165094787727,-0.0549811670517142
1.54,-0.447300929026189,-0.0442516214298883
1.544,-0.448185719631128,-0.0334686136165178
1.548,-0.448817530652934,-0.0226141260047579
1.552,-0.449189770480946,-0.0116700851383696
1.556,-0.449291165002326,-0.000619061116423832
1.56,-0.449105823179277,0.0105550272097338
1.564,-0.448613396290209,0.0218662128882574
1.568,-0.447789330349703,0.0333257993734085
1.572,-0.44660521026496,0.0449417086686187
1.576,-0.445029192178681,0.0567178712414099
1.58,-0.443026519325718,0.06865366894503
1.584,-0.440560115015795,0.0807434420785796
1.588,-0.437591245004996,0.0929760708712331
1.592,-0.434080240101823,0.105334640545696
1.596,-0.429987268653407,0.117796198362496
1.6,-0.425273147382805,0.130331609419777
1.604,-0.419900178154045,0.142905516842078
1.608,-0.413832997418586,0.155476410165655
1.612,-0.407039424555717,0.167996804186363
1.616,-0.399491294927769,0.180413528846298
1.62,-0.391165263395481,0.192668128719554
1.624,-0.382043564082975,0.204697368936685
1.628,-0.371779050950048,0.216695214792317
1.632,-0.36051751653538,0.228315343031873
1.636,-0.348383335498594,0.23936910926318
1.64,-0.33541134116748,0.249769806527358
1.644,-0.321646360440658,0.259433772876458
1.648,-0.30714285012721,0.268281614625819
1.652,-0.291964380155158,0.276239379568298
1.656,-0.276182970932315,0.283239660857621
1.66,-0.259878294230813,0.289222613119176
1.664,-0.243136749591769,0.294136863971561
1.668,-0.226050430266206,0.297940305448808
1.672,-0.208715994586272,0.300600751850361
1.676,-0.191233460354136,0.302096452824019
1.68,-0.173704941189855,0.302416452346123
1.684,-0.156233344822521,0.301560787416459
1.688,-0.138921054026522,0.299540522266448
1.692,-0.121868611388325,0.296377617002245
1.696,-0.105173428842876,0.292104632103568
1.7,-0.0889285430546629,0.286764272966973
1.704,-0.0732214365285736,0.280408781429343
1.708,-0.058132943801747,0.2730991835258
1.712,-0.0437362603684766,0.264904405389593
1.716,-0.0300960706255008,0.25590027124006
1.72,-0.0172678091049893,0.246168399473768
1.724,-0.00529706719046146,0.235795014584332
1.728,0.00578084501972445,0.224869694125366
1.732,0.0159411742331081,0.21348407098018
1.736,0.0251698323796333,0.201730512153755
1.74,0.0334633359258659,0.189700795600622
1.744,0.0408285770671217,0.177484806942381
1.748,0.0472824304313041,0.165169277426341
1.752,0.0526307974050273,0.153295115464415
1.756,0.0570871879888422,0.142014041500358
1.76,0.0609878452217119,0.130925236988397
1.764,0.0643921842614619,0.120044639178161
1.768,0.0673577626859475,0.109378868109408
1.772,0.0699390114330891,0.0989257786454759
1.776,0.0721860647689411,0.0886751753871235
1.78,0.0741437093431609,0.0786096747194166
1.784,0.0758504701533554,0.0687056964359849
1.788,0.077337848721494,0.0589345649153866
1.792,0.0786297261290722,0.049263698123065
1.796,0.0797419403397539,0.0396578616330539
1.8,0.0806820444719951,0.030080463452242
1.804,0.0814492492688948,0.0204948651953763
1.808,0.0820345498578504,0.0108656848089905
1.812,0.0824210337389321,0.00116006637347433
1.816,0.0825843636996455,-0.00865110696318995
1.82,0.0824934263578003,-0.0185920795103464
1.824,0.0821111342178844,-0.028681190758244
1.828,0.0813953662757809,-0.0389299635514208
1.832,0.0803000300316665,-0.0493423304172236
1.836,0.0787762254365003,-0.0599140131804877
1.84,0.0767734896298517,-0.0706320682064364
1.844,0.0742410997786864,-0.0814746069937505
1.848,0.0711294103191501,-0.0924106986307573
1.852,0.0673912002264744,-0.103400457683388
1.856,0.062983005537022,-0.114395317668339
1.86,0.0578664128136797,-0.125338487264808
1.864,0.0520092892860293,-0.13616558314039
1.868,0.0453869268799032,-0.146805430239536
1.872,0.0379830783265757,-0.1571810175012
1.876,0.0295444260868537,-0.167242600902341
1.88,0.019570632684197,-0.17681186735177
1.884,0.00884357506623874,-0.185610972555303
1.888,-0.00256532719029541,-0.193557612756894
1.892,-0.0145746871961827,-0.200577560849204
1.896,-0.0270941899756105,-0.206605879013139
1.9,-0.0400257760126051,-0.2115879908347
1.904,-0.0532649499219366,-0.215480596030257
1.908,-0.0667021932595232,-0.218252413931575
1.912,-0.0802244590406916,-0.219884744153343
1.916,-0.0937167241274295,-0.220371836272851
1.92,-0.107063575109627,-0.219721062945779
1.924,-0.12015080280129,-0.217952894415596
1.928,-0.132866980417534,-0.215100675159013
1.932,-0.145105000937329,-0.211210206628266
1.936,-0.156763549882014,-0.206339143084388
1.94,-0.167748490805288,-0.200556210405206
1.944,-0.177974142369337,-0.193940260278699
1.948,-0.187364427502478,-0.186579175077079
1.952,-0.195853877252216,-0.178568640417222
1.956,-0.203388474373156,-0.170010805048857
1.96,-0.209926324069029,-0.161012848769661
1.964,-0.215438142107222,-0.151685480844827
1.968,-0.219907553398608,-0.142141392198832
1.972,-0.223331197046067,-0.132493685339874
1.976,-0.22571863686247,-0.122854306252602
1.98,-0.227092079493847,-0.113332502350071
1.984,-0.22748590495635,-0.104033330178401
1.988,-0.22694601769701,-0.0950562356650306
1.992,-0.225529028558587,-0.0864937285058617
1.996,-0.223301281134329,-0.0784301709929728
2,-0.220337737801653,-0.070940699313906
2.004,-0.216562030246017,-0.0649719840950832
2.008,-0.212446495999994,-0.0597212348617437
2.012,-0.208085795383318,-0.0551891466552358
2.016,-0.203570983786064,-0.0513647100757676
2.02,-0.198988101925834,-0.0482259900051327
2.024,-0.194416893729706,-0.0457410704297186
2.028,-0.189929671029715,-0.043869146509529
2.032,-0.185590341397949,-0.0425617429441845
2.036,-0.181453612976103,-0.0417640357958844
2.04,-0.177564386638104,-0.0414162538051196
2.044,-0.173957343175619,-0.0414551338181668
2.048,-0.170656729408574,-0.0418154046245483
2.052,-0.167676344267963,-0.042431273162981
2.056,-0.165019722238003,-0.0432378873066813
2.06,-0.162680508560777,-0.0441727500108703
2.064,-0.160643017300636,-0.0451770607430596
2.068,-0.158882960619281,-0.046196961350048
2.072,-0.157368334496937,-0.0471846653248689
2.076,-0.156060444051325,-0.0480994517182951
2.08,-0.154915049120781,-0.0489085069625532
2.084,-0.153883608774043,-0.04958760073204
2.088,-0.152914602263215,-0.0501215849072134
2.092,-0.151954902289279,-0.0505047073704677
2.096,-0.150951176004179,-0.0507407360026782
2.1,-0.149851288600319,-0.0508428908423862
2.104,-0.148605684467883,-0.0508335862525956
2.108,-0.147168721284333,-0.0507439875397729
2.112,-0.145499933249858,-0.0506133900232131
2.116,-0.143565200866776,-0.0504884311687855
2.12,-0.141337806334665,-0.0504221494581331
2.124,-0.13879935545793,-0.0504729061601779
2.128,-0.135091404068687,-0.0506163516067623
2.132,-0.130774454175782,-0.0512254677165863
2.136,-0.126189189603984,-0.0524290369101094
2.14,-0.121407788260208,-0.0542832139036316
2.144,-0.116510585241011,-0.0568346699599767
2.148,-0.111584769163831,-0.0601195606700459
2.152,-0.106722958070796,-0.0641626735766885
2.156,-0.102021679447578,-0.0689767686479578
2.16,-0.0975797799809865,-0.0745621215569069
2.164,-0.0934967918883195,-0.0809062763660981
2.168,-0.0898712827855223,-0.087984010494392
2.172,-0.0867992164866296,-0.0957575117045864
2.176,-0.0843723513704867,-0.104176763217402
2.18,-0.0826767023475972,-0.113180129765919
2.184,-0.0817910911279164,-0.122695134328264
2.188,-0.0817858079231777,-0.132639412117556
2.192,-0.082721405682633,-0.142921825956976
2.196,-0.0846476458184476,-0.153443724362852
2.2,-0.087602611646628,-0.164100321826609
2.204,-0.0916120031924694,-0.174782178859586
2.208,-0.0966886238112955,-0.185376758013805
2.212,-0.102832066242471,-0.195770030973878
2.216,-0.110028602366774,-0.205848111278455
2.22,-0.11825127766861,-0.215498886949584
2.224,-0.127460208456722,-0.224613627486948
2.228,-0.137603076459214,-0.233088540201227
2.232,-0.148615812569127,-0.240826251895616
2.236,-0.160423458632164,-0.247737193049257
2.24,-0.172941193324332,-0.253740863361896
2.244,-0.186075505941971,-0.258766959585538
2.248,-0.199725499516237,-0.262756348386208
2.252,-0.213678176672493,-0.265237076833388
2.256,-0.227667639667179,-0.266226861158702
2.26,-0.24164731757712,-0.266176630654129
2.264,-0.255522176632732,-0.265111817173942
2.268,-0.269202571406977,-0.263067497294915
2.272,-0.282605258812384,-0.260087529318118
2.276,-0.295654287826902,-0.256223584195546
2.28,-0.308281754327141,-0.251534087278772
2.284,-0.320428412409315,-0.246083088858442
2.288,-0.332044136009377,-0.239939082146893
2.292,-0.343088226927799,-0.23317378777039
2.296,-0.353529567861546,-0.225860924149595
2.3,-0.363346621173847,-0.218074982857404
2.304,-0.372527276681671,-0.209890027758218
2.308,-0.3810685537521,-0.201378535991727
2.312,-0.388976165342968,-0.192610297979984
2.316,-0.396263953321582,-0.183651392437901
2.32,-0.402953206409512,-0.174563250957099
2.324,-0.409071873592656,-0.165401825301718
2.328,-0.414653687286001,-0.156216868431426
2.332,-0.419737211603944,-0.147051338947222
2.336,-0.424364832214487,-0.137940936049241
2.34,-0.428581704592533,-0.128913770319959
2.344,-0.432434678230102,-0.119990173668923
2.348,-0.435971214255045,-0.111182649045482
2.352,-0.439238313891734,-0.102495959043459
2.356,-0.442281474787306,-0.093927349966212
2.36,-0.445143691582238,-0.0854669060614395
2.364,-0.447864516329978,-0.0770980266518862
2.368,-0.450479193054778,-0.0687980172604484
2.372,-0.453017879760168,-0.0605387838852077
2.376,-0.455582829646077,-0.052285043645312
2.38,-0.458342851552766,-0.0439477395546481
2.384,-0.461062549544637,-0.0354686559822435
2.388,-0.463733040895671,-0.0268107605807162
2.392,-0.466338911108941,-0.0179381651784138
2.396,-0.468858422385013,-0.00881701397965517
2.4,-0.471263832428354,0.000583665102688468
2.404,-0.473521817386623,0.010291158974126
2.408,-0.475593991605038,0.0203283299172183
2.412,-0.477437515246504,0.0307129491420763
2.416,-0.479005779822674,0.0414571132434526
2.42,-0.480249160549345,0.0525667519058148
2.424,-0.481115823534236,0.0640412340656996
2.428,-0.481552575229034,0.075873077856996
2.432,-0.481505741009217,0.0880477683285892
2.436,-0.480922059484353,0.100543685197966
2.44,-0.479741019260936,0.113419406169149
2.444,-0.477888839118121,0.12659989581807
2.448,-0.475318845382495,0.139984257073743
2.452,-0.471990450623222,0.153518199798471
2.456,-0.46786859560789,0.167141986745112
2.46,-0.462924398727282,0.180791102273387
2.464,-0.457135719096512,0.194396993225264
2.468,-0.450487625848565,0.207887870917963
2.472,-0.442972767422927,0.221189562038709
2.476,-0.434591636421697,0.234226396024338
2.48,-0.42535272685224,0.24692211597379
2.484,-0.415272582439222,0.259200800019383
2.488,-0.404375736039659,0.270987780124435
2.492,-0.392694542043117,0.282210545434626
2.496,-0.38026890462526,0.29279961787964
2.5,-0.367145906777584,0.302689387887459
2.504,-0.353052115929676,0.311608265634951
2.508,-0.338432087359886,0.319634665570883
2.512,-0.323364328482671,0.326730339307773
2.516,-0.307930260659466,0.332865548748211
2.52,-0.292213208832136,0.338019255411891
2.524,-0.276297387020429,0.342179186909338
2.528,-0.260266894485362,0.345341782536802
2.532,-0.244204736833986,0.347512021574248
2.536,-0.228191885655659,0.348703139335057
2.54,-0.212306389326222,0.348936237862711
2.544,-0.196622546676435,0.34823979931746
2.548,-0.18121015377736,0.346649111506297
2.552,-0.166133833105816,0.344205615834579
2.556,-0.151452452567615,0.340956189013776
2.56,-0.137218640611712,0.336952370533259
2.564,-0.123478402002521,0.33224954826324
2.568,-0.110270837358144,0.326906114954115
2.572,-0.0976279677910279,0.32098260844092
2.576,-0.0855746646927207,0.314540848307361
2.58,-0.074128683176641,0.307643081436001
2.584,-0.0633007959481978,0.300351148524883
2.588,-0.0530950236587356,0.292725682953347
2.592,-0.0435089558635028,0.284825352747019
2.596,-0.0345341562633488,0.27670615547726
2.6,-0.0261566442628343,0.26842077506066
2.604,-0.018357444655715,0.260018008252134
2.608,-0.0111131959962302,0.251542267676568
2.612,-0.00439680795681842,0.243033167005988
2.616,0.00182184261558055,0.234525192730523
2.62,0.00757518750313107,0.226047465689131
2.624,0.0128972255594299,0.21762359455519
2.628,0.0181102280109266,0.209805257706235
2.632,0.0232047212063797,0.202158020757858
2.636,0.0281213952190719,0.194471643639549
2.64,0.0328686547900569,0.186722455929687
2.644,0.0374491185197366,0.178885920215127
2.648,0.0418595981374092,0.17093751506932
2.652,0.0460911928726276,0.16285360714978
2.656,0.0501294960208986,0.15461229877307
2.66,0.0539549089523733,0.146194237950726
2.664,0.0575430567259694,0.137583378634922
2.668,0.0608652980715288,0.128767679727063
2.672,0.0638893214861958,0.119739732508233
2.676,0.0665798180045243,0.110497306870891
2.68,0.0688992206814309,0.101043808310033
2.684,0.0708084995089335,0.0913886383601976
2.688,0.0722680004201297,0.0815474527407064
2.692,0.0732383160383236,0.0715423124038897
2.696,0.0736811756719837,0.0614017243825395
2.7,0.073560341656589,0.0511605703658807
2.704,0.0728424989741862,0.0408599223198477
2.708,0.0714981250386252,0.0305467461104934
2.712,0.0695023265555697,0.0202734950821344
2.716,0.0668356306624363,0.0100975973372015
2.72,0.0634847176059489,8.08415848878117E-05
2.724,0.0594430832012377,-0.00971133203348645
2.728,0.0547116191945572,-0.0192106284673372
2.732,0.0492991011536936,-0.0283467725708675
2.736,0.0432225738032888,-0.0370484518581477
2.74,0.0365076252043788,-0.0452443157292667
2.744,0.0291885421384645,-0.0528640185047305
2.748,0.0213083404259064,-0.0598392926611354
2.752,0.0125801754356631,-0.0658760924491378
2.756,0.00315492722659477,-0.0707929607825238
2.76,-0.00650741581284109,-0.0747423847027476
2.764,-0.0163067921635604,-0.0777019786443942
2.768,-0.0261405501506306,-0.0796603800632701
2.772,-0.035904709905744,-0.0806175460600078
2.776,-0.0454952590337087,-0.0805849043942687
2.78,-0.0548094653410158,-0.0795853547319266
2.784,-0.0637471894919081,-0.0776531180018367
2.788,-0.0722121800687075,-0.0748334336053585
2.792,-0.0801133333654786,-0.0711821060659085
2.796,-0.0873659003681576,-0.0667649050618063
2.8,-0.0938926235891419,-0.0616568247077147
2.804,-0.0996247872046248,-0.0559412098013434
2.808,-0.104503164517395,-0.0497087591456378
2.812,-0.108478848076379,-0.0430564178117629
