"Freq [GHz]","re(S(Antenna1_1_1,Antenna1_1_1)) []","im(S(Antenna1_1_1,Antenna1_1_1)) []"
1,0.373372058770975,0.0267816196705673
1.004,0.367143052409071,0.00696102592236582
1.008,0.359947582593122,-0.0123504382550711
1.012,0.351820423678621,-0.0310868951482424
1.016,0.342802356938732,-0.0491852210281086
1.02,0.332939862461324,-0.0665857071193129
1.024,0.322284731051224,-0.0832326740879622
1.028,0.310893603983109,-0.0990750300324676
1.032,0.298827449735557,-0.114066763313102
1.036,0.286150987811584,-0.128167363027965
1.04,0.27293207058338,-0.141342161561844
1.044,0.259241034590832,-0.15356259529051
1.048,0.245150033034488,-0.164806381258011
1.052,0.230732361210837,-0.175057609356198
1.056,0.216061786426609,-0.184306751184753
1.06,0.201211893477377,-0.192550588443372
1.064,0.18623534332418,-0.199768439409984
1.068,0.171201274606934,-0.205947232912938
1.072,0.156218187710271,-0.211140456781672
1.076,0.141353260930626,-0.215370904055298
1.08,0.126670358032711,-0.218666142683047
1.084,0.112229708834122,-0.221058042502518
1.088,0.0980876590980605,-0.222582288983952
1.092,0.0842964882361967,-0.223277893926
1.096,0.0709042919022737,-0.223186712694618
1.1,0.0579549251444324,-0.222352976762488
1.104,0.0454880006782843,-0.220822849374771
1.108,0.0335389357645544,-0.218644010956891
1.112,0.0221390404492402,-0.215865279660247
1.116,0.011315639288933,-0.212536271041268
1.12,0.00109221838087934,-0.208707099479868
1.124,-0.00851141062298537,-0.204428122461708
1.128,-0.0173998068041964,-0.199732816477213
1.132,-0.0256099621335856,-0.194701789051209
1.136,-0.0331606300032988,-0.189393511398241
1.14,-0.0400477959351388,-0.183857532478241
1.144,-0.0462702983341434,-0.178142754888484
1.148,-0.0518297322017386,-0.172297385576334
1.152,-0.0567303775091941,-0.166368892159414
1.156,-0.0609791513535474,-0.160403958302256
1.16,-0.0645855817595177,-0.154448432058748
1.164,-0.0675617999025445,-0.148547261651988
1.168,-0.0699225465013994,-0.142744413964304
1.172,-0.0716851872862177,-0.137082771973977
1.176,-0.0728697317982261,-0.131604008436176
1.18,-0.0734988493133232,-0.126348434309144
1.184,-0.0735978754353356,-0.121354821672071
1.188,-0.0731948029031508,-0.116660202146291
1.192,-0.0723202503424316,-0.112299643123421
1.196,-0.0710074031575377,-0.108306005302415
1.2,-0.0692919213712662,-0.104709686188751
1.204,-0.0672118101022857,-0.101538355219288
1.208,-0.0648072493726638,-0.098816687048882
1.212,-0.0621203810982619,-0.0965661001883648
1.216,-0.059195052440005,-0.0948045087148398
1.22,-0.0560765160427487,-0.093546094958537
1.224,-0.0528110891046877,-0.092801111149493
1.228,-0.049445774674556,-0.0925757177289384
1.232,-0.0460278499392451,-0.0928718655747464
1.236,-0.0426044275802867,-0.0936872286782734
1.24,-0.0392219975107837,-0.0950151928381774
1.244,-0.0359259572930481,-0.0968449048235448
1.248,-0.0327601404451767,-0.0991613850899242
1.252,-0.0298564049093552,-0.101858188211726
1.256,-0.0272249053117285,-0.104878233689796
1.26,-0.0247949285899401,-0.108276479970664
1.264,-0.0225914155543566,-0.112031168965146
1.268,-0.0206366537804553,-0.116119431162791
1.272,-0.0189502676682011,-0.12051765369783
1.276,-0.0175492658308196,-0.125201842627033
1.28,-0.0164481447130858,-0.130147969918723
1.284,-0.0156590457049611,-0.135332295805839
1.288,-0.0151919614814163,-0.140731657633525
1.292,-0.015054985755224,-0.146323717033914
1.296,-0.0152545992877965,-0.15208715821456
1.3,-0.0157959837598606,-0.158001831368134
1.304,-0.016683354104164,-0.164048836574641
1.308,-0.0179202990901799,-0.170210545183166
1.312,-0.0195101194485717,-0.176470557301117
1.316,-0.0214561525566519,-0.182813595875099
1.32,-0.0237620727675044,-0.189225339626928
1.324,-0.0264321568139468,-0.195692198972347
1.328,-0.0294715043783799,-0.202201040800768
1.332,-0.0328862048451597,-0.208738869670726
1.336,-0.0366834425229145,-0.215292474504586
1.34,-0.0408715340388354,-0.221848051143172
1.344,-0.0454598933569418,-0.228390812245882
1.348,-0.0504589216915596,-0.234904596790519
1.352,-0.0558798216448836,-0.241371491946071
1.356,-0.0617343369481898,-0.247771480246028
1.36,-0.068034421327561,-0.254082124834195
1.364,-0.0747918421247155,-0.260278305080722
1.368,-0.0820177262935017,-0.266332013900958
1.372,-0.0897220583258011,-0.272212227085492
1.376,-0.0979813410689754,-0.277935796963697
1.38,-0.106971135787228,-0.283523900758261
1.384,-0.1165000386477,-0.288749783878046
1.388,-0.126553222610588,-0.293562226061822
1.392,-0.137110415081784,-0.29791013582969
1.396,-0.148145781274178,-0.301743219863744
1.4,-0.159627899222014,-0.305012679701898
1.404,-0.171519831183151,-0.307671922367767
1.408,-0.183779294403468,-0.309677270799266
1.412,-0.196358931701013,-0.31098865949098
1.416,-0.209206680419306,-0.311570300641742
1.42,-0.222266235980475,-0.31139130629532
1.424,-0.235477604069937,-0.31042625252441
1.428,-0.24877773341821,-0.308655672663579
1.432,-0.262101219191475,-0.306066467621018
1.436,-0.275381065252293,-0.302652222956128
1.44,-0.288549492010727,-0.298413424206103
1.444,-0.301538775343783,-0.293357563672869
1.448,-0.314282101093655,-0.287499134220584
1.452,-0.32671441906919,-0.280859508039304
1.456,-0.338773280136638,-0.273466700356463
1.46,-0.350399640141014,-0.265355020829946
1.464,-0.36153861478224,-0.256564617491394
1.468,-0.372140170368723,-0.247140920520944
1.472,-0.382159736505299,-0.237133995249942
1.476,-0.391558728257253,-0.226597815779385
1.48,-0.400304966893615,-0.215589472349351
1.484,-0.408372990496174,-0.204168327072988
1.488,-0.415744247682673,-0.192395133855755
1.492,-0.422407170160538,-0.18033113913865
1.496,-0.428357122161966,-0.168037180655252
1.5,-0.433596227373171,-0.155572801510322
1.504,-0.437935650164718,-0.143193495697147
1.508,-0.441640463980754,-0.13080444389561
1.512,-0.444739714252062,-0.118445858652551
1.516,-0.447265526826651,-0.106152200853511
1.52,-0.44925221111635,-0.0939519183369912
1.524,-0.450735341753827,-0.0818673150644311
1.528,-0.451750837364731,-0.0699145519449379
1.532,-0.452334054921406,-0.0581037780449003
1.536,-0.452518917756727,-0.0464393880857142
1.54,-0.452337094446189,-0.0349203998215883
1.544,-0.451817244661128,-0.0235409425155178
1.548,-0.450984346582934,-0.0122908455767579
1.552,-0.449859118770946,-0.00115631460236956
1.556,-0.448457547402326,0.00987931961157617
1.56,-0.446790527649277,0.0208347947600538
1.564,-0.444863625460209,0.0317300701242574
1.568,-0.442676964027703,0.0425854563654084
1.572,-0.44022523624196,0.0534207396446187
1.576,-0.437497842372681,0.0642543175834099
1.58,-0.434479149684718,0.07510236424503
1.584,-0.431148868289094,0.0859780405585796
1.588,-0.427482535646996,0.0968907655112331
1.592,-0.423452099788823,0.107845562375696
1.596,-0.419026589918407,0.118842492292496
1.6,-0.414172861327805,0.129876186169777
1.604,-0.408856400384945,0.140935483632078
1.608,-0.403042174392586,0.152003185965655
1.612,-0.396695510459717,0.163055927406363
1.616,-0.389782987172769,0.174064167598298
1.62,-0.382273322788481,0.184992305116554
1.624,-0.374138243932975,0.195798910384685
1.628,-0.365251731890048,0.206787641546317
1.632,-0.35555976552538,0.217635986671873
1.636,-0.345075941808594,0.22814605577818
1.64,-0.33380445587748,0.238238267915358
1.644,-0.321759048310658,0.247832290743858
1.648,-0.30896306788721,0.256848262352819
1.652,-0.295449376315158,0.265208004239298
1.656,-0.281260099082315,0.272836205298621
1.66,-0.266446229397813,0.279661557698176
1.664,-0.251067094092769,0.285617826901561
1.668,-0.235189692756206,0.290644839648808
1.672,-0.218887922872272,0.294689375590361
1.676,-0.202241705355136,0.297705950124019
1.68,-0.185336026051855,0.299657478336123
1.684,-0.168259909627521,0.300515811826459
1.688,-0.151105342874522,0.300262142696448
1.692,-0.133966164745325,0.298887271192245
1.696,-0.116936940429876,0.296391735503568
1.7,-0.100111836512663,0.292785804608973
1.704,-0.0835835137385736,0.288089336933343
1.708,-0.067442053191747,0.2823315095378
1.712,-0.0517739306484766,0.275550424460393
1.716,-0.0366610529255008,0.26779260002406
1.72,-0.0221798685349893,0.259112356977768
1.724,-0.00840056379046146,0.249571109877332
1.728,0.00461364624972445,0.239236575681866
1.732,0.0168071237931081,0.22818191208318
1.736,0.0281323052296333,0.216484798825755
1.74,0.0385500839558659,0.204226475697622
1.744,0.0480300762571217,0.191490751132381
1.748,0.0565507686303041,0.178362995396341
1.752,0.0637581048030273,0.165113552474415
1.756,0.0697264414118422,0.151949551000358
1.76,0.0748511038767119,0.138793393198397
1.764,0.0791695267024619,0.125701949758161
1.768,0.0827227973389475,0.112725411779408
1.772,0.0855547174427891,0.0999071301554759
1.776,0.0877108732849411,0.0872835732071235
1.78,0.0892377288711609,0.0748843982694166
1.784,0.0901817545323554,0.0627326317059849
1.788,0.090588602781494,0.0508449506703866
1.792,0.0905023422690722,0.039232058399065
1.796,0.0899647593897539,0.0278991443610539
1.8,0.0890147362919951,0.016846419258242
1.804,0.0876877121388948,0.00606971443437626
1.808,0.0860152340978504,-0.00443886553700951
1.812,0.0840246021489321,-0.0146902486592257
1.816,0.0817386114996455,-0.02469767169319
1.82,0.0791753940878003,-0.0344759388353464
1.824,0.0763483600778845,-0.044040675100244
1.828,0.0732662381757809,-0.0534075865114208
1.832,0.0699332129196665,-0.0625917389772236
1.836,0.0663491551011003,-0.0716068673804877
1.84,0.0625099408608517,-0.0804647258964364
1.844,0.0584078531606864,-0.0891744898637505
1.848,0.0540320587151501,-0.0977422189607573
1.852,0.0493691520384744,-0.106170390233388
1.856,0.044403757460022,-0.114457508808339
1.86,0.0391191790956797,-0.122597802904808
1.864,0.0334980879920293,-0.13058100845039
1.868,0.0275232351099032,-0.138392247519536
1.872,0.0211781783665758,-0.1460120032962
1.876,0.0143336826968537,-0.153551053326341
1.88,0.00667052774419702,-0.16117534481277
1.884,-0.00150753219376126,-0.168387038806303
1.888,-0.0101812684802954,-0.175132187078894
1.892,-0.0193247922861827,-0.181357599088204
1.896,-0.0289055944756105,-0.187011673691139
1.9,-0.0388846863526051,-0.1920452245997
1.904,-0.0492168399719366,-0.196412287681257
1.908,-0.0598509255995232,-0.200070898544575
1.912,-0.0707303422666916,-0.202983829093343
1.916,-0.0817935363904295,-0.205119272292851
1.92,-0.0929746020287266,-0.206451464915779
1.924,-0.10420395514729,-0.206961238945596
1.928,-0.115409073443534,-0.206636493109013
1.932,-0.126515291966329,-0.205472577038266
1.936,-0.137446644274014,-0.203472581794388
1.94,-0.148126737898588,-0.200647531625206
1.944,-0.158479652489337,-0.197016473128699
1.948,-0.168430848502478,-0.192606459547079
1.952,-0.177908074129216,-0.187452429050222
1.956,-0.186842258013156,-0.181596977618857
1.96,-0.195168375469029,-0.175090028348661
1.964,-0.202826276107222,-0.167988400635827
1.968,-0.209761461318608,-0.160355283952832
1.972,-0.215925800486067,-0.152259622299874
1.976,-0.22127817578247,-0.143775416860602
1.98,-0.225785046153847,-0.134980955248071
1.984,-0.22942092213635,-0.125957977099201
1.988,-0.23216874440701,-0.116790786533031
1.992,-0.234020160208587,-0.107565322832862
1.996,-0.234975692978329,-0.0983682013579728
2,-0.235044802339653,-0.089285737163906
2.004,-0.233676591985017,-0.0807245951650832
2.008,-0.231553702277994,-0.0725812894817437
2.012,-0.228734949513318,-0.0649187207252358
2.016,-0.225284451827064,-0.0577921993957676
2.02,-0.221270672333834,-0.0512489921151327
2.024,-0.216765423908706,-0.0453279866697186
2.028,-0.211842849943715,-0.040059478739529
2.032,-0.206578395925949,-0.0354650818441845
2.036,-0.201047786563103,-0.0315577600318844
2.04,-0.195326022998104,-0.0283419810621196
2.044,-0.189486414275619,-0.0258139862571668
2.048,-0.183599656468574,-0.0239621714605483
2.052,-0.177732972377963,-0.022767571961981
2.056,-0.171949323298003,-0.0222044429126813
2.06,-0.166306703560777,-0.0222409253308703
2.064,-0.160857527130636,-0.0228397866740596
2.068,-0.155648114059281,-0.023959224038148
2.072,-0.150718283186937,-0.0255537170968689
2.076,-0.146101055861325,-0.0275749173912951
2.08,-0.141822473634781,-0.0299725600895532
2.084,-0.137901531581043,-0.03269538413204
2.088,-0.134350226646215,-0.0356920466972134
2.092,-0.131173719312279,-0.0389120179504677
2.096,-0.128370604874179,-0.0423064427126782
2.1,-0.125933289052319,-0.0458289558823862
2.104,-0.123848461495883,-0.0494364394025956
2.108,-0.122097658897333,-0.0530897095597729
2.112,-0.120657908519358,-0.0567541240832131
2.116,-0.119502441630776,-0.0604001001587855
2.12,-0.118601465398665,-0.0640035353981331
2.124,-0.11792298096793,-0.0675461254931779
2.128,-0.117109343468687,-0.0704219184472623
2.132,-0.116177584605782,-0.0731229869815863
2.136,-0.115199648063984,-0.0758918513521094
2.14,-0.114170811100208,-0.0787636185536316
2.144,-0.113092865371011,-0.0817746372219767
2.148,-0.111974257543831,-0.0849615371330459
2.152,-0.110830101420796,-0.0883602593696885
2.156,-0.109682061857578,-0.0920050933379578
2.16,-0.108558112610986,-0.0959277366829069
2.164,-0.107492172270319,-0.100156393645098
2.168,-0.106523624212522,-0.104714926714392
2.172,-0.10569672821563,-0.109622075594586
2.176,-0.105059932985487,-0.114890756407402
2.18,-0.104665100325597,-0.120527452785919
2.184,-0.104566653007916,-0.126531709268264
2.188,-0.104820659319178,-0.132895735687556
2.192,-0.105483868546633,-0.139604129716976
2.196,-0.106612712068118,-0.146633723112852
2.2,-0.108262285478628,-0.153953555156609
2.204,-0.110485327427469,-0.161524975312586
2.208,-0.113331211004296,-0.169301874826805
2.212,-0.116844963422471,-0.177231045534578
2.216,-0.121066329486774,-0.185252662004455
2.22,-0.12602889376861,-0.193300881543584
2.224,-0.131759275836722,-0.201304554606948
2.228,-0.138276411889214,-0.209188036714227
2.232,-0.145590935089127,-0.216872091275616
2.236,-0.153704665652164,-0.224274871251257
2.24,-0.162610220334332,-0.231312966390896
2.244,-0.172290749278971,-0.237902501525538
2.248,-0.182719806604237,-0.243960270497208
2.252,-0.194127542617493,-0.249131443323388
2.256,-0.206361749186179,-0.253245155378702
2.26,-0.21904872367912,-0.256492138424129
2.264,-0.232108193262732,-0.258832868933942
2.268,-0.245456502246977,-0.260236562464915
2.272,-0.259007633155384,-0.260681459968118
2.276,-0.272674250594902,-0.260154992455546
2.28,-0.286368753613141,-0.258653822418772
2.284,-0.300004322077315,-0.256183762258442
2.288,-0.313495942647377,-0.252759571185893
2.292,-0.326761400299799,-0.248404634335391
2.296,-0.339722221831546,-0.243150528940595
2.3,-0.352304558403847,-0.237036484145404
2.304,-0.364439995121671,-0.230108742710218
2.308,-0.3760662765121,-0.222419833762727
2.312,-0.387127938172968,-0.214027767514984
2.316,-0.397576835891582,-0.204995163561901
2.32,-0.407372565229512,-0.195388325545099
2.324,-0.416482765902655,-0.185276275691718
2.328,-0.424883307116001,-0.174729763292426
2.332,-0.432558351572944,-0.163820261612222
2.336,-0.439500297631487,-0.152618967914241
2.34,-0.445709600925533,-0.141195821259959
2.344,-0.451194478420102,-0.129618552518923
2.348,-0.455970499656045,-0.117951780635482
2.352,-0.460060071603734,-0.106256168383459
2.356,-0.463491824995306,-0.094587650386212
2.36,-0.466299911787238,-0.0829967446514395
2.364,-0.468523224297978,-0.0715279580718862
2.368,-0.470204548231478,-0.0602192948204484
2.372,-0.471389662484168,-0.0491018751252077
2.376,-0.472167095882077,-0.038262024421312
2.38,-0.472704028348766,-0.0278141738116481
2.384,-0.472943300674637,-0.0175568148264435
2.388,-0.472923552515671,-0.00748304136271618
2.392,-0.472680274688941,0.00241947895258621
2.396,-0.472245133015013,0.0121679790373448
2.4,-0.471645365818354,0.0217839868016885
2.404,-0.470903264236623,0.031292649415126
2.408,-0.470035743205038,0.0407219981582183
2.412,-0.469054009726504,0.0501021653260763
2.416,-0.467963333627674,0.0594645655064526
2.42,-0.466762924351345,0.0688410540238148
2.424,-0.465445915936236,0.0782630757146996
2.428,-0.463999460556034,0.087760817356996
2.432,-0.462404929570217,0.0973623770485892
2.436,-0.460638219339353,0.107092963577966
2.44,-0.458737770926936,0.117026923939149
2.444,-0.456624986568121,0.12718090578807
2.448,-0.454213687103495,0.137536571483743
2.452,-0.451459139215222,0.148095862348471
2.456,-0.44831479912889,0.158854149335112
2.46,-0.444733181952282,0.169799965793387
2.464,-0.440666761649512,0.180914850360264
2.468,-0.436068888132565,0.192173302690963
2.472,-0.430894707647927,0.203542853716709
2.476,-0.425102072571697,0.214984250052338
2.48,-0.41865242681224,0.22645175080079
2.484,-0.411511653489222,0.237893533141383
2.488,-0.403650871739659,0.249252201644435
2.492,-0.395047170693117,0.260465394840626
2.496,-0.38568426894526,0.27146648086864
2.5,-0.375553089397584,0.282185333111459
2.504,-0.364300111329676,0.292718991894451
2.508,-0.352247085913886,0.302734191033883
2.512,-0.339425403566671,0.312149804147773
2.516,-0.325875720847467,0.320887514698211
2.52,-0.311647612786136,0.328872908521891
2.524,-0.296799096595429,0.336036517399338
2.528,-0.281396033867362,0.342314798726802
2.532,-0.265511419783986,0.347651037384248
2.536,-0.249224569793659,0.351996157105057
2.54,-0.232620215250222,0.355309429772711
2.544,-0.215787521002435,0.35755907293746
2.548,-0.19881903877836,0.358722727056297
2.552,-0.181809611158816,0.358787805924579
2.556,-0.164855241512615,0.357751715529776
2.56,-0.148051945711712,0.355621938260259
2.564,-0.131494601662521,0.35241598142824
2.568,-0.115275812578144,0.348161190860115
2.572,-0.0994847999210279,0.342894432163921
2.576,-0.0842063411827207,0.336661644117361
2.58,-0.069519767436641,0.329517270342001
2.584,-0.0554980344081978,0.321523577085883
2.588,-0.0422068800087356,0.312749866507347
2.592,-0.0297040801835028,0.303271596299019
2.596,-0.0180388133693488,0.29316941772226
2.6,-0.0072511426388343,0.28252814533866
2.604,0.00262837707328495,0.271435672642134
2.608,0.0115789609557698,0.259981848616568
2.612,0.0195897214521816,0.248257330905988
2.616,0.0266596584475806,0.236352431540523
2.62,0.0327975121331311,0.224355971639131
2.624,0.0380214801934299,0.21235416120519
2.628,0.0420368645199266,0.200996754126235
2.632,0.0452620272293797,0.190068020637858
2.636,0.0478862735760719,0.179430508989549
2.64,0.0499705967830569,0.169112207263687
2.644,0.0515761843697366,0.159132425656127
2.648,0.0527632941174092,0.14950202671532
2.652,0.0535901792126276,0.14022379445378
2.656,0.0541120791208986,0.13129293476907
2.66,0.0543802917323733,0.122697697589726
2.664,0.0544413411359694,0.114420109294922
2.668,0.0543362536915288,0.106436802349063
2.672,0.0540999538761958,0.0987199278842329
2.676,0.0537607889845243,0.0912381351421915
2.68,0.0533401904204309,0.0839576011710333
2.684,0.0528524767089335,0.0768430929501976
2.688,0.0523048016131297,0.0698590436707064
2.692,0.0516972481447236,0.0629706245138897
2.696,0.0510230671339837,0.0561447931925395
2.7,0.050269056568589,0.0493513006758807
2.704,0.0494160757741862,0.0425636381298477
2.708,0.0484396860776252,0.0357599066604934
2.712,0.0473109073915697,0.0289235938321344
2.716,0.0459970783444362,0.0220442417972015
2.72,0.0444628053729489,0.0151179940048878
2.724,0.0426709847242377,0.00814800883151355
2.728,0.0405838797145571,0.00114473089666279
2.732,0.0381642344136936,-0.00587398723686748
2.736,0.0353764040732888,-0.0128829174681477
2.74,0.0321874817443789,-0.0198496450512667
2.744,0.0285684006484645,-0.0267349133087305
2.748,0.0244949914859064,-0.0334931211411354
2.752,0.0195170400056631,-0.0402407402551378
2.756,0.0135691359765948,-0.0467572176655238
2.76,0.00709511929715891,-0.0527506832245476
2.764,0.000141119246439617,-0.0581527198873942
2.768,-0.00723738802963056,-0.0628997050572701
2.772,-0.014976158863744,-0.0669340407200078
2.776,-0.0230029178207087,-0.0702053081542687
2.78,-0.0312382397820158,-0.0726713278619266
2.784,-0.0395965659879081,-0.0742991064118367
2.788,-0.0479873394937075,-0.0750656539753585
2.792,-0.0563162434154786,-0.0749586575959085
2.796,-0.0644865234951576,-0.0739769978918063
2.8,-0.0724003752941419,-0.0721310989577147
2.804,-0.0799603746406248,-0.0694431037113434
2.808,-0.0870709295793954,-0.0659468699556378
2.812,-0.0936397311593792,-0.0616877845947629
