"Freq [GHz]","re(S(Antenna1_1_1,Antenna1_1_1)) []","im(S(Antenna1_1_1,Antenna1_1_1)) []"
1,0.371946149326975,0.0226835766485673
1.004,0.365068559293071,0.00322035974136582
1.008,0.357301647744122,-0.0156366702778711
1.012,0.348694019332621,-0.0338367709723424
1.016,0.339297510580731,-0.0513338410223086
1.02,0.329166633936324,-0.0680865975363129
1.024,0.318358022894224,-0.0840586753273622
1.028,0.306929889989109,-0.0992186513189676
1.032,0.294941508629557,-0.113539999089732
1.036,0.282452728602584,-0.127000980224865
1.04,0.26952353366838,-0.139584480579144
1.044,0.256213648082832,-0.15127780073191
1.048,0.242582197097488,-0.162072410788811
1.052,0.228687424602837,-0.171963680246798
1.056,0.214586469145609,-0.180950593863753
1.06,0.200335197602377,-0.189035464362372
1.064,0.18597615553418,-0.196220251211984
1.068,0.171553471133634,-0.202506189163938
1.072,0.157138987573471,-0.207906584175672
1.076,0.142784192356326,-0.212433388609298
1.08,0.128539568338311,-0.216100949965048
1.084,0.114454626010122,-0.218925984987518
1.088,0.100577923689261,-0.220927591606952
1.092,0.0869570667968967,-0.222127294672
1.096,0.0736386783294737,-0.222549119811618
1.1,0.0606683338524324,-0.222219688271488
1.104,0.0480904558132843,-0.221168324356771
1.108,0.0359481636435544,-0.219427166172891
1.112,0.0242830779382402,-0.217031269712247
1.116,0.013135078929933,-0.214018696028568
1.12,0.00254202143387934,-0.210430571307618
1.124,-0.00746058962298537,-0.206311110014708
1.128,-0.0167762960621964,-0.201664380901813
1.132,-0.0254011326695856,-0.196587466657609
1.136,-0.0333310992082988,-0.191154813886541
1.14,-0.0405485457191388,-0.185426378227241
1.144,-0.0470410762771434,-0.179463692767484
1.148,-0.0528017980177386,-0.173329327377334
1.152,-0.0578295013191941,-0.167086302085414
1.156,-0.0621287627875474,-0.160797464957256
1.16,-0.0657099644825177,-0.154524846330748
1.164,-0.0685892247619445,-0.148329002472988
1.168,-0.0707882383464994,-0.142268362451304
1.172,-0.0723340254595177,-0.136398592490977
1.176,-0.0732585923091261,-0.130771992087176
1.18,-0.0735985075103232,-0.125436935796144
1.184,-0.0733944013503356,-0.120437373841071
1.188,-0.0726903969411508,-0.115812403560291
1.192,-0.0715334842734315,-0.111595922174421
1.196,-0.0699728498415377,-0.107816369582415
1.2,-0.0680591759312662,-0.104496567760751
1.204,-0.0658439246462857,-0.101653661050288
1.208,-0.0633786224076638,-0.099299159152882
1.212,-0.0607141608632619,-0.0974390820699648
1.216,-0.057900129970005,-0.0960742036800398
1.22,-0.0549841983327487,-0.095200388069837
1.224,-0.0520115548936877,-0.0948090103643931
1.228,-0.049024424597556,-0.0948874515579384
1.232,-0.0460616688762451,-0.0954196548737464
1.236,-0.0431584797062867,-0.0963867295252734
1.24,-0.0403461736107837,-0.0977675864501774
1.244,-0.0376520894450481,-0.0995395896625448
1.248,-0.0350995911031767,-0.101679206394924
1.252,-0.0327563814610552,-0.104026136963726
1.256,-0.0305811368902285,-0.106537745566796
1.26,-0.0285148946609401,-0.109334889145664
1.264,-0.0265647710554566,-0.112413089991146
1.268,-0.0247384830492553,-0.115770006729791
1.272,-0.0230449023252011,-0.11940519320783
1.276,-0.0214945540848196,-0.123319757633033
1.28,-0.0201000444700858,-0.127515932947723
1.284,-0.0188764024179611,-0.131996571865839
1.288,-0.0178413242514163,-0.136764582221525
1.292,-0.017015312028224,-0.141822319970814
1.296,-0.0164216996957965,-0.14717095841956
1.3,-0.0160865642358606,-0.152809853022134
1.304,-0.0160385222371641,-0.158735921246641
1.308,-0.0163084155291799,-0.164943056730466
1.312,-0.0169288926505717,-0.171421596029117
1.316,-0.0179338958306519,-0.178157854976099
1.32,-0.0193580658465044,-0.185133749812928
1.324,-0.0212360794459468,-0.192326516047347
1.328,-0.0236019359512799,-0.199708535433768
1.332,-0.0264882111486597,-0.207247278603726
1.336,-0.0299252975729145,-0.214905367862586
1.34,-0.0339406507788354,-0.222640761471172
1.344,-0.0385580611509418,-0.230407057553882
1.348,-0.0437969702738596,-0.238153912639519
1.352,-0.0496718498054836,-0.245827566829071
1.356,-0.0561916592841898,-0.253371464784028
1.36,-0.063359397345561,-0.260726959273195
1.364,-0.0711717585017155,-0.267834081823722
1.368,-0.0796189049895017,-0.274632363340258
1.372,-0.0886843603268011,-0.281061686234092
1.376,-0.0984115810299754,-0.287047175551697
1.38,-0.108888477206228,-0.292456821248261
1.384,-0.1198603654817,-0.297263764541046
1.388,-0.131273748641588,-0.301426320964822
1.392,-0.143071638871784,-0.30490911863699
1.396,-0.155194422943178,-0.307683378124744
1.4,-0.167580743068014,-0.309727065167898
1.404,-0.180168374236151,-0.311024917427767
1.408,-0.192895079529268,-0.311568349325266
1.412,-0.205699426063913,-0.31135524178198
1.416,-0.218521545755306,-0.310389626121742
1.42,-0.231303826976475,-0.30868127357732
1.424,-0.243991525373937,-0.30624520362241
1.428,-0.25653328448921,-0.303101125777579
1.432,-0.268881559404475,-0.299272830490018
1.436,-0.280992939241693,-0.294787545272128
1.44,-0.292828366993727,-0.289675272357103
1.444,-0.304353257738783,-0.283968123848869
1.448,-0.315537518745655,-0.277699669618884
1.452,-0.32635547719719,-0.270904312109004
1.456,-0.336785723305638,-0.263616700823463
1.46,-0.346810878271014,-0.255871197572946
1.464,-0.35641729793524,-0.247701401650395
1.468,-0.365594724006723,-0.239139742058944
1.472,-0.374335895383299,-0.230217141743942
1.476,-0.382636132383253,-0.220962756595985
1.48,-0.390492906609615,-0.211403789843351
1.484,-0.397905408723174,-0.201565380391988
1.488,-0.404874125661673,-0.191470561746755
1.492,-0.411400437749838,-0.18114028644565
1.496,-0.417486244896266,-0.170593509475252
1.5,-0.423133629538171,-0.159847322915322
1.504,-0.428355692664718,-0.149047200109147
1.508,-0.433172718479754,-0.13806960223561
1.512,-0.437583421051062,-0.126922549786551
1.516,-0.441585258210651,-0.115613622860511
1.52,-0.44517444380535,-0.104150254184991
1.524,-0.448346003836827,-0.0925399997484311
1.528,-0.451093869755731,-0.0807907816809379
1.532,-0.453411001652406,-0.0689110994939003
1.536,-0.455289533902727,-0.0569102073119142
1.54,-0.456720935854189,-0.0447982562304886
1.544,-0.457696180502128,-0.0325864023117178
1.548,-0.458205914652934,-0.0202868820077579
1.552,-0.458240624886946,-0.00791305791136956
1.556,-0.457790794553326,0.00452056138557617
1.56,-0.456847048145277,0.0169983228327338
1.564,-0.455400280550209,0.0295034469792574
1.568,-0.453441769876703,0.0420180574294085
1.572,-0.45096327374596,0.0545232166756187
1.576,-0.447957110074681,0.0669989635504099
1.58,-0.444416224381718,0.07942434807403
1.584,-0.440334246563594,0.0917774601545796
1.588,-0.435705540792896,0.104035449494233
1.592,-0.430525252689123,0.116174535008696
1.596,-0.424789358243407,0.128170003159496
1.6,-0.418494719026805,0.139996195709777
1.604,-0.411639148048045,0.151626488500078
1.608,-0.404221490261586,0.163033263925655
1.612,-0.396241721091717,0.174187880730363
1.616,-0.387701065577769,0.185060645587298
1.62,-0.378602139768481,0.195620791598554
1.624,-0.368949114899975,0.205836469315685
1.628,-0.358653599580048,0.215797019337317
1.632,-0.34775266568338,0.225361736696673
1.636,-0.336287084964594,0.23444517213118
1.64,-0.32427477683748,0.243005287849358
1.644,-0.311737337731658,0.250999985165458
1.648,-0.29870022520021,0.258387454237819
1.652,-0.285192906874158,0.265126568359297
1.656,-0.271248965219315,0.271177318871621
1.66,-0.256906149636813,0.276501285087176
1.664,-0.242206368273769,0.281062131928561
1.668,-0.227195613072206,0.284826126579808
1.672,-0.211923812997272,0.287762664151361
1.676,-0.196444612020236,0.289844791352019
1.68,-0.180815070258055,0.291049716424123
1.684,-0.165095288605521,0.291359293197459
1.688,-0.149347959227522,0.290760467019448
1.692,-0.133637846299325,0.289245670575245
1.696,-0.118031203396876,0.286813158254568
1.7,-0.102595135800663,0.283467268595973
1.704,-0.0873969177265736,0.279218605669343
1.708,-0.072503276025747,0.2740841317178
1.712,-0.0579796531324766,0.268087165240393
1.716,-0.0438894630625008,0.26125728062406
1.72,-0.0302933548549893,0.253630107618868
1.724,-0.0172484982404615,0.245247031179332
1.728,-0.00480790606027555,0.236154794478366
1.732,0.00698019206310813,0.22640501016218
1.736,0.0180729116856333,0.216053587118755
1.74,0.0284331985168659,0.205160082075622
1.744,0.0380302257041217,0.193786987209381
1.748,0.0468396942133041,0.181998966571341
1.752,0.0546843704590273,0.170018379444415
1.756,0.0616147097988422,0.157972055920358
1.76,0.0678193347337119,0.145776930858397
1.764,0.0733135961209619,0.133480255548161
1.768,0.0781161874959475,0.121125271459408
1.772,0.0822484588580891,0.108750957925476
1.776,0.0857337119909411,0.0963918877371235
1.78,0.0885964939771609,0.0840781917314166
1.784,0.0908619054883554,0.0718356302869849
1.788,0.092554939817494,0.0596857676783866
1.792,0.0936998677290722,0.047646242528065
1.796,0.0943196819297539,0.0357311255160539
1.8,0.0944356133019951,0.023951353537242
1.804,0.0940667292688948,0.0123152278390763
1.808,0.0932296225578504,0.000828962275990489
1.812,0.0919381961189321,-0.0105027331375257
1.816,0.0902035481596455,-0.02167604887319
1.82,0.0880339580808003,-0.0326874684643464
1.824,0.0854349723228845,-0.043533172661244
1.828,0.0824095864667809,-0.0542084702964208
1.832,0.0789585177106665,-0.0647072701872236
1.836,0.0750805599181003,-0.0750216072504877
1.84,0.0707730114898517,-0.0851412345364363
1.844,0.0660321647702864,-0.0950532912937505
1.848,0.0608538444351501,-0.104742055060757
1.852,0.0552339812774744,-0.114188784113388
1.856,0.049169207225022,-0.123371654088339
1.86,0.0426574570656797,-0.132265790614808
1.864,0.0356985624160293,-0.14084339757239
1.868,0.0282948237999032,-0.149073978511536
1.872,0.0204515473265758,-0.1569246466162
1.876,0.0120726603468537,-0.164407859246341
1.88,0.00293532247419702,-0.17151300638977
1.884,-0.00662840630376126,-0.178014678787403
1.888,-0.0165751431002954,-0.183871766679894
1.892,-0.0268565046461827,-0.189046993669204
1.896,-0.0374195544156105,-0.193507552287139
1.9,-0.0482073286526051,-0.1972256756597
1.904,-0.0591594312619366,-0.200179136019257
1.908,-0.0702126867425232,-0.202351662382575
1.912,-0.0813018393166916,-0.203733271403343
1.916,-0.0923602862504295,-0.204320507132851
1.92,-0.103320832872727,-0.204116587055779
1.924,-0.11411645698629,-0.203131453665596
1.928,-0.124681070502834,-0.201381732169013
1.932,-0.134950266638329,-0.198890596738266
1.936,-0.144862041619014,-0.195687548944388
1.94,-0.154357480639288,-0.191808113465206
1.944,-0.163381398742337,-0.187293456968699
1.948,-0.171882928345478,-0.182189937564079
1.952,-0.179816046222216,-0.176548592478222
1.956,-0.187140033963156,-0.170424572502857
1.96,-0.193819867039029,-0.163876532272661
1.964,-0.199826528997222,-0.156965985532827
1.968,-0.205137248168608,-0.149756634841532
1.972,-0.209735655886067,-0.142313685070874
1.976,-0.21361186573247,-0.134703149972602
1.98,-0.216762474963847,-0.126991160790071
1.984,-0.21919048972635,-0.119243285556401
1.988,-0.22090517699701,-0.111523867285031
1.992,-0.221921846454587,-0.103895388705862
1.996,-0.222261566903329,-0.0964178706629728
2,-0.221950821723653,-0.089148310673906
2.004,-0.220834091936017,-0.0824993179550832
2.008,-0.219227151380994,-0.0762012881417437
2.012,-0.217176080106218,-0.0702819635552358
2.016,-0.214727724581064,-0.0647636228457676
2.02,-0.211929074481834,-0.0596631973251327
2.024,-0.208826670659706,-0.0549924551497186
2.028,-0.205466051071715,-0.050758248129529
2.032,-0.201891240788949,-0.0469628156121845
2.036,-0.198144291506103,-0.0436041393038844
2.04,-0.194264875278104,-0.0406763423601196
2.044,-0.190289936385619,-0.0381701259111668
2.048,-0.186253404558574,-0.0360732356535483
2.052,-0.182185972027963,-0.034370951048581
2.056,-0.178114935798003,-0.0330465894046813
2.06,-0.174064106150777,-0.0320820170638703
2.064,-0.170053781140636,-0.0314581598530596
2.068,-0.166100786219281,-0.031155505015048
2.072,-0.162218577261937,-0.0311545869558689
2.076,-0.158417404341325,-0.0314364493762951
2.08,-0.154704532775781,-0.0319830766225531
2.084,-0.151084517283043,-0.03277778752204
2.088,-0.147559524103215,-0.0338055854472134
2.092,-0.144129695364279,-0.0350534588904677
2.096,-0.140793549204479,-0.0365106276526782
2.1,-0.137548408573319,-0.0381687302123862
2.104,-0.134390851116883,-0.0400219491225956
2.108,-0.131317172087333,-0.0420670717897729
2.112,-0.128323851918858,-0.0443034851632131
2.116,-0.125408019874776,-0.0467331039687855
2.12,-0.122567905114665,-0.0493602330791331
2.124,-0.11980326657793,-0.0521913656001779
2.128,-0.116761767488687,-0.0550610647112623
2.132,-0.113639679355782,-0.0582009816785863
2.136,-0.110575928163984,-0.0617025157651094
2.14,-0.107603388640208,-0.0655820797916316
2.144,-0.104758538361011,-0.0698527047549767
2.148,-0.102081050323831,-0.0745234929400459
2.152,-0.0996133113407957,-0.0795991242976885
2.156,-0.0973998734475777,-0.0850794257239578
2.16,-0.0954868466629865,-0.0909590120199069
2.164,-0.0939212426023195,-0.0972270060960981
2.168,-0.0927502794325223,-0.103866844794392
2.172,-0.0920206595256296,-0.110856175204586
2.176,-0.0917778316994867,-0.118166844977402
2.18,-0.0920652503939972,-0.125764988295919
2.184,-0.0929236443319164,-0.133611207868264
2.188,-0.0943903071441777,-0.141660851387556
2.192,-0.096498422227633,-0.149864379206976
2.196,-0.0992764336054476,-0.158167818772852
2.2,-0.102747473874628,-0.166513299324609
2.204,-0.106928859462469,-0.174839659301586
2.208,-0.111831662331296,-0.183083117504805
2.212,-0.117460365992471,-0.191177997828578
2.216,-0.123812612456774,-0.199057496552455
2.22,-0.13087904507861,-0.206654480299084
2.224,-0.138643250786722,-0.213902302262948
2.228,-0.147081803499214,-0.220735623887227
2.232,-0.156164408949127,-0.227091229088616
2.236,-0.165854149312164,-0.232908818174257
2.24,-0.176107824441332,-0.238131768903896
2.244,-0.186876385025971,-0.242707852675538
2.248,-0.198105451333237,-0.246589894496208
2.252,-0.209761094223493,-0.249525059093388
2.256,-0.221700683543179,-0.251474457008702
2.26,-0.23380652088412,-0.252635605514129
2.264,-0.246012808434732,-0.253005768753942
2.268,-0.258254999993977,-0.252588653634915
2.272,-0.270470487759384,-0.251394116818118
2.276,-0.282599239208902,-0.249437795915546
2.28,-0.294584375769141,-0.246740672898772
2.284,-0.306372686113315,-0.243328578174442
2.288,-0.317915068171377,-0.239231644665893
2.292,-0.329166895237799,-0.23448372186239
2.296,-0.340088302901546,-0.229121759962595
2.3,-0.350644394943847,-0.223185174571404
2.304,-0.360805367481671,-0.216715202333218
2.308,-0.3705465523021,-0.209754257740127
2.312,-0.379848381212968,-0.202345301015984
2.316,-0.388696274671582,-0.194531226486901
2.32,-0.397080458882512,-0.186354280241099
2.324,-0.404995716684656,-0.177855515137718
2.328,-0.412441078278001,-0.169074290392426
2.332,-0.419419458621944,-0.160047822015222
2.336,-0.425937248959487,-0.150810789441241
2.34,-0.432003870343532,-0.141395002589959
2.344,-0.437631297388101,-0.131829132618923
2.348,-0.442833560617245,-0.122138508405482
2.352,-0.447626235866534,-0.112344980053459
2.356,-0.452025929079306,-0.102466849206212
2.36,-0.456049764653238,-0.0925188654414395
2.364,-0.459714885164978,-0.0825122868298862
2.368,-0.463037969908778,-0.0724550018164484
2.372,-0.466034779145168,-0.0623517090072077
2.376,-0.468756169544077,-0.052216557979312
2.38,-0.471293655792766,-0.0420507695336481
2.384,-0.473547189814637,-0.0317993524064435
2.388,-0.475518387845671,-0.0214566838707162
2.392,-0.477206280718941,-0.0110165728014138
2.396,-0.478607265175013,-0.000472661108355173
2.4,-0.479715105978354,0.0101811751986885
2.404,-0.480520987716623,0.020950431075126
2.408,-0.481013614841038,0.0318395891212183
2.412,-0.481179357532504,0.0428517530870763
2.416,-0.481002441089674,0.0539883030584526
2.42,-0.480465175513345,0.0652485768018148
2.424,-0.479548221927236,0.0766295813466996
2.428,-0.478230892026034,0.088125738446996
2.432,-0.476491476403217,0.0997286671285892
2.436,-0.474307597440353,0.111427006017966
2.44,-0.471668197206106,0.123248124699149
2.444,-0.468532763766121,0.13516048659807
2.448,-0.464868770268495,0.147116171963743
2.452,-0.460654965267222,0.159088043950471
2.456,-0.45587184467989,0.171045767935112
2.46,-0.450502047944282,0.182955965120387
2.464,-0.444530737074512,0.194782410838264
2.468,-0.437945953937565,0.206486275475963
2.472,-0.430738951317927,0.218026405535709
2.476,-0.422904493591697,0.229359641944338
2.48,-0.41444112315224,0.24044117226679
2.484,-0.405351389029222,0.251224913160883
2.488,-0.395642034579659,0.261663919022435
2.492,-0.385324141493117,0.271710812470626
2.496,-0.37441322776526,0.28131823205764
2.5,-0.362929297793584,0.290439292330459
2.504,-0.350702891433676,0.298993787463951
2.508,-0.337967772453886,0.306924557153883
2.512,-0.324765463301671,0.314191305519773
2.516,-0.311141253646466,0.320757334102211
2.52,-0.297143824336136,0.326589918801891
2.524,-0.282824832943429,0.331660644119338
2.528,-0.268238465793762,0.335945690686802
2.532,-0.253440961792986,0.339426072844248
2.536,-0.238490113708659,0.342087823395057
2.54,-0.223444752833222,0.343922123392711
2.544,-0.208364223168435,0.34492537551046
2.548,-0.19330785143336,0.345099220116297
2.552,-0.178334419208816,0.344450494034579
2.556,-0.163501643594615,0.342991132466776
2.56,-0.148865672581712,0.340738015423259
2.564,-0.134480601272521,0.33771276060924
2.568,-0.120398014728144,0.333941465407115
2.572,-0.106666563021028,0.32945440122702
2.576,-0.0933315736627207,0.324285664097361
2.58,-0.080434705986641,0.318472785953001
2.584,-0.0680136518681978,0.312056311560883
2.588,-0.0561018862487356,0.305079346496347
2.592,-0.0447284705405028,0.297587081981019
2.596,-0.0339179113963488,0.28962630271926
2.6,-0.0236900763018343,0.28124488414066
2.604,-0.0140601671637151,0.272491285602134
2.608,-0.00503875198723019,0.263414046386568
2.612,0.00336814583418158,0.254061290965988
2.616,0.0111589019525806,0.244480250600523
2.62,0.0183360912821311,0.234716807479131
2.624,0.0249062368334299,0.22481506801519
2.628,0.0309110828479266,0.215148930956235
2.632,0.0364386458853797,0.205523275947858
2.636,0.0415052210780719,0.195844078119549
2.64,0.0461232740700569,0.186125764058687
2.644,0.0503043376697366,0.176380585763127
2.648,0.0540587238974092,0.16661891784132
2.652,0.0573952846126276,0.15684959014678
2.656,0.0603212253408986,0.14708024923107
2.66,0.0628419752623733,0.137317741405926
2.664,0.0649611162859694,0.127568509841922
2.668,0.0666803725215288,0.117838997812063
2.672,0.0679996609561958,0.108136049997233
2.676,0.0689172027745243,0.0984673036768915
2.68,0.0694296942294309,0.0888415616470333
2.684,0.0695325342289335,0.0792691388401976
2.688,0.0692201056101297,0.0697621749207064
2.692,0.0684861053827236,0.0603349054338897
2.696,0.0673239186429837,0.0510038847425395
2.7,0.065727029808989,0.0417881544458807
2.704,0.0636894639791862,0.0327093518598477
2.708,0.0612062504526252,0.0237917540604934
2.712,0.0582738997785697,0.0150622538121344
2.716,0.0548908851434362,0.00655026496720153
2.72,0.0510581184729489,-0.00171244394511219
2.724,0.0467794113712377,-0.00969198800448645
2.728,0.0420619109245571,-0.0173526746853372
2.732,0.0369165003836936,-0.0246573806238675
2.736,0.0313581551232888,-0.0315679922381477
2.74,0.0254062445643789,-0.0380459049412667
2.744,0.0190847715584645,-0.0440525742605305
2.748,0.0124225412559064,-0.0495501110031354
2.752,0.00522104957566309,-0.0544377416171378
2.756,-0.00245213440340523,-0.0585945145265238
2.76,-0.0102943531728411,-0.0620306859417476
2.764,-0.0182380098835604,-0.0647286564643942
2.768,-0.0262130709656306,-0.0666778427832701
2.772,-0.034147865727744,-0.0678750002900078
2.776,-0.0419699261917087,-0.0683244491442687
2.78,-0.0496068552180158,-0.0680381988219266
2.784,-0.0569872102753081,-0.0670359678618367
2.788,-0.0640413898267075,-0.0653450969253585
2.792,-0.0707025091334786,-0.0630003552759085
2.796,-0.0769072522781576,-0.0600436419118063
2.8,-0.0825966874471419,-0.0565235848977148
2.804,-0.0877170329716248,-0.0524950434513434
2.808,-0.0922203622673954,-0.0480185194086378
2.812,-0.0960652366963793,-0.0431594857797629
