"Freq [GHz]","re(S(Antenna1_1_1,Antenna1_1_1)) []","im(S(Antenna1_1_1,Antenna1_1_1)) []"
1,0.371979194370975,0.0200549889515673
1.004,0.364820284919071,0.000597933417365825
1.008,0.356769047096422,-0.0182366012830711
1.012,0.347871757629721,-0.0363955635502424
1.016,0.338178800515131,-0.0538294293871086
1.02,0.327744384449224,-0.0704926361073129
1.024,0.316626196127684,-0.0863439909729622
1.028,0.304884992577709,-0.101347042821868
1.032,0.292584138140757,-0.115470405383902
1.036,0.279789093964284,-0.128688022246965
1.04,0.26656686980438,-0.140979365038844
1.044,0.252985449505832,-0.15232955843751
1.048,0.239113202608488,-0.162729427904011
1.052,0.225018295179837,-0.172175468505198
1.056,0.210768112992609,-0.180669735745253
1.06,0.196428709791377,-0.188219661785772
1.064,0.18208043360818,-0.194831339333684
1.068,0.167799003117634,-0.200525921284038
1.072,0.153616114731471,-0.205340342893672
1.076,0.139585267021826,-0.209300888655298
1.08,0.125756551414711,-0.212436941727047
1.084,0.112176538162122,-0.214780534542518
1.088,0.0988882270560605,-0.216365915002952
1.092,0.0859310560901967,-0.217229138222
1.096,0.0733409596482737,-0.217407691955618
1.1,0.0611504667230324,-0.216940161703488
1.104,0.0493888290258843,-0.215865939315771
1.108,0.0380821687013544,-0.214224976624891
1.112,0.0272536357076402,-0.212057583496247
1.116,0.016923565694133,-0.209404267678568
1.12,0.00710963036887934,-0.206305612091618
1.124,-0.00217302617398537,-0.202802183836708
1.128,-0.0109404367251964,-0.198973277881213
1.132,-0.0191733766715856,-0.194823784013209
1.136,-0.0268534680742988,-0.190377964746241
1.14,-0.0339722945581388,-0.185674425864241
1.144,-0.0405235088841434,-0.180751932235484
1.148,-0.0465028762817386,-0.17564933848077
1.152,-0.0519083171051941,-0.170405500076114
1.156,-0.0567399430265474,-0.165059166053256
1.16,-0.0610000816565177,-0.159648855856748
1.164,-0.0646932854319445,-0.154212724099988
1.168,-0.0678263218414994,-0.148788417846304
1.172,-0.0704081434051177,-0.143412931599977
1.176,-0.0724498373241261,-0.138122465364176
1.18,-0.0739645561299232,-0.132952290944144
1.184,-0.0749674320399356,-0.127936631131071
1.188,-0.0754754788886508,-0.123108555525291
1.192,-0.0755074864461316,-0.118499895603421
1.196,-0.0750839125369377,-0.114141180294415
1.2,-0.0742267786444662,-0.110061591836751
1.204,-0.0729595745682857,-0.106288940142288
1.208,-0.0713071772066638,-0.102849652431882
1.212,-0.0692957876752619,-0.0997687735383648
1.216,-0.066952889781005,-0.0970699711408398
1.22,-0.0643072314057487,-0.094775539364837
1.224,-0.0613888286936877,-0.0929063936933931
1.228,-0.058228991120556,-0.0914820500407384
1.232,-0.0548603637472451,-0.0905205811966464
1.236,-0.0513169811772867,-0.0900385445979734
1.24,-0.0476343261687837,-0.0900508765783774
1.244,-0.0438493845320481,-0.0905707497905448
1.248,-0.0400006869561767,-0.0916093923639242
1.252,-0.0360713081813552,-0.0932022271657258
1.256,-0.0321131033547285,-0.0953794431447964
1.26,-0.0282351622009401,-0.0981244448946637
1.264,-0.0244883352024566,-0.101434593699146
1.268,-0.0209241084669553,-0.105302658044791
1.272,-0.0175941170988011,-0.10971658216283
1.276,-0.0145496035244196,-0.114659318372033
1.28,-0.0118408309420858,-0.120108734962723
1.284,-0.00951646448196111,-0.126037609444839
1.288,-0.00762293466841625,-0.132413714665525
1.292,-0.00620379932422403,-0.139200002510914
1.296,-0.00529912103779649,-0.14635488683656
1.3,-0.00494487767286056,-0.153832624057134
1.304,-0.00517242314716405,-0.161583786503641
1.308,-0.00600801479317987,-0.169555820447566
1.312,-0.00747242206257175,-0.177693677641217
1.316,-0.00958062923365191,-0.185940506550399
1.32,-0.0123416421725044,-0.194238387162928
1.324,-0.0157584061669468,-0.202529091528347
1.328,-0.0198278385053799,-0.210754851023768
1.332,-0.0245409760141597,-0.218859110883726
1.336,-0.0298832341669145,-0.226787252665586
1.34,-0.0358347709398354,-0.234487266241172
1.344,-0.0423709453390418,-0.241910354351882
1.348,-0.0494628576086596,-0.249011454903519
1.352,-0.0570779556673836,-0.255749668774071
1.356,-0.0651806904161898,-0.262088583911028
1.36,-0.073733201238561,-0.267996489872195
1.364,-0.0826960123637155,-0.273446480416722
1.368,-0.0920287208005017,-0.278416445351958
1.372,-0.101690657237801,-0.282888956265492
1.376,-0.111612908935975,-0.286835340250697
1.38,-0.121690343067228,-0.290236363722261
1.384,-0.1319711227647,-0.293148156028246
1.388,-0.142426479172588,-0.295569770746962
1.392,-0.153029638853784,-0.29750173350359
1.396,-0.163755789846178,-0.298945613557744
1.4,-0.174581977440014,-0.299903630989899
1.404,-0.185486939569151,-0.300378309934767
1.408,-0.196450893213468,-0.300372186021266
1.412,-0.207455284103013,-0.29988757372998
1.416,-0.218482512484306,-0.298926396835742
1.42,-0.229515647640475,-0.29749008261032
1.424,-0.240538143316937,-0.29557951808541
1.428,-0.25153356526978,-0.293195064519579
1.432,-0.262485340793775,-0.290336624332018
1.436,-0.273376538491693,-0.287003753230128
1.44,-0.284189684690727,-0.283195809153103
1.444,-0.294906620956783,-0.278912128899869
1.448,-0.305508405142655,-0.274152223049584
1.452,-0.31597525646819,-0.268915979853304
1.456,-0.326286543291638,-0.263203869338463
1.46,-0.336420810611014,-0.257017139637946
1.464,-0.34635584297824,-0.250357998724794
1.468,-0.356068757457723,-0.243229776045694
1.472,-0.365536120523299,-0.235637060014742
1.476,-0.374734082447253,-0.227585808882085
1.48,-0.383638522693615,-0.219083433996351
1.484,-0.392225200149174,-0.210138855926988
1.488,-0.400469902614673,-0.200762535176755
1.492,-0.408348590820538,-0.19096648031365
1.496,-0.415837533284966,-0.180764237137252
1.5,-0.422913429460171,-0.170170863047322
1.504,-0.429588991421618,-0.159142769830147
1.508,-0.435790677545254,-0.14775050104061
1.512,-0.441495989708812,-0.136016413214551
1.516,-0.446683690686751,-0.123964340113511
1.52,-0.45133388618835,-0.111619495616991
1.524,-0.455428097885827,-0.0990083797104311
1.528,-0.458949330292731,-0.0861586879249379
1.532,-0.461882134107406,-0.0730992237559003
1.536,-0.464212668251727,-0.0598598128617142
1.54,-0.465928762227189,-0.0464712172245883
1.544,-0.467019979705128,-0.0329650470745178
1.548,-0.467477683504934,-0.0193736681520579
1.552,-0.467295101280946,-0.00573010189946956
1.556,-0.466467390468326,0.00793208362587617
1.56,-0.464991700337277,0.0215788938836338
1.564,-0.462867228407209,0.0351760402252574
1.568,-0.460095268060703,0.0486890849584085
1.572,-0.45667924395396,0.0620835987286187
1.576,-0.452624731804681,0.0753253289254099
1.58,-0.447939459330718,0.08838037696803
1.584,-0.442633285536094,0.10121538144058
1.588,-0.436718156143996,0.113797703315233
1.592,-0.430208033795323,0.126095608910696
1.596,-0.423118802559007,0.138078445780496
1.6,-0.415468147348505,0.149716806537777
1.604,-0.407275409933445,0.160982675673078
1.608,-0.398561424330586,0.171849554641655
1.612,-0.389348335394717,0.182292561079363
1.616,-0.379659405364769,0.192288498717298
1.62,-0.369518813865481,0.201815895521554
1.624,-0.358951457473975,0.210855008738685
1.628,-0.348022790027048,0.219325230051317
1.632,-0.33674957606238,0.227265937137873
1.636,-0.325143679768594,0.23468840918438
1.64,-0.31322701156448,0.241582145120758
1.644,-0.301020984268658,0.247937178180358
1.648,-0.28854657523621,0.253743869131819
1.652,-0.275824431720158,0.258992716946297
1.656,-0.262875016119315,0.263674195218621
1.66,-0.249718786175813,0.267778622039176
1.664,-0.236376403713769,0.271296070046561
1.668,-0.222868964173206,0.274216322147808
1.672,-0.209218238226072,0.276528876925361
1.676,-0.195446915959536,0.278223006008019
1.68,-0.181578843761055,0.279287863934123
1.684,-0.167639243974221,0.279712649086459
1.688,-0.153654907733522,0.279486812456448
1.692,-0.139654352071325,0.278600309176245
1.696,-0.125667933424876,0.277043886137568
1.7,-0.111727910993663,0.274809397599973
1.704,-0.0978684549975736,0.271890139545343
1.708,-0.084125596665747,0.2682811927428
1.712,-0.0705371186974766,0.263979764006393
1.716,-0.0571423869085008,0.25898551506436
1.72,-0.0439821257399893,0.253300868761788
1.724,-0.0310981421354615,0.246931282982332
1.728,-0.0185330040072756,0.239885483698366
1.732,-0.00632968096089187,0.23217564988018
1.736,0.00546884389263328,0.223817544565755
1.74,0.0168199813468659,0.214830588164622
1.744,0.0276819525961217,0.205237871943381
1.748,0.0380142045533041,0.195066111578341
1.752,0.0478257789430273,0.184300335967415
1.756,0.0570619930308422,0.172958692180358
1.76,0.0656320225045119,0.161121611759397
1.764,0.0735017052056119,0.148833315540161
1.768,0.0806404820057475,0.136140823315408
1.772,0.0870216177120891,0.123093575636476
1.776,0.0926223734389411,0.109743046877123
1.78,0.0974241328721609,0.0961423564294166
1.784,0.101412485860355,0.0823458839239849
1.788,0.104577273502494,0.0684088931963866
1.792,0.106912599321072,0.054387168503065
1.796,0.108416811288754,0.0403366652290539
1.8,0.109092459317995,0.026313176166342
1.804,0.108946232427895,0.0123720133373763
1.808,0.10798887921185,-0.00143229556490951
1.812,0.106235114395932,-0.0150462977491257
1.816,0.103703513384646,-0.02841789501519
1.82,0.1004163957018,-0.0414966148733464
1.824,0.0963996972328844,-0.054233875329244
1.828,0.0916828302517809,-0.0665832452894208
1.832,0.0862985294276665,-0.0785007019352236
1.836,0.0802826813041003,-0.0899448857044877
1.84,0.0736741343928517,-0.100877352574436
1.844,0.0665144867686864,-0.111262822309751
1.848,0.0588478481775501,-0.121069420285757
1.852,0.0507205740342744,-0.130268909403388
1.856,0.042180969288022,-0.138836907682339
1.86,0.0332789610406797,-0.146753086197808
1.864,0.0240657398930293,-0.15400134146239
1.868,0.0145933712499032,-0.160569935879536
1.872,0.00491437924157575,-0.1664515998022
1.876,-0.00488960024914628,-0.171622047916341
1.88,-0.014694215174803,-0.17605924478077
1.884,-0.0245315757237613,-0.179849034334303
1.888,-0.0343585112762954,-0.183005767579694
1.892,-0.0441344079051827,-0.185546853245604
1.896,-0.0538214679916105,-0.187492387121639
1.9,-0.0633849164506051,-0.1888647507817
1.904,-0.0727931486249366,-0.189688187835257
1.908,-0.0820178162645232,-0.189988366775575
1.912,-0.0910338495546916,-0.189791940147343
1.916,-0.0998194147814295,-0.189126110182851
1.92,-0.108355808991727,-0.188018211132779
1.924,-0.11662729472929,-0.186495318300596
1.928,-0.124620879669934,-0.184583893257013
1.932,-0.132326047549729,-0.182309473868266
1.936,-0.139734448269213,-0.179696416616388
1.94,-0.146839556272288,-0.176767697353206
1.944,-0.153636307295337,-0.173544774983699
1.948,-0.160120724266478,-0.170047520840079
1.952,-0.166289543535216,-0.166294214644222
1.956,-0.172139852609156,-0.162301606026857
1.96,-0.177668750340029,-0.158085038689661
1.964,-0.182873039821222,-0.153658632443827
1.968,-0.187748963350608,-0.149035516705532
1.972,-0.192291987601067,-0.144228107487574
1.976,-0.19649664565047,-0.139248418686602
1.98,-0.200356440896847,-0.134108397448071
1.984,-0.20386381607335,-0.128820272719401
1.988,-0.20701018866901,-0.123396905722031
1.992,-0.209786052198587,-0.117852131030862
1.996,-0.212181140824329,-0.112201077265973
2,-0.214184653086653,-0.106460456968906
2.004,-0.215840505182017,-0.100518247180083
2.008,-0.217046096219294,-0.0945138050027437
2.012,-0.217789167910918,-0.0884774554732358
2.016,-0.218059648549064,-0.0824419533177676
2.02,-0.217850060483834,-0.0764422689611327
2.024,-0.217155896431706,-0.0705153119577186
2.028,-0.215975955452715,-0.064699597539529
2.032,-0.214312630541949,-0.0590348632331845
2.036,-0.212172141073103,-0.0535616436138844
2.04,-0.209564704728104,-0.0483208120621196
2.044,-0.206504645047619,-0.0433530989956668
2.048,-0.203010432289574,-0.0386985963751483
2.052,-0.199104656791963,-0.034396258326181
2.056,-0.194813935559003,-0.0304834075926813
2.06,-0.190168754157777,-0.0269952571138703
2.064,-0.185203247345636,-0.0239644554310596
2.068,-0.179954922966281,-0.021420663867048
2.072,-0.174464334646937,-0.0193901725188689
2.076,-0.168774709644325,-0.0178955610652951
2.08,-0.162931538793781,-0.0169554093405531
2.084,-0.156982135972143,-0.01658406146104
2.088,-0.150975174698305,-0.0167914461812134
2.092,-0.144960209626079,-0.0175829550154677
2.096,-0.138987190554179,-0.0189593786196782
2.1,-0.133105976392319,-0.0209169008923862
2.104,-0.127365856149883,-0.0234471493545956
2.108,-0.121815083603333,-0.0265372995247729
2.112,-0.116500431728858,-0.0301702302982131
2.116,-0.111466772449776,-0.0343247267007855
2.12,-0.106756686577665,-0.0389757258791331
2.124,-0.10241010822293,-0.0440946017768779
2.128,-0.0985818853186873,-0.0496567563465223
2.132,-0.0952248023687823,-0.0555862027102863
2.136,-0.0923221822449843,-0.0618394988661094
2.14,-0.089893090265208,-0.0683800508296316
2.144,-0.087953441988011,-0.0751707413369767
2.148,-0.0865160838408306,-0.0821742063220459
2.152,-0.0855908958937957,-0.0893530898926885
2.156,-0.0851849133365777,-0.0966702766959577
2.16,-0.0853024632909865,-0.104089100999907
2.164,-0.0859453137854195,-0.111573532189098
2.168,-0.0871128318439523,-0.119088336710392
2.172,-0.0888021478543296,-0.126599216764586
2.176,-0.0910083235555867,-0.134072926314402
2.18,-0.0937245211655972,-0.141477365151919
2.184,-0.0969421713569164,-0.148781651970264
2.188,-0.100651137955178,-0.155956177540556
2.192,-0.104839877410633,-0.162972639248976
2.196,-0.109495591252448,-0.169804058373852
2.2,-0.114604369919628,-0.176424781644609
2.204,-0.120151326525469,-0.182810468722586
2.208,-0.126120719307296,-0.188938067393105
2.212,-0.132496061727471,-0.194785778368078
2.216,-0.139260219402774,-0.200333011692055
2.22,-0.14639549328761,-0.205560336845584
2.224,-0.153883688810722,-0.210449428689948
2.228,-0.161706170933214,-0.214983011439227
2.232,-0.169843905409127,-0.219144802824616
2.236,-0.178277486817164,-0.222919460587257
2.24,-0.186987154270332,-0.226292533320896
2.244,-0.195952795972871,-0.229250417561538
2.248,-0.205153944117447,-0.231780322801208
2.252,-0.214590844028493,-0.233912799985388
2.256,-0.224257043581879,-0.235626337148702
2.26,-0.23411216333412,-0.236861834542129
2.264,-0.244130663689732,-0.237606936112942
2.268,-0.254286219035977,-0.237850712960915
2.272,-0.264551800654384,-0.237583724110118
2.276,-0.274899765560902,-0.236798072308546
2.28,-0.285301951075141,-0.235487454239772
2.284,-0.295729774809315,-0.233647204485342
2.288,-0.306154339757377,-0.231274332531293
2.292,-0.316546543987799,-0.228367552136491
2.296,-0.326877194386546,-0.224927302340595
2.3,-0.337117123730847,-0.220955759446304
2.304,-0.347237310278671,-0.216456839351818
2.308,-0.3572089988991,-0.211436189694727
2.312,-0.367003822682968,-0.205901171370984
2.316,-0.376593923829582,-0.199860829144901
2.32,-0.385952072572512,-0.193325851204099
2.324,-0.395051782796455,-0.186308517717718
2.328,-0.403867423016101,-0.178822638639426
2.332,-0.412374321370544,-0.170883481198222
2.336,-0.420548863347267,-0.162507687748241
2.34,-0.428368581025133,-0.153713184827959
2.344,-0.435812232751202,-0.144519084468923
2.348,-0.442859872318245,-0.134945578988482
2.352,-0.449492906892734,-0.125013830608459
2.356,-0.455694143156306,-0.114745857376212
2.36,-0.461447821336238,-0.104164416920439
2.364,-0.466739637068978,-0.0932928896188862
2.368,-0.471556751232778,-0.0821551627406484
2.372,-0.475887788171168,-0.0707755170717077
2.376,-0.479716395800077,-0.059179933015512
2.38,-0.483022385621766,-0.0473997260264981
2.384,-0.485819380783637,-0.0354574213121435
2.388,-0.488102575008671,-0.0233773252920162
2.392,-0.489868388912941,-0.0111835210429138
2.396,-0.491114400973013,0.00110019501634483
2.4,-0.491839275436354,0.0134503656606885
2.404,-0.492042688709623,0.025843914582126
2.408,-0.491725255729038,0.0382581774692183
2.412,-0.490888457744304,0.0506709228690763
2.416,-0.489534572815474,0.0630603634134526
2.42,-0.487666610217245,0.0754051581798148
2.424,-0.485288249760926,0.0876844071036996
2.428,-0.482403786879434,0.099877638443996
2.432,-0.479018084130717,0.111964790391589
2.436,-0.475136529592553,0.123926187942966
2.44,-0.470766540437136,0.135735420266149
2.444,-0.465916089996121,0.14737702370307
2.448,-0.460591387484495,0.158837159370743
2.452,-0.454799384414222,0.170097867413471
2.456,-0.44854738862989,0.181141375791912
2.46,-0.441843073755282,0.191950060887187
2.464,-0.434694495968512,0.202506411366664
2.468,-0.427110117438565,0.212792995994263
2.472,-0.419098835769927,0.222792435938159
2.476,-0.410670018801697,0.232487382011138
2.48,-0.40183354417624,0.24186049718999
2.484,-0.392599843131222,0.250894444694583
2.488,-0.382979948035659,0.259571881872435
2.492,-0.372985543279117,0.267875460135626
2.496,-0.36262901912726,0.27578783120564
2.5,-0.351923528233584,0.283291659997459
2.504,-0.340908052254676,0.290389815493951
2.508,-0.329567067648886,0.297050578507883
2.512,-0.317915449712371,0.303255788940773
2.516,-0.305969241272326,0.308987299969211
2.52,-0.293745731927936,0.314227052780891
2.524,-0.281263534742229,0.318957163009338
2.528,-0.268542659252762,0.323160019514802
2.532,-0.255604579419986,0.326818396083248
2.536,-0.242472294869659,0.329915576533057
2.54,-0.229170383528222,0.332435493505711
2.544,-0.215725043520435,0.33436288096916
2.548,-0.20216412197436,0.335683440155697
2.552,-0.188517128268816,0.336384018250679
2.556,-0.174815229130615,0.336452798719776
2.56,-0.161091223019712,0.335879501685559
2.564,-0.147379491324521,0.33465559225774
2.568,-0.133715924048144,0.332774494212115
2.572,-0.120137817999028,0.33023180591572
2.576,-0.106683745843721,0.327025514926361
2.58,-0.093393394912641,0.323156207285001
2.584,-0.0803073751771978,0.318627267177883
2.588,-0.0674669965306356,0.313445062388347
2.592,-0.0549140161735027,0.307619110842019
2.596,-0.0426903576927488,0.30116222348726
2.6,-0.0308378042065343,0.29409061891566
2.604,-0.019397668714115,0.286424005334134
2.608,-0.00841044555313019,0.278185625905568
2.612,0.00208455244098158,0.269402264014988
2.616,0.0120495658585806,0.260104205620523
2.62,0.0214487639871311,0.250325156663131
2.624,0.0302486173134299,0.24010211433019
2.628,0.0383862155109266,0.229433346412235
2.632,0.0458432493513797,0.218400006021358
2.636,0.0526063587290719,0.207065359716049
2.64,0.0586573832930569,0.195479393502987
2.644,0.0639823790627366,0.183693598112107
2.648,0.0685717629624092,0.17176054500552
2.652,0.0724204067876276,0.15973344801058
2.656,0.0755276792798986,0.14766571755417
2.66,0.0778974360173733,0.135610514560726
2.664,0.0795379579639694,0.123620310975922
2.668,0.0804618405045288,0.111746463621063
2.672,0.0806858357636958,0.100038807615233
2.676,0.0802306518857243,0.0885452750648915
2.68,0.0791207136712309,0.0773115439530333
2.684,0.0773838895745435,0.0663807214111976
2.688,0.0750511905097297,0.0557930646157064
2.692,0.0721564461893236,0.0455857416728897
2.696,0.0687359648406837,0.0357926338965395
2.7,0.064828182098589,0.0264441799908807
2.704,0.0604733046821862,0.0175672617558477
2.708,0.0557129541356252,0.00918513018549339
2.712,0.0505898154825697,0.00131737009013441
2.716,0.0451472950874362,-0.00602009917769847
2.72,0.0394291914549489,-0.0128149897911122
2.724,0.0334793820392377,-0.0190585815408864
2.728,0.0273415284875571,-0.0247456313824372
2.732,0.0210588021146936,-0.0298742599564675
2.736,0.0146736308082888,-0.0344458185734477
2.74,0.00822746798837885,-0.0384647400212667
2.744,0.00176058380246451,-0.0419383763577305
2.748,-0.00468812168709357,-0.0448768265631354
2.752,-0.0110602564253369,-0.0473182205971378
2.756,-0.0173301589234052,-0.0492846334365238
2.76,-0.0234895164602411,-0.0507680848427476
2.764,-0.0295074466141604,-0.0517851510963942
2.768,-0.0353546531319306,-0.0523541020872701
2.772,-0.041003491292744,-0.0524947666420078
2.776,-0.0464280232777087,-0.0522283980952687
2.78,-0.0516040636730158,-0.0515775405979266
2.784,-0.0565092152129081,-0.0505658967328367
2.788,-0.0611228948907075,-0.0492181971533585
2.792,-0.0654263506364786,-0.0475600730209085
2.796,-0.0694026688821576,-0.0456179321528063
2.8,-0.0730367734941419,-0.0434188398112147
2.804,-0.0763154167586248,-0.0409904050878434
2.808,-0.0792271632893954,-0.0383606738173378
2.812,-0.0817623679933793,-0.0355580288201829
