"Freq [GHz]","re(S(Antenna1_1_p1,Antenna1_1_p1)) []","im(S(Antenna1_1_p1,Antenna1_1_p1)) []"
3,0.117749854302387,-0.075392467136587
3.002,0.117914957793,-0.0781521559191278
3.004,0.117965224201926,-0.080976940068213
3.006,0.117910590595518,-0.0838374289518325
3.008,0.117730742520052,-0.0867434288560777
3.01,0.117297008593274,-0.0895186333938913
3.012,0.117016297375997,-0.0926371465712454
3.014,0.116392650923707,-0.09549637836684
3.016,0.115724742828189,-0.098490328858087
3.018,0.115001705479242,-0.101620919599179
3.02,0.114071054296393,-0.104612274591505
3.022,0.11301329617066,-0.107602231950112
3.024,0.111823177956381,-0.110578817407568
3.026,0.110511577323118,-0.113541554996792
3.028,0.109068140617596,-0.116472709654353
3.03,0.107498404315707,-0.119376859468811
3.032,0.105798018234637,-0.122218313231385
3.034,0.103982064735011,-0.12488341556926
3.036,0.102042300473152,-0.127787287504279
3.038,0.0999824844234368,-0.130468589325175
3.04,0.0978038492407017,-0.133091553387268
3.042,0.095517658082807,-0.135638812251676
3.044,0.09311681794324,-0.138106001674039
3.046,0.0906140876138701,-0.140494535812736
3.048,0.088007767677786,-0.142786649566616
3.05,0.0853120134622692,-0.144982516692254
3.052,0.082521113631858,-0.147071744520705
3.054,0.07963877428155,-0.149062887593839
3.056,0.0766749494501328,-0.150948864720182
3.058,0.0736513659836504,-0.152701862210212
3.06,0.0706752908589762,-0.15420626244134
3.062,0.0673879707975629,-0.155863565742313
3.064,0.0641668414392852,-0.157259001747263
3.066,0.0609024516614716,-0.158524292309194
3.068,0.0575920805920752,-0.159657317503156
3.07,0.0542439002089626,-0.1606488417889
3.072,0.0508741157484154,-0.161520239923082
3.074,0.0474775799449382,-0.162254484331131
3.076,0.0440694212750651,-0.162847973818602
3.078,0.0407962997793133,-0.163255675492142
3.08,0.0374220934052896,-0.163573523990073
3.082,0.0338299598780308,-0.16379983521249
3.084,0.030426367980247,-0.163848157530999
3.086,0.0272566275979667,-0.163740918598127
3.088,0.0237195412824046,-0.163536932256151
3.09,0.0204157487959499,-0.163182794565669
3.092,0.017159425270368,-0.162695306253825
3.094,0.0141018306032107,-0.162107157311958
3.096,0.0107971863044003,-0.161352320193094
3.098,0.0077050748729856,-0.160498554328897
3.1,0.0046790498641464,-0.159530689836316
3.102,0.0017425796763232,-0.15845026259408
3.104,-0.0011280681111888,-0.157273389357592
3.106,-0.003913089041109,-0.155980085656469
3.108,-0.0066047599199197,-0.154598172347813
3.11,-0.0091907978600705,-0.153127255461959
3.112,-0.0116827754017469,-0.151564056876783
3.114,-0.0140667005844416,-0.149926255561964
3.116,-0.0163486218782842,-0.148211452652707
3.118,-0.0185087273651924,-0.14642651021327
3.12,-0.0205647210198114,-0.144598442740144
3.122,-0.0224891275901512,-0.142699358653856
3.124,-0.0243052907481207,-0.140768990411503
3.126,-0.0260021199497142,-0.138791034180957
3.128,-0.0275687979150773,-0.136781580406673
3.13,-0.0290113348882329,-0.134751331498722
3.132,-0.0303263125666799,-0.132699616795102
3.134,-0.031519773410716,-0.130641872295731
3.136,-0.032547811892479,-0.128741092623617
3.138,-0.0335264716448252,-0.126518477441332
3.14,-0.0343453706399235,-0.124475245919134
3.142,-0.0350420520976558,-0.12244777073881
3.144,-0.0356109218636978,-0.120445092266205
3.146,-0.0360753652274512,-0.118479088062471
3.148,-0.0364145843396342,-0.116552713193098
3.15,-0.0366463888397121,-0.114669604556622
3.152,-0.036767725183063,-0.112843340753115
3.154,-0.036785082067823,-0.11106733801237
3.156,-0.0367053505715792,-0.109374958621885
3.158,-0.0365250927477657,-0.107739086654539
3.16,-0.0362426824018068,-0.106171455046072
3.162,-0.035899970287004,-0.104708807542263
3.164,-0.0354605573802148,-0.10331999179596
3.166,-0.0349516425771991,-0.10202270342377
3.168,-0.0343722586577878,-0.100821068472574
3.17,-0.0337209747707379,-0.099714884925821
3.172,-0.033143037368365,-0.098836042459584
3.174,-0.032425088010902,-0.097961718688355
3.176,-0.0314892082195904,-0.097043006380713
3.178,-0.0306589241065646,-0.096359844144705
3.18,-0.0298066356783719,-0.095790904613031
3.182,-0.0289275871453407,-0.095348389348046
3.184,-0.0280274444574094,-0.095006750926555
3.186,-0.0271371103310488,-0.094769655464373
3.188,-0.0262360872705233,-0.09467671656075
3.19,-0.0255080589164359,-0.094733570672557
3.192,-0.0244695483126117,-0.094806828898312
3.194,-0.0236107109100576,-0.095045273801998
3.196,-0.0229524467314375,-0.095414930206725
3.198,-0.0219890944302961,-0.095858089238217
3.2,-0.0214165152879762,-0.096421864238068
3.202,-0.0205528868473491,-0.097087930706932
3.204,-0.020118969223184,-0.097845623737445
3.206,-0.0193303619423099,-0.098729156677038
3.208,-0.0188305718934999,-0.099703076160586
3.21,-0.0183865551870784,-0.10075375511289
3.212,-0.0180367320442741,-0.101888828701009
3.214,-0.0179298417762763,-0.103048380806442
3.216,-0.0175896180130783,-0.104412467677167
3.218,-0.0175144490619802,-0.105767724389524
3.22,-0.0175328845358896,-0.107201967470005
3.222,-0.0176519188813105,-0.108688491226815
3.224,-0.0179014552261017,-0.110229445731418
3.226,-0.0182295229269182,-0.11182257419985
3.228,-0.0187098233564161,-0.113434468503954
3.23,-0.0192719209402065,-0.115093385022507
3.232,-0.0200950788034913,-0.116629950461175
3.234,-0.0208039429774804,-0.118451830797403
3.236,-0.021740696245483,-0.120164212043159
3.238,-0.0228119882088185,-0.121881260344569
3.24,-0.0240025861423694,-0.123579946451058
3.242,-0.0253273881099061,-0.125264058390793
3.244,-0.0267658039491684,-0.126931531593981
3.246,-0.028325802056613,-0.128585207632128
3.248,-0.0300621389719803,-0.130022181263137
3.25,-0.0318634303124992,-0.131582658337781
3.252,-0.0337641172869234,-0.133273823992633
3.254,-0.0358121993492231,-0.134744513143938
3.256,-0.0379792202920309,-0.136138401850383
3.258,-0.0402500200698637,-0.137475399381805
3.26,-0.042613226752013,-0.138551888088794
3.262,-0.0451192904452309,-0.139908535162253
3.264,-0.0477001546961025,-0.140988128492867
3.266,-0.0503811257531733,-0.141985702990483
3.268,-0.0531441614288425,-0.142870232733469
3.27,-0.0559945725909247,-0.143648344497985
3.272,-0.05894326897403,-0.144334834697156
3.274,-0.0619531107905963,-0.144900048770265
3.276,-0.0650200492117412,-0.145326632681829
3.278,-0.0681550348677944,-0.145642355530619
3.28,-0.0713592680985796,-0.145832679998684
3.282,-0.0745882016234739,-0.145886041260279
3.284,-0.0778712394811423,-0.145817396810745
3.286,-0.0811863692190687,-0.145598833665387
3.288,-0.0843094741348109,-0.145066602708274
3.29,-0.0878777998509762,-0.144753897461023
3.292,-0.0912327343649712,-0.144116528251529
3.294,-0.0946284007014589,-0.143338264422683
3.296,-0.097994840308902,-0.142429571371055
3.298,-0.101362571360017,-0.141365137885541
3.3,-0.104699325038485,-0.140159064735977
3.302,-0.108010598613401,-0.138816965841783
3.304,-0.111301893063971,-0.137325478090499
3.306,-0.114544721458186,-0.135692506516395
3.308,-0.117731123088481,-0.133937098609012
3.31,-0.120868790786183,-0.132035320191678
3.312,-0.123953342261738,-0.1299941101901
3.314,-0.126943127570602,-0.12784660146082
3.316,-0.129686210548956,-0.125570572609782
3.318,-0.132724832869156,-0.123152517270832
3.32,-0.135263332714918,-0.120670606334234
3.322,-0.138143088286244,-0.11799891768519
3.324,-0.140706568384161,-0.115257118102371
3.326,-0.143173620705144,-0.112406166526443
3.328,-0.145499779985334,-0.109463015018591
3.33,-0.147735816404514,-0.106433483079105
3.332,-0.149836696719803,-0.103322481715899
3.334,-0.151828579309151,-0.100117058793129
3.336,-0.153664121534604,-0.0968613055297856
3.338,-0.155392064605247,-0.0935272161882834
3.34,-0.156982659720002,-0.0901277986631442
3.342,-0.158421843270126,-0.0866908751296365
3.344,-0.159727972561499,-0.0832085577004825
3.346,-0.160898415996659,-0.0796792668805703
3.348,-0.161913213196631,-0.0761400989377129
3.35,-0.162784938202474,-0.072575929676455
3.352,-0.163511717296631,-0.0689857241055617
3.354,-0.164013135774032,-0.0655685036324176
3.356,-0.164527622572974,-0.0618016384628962
3.358,-0.164820337895741,-0.0582171389633293
3.36,-0.164958723539048,-0.0546570883379887
3.362,-0.164968476344194,-0.0511122664444171
3.364,-0.164801628317034,-0.0477954991505198
3.366,-0.164553865647697,-0.0441149179486916
3.368,-0.164145996590099,-0.0407098285080128
3.37,-0.163585272541204,-0.0375202625234807
3.372,-0.162898014490098,-0.0340040940353162
3.374,-0.162127898176788,-0.0309575740783304
3.376,-0.161179764320842,-0.0275799540713154
3.378,-0.160186385219772,-0.0247159569565588
3.38,-0.15895722055718,-0.0214700877593595
3.382,-0.157770201420734,-0.0187221653576676
3.384,-0.156331820139887,-0.0157042526017444
3.386,-0.154848707943414,-0.012969362073935
3.388,-0.153297284396689,-0.0103429895784745
3.39,-0.151783461038798,-0.0080328041213831
3.392,-0.150038931049399,-0.0055809168204763
3.394,-0.148113526505402,-0.0031191235153839
3.396,-0.146253427577427,-0.000975231937703602
3.398,-0.144322979796031,0.0010867531788007
3.4,-0.142354630645788,0.0030107528878735
3.402,-0.140480363214073,0.0046827368903988
3.404,-0.138261749912757,0.0064724333339165
3.406,-0.136169390061559,0.0080180542320758
3.408,-0.134056070426876,0.00941739417395
3.41,-0.131923628692074,0.0106858998233111
3.412,-0.129782109977713,0.0118233410077845
3.414,-0.127638076871788,0.0128341154179009
3.416,-0.12550261588785,0.0137115429660564
3.418,-0.123576005545692,0.0144146043453919
3.42,-0.121482893869408,0.0150360170485235
3.422,-0.119199793958225,0.0155694527362195
3.424,-0.117151153508167,0.015939562505937
3.426,-0.115170516391508,0.0161875417902775
3.428,-0.113199971220079,0.0163173178353154
3.43,-0.111522508308331,0.0163506686588038
3.432,-0.109476802316248,0.0162366123183076
3.434,-0.107690687412069,0.0160258964091964
3.436,-0.106003830924843,0.0157147496325132
3.438,-0.104387029766747,0.0153104852327546
3.44,-0.102842969455315,0.0148153557054898
3.442,-0.101406918215395,0.0142250723149245
3.444,-0.100045323261002,0.0135590120012631
3.446,-0.098805809276934,0.0128274530080134
3.448,-0.097655115930294,0.0120024682291348
3.45,-0.096607683131751,0.0111325633160523
3.452,-0.095827341996694,0.0103247385445778
3.454,-0.094999069146179,0.00935147643165357
3.456,-0.094130972637762,0.00817241813201917
3.458,-0.093535767626086,0.00707796955167506
3.46,-0.093066415113375,0.00601304492330837
3.462,-0.09271034893974,0.00489568870847019
3.464,-0.092460135483315,0.00375442529721692
3.466,-0.09235673319024,0.00260781489454004
3.468,-0.092376890854509,0.00146472796120474
3.47,-0.09248738199762,0.0003267103084226
3.472,-0.092744703798117,-0.000803322892127079
3.474,-0.09312065767093,-0.00191037856638339
3.476,-0.093611515656626,-0.0029827488756884
3.478,-0.094217328610446,-0.0040299794836532
3.48,-0.094941567511248,-0.0050268726942444
3.482,-0.095781447630277,-0.0059650871099487
3.484,-0.096725885599791,-0.0068878258571627
3.486,-0.097773995701562,-0.0077040766316594
3.488,-0.098929471675227,-0.0084744335342589
3.49,-0.100183345236493,-0.0091602728866426
3.492,-0.101530778325232,-0.0097769598673103
3.494,-0.102962614753395,-0.0102974961977207
3.496,-0.104493365792865,-0.010730300018537
3.498,-0.106091018963101,-0.0110819805561169
3.5,-0.107662021638695,-0.0111044767590681
3.502,-0.109497054586824,-0.0114385650250349
3.504,-0.111308910364503,-0.0114470006976262
3.506,-0.113152213965821,-0.0113515542834859
3.508,-0.115066333458933,-0.0111395443895658
3.51,-0.117022117513048,-0.0107999383905278
3.512,-0.119018434275218,-0.0103586906663632
3.514,-0.121021113955046,-0.0097681022401
3.516,-0.123068363230291,-0.0090613333557682
3.518,-0.125103446198324,-0.00822513485646691
3.52,-0.127183876930516,-0.0072509169626526
3.522,-0.129223282268688,-0.0061519918005486
3.524,-0.13127547882327,-0.0049173106507851
3.526,-0.133057144949351,-0.0034511858271545
3.528,-0.135323659534635,-0.0020643051655833
3.53,-0.137087631423279,-0.000385593293265499
3.532,-0.139259099111471,0.0013190666020371
3.534,-0.141140065392063,0.0031936046824984
3.536,-0.142985264648135,0.0051985092605535
3.538,-0.144789665779494,0.007337710799104
3.54,-0.14626465026802,0.0095788704914222
3.542,-0.148139985903001,0.0119467388110213
3.544,-0.14970892297631,0.0144182070512127
3.546,-0.15118824193755,0.0169955362145896
3.548,-0.152595001689099,0.0197059603022344
3.55,-0.153859256301067,0.0224934532728438
3.552,-0.155051841226199,0.0253816196915516
3.554,-0.156143098424678,0.0283681517886826
3.556,-0.157095402168874,0.0314249654282487
3.558,-0.157933794448016,0.0345661752362887
3.56,-0.158651685222794,0.0377748203190024
3.562,-0.159060316889887,0.0409254813607256
3.564,-0.159702350796437,0.0444063934017101
3.566,-0.160021059254482,0.0477830268856854
3.568,-0.16021295525527,0.0512298111772709
3.57,-0.160247270983569,0.0547128994792099
3.572,-0.160148626221901,0.0582095733563531
3.574,-0.159894120884728,0.0617362426965179
3.576,-0.159494421452573,0.0652790860631303
3.578,-0.158956786586098,0.068843240938669
3.58,-0.158248870450155,0.0723704564069463
3.582,-0.157314601197755,0.0756985280081691
3.584,-0.156410358904027,0.079444805897838
3.586,-0.155268245250117,0.0829529331264247
3.588,-0.153974472807043,0.0864396137978896
3.59,-0.152496282569549,0.0896285658239944
3.592,-0.150924934449871,0.0930134495484159
3.594,-0.149224718891522,0.0965890260846786
3.596,-0.147355128013021,0.0998734321208876
3.598,-0.145352498151576,0.103069029054302
3.6,-0.143215632686798,0.106199656145643
3.602,-0.140947443464316,0.109253934793311
3.604,-0.138609217919454,0.111966460317309
3.606,-0.136035917560802,0.115077033483068
3.608,-0.133414240633851,0.117820017425005
3.61,-0.130671704504548,0.120473457609927
3.612,-0.127827600372881,0.123009002220241
3.614,-0.12487397458643,0.125440114636968
3.616,-0.121834003533914,0.127731670482559
3.618,-0.118706058438756,0.129893086313539
3.62,-0.115507705362583,0.131921598252946
3.622,-0.112227191008811,0.13380429224256
3.624,-0.108861533176141,0.135568660834985
3.626,-0.10565647272212,0.137005905005515
3.628,-0.102021045286685,0.138632427873809
3.63,-0.0985233307407032,0.139945170595369
3.632,-0.0949681734945401,0.141102342042858
3.634,-0.0914028186206142,0.142105405977207
3.636,-0.0878345153724088,0.142953378168514
3.638,-0.084237806240026,0.143651347906804
3.64,-0.0806460161238427,0.144191101832568
3.642,-0.0770473769311157,0.144571711237104
3.644,-0.0734509184526463,0.144806049102696
3.646,-0.0698677871510528,0.144875117992606
3.648,-0.0666123309954769,0.144761147540864
3.65,-0.0628594163193152,0.14456972463186
3.652,-0.0596473277919752,0.144165290899808
3.654,-0.0560062253926551,0.143653497007948
3.656,-0.0526705673041943,0.142991034127621
3.658,-0.0493773643369053,0.142172211637148
3.66,-0.0461849313024804,0.141234872940507
3.662,-0.0430704657979445,0.140166935455842
3.664,-0.0400420439396043,0.138964183803797
3.666,-0.0370983443870947,0.137640455305651
3.668,-0.0342397889674271,0.136190936651292
3.67,-0.0315274344391147,0.134651817387007
3.672,-0.0288981447963519,0.132993538293068
3.674,-0.0264033983131932,0.131248876681169
3.676,-0.0240055766078499,0.129385854381703
3.678,-0.0217722608270144,0.127475545070789
3.68,-0.0196362798302285,0.125476382667218
3.682,-0.0176418599643316,0.123403813009147
3.684,-0.0157858518679687,0.121253874040662
3.686,-0.0140797287561483,0.119079572630165
3.688,-0.012507496144882,0.116840064347555
3.69,-0.0110665657758625,0.114534010298286
3.692,-0.0099313858012549,0.112472476319221
3.694,-0.008662701588515,0.109920281519841
3.696,-0.0076748438653013,0.107548047456246
3.698,-0.0068431576744635,0.105204394227544
3.7,-0.006152947949104,0.10287639781303
3.702,-0.0056157303377052,0.100537592089723
3.704,-0.0052261491293483,0.098220041536724
3.706,-0.0049924018990189,0.095942030151918
3.708,-0.00486953264298341,0.093665396239536
3.71,-0.0049098762942514,0.0914390083795
3.712,-0.0050786337681272,0.089271437691676
3.714,-0.005388265107879,0.087184408189918
3.716,-0.00578496022041471,0.085392874465981
3.718,-0.00639443849216211,0.083159682103269
3.72,-0.0070812692449527,0.081273444740434
3.722,-0.0078876123220388,0.079471326044807
3.724,-0.008799901054209,0.077770079675697
3.726,-0.0098240962559882,0.076169573627529
3.728,-0.0109462363119552,0.074658860972823
3.73,-0.0119894625031279,0.073561258305062
3.732,-0.0134628860735063,0.072000285331342
3.734,-0.0148377260966625,0.070841202114959
3.736,-0.0163019233324823,0.069809165277801
3.738,-0.0178224217739857,0.068910211082591
3.74,-0.0193960023242767,0.068137227225037
3.742,-0.0210319438535766,0.06749742660579
3.744,-0.022702187164405,0.0670049228123
3.746,-0.0244123993668577,0.066644995740493
3.748,-0.0259168027509832,0.06657118562637
3.75,-0.027903439114717,0.066360798767433
3.752,-0.0296635907734924,0.066435288343967
3.754,-0.0314381518559863,0.066657249440228
3.756,-0.0331937170330003,0.067017993015486
3.758,-0.0349496536724503,0.067526236104918
3.76,-0.0366440772970652,0.068181337110421
3.762,-0.0383063916686571,0.068977483561226
3.764,-0.0399509382644565,0.069920515134489
3.766,-0.0415423127026317,0.070982937905677
3.768,-0.0430755511208991,0.072192564878851
3.77,-0.0445429541852739,0.073539133616864
3.772,-0.0459597755489708,0.075009636131422
3.774,-0.0472737976414071,0.076601978662994
3.776,-0.0484947404573638,0.078313012220683
3.778,-0.0496196449562697,0.080128884151911
3.78,-0.0503879076016254,0.081966540632047
3.782,-0.0515743590205656,0.084103720533885
3.784,-0.0523876899135603,0.086238715167062
3.786,-0.0530808747942462,0.08846009178731
3.788,-0.0536582165494181,0.090779258285673
3.79,-0.0538656547691455,0.092998566197565
3.792,-0.0541229129070407,0.095405261321754
3.794,-0.0545646602506623,0.098141583829247
3.796,-0.0545883347220813,0.100723024802083
3.798,-0.0544439267485669,0.103324060992006
3.8,-0.0539944657134468,0.105752535529077
3.802,-0.0535857092770908,0.108431441287191
3.804,-0.053182813808064,0.111387842764454
3.806,-0.0524530341444245,0.114102336361585
3.808,-0.0515628700951475,0.116830635927374
3.81,-0.0505201029217502,0.119561104640413
3.812,-0.0492168492000171,0.121959109901143
3.814,-0.0479542921619098,0.124931400844862
3.816,-0.0464475854176282,0.127602526301147
3.818,-0.0447759485078158,0.130183894139396
3.82,-0.0429126708359289,0.132391837971597
3.822,-0.0409990809207428,0.135250165132044
3.824,-0.0388788067890591,0.137417852419941
3.826,-0.0366317682185289,0.140061269006983
3.828,-0.0342320392206409,0.142373612524835
3.83,-0.0317052669538866,0.144546460762572
3.832,-0.0290399111170656,0.14665616062403
3.834,-0.026253640942779,0.148648328075142
3.836,-0.0233437497110386,0.150535505031143
3.838,-0.0203269747230771,0.152301742693797
3.84,-0.0171746916253201,0.153960383038522
3.842,-0.0139651137734728,0.155447216461449
3.844,-0.0108328318268313,0.156492624556506
3.846,-0.007220432702727,0.158054835332342
3.848,-0.003924283901127,0.158891715889313
3.85,-0.0001805686394145,0.160050098466336
3.852,0.003446889102659,0.16082725437777
3.854,0.0071327777278963,0.161453369760213
3.856,0.0108624856363614,0.161906008609251
3.858,0.0146313046599444,0.162197121066237
3.86,0.018447087233777,0.162322088794943
3.862,0.0220119641504504,0.16212923019826
3.864,0.0260846988940784,0.162056852234821
3.866,0.0299280221862071,0.161664725505613
3.868,0.0337584695455446,0.161108059330543
3.87,0.0372701765915121,0.160275383825022
3.872,0.0413830345276653,0.159476207586482
3.874,0.0451195504849071,0.158397177530894
3.876,0.0488340380675539,0.157159419249267
3.878,0.0524851563602417,0.15574627127413
3.88,0.0560888435586352,0.154184966345995
3.882,0.0593013402620098,0.152457685359816
3.884,0.0630616423956259,0.150572461691439
3.886,0.0664577584229743,0.148526618264021
3.888,0.0697047512678174,0.146347618144479
3.89,0.0728787000960879,0.144026792039916
3.892,0.0759627519676088,0.141549449514054
3.894,0.0788830170276607,0.138966014943631
3.896,0.0814281220583541,0.13636670451488
3.898,0.0844155600798694,0.133397423229923
3.9,0.0867007998415106,0.130595947563221
3.902,0.0893880206025812,0.127401472868045
3.904,0.0916717803231329,0.124240341302914
3.906,0.0935289897145004,0.121202438088086
