"Freq [GHz]","re(S(Antenna1_1_1,Antenna1_1_1)) []","im(S(Antenna1_1_1,Antenna1_1_1)) []"
3,-0.202197022618993,-0.163304222681326
3.0175,-0.210566529228113,-0.147275765354294
3.035,-0.217186412387577,-0.130630082958235
3.0525,-0.222024312147828,-0.113817124000254
3.07,-0.22528386274497,-0.0972084410087744
3.0875,-0.227299072913716,-0.0809676198363111
3.105,-0.228369958823793,-0.0650189301301729
3.1225,-0.228616178163742,-0.0491293666927398
3.14,-0.227917593731937,-0.0330664971856418
3.1575,-0.225970851449442,-0.01675878933033
3.175,-0.222437315792947,-0.000382987512885704
3.1925,-0.217114719654267,0.015664039617997
3.21,-0.210052622900943,0.0308984747458935
3.2275,-0.201554857407198,0.044908535306907
3.245,-0.192110082496488,0.0575435633127647
3.2625,-0.182124176962122,0.0689785640152738
3.28,-0.171755098703695,0.0795290358734707
3.2975,-0.160887839576846,0.0894726767350073
3.315,-0.149229122728838,0.0988788337657836
3.3325,-0.136490199948174,0.107539729573747
3.35,-0.12257154804433,0.115036456414248
3.3675,-0.107662051422488,0.120909654799412
3.385,-0.0922047946843257,0.124855470258413
3.4025,-0.0767437423776052,0.126854758156157
3.42,-0.0617216799871445,0.127173718920461
3.4375,-0.0473237247489872,0.126233601311451
3.455,-0.0334453428425284,0.124459587812013
3.4725,-0.019716109916579,0.121930800910926
3.49,-0.00588149504372149,0.118438223097946
3.5075,0.00806828637354871,0.113595740015848
3.525,0.0218371978258739,0.107044898145772
3.5425,0.0349087540882429,0.0986504791051344
3.56,0.0467372034862276,0.0885952592929442
3.5775,0.0569549043959105,0.0773299388997556
3.595,0.0654991847408724,0.0654019288535434
3.6125,0.072599801193613,0.0532431017405833
3.63,0.0786332335776797,0.041015700125255
3.6475,0.0839123046264567,0.0285885539375825
3.665,0.0885225155138196,0.0156325209933499
3.6825,0.0921898749438762,0.00185956509127588
3.7,0.0944583639659312,-0.0127088924391457
3.7175,0.0949362634960535,-0.0277638944943102
3.735,0.0934554950337256,-0.0427915917835986
3.7525,0.0901517529664017,-0.0572592103714919
3.77,0.08540767348723,-0.0708075260149587
3.7875,0.0796877313681248,-0.0833614109424199
3.805,0.0733427834950687,-0.0951092901745459
3.8225,0.0664748729901634,-0.106363504009411
3.84,0.0589238065010762,-0.117368352603784
3.8575,0.0503799593288956,-0.128146004895182
3.875,0.0405691868088063,-0.13845207555603
3.8925,0.0294161437532333,-0.1478195081673
3.91,0.0171992603517803,-0.155863075497277
3.9275,0.00433107862704257,-0.162388651690769
3.945,-0.0087580858629892,-0.167450435273193
3.9625,-0.0217749529392443,-0.171302584441747
3.98,-0.034650678315702,-0.17426629968005
3.9975,-0.0475243577351682,-0.176574671254147
4.015,-0.0606336924861807,-0.178265451347208
4.0325,-0.074165005194359,-0.179168273262516
4.05,-0.0881314232825466,-0.178989159759187
4.0675,-0.102333460442623,-0.177451448383049
4.085,-0.116417760851618,-0.174428008217608
4.1025,-0.130005209206841,-0.170005173058002
4.12,-0.142829032159859,-0.164450982005871
4.1375,-0.154820315038726,-0.158104097490431
4.155,-0.166103404599725,-0.151235276979112
4.1725,-0.176905169700562,-0.143944707876685
4.19,-0.187421081751305,-0.13614114849317
4.2075,-0.197700021840915,-0.127610932593189
4.225,-0.207600353191137,-0.118143877586347
4.2425,-0.21683669821828,-0.107657560425786
4.26,-0.22509525361987,-0.0962626984966502
4.2775,-0.232164281293081,-0.084239683523492
4.295,-0.238019695977924,-0.0719371042080934
4.3125,-0.242826353775581,-0.0596387853970176
4.33,-0.246882636411205,-0.0474825707928655
4.3475,-0.250410602204056,-0.035325460253722
4.365,-0.253472725890181,-0.0229676434036522
4.3825,-0.25595855889733,-0.0102290250159918
4.4,-0.257639906024427,0.0029465050777782
4.4175,-0.258277546388544,0.0164462030451563
4.435,-0.257730282863616,0.0300208703836901
4.4525,-0.256017655563735,0.0433775549220779
4.47,-0.253309736173339,0.0562893008754535
4.4875,-0.249850671620916,0.0686723399127658
4.505,-0.245852048973307,0.0805969789799633
4.5225,-0.241404763603115,0.0922289346626541
4.54,-0.236448681258338,0.103729101925831
4.5575,-0.230812648588441,0.115157817710571
4.575,-0.224305582320066,0.12642680626338
4.5925,-0.216816735577367,0.137319845462428
4.61,-0.208379740966211,0.147571983511137
4.6275,-0.199171928049517,0.156970940956902
4.645,-0.189449869273272,0.165434788807399
4.6625,-0.179450793215447,0.173031157576765
4.68,-0.169304591183064,0.179929878621752
4.6975,-0.158996009882744,0.186311008778509
4.715,-0.148393734873039,0.192270153679953
4.7325,-0.137332804794918,0.197764004876232
4.75,-0.125712764858068,0.202620693066809
4.7675,-0.113564862732655,0.206575545933373
4.785,-0.101109775774477,0.209479509424592
4.8025,-0.0885928019395192,0.211303101977443
4.82,-0.0762247760633895,0.212143093248513
4.8375,-0.0641155004591009,0.21217090059435
4.855,-0.0522550056099797,0.211553138379208
4.8725,-0.0405479682671133,0.210380360517845
4.89,-0.0288832643398593,0.208634539055087
4.9075,-0.0172062944142405,0.20620734844628
4.925,-0.0055621805334066,0.202958520098267
4.9425,0.00590770437978012,0.198786523900452
4.96,0.0170120557060632,0.193679777617709
4.9775,0.0275762917882577,0.187726674924784
4.995,0.0374990837566626,0.181081916617787
5.0125,0.0467741416953108,0.173906102361235
5.03,0.0554691312621055,0.166306696102759
5.0475,0.0636730325979528,0.158306713484456
5.065,0.0714369149712996,0.149854062861481
5.0825,0.0787351296430459,0.140865779323124
5.1,0.0854638176457221,0.131285920466045
5.1175,0.0914762903873929,0.121130434034713
5.135,0.0966382365704779,0.110498987715458
5.1525,0.100877244815038,0.0995492259676158
5.17,0.104204374603188,0.0884460115919518
5.1875,0.106698699427143,0.0773092097064456
5.205,0.108462716972954,0.066183685229402
5.2225,0.109569552345925,0.0550446079470942
5.24,0.110026186831879,0.0438348801754276
5.2575,0.109769225888262,0.032516970224198
5.275,0.108694656720363,0.0211151753579234
5.2925,0.106707560729907,0.00972904108989873
5.31,0.103768843346854,-0.00148795995403489
5.3275,0.0999176603334827,-0.012374502765073
5.345,0.0952594972730454,-0.0228110780576889
5.3625,0.0899255889785344,-0.0327506389729674
5.38,0.0840223816549566,-0.0422164450315853
5.3975,0.077594165546797,-0.05126835971098
5.415,0.0706158889580897,-0.0599532426824799
5.4325,0.0630193334508566,-0.0682622892946256
5.45,0.0547405873015112,-0.0761149636931965
5.4675,0.0457670188738184,-0.0833770271462214
5.485,0.0361621354697324,-0.0899045993400569
5.5025,0.0260567364782373,-0.0955942688744727
5.52,0.0156101006740837,-0.10041640552797
5.5375,0.0049586464611005,-0.104416347495402
5.555,-0.00582465042884388,-0.107682674869256
5.5725,-0.0167414997219611,-0.110296782291436
5.59,-0.0278448089433677,-0.112286631078378
5.6075,-0.0391908453813019,-0.113605914897861
5.625,-0.050788659222442,-0.114148562029796
5.6425,-0.0625822336715086,-0.113778149215751
5.66,-0.0743968313797626,-0.112420904808848
5.6775,-0.0860617806237964,-0.110089629783308
5.695,-0.0974412149995867,-0.106869389582513
5.7125,-0.108468384785913,-0.102879250451182
5.73,-0.11914796463939,-0.0982221120181912
5.7475,-0.129526661063065,-0.0929453500664344
5.765,-0.139646435706891,-0.0870293841063346
5.7825,-0.149501888023345,-0.0804083268177394
5.8,-0.159020822146702,-0.0730124885135716
5.8175,-0.168076160128006,-0.0648130768301683
5.835,-0.176523182836293,-0.0558489710443766
5.8525,-0.184244931591872,-0.0462239298585176
5.87,-0.191185344797507,-0.0360760432924935
5.8875,-0.197355600505564,-0.0255335949382878
5.905,-0.202811385416053,-0.0146773049014854
5.9225,-0.207611857558443,-0.00352572260934318
5.94,-0.211779103566036,0.00795009384401357
5.9575,-0.21527641395842,0.019789698898927
5.975,-0.218015035270666,0.0320011624485481
5.9925,-0.219886158883606,0.0445329289960522
6.01,-0.220803564667665,0.05727239435176
6.0275,-0.220737602344147,0.0700718680197622
6.045,-0.219725141257429,0.0827902482459283
6.0625,-0.217850952480767,0.0953316612069774
6.08,-0.215218976582394,0.107664424502306
6.0975,-0.211877769117916,0.119821874471655
6.115,-0.207817979032895,0.131837096627757
6.1325,-0.202982085262545,0.143709616143943
6.15,-0.197298273081908,0.155381400723946
6.1675,-0.19072127427748,0.166739872274006
6.185,-0.183261626751281,0.177645809580477
6.2025,-0.174990557643731,0.187972943221913
6.22,-0.16601900115163,0.197641186821035
6.2375,-0.156460924682003,0.206628817381491
6.255,-0.146397925522775,0.214958791281366
6.2725,-0.135861051530277,0.222666174887742
6.29,-0.124837628301536,0.229762040619813
6.3075,-0.113299373242528,0.236210442270385
6.325,-0.101238490175399,0.241928816315207
6.3425,-0.0886950493500673,0.246811328821087
6.36,-0.0757631832789896,0.250764266090256
6.3775,-0.0625734336704109,0.253737248411689
6.395,-0.0492594540668478,0.255736153235569
6.4125,-0.0359242800886966,0.256812108649115
6.43,-0.0226214076728665,0.257031846305466
6.4475,-0.00935903982402783,0.256443114917456
6.465,0.00387474029525817,0.255050974742636
6.4825,0.0170776071648387,0.252815723047495
6.5,0.0302052826777054,0.249673295133888
6.5175,0.0431645190736439,0.245558412392294
6.535,0.0558115218109922,0.240470890256115
6.5525,0.0680208249858551,0.234461411901036
6.57,0.0797026267902904,0.227617717487972
6.5875,0.0908147491860383,0.220035163561147
6.605,0.101353542507225,0.211787385095786
6.6225,0.111329036129668,0.20291004347332
6.64,0.120736354290012,0.19340415808523
6.6575,0.129536471597774,0.183256473983474
6.675,0.137654579013325,0.172466841509289
6.6925,0.144996072323169,0.161069919648562
6.71,0.151472287673127,0.149141628416563
6.7275,0.157024086194592,0.136788026962569
6.745,0.161632860429795,0.1241222752755
6.7625,0.165314617304158,0.111240455896397
6.78,0.168100585417642,0.0982071125108689
6.7975,0.170013745400342,0.0850565580981411
6.815,0.171052188994889,0.0718086445398632
6.8325,0.171186748691257,0.0584911584457727
6.85,0.170373618762492,0.0451582215179174
6.8675,0.168575829761862,0.0318961718479456
6.885,0.165783534227463,0.0188143081456695
6.9025,0.162023797907414,0.00602483652743982
6.92,0.157355532356911,-0.00637879172391506
6.9375,0.151852037967696,-0.0183353683874246
6.955,0.145584208964866,-0.0298174411305115
6.9725,0.1385840686631,-0.0408156214837488
6.99,0.130864829001188,-0.051307466151422
7.0075,0.122430409197564,-0.0612491985309391
7.025,0.11329358687386,-0.0705740193704676
7.0425,0.103490784139972,-0.0792022254208491
7.06,0.0930870259461419,-0.0870581734773134
7.0775,0.0821692351393921,-0.0940863552223955
7.095,0.0708312435480277,-0.100259592888959
7.1125,0.0591573976460639,-0.105576144596044
7.13,0.0472119629729005,-0.110047538400607
7.1475,0.0350386694482474,-0.113682979450221
7.165,0.0226700699021128,-0.116477465373767
7.1825,0.0101420276529211,-0.118408832427791
7.2,-0.0024934838020512,-0.119444791962464
7.2175,-0.0151631242395241,-0.119556514898405
7.235,-0.0277767911654295,-0.118732483602765
7.2525,-0.0402399305688332,-0.11698636729588
7.27,-0.0524680020868858,-0.11435549731801
7.2875,-0.064396709839472,-0.110890800162349
7.305,-0.0759836490091435,-0.106642848550311
7.3225,-0.0872009632796759,-0.101650326723297
7.34,-0.0980226595337353,-0.095935984933978
7.3575,-0.108412567139194,-0.0895116756196772
7.375,-0.118318535258106,-0.0823899171736026
7.3925,-0.127672538469039,-0.0745952497268223
7.41,-0.13640955568486,-0.0661794324674168
7.4275,-0.144476900293488,-0.0572091686125837
7.445,-0.151841685121394,-0.0477594722928681
7.4625,-0.158491053670491,-0.0379019633947478
7.48,-0.164425310694971,-0.027695782257664
7.4975,-0.169647252801638,-0.0171848733675365
7.515,-0.174152532472037,-0.00640246050360121
7.5325,-0.177925251362118,0.00461964707096449
7.55,-0.180940522725081,0.0158413149431137
7.5675,-0.183172604856289,0.0272083432816873
7.585,-0.184604788131116,0.0386532402970063
7.6025,-0.185236560427846,0.0501020561943589
7.62,-0.185084916938421,0.061484147868286
7.6375,-0.184179370297296,0.0727405329942439
7.655,-0.182553027891672,0.0838272405970507
7.6725,-0.180233786624021,0.0947123892564062
7.69,-0.177239533851336,0.10536855216425
7.7075,-0.173579354439258,0.115764032066212
7.725,-0.169260008512589,0.125857069916173
7.7425,-0.164294598281995,0.13559560889799
7.76,-0.158709420320101,0.144922693933423
7.7775,-0.152545881710995,0.153785060981525
7.795,-0.145856614963337,0.162141083872185
7.8125,-0.138697526051482,0.169964593218619
7.83,-0.131120360435334,0.177242873669511
7.8475,-0.123163686878427,0.183971421812285
7.865,-0.114856302748442,0.190142321941988
7.8825,-0.106222438179739,0.195739673919332
7.9,-0.0972895915903672,0.200738797453579
7.9175,-0.0880949557487964,0.205110587609493
7.935,-0.0786875657403131,0.20882891765456
7.9525,-0.0691252876382835,0.211877699208965
7.97,-0.0594680863449106,0.214254463356361
7.9875,-0.0497706263673856,0.215968965450372
8.005,-0.0400774721247284,0.217037577094283
8.0225,-0.0304229055154463,0.217476090791011
8.04,-0.0208351655716569,0.217294444179986
8.0575,-0.011342962352545,0.21649447968088
8.075,-0.00198263538383941,0.215073536272491
8.0925,0.00720010225711506,0.213031912686167
8.11,0.0161529755695811,0.210378970795988
8.1275,0.0248232786847747,0.207136288970554
8.145,0.0331645740160209,0.203336242835633
8.1625,0.0411409373249525,0.199016759582373
8.18,0.0487269243935633,0.194214720883339
8.1975,0.0559034382955431,0.188961049710619
8.215,0.0626515569322323,0.183279676758446
8.2325,0.0689472832747929,0.177190751047942
8.25,0.0747597088973858,0.170716488850967
8.2675,0.080053085416342,0.163885950832523
8.285,0.084792687423727,0.156741620723046
8.3025,0.0889531301418852,0.14933356851707
8.32,0.0925203410903401,0.14171447073317
8.3375,0.0954903210771286,0.133933570599752
8.355,0.0978644996230048,0.126032942781777
8.3725,0.0996439915510304,0.118047636212429
8.39,0.100825482676207,0.110009421203949
8.4075,0.101400623625183,0.101952210365674
8.425,0.10135912468356,0.0939165114618197
8.4425,0.100694024150689,0.0859508008422589
8.46,0.0994066419864204,0.078109195293568
8.4775,0.0975089504731336,0.0704465317510422
8.495,0.0950223585992381,0.0630131300737266
8.5125,0.091973601606499,0.0558515887948046
8.53,0.0883897524313618,0.0489969409969812
8.5475,0.084294718659233,0.0424798809314736
8.565,0.0797088170925821,0.0363313311896579
8.5825,0.0746515133130608,0.0305860273860063
8.6,0.0691458975088682,0.0252833155044675
8.6175,0.0632226561666371,0.0204647233649984
8.635,0.0569215663192242,0.0161694232190363
8.6525,0.0502897454846616,0.0124297064500477
8.67,0.0433774531808871,0.00926857071543773
8.6875,0.0362334104722178,0.00670049116729585
8.705,0.0289022721121811,0.00473287918160579
8.7225,0.0214214841841554,0.00337681871845328
8.74,0.0138301848418535,0.00264497544800556
8.7575,0.00617113842773332,0.00255165772211099
8.775,-0.00150690106660118,0.00310973199241634
8.7925,-0.00914940625861011,0.00432665357382681
8.81,-0.016698793816795,0.00620147695981273
8.8275,-0.0240983987660083,0.00872419273724258
8.845,-0.0312959143389702,0.0118776081275515
8.8625,-0.0382448151674469,0.0156407897637545
8.88,-0.0449032800759567,0.0199923829466224
8.8975,-0.051231334089459,0.024912230593529
8.915,-0.0571877668127293,0.030380569871518
8.9325,-0.0627284667543243,0.0363752688630038
8.95,-0.0678071098550845,0.0428685142517654
8.9675,-0.0723779966951638,0.0498246262783963
8.985,-0.0763997939795791,0.0572001382811582
9.0025,-0.0798384963746828,0.0649461957557738
9.02,-0.0826682930337303,0.0730122217851879
9.0375,-0.084870023572171,0.0813491915787058
9.055,-0.0864280638647253,0.0899110495536386
9.0725,-0.0873272396230466,0.0986537011560447
9.09,-0.0875513579872592,0.107532193063902
9.1075,-0.0870841690741331,0.116497594821362
9.125,-0.0859123837209474,0.125495275354072
9.1425,-0.0840312699801885,0.134465118457135
9.16,-0.0814415210782688,0.143347352330534
9.1775,-0.0781543520156176,0.152082608744642
9.195,-0.0741879035719029,0.160616898142562
9.2125,-0.069563287234837,0.168902801332413
9.23,-0.0643008617410698,0.176897868215245
9.2475,-0.0584185207344658,0.184560998147211
9.265,-0.0519328716062923,0.191848568722629
9.2825,-0.0448628398891982,0.198712266557452
9.3,-0.0372340632432111,0.205099845088804
9.3175,-0.0290819978440704,0.210958706921079
9.335,-0.020452174042454,0.216240885334462
9.3525,-0.0113972944204063,0.220907296688841
9.37,-0.00197230357558893,0.224929394777999
9.3875,0.00777048317396268,0.228287484913982
9.405,0.0177840780497212,0.230966452988561
9.4225,0.0280261706558326,0.232950855100687
9.44,0.0384554513440913,0.234221645034938
9.4575,0.049026615138944,0.234756119548779
9.475,0.0596863931134799,0.234531230628304
9.4925,0.0703725466280506,0.233528884726851
9.51,0.0810164628326432,0.231740913254056
9.5275,0.0915483777670193,0.229171491471209
9.545,0.101903049582251,0.225835881579968
9.5625,0.112023460063316,0.221756001952481
9.58,0.121859599560048,0.216957482667584
9.5975,0.131372216041953,0.21145788749938
9.615,0.140517184650022,0.205269371873748
9.6325,0.149242925281633,0.198402811557037
9.65,0.157489346686112,0.190874522662996
9.6675,0.165191484581004,0.182712159367119
9.685,0.172286183605202,0.173956925603759
9.7025,0.178718695159931,0.164660981392346
9.72,0.1844460605223,0.154881225614295
9.7375,0.189435644128291,0.144672410455897
9.755,0.193659490817718,0.134082935639222
9.7725,0.197087220555286,0.12315546764603
9.79,0.199680966661014,0.111932266358071
9.8075,0.201394998726061,0.100462829818474
9.825,0.202180513817573,0.0888102698519727
9.8425,0.201993617030693,0.0770533118673702
9.86,0.200802907711048,0.0652827997495264
9.8775,0.198593136154328,0.0535941909168225
9.895,0.195363139344387,0.0420795342316346
9.9125,0.191118947054468,0.0308228580351187
9.93,0.185865343931449,0.0199014839395166
9.9475,0.179600138564133,0.00939310776242163
9.965,0.172314410570082,-0.000614248506964575
9.9825,0.163999454390153,-0.0100138321538286
10,0.154658137382216,-0.0186772641351927
