"Freq [GHz]","re(S(Antenna1_1_1,Antenna1_1_1)) []","im(S(Antenna1_1_1,Antenna1_1_1)) []"
3,-0.197068377781393,-0.162657418742226
3.0175,-0.200956474793113,-0.149313166500694
3.035,-0.209388019525577,-0.137462480735135
3.0525,-0.217458097520528,-0.121550027985154
3.07,-0.223285018566973,-0.104341610644774
3.0875,-0.226200036170216,-0.0859981847003111
3.105,-0.225834055750493,-0.0689588409786729
3.1225,-0.224585480181642,-0.0550782044989398
3.14,-0.226620375336517,-0.0411430696038418
3.1575,-0.226066011801442,-0.02241648121733
3.175,-0.220525635804747,-0.0065232930103757
3.1925,-0.216389504416467,0.007028122675697
3.21,-0.211577117538643,0.0221678666218935
3.2275,-0.204540784218898,0.035777186218907
3.245,-0.198935028112488,0.0494442657885647
3.2625,-0.189435186315122,0.0660952596354738
3.28,-0.174374950498695,0.0773567078434707
3.2975,-0.163900814941446,0.0831100126270073
3.315,-0.156260004557238,0.0933904228477836
3.3325,-0.142797461563174,0.105033894251347
3.35,-0.12782411898353,0.110843752759248
3.3675,-0.116188012286088,0.116848431969012
3.385,-0.100589215999526,0.123793769268413
3.4025,-0.0846248586776052,0.124861724774757
3.42,-0.0728204279871445,0.126880266832361
3.4375,-0.0566568650530872,0.130499223626451
3.455,-0.0393520046650284,0.127925315831013
3.4725,-0.026432957765579,0.124212720245226
3.49,-0.0132314120847215,0.122147853696546
3.5075,0.0018316846535487,0.118453412606848
3.525,0.0161084595560739,0.111002118335772
3.5425,0.0269595568111429,0.103638920170134
3.56,0.0396387999042276,0.0968900373946442
3.5775,0.0517529353099105,0.0870437982632556
3.595,0.0630356797689724,0.0755123105305434
3.6125,0.070278453260613,0.0618737442665833
3.63,0.0764369031622797,0.051939804770455
3.6475,0.0848292298107567,0.0394270542021825
3.665,0.0895316324893196,0.0252838558872499
3.6825,0.0942234963458762,0.0127650804402759
3.7,0.0996900283279312,-0.00265243342504572
3.7175,0.100098745990053,-0.0210960568993002
3.735,0.0957301853127256,-0.0344639622031986
3.7525,0.0963009341359017,-0.0448825894774919
3.77,0.0977419543826299,-0.0614867844519587
3.7875,0.0916391788881248,-0.0804590241685199
3.805,0.0808045677880687,-0.0919979283722459
3.8225,0.0763983414580634,-0.100016545407711
3.84,0.0727468894803762,-0.113499003763784
3.8575,0.0650349713181956,-0.128452963963782
3.875,0.0529859874253063,-0.14159514389863
3.8925,0.0404193259270333,-0.1510190505053
3.91,0.0269625667752703,-0.160336117319277
3.9275,0.0131908614407426,-0.165579519279269
3.945,0.0024171662223108,-0.171590086504373
3.9625,-0.0104124942900443,-0.179405314516447
3.98,-0.027526324751502,-0.18562216218805
3.9975,-0.0435106419105682,-0.184786053210147
4.015,-0.0537200856251807,-0.187103806403408
4.0325,-0.070270274366359,-0.192078622332456
4.05,-0.0886549489863466,-0.189866903127086
4.0675,-0.101462437586123,-0.185746682074049
4.085,-0.115252011098218,-0.186020208470608
4.1025,-0.133255657095241,-0.181298566225202
4.12,-0.146032407931759,-0.173420933408821
4.1375,-0.158060505149726,-0.167972984083431
4.155,-0.171174916404065,-0.161706077949412
4.1725,-0.184081038131562,-0.153705118157485
4.19,-0.196252643992005,-0.14558663137846
4.2075,-0.209942911733315,-0.134420621700789
4.225,-0.218150612773167,-0.120802363398547
4.2425,-0.22572974776438,-0.111227189524886
4.26,-0.23483401869887,-0.0998666804255502
4.2775,-0.242372816695481,-0.088744772775592
4.295,-0.252947731539024,-0.0764871976900934
4.3125,-0.260263701266881,-0.0573036304890176
4.33,-0.258564978688705,-0.0417453612283655
4.3475,-0.259907152674056,-0.032844157837722
4.365,-0.267135186313581,-0.0206821544140522
4.3825,-0.26998450498843,-0.000971342012991807
4.4,-0.264969790404727,0.0140068857106782
4.4175,-0.264142436930044,0.0244382162056563
4.435,-0.263684813956116,0.0383754805833901
4.4525,-0.261494845802435,0.0509794260269779
4.47,-0.260691262116239,0.0651080565206535
4.4875,-0.255787792276216,0.0816048171258658
4.505,-0.247650044241207,0.0941968990821633
4.5225,-0.241238519183815,0.105091097943054
4.54,-0.234052724604458,0.116205493047831
4.5575,-0.226978109938841,0.125971324612871
4.575,-0.220459907220566,0.13660869939468
4.5925,-0.211626439471067,0.148603170646228
4.61,-0.199367994631411,0.156948322790137
4.6275,-0.191888760615317,0.162267140736902
4.645,-0.184120488525872,0.173702822777599
4.6625,-0.169456497421147,0.182154208338165
4.68,-0.157964381777064,0.185231003773152
4.6975,-0.148855304712744,0.191013044116509
4.715,-0.136308920255839,0.197731835468153
4.7325,-0.122062286586118,0.200400501553432
4.75,-0.110938518561468,0.200642717338609
4.7675,-0.102088978016456,0.203180371459773
4.785,-0.091248077487277,0.206743367044492
4.8025,-0.0789101107611192,0.209214288729443
4.82,-0.0646151070122895,0.209694899159483
4.8375,-0.0526576459805009,0.20515113574325
4.855,-0.0454672624870797,0.203956862944508
4.8725,-0.0339732306651133,0.204871550654945
4.89,-0.0219034780131593,0.202470353766687
4.9075,-0.0100046404977405,0.19931308703114
4.925,0.0011610191110934,0.193693786334167
4.9425,0.00998308951063012,0.187763095567452
4.96,0.0173131144607632,0.183204880563209
4.9775,0.0270707492025577,0.180810929695144
4.995,0.0395796938858626,0.173951980961487
5.0125,0.0475470314232308,0.163972055009735
5.03,0.0530929355372055,0.156716478405859
5.0475,0.0601832516793529,0.150471689896656
5.065,0.0675614963835996,0.142865310634011
5.0825,0.0746954851867459,0.134798811891224
5.1,0.0816619664696856,0.124968649078745
5.1175,0.0861966339851929,0.114165214965713
5.135,0.0891777656311779,0.104645316009038
5.1525,0.0926837384253382,0.0963275169028158
5.17,0.0975454248863881,0.0865656816389518
5.1875,0.0999276312904432,0.0744987846928456
5.205,0.100070694629554,0.064647406240402
5.2225,0.101747759765425,0.0552519037032642
5.24,0.102623441383479,0.0443319522549276
5.2575,0.101661264450232,0.033373535063098
5.275,0.0998400696995632,0.0244356645709234
5.2925,0.100602432422507,0.0148711522912887
5.31,0.0984906145798538,0.00179548077286511
5.3275,0.0929971120835827,-0.00838384375237303
5.345,0.0884428978434454,-0.0167026883934889
5.3625,0.0847828674664344,-0.0249416281620674
5.38,0.0804070809590566,-0.0345530220293153
5.3975,0.074801249834197,-0.04297103960898
5.415,0.0694624412767697,-0.0523488723997799
5.4325,0.0609235486705566,-0.0613571241091256
5.45,0.0520174879989112,-0.0669828971224465
5.4675,0.0458985936259184,-0.0715654886101214
5.485,0.0405199652699024,-0.0797050110356569
5.5025,0.0303842803381373,-0.0888021068990727
5.52,0.0173867768442837,-0.0936642864232703
5.5375,0.0073958214716005,-0.0936895513833017
5.555,0.00212989418645612,-0.0972307931518556
5.5725,-0.00783401224349108,-0.103948212890936
5.59,-0.0200528335103677,-0.107281306910778
5.6075,-0.0323828609316019,-0.108596319212661
5.625,-0.043694995271742,-0.107791991273896
5.6425,-0.0536710005936086,-0.106405676616251
5.66,-0.0613240122928226,-0.106478266091048
5.6775,-0.0724153374647964,-0.109988635155198
5.695,-0.0879671334076867,-0.108389594061483
5.7125,-0.0992211854328132,-0.102532801065782
5.73,-0.108158889528,-0.0991786516608912
5.7475,-0.119378922201565,-0.0963304955348344
5.765,-0.130846999201691,-0.0904954801662316
5.7825,-0.140035247093145,-0.0845175093973394
5.8,-0.150696463573322,-0.0788998884333716
5.8175,-0.160579315569006,-0.0701108768208683
5.835,-0.167859395217793,-0.0621172408536766
5.8525,-0.176100017044472,-0.0550712347802676
5.87,-0.185423579844807,-0.0464773651749935
5.8875,-0.193172071686814,-0.0355478498598878
5.905,-0.199366145347953,-0.0256965088357854
5.9225,-0.206726852189443,-0.0147797748403432
5.94,-0.212348662399636,-0.00195549384512643
5.9575,-0.21563843672012,0.011335227107327
5.975,-0.216859462299146,0.0224126090104481
5.9925,-0.220588368645906,0.0320228590379522
6.01,-0.225516530652265,0.04503134577953
6.0275,-0.227074305698147,0.0609394495607622
6.045,-0.224083878711859,0.0747302527510283
6.0625,-0.222733626485567,0.0844215115601774
6.08,-0.224133711543794,0.0969107687777963
6.0975,-0.223300946516116,0.111985718812055
6.115,-0.219595638184495,0.127905921760457
6.1325,-0.212112390635825,0.141917392694443
6.15,-0.204805387291508,0.152227494081846
6.1675,-0.19995787951548,0.161985180649836
6.185,-0.195619901542381,0.174464497890477
6.2025,-0.187946464602651,0.188516185796013
6.22,-0.1770072513134,0.200481924213835
6.2375,-0.166089104968203,0.209201096649541
6.255,-0.156798679396575,0.217571869978906
6.2725,-0.147351173694957,0.226822992913342
6.29,-0.136245114495736,0.237270804250913
6.3075,-0.121427725822128,0.245892766533655
6.325,-0.107152920801799,0.250307457253327
6.3425,-0.0953427661288673,0.254561232992787
6.36,-0.0829587772943586,0.260458639834556
6.3775,-0.067662757568211,0.265369166506889
6.395,-0.0526549181303478,0.266825743681489
6.4125,-0.0394718830339966,0.268428197692555
6.43,-0.0247433277198665,0.270716430143866
6.4475,-0.00824623069271783,0.270406980622856
6.465,0.00655027459435817,0.267283546205836
6.4825,0.0194695003366387,0.264696315390461
6.5,0.0334536931217054,0.263064335175988
6.5175,0.0495168556190139,0.258847833220494
6.535,0.0641561926931921,0.251575240794715
6.5525,0.0771460982318551,0.243706139270096
6.57,0.0888796171615904,0.235279485800472
6.5875,0.0998977436726483,0.227330606109847
6.605,0.111481164711225,0.219253470345186
6.6225,0.124080747003068,0.20964031753692
6.64,0.135507230000412,0.19642860824665
6.6575,0.142637943692874,0.182581389965974
6.675,0.148235639493175,0.171666601758789
6.6925,0.156431196486379,0.161687376983362
6.71,0.165740245753827,0.147764177446003
6.7275,0.170953793786092,0.131120425526239
6.745,0.172748994679845,0.1162216690907
6.7625,0.174155295080058,0.103696702983197
6.78,0.177244463855852,0.0914416946513089
6.7975,0.180435682631342,0.0768439894345611
6.815,0.181287302887619,0.0603360138798632
6.8325,0.178546526047557,0.0441052495895727
6.85,0.173965496816892,0.0306032600409874
6.8675,0.170351067291962,0.0191672293892466
6.885,0.168599558839863,0.00652248485576952
6.9025,0.164178972027284,-0.00917336674136018
6.92,0.155649121059951,-0.0221389914858151
6.9375,0.148858024133896,-0.0324373639618646
6.955,0.142238408617566,-0.0439405442874855
6.9725,0.1330922321284,-0.0552583366665988
6.99,0.122799560486978,-0.064163557196422
7.0075,0.114013661908724,-0.0721462844682591
7.025,0.10404815306486,-0.0816642862934676
7.0425,0.0916245343952222,-0.0891128026160991
7.06,0.0796925408440219,-0.0942945334671834
7.0775,0.0685904039672321,-0.0983282953172555
7.095,0.0585871621760477,-0.102641387087119
7.1125,0.0475776334641339,-0.107728235050934
7.13,0.0352643400762505,-0.112157788977607
7.1475,0.0212491546971374,-0.115387004916721
7.165,0.0064910179458928,-0.115015536004977
7.1825,-0.00482067945307885,-0.111625711012091
7.2,-0.0124486683353512,-0.111512731678834
7.2175,-0.0248031047783441,-0.114801381341105
7.235,-0.0410697362944095,-0.112220084070165
7.2525,-0.0527548812888132,-0.10477580645959
7.27,-0.0595292414506158,-0.09970167344751
7.2875,-0.068175930339152,-0.0988471170514793
7.305,-0.0803952058131235,-0.095852472677451
7.3225,-0.0921263440742059,-0.0903652389086166
7.34,-0.103771551954785,-0.082452370052509
7.3575,-0.111783625184224,-0.0718436298882372
7.375,-0.115806481149135,-0.0639180692241326
7.3925,-0.122088506426409,-0.0605784796196223
7.41,-0.13270579590689,-0.0544099424877168
7.4275,-0.140575297986028,-0.0434243842578337
7.445,-0.144428414897904,-0.0338309872353081
7.4625,-0.148606354682268,-0.0265787618267478
7.48,-0.154472926324991,-0.018947863658114
7.4975,-0.159920791080468,-0.00915093317480649
7.515,-0.163566730565697,0.000919304663618789
7.5325,-0.166697531688218,0.0107777396438245
7.55,-0.16912360161984,0.0212218272126137
7.5675,-0.169840085546679,0.0315672835646073
7.585,-0.169978405696726,0.0403112952674763
7.6025,-0.171235701209736,0.0488278967230889
7.62,-0.172442976490827,0.058521681352796
7.6375,-0.172728513275596,0.0690101571579338
7.655,-0.171436182812672,0.0799570176576468
7.6725,-0.168285644475761,0.0900280385148262
7.69,-0.164532572753832,0.0979422847371602
7.7075,-0.163203443727688,0.104614346608582
7.725,-0.162907036290449,0.114948146033303
7.7425,-0.158201028412015,0.12668104164344
7.76,-0.150871075907011,0.135165659506573
7.7775,-0.144989649353475,0.140262652701005
7.795,-0.142220722506067,0.146149596894515
7.8125,-0.139068367625772,0.154645042668179
7.83,-0.133528320488024,0.165123379370131
7.8475,-0.123393275351867,0.173847507312705
7.865,-0.113823866341722,0.176528411138318
7.8825,-0.110089785156619,0.179135878130682
7.9,-0.106446961687017,0.187459366609729
7.9175,-0.0968250750805164,0.196433962788263
7.935,-0.0853684314217891,0.20036595021996
7.9525,-0.0766384260484035,0.201910203276395
7.97,-0.0697437241656506,0.204469264989411
7.9875,-0.0621470772396356,0.208355890036742
8.005,-0.0531652452530984,0.211783462854593
8.0225,-0.0435181552319963,0.214606847130101
8.04,-0.0324664171838569,0.215547242120456
8.0575,-0.023393286164325,0.214288703735127
8.075,-0.0153448336330794,0.214394910522781
8.0925,-0.00658265485813494,0.214463923170187
8.11,0.00311365933961111,0.214280092089258
8.1275,0.0127914440474547,0.212034287979494
8.145,0.0217096069919109,0.210157211746409
8.1625,0.0318867911398925,0.206586321209173
8.18,0.039578072432997,0.201183435601539
8.1975,0.0457949537081831,0.197616061785219
8.215,0.0538538651007723,0.195239256774569
8.2325,0.0641139643115329,0.190273546646672
8.25,0.0720133081205975,0.181692544760957
8.2675,0.076494583080122,0.173976416575193
8.285,0.081181614085197,0.167911611456677
8.3025,0.0859970625568252,0.16218687617133
8.32,0.0925498091382901,0.1566955094127
8.3375,0.100129509418719,0.147738833383882
8.355,0.104055481596335,0.135718172561257
8.3725,0.10334958847892,0.125987263968812
8.39,0.104094931273987,0.120707995120229
8.4075,0.108689851386831,0.113633313252694
8.425,0.11159362159563,0.10227109701256
8.4425,0.109948719306399,0.0913496937207089
8.46,0.10775626824731,0.083459952304438
8.4775,0.106522401405534,0.0758624698002222
8.495,0.105110462829076,0.0680340878260666
8.5125,0.103629408723389,0.0601987188760646
8.53,0.102455249412922,0.0509198482587402
8.5475,0.097609419107163,0.0396335317372136
8.565,0.0891681337823961,0.0326180068070779
8.5825,0.0839693313014908,0.0289283841261863
8.6,0.0807486205891182,0.0225843376060525
8.6175,0.0747138174568371,0.0146050699000484
8.635,0.0663766264282602,0.00894092275994631
8.6525,0.0594380818478316,0.00525368370542771
8.67,0.0525630355264071,-0.00025693979769697
8.6875,0.0424562926536478,-0.00400878581132415
8.705,0.0344592579720111,-0.00437162754277421
8.7225,0.0276957302289694,-0.00677460470260672
8.74,0.0189797392109035,-0.00994151972746444
8.7575,0.00753317403565332,-0.011448780485287
8.775,-0.00350926301954118,-0.00854883535524666
8.7925,-0.0108722037974701,-0.00481986799328319
8.81,-0.017395849539214,-0.00313262847459727
8.8275,-0.0252500862907873,-0.00205416634456142
8.845,-0.0348372496114032,-0.000267634983165507
8.8625,-0.0453780727891449,0.00471838237819053
8.88,-0.0532531175439567,0.0121685362091194
8.8975,-0.058663070064229,0.019146458507442
8.915,-0.0633067318251093,0.023964148179068
8.9325,-0.0711805557876565,0.0284697284862138
8.95,-0.0790470026342445,0.0374028311046354
8.9675,-0.0836180195012438,0.0470114927538563
8.985,-0.0871216399209091,0.0562008874342962
9.0025,-0.0893578313600628,0.0648219161023538
9.02,-0.0919923541865603,0.0723288273990579
9.0375,-0.09604377385613,0.0807047771869258
9.055,-0.0996976959808753,0.0923504505666286
9.0725,-0.0985268961684466,0.105258748491882
9.09,-0.0955406536131052,0.113684011626121
9.1075,-0.0959184710672837,0.121882204198692
9.125,-0.0948949745664824,0.133082796104632
9.1425,-0.0911971241793455,0.142607204738345
9.16,-0.0884857669888088,0.151606027771844
9.1775,-0.0845782587129476,0.162030209933752
9.195,-0.0784342017656929,0.171822224891963
9.2125,-0.071361077303597,0.179351794545453
9.23,-0.0662013919554098,0.186230180015595
9.2475,-0.0600615704911708,0.195245942084431
9.265,-0.0516209997291223,0.203157047441119
9.2825,-0.0426179387007482,0.209907649203372
9.3,-0.0331527935646911,0.215159002521817
9.3175,-0.0243209881206704,0.219816032508499
9.335,-0.015178585903404,0.224047059789522
9.3525,-0.00666306334059628,0.228381531443461
9.37,0.00374088222090107,0.233860830416573
9.3875,0.0168613822885427,0.236769704474342
9.405,0.0285428838827782,0.235808947511011
9.4225,0.0367248455477726,0.235554748395597
9.44,0.0464248196835613,0.238186595733697
9.4575,0.059394973894874,0.238763144368729
9.475,0.0713284916001599,0.235949482048014
9.4925,0.0815067815854206,0.233142123838971
9.51,0.0921626918675132,0.229910762208766
9.5275,0.101465693345099,0.225483873351259
9.545,0.110401096642481,0.222803312416008
9.5625,0.122426680304016,0.219120748101611
9.58,0.133241590018188,0.210986900607994
9.5975,0.139929220865003,0.20264313060914
9.615,0.146169642795562,0.197164824390498
9.6325,0.155197983065873,0.191295224851844
9.65,0.163459408982937,0.181984829833966
9.6675,0.169262968102214,0.173025735147389
9.685,0.175487405015082,0.164097593860686
9.7025,0.180748609548211,0.153849497554316
9.72,0.18404464661527,0.143421158117475
9.7375,0.186579571064401,0.135074875352267
9.755,0.191866065255508,0.126191492807863
9.7725,0.195590918773076,0.11322803706335
9.79,0.195017893382484,0.101080216580201
9.8075,0.194406022047181,0.0915786360701244
9.825,0.194841943905853,0.0815530472299727
9.8425,0.194186954363953,0.0705335384662821
9.86,0.192435647212278,0.0596840132609164
9.8775,0.190077830126753,0.0485465956579625
9.895,0.185651862071397,0.0366681935800346
9.9125,0.178502058265748,0.0272130644596217
9.93,0.173464859177159,0.0204007606911966
9.9475,0.169607965748583,0.0109499927153116
9.965,0.162921025590842,0.000125085997595425
9.9825,0.152879537898553,-0.0097912149392786
10,0.141276543630836,-0.0157247233378527
