"Freq [GHz]","re(S(Tx_p1,Tx_p1)) []","im(S(Tx_p1,Tx_p1)) []"
1,0.004754930111,-0.05588486545
1.01,0.003069625806,-0.05546474714
1.02,0.001406254755,-0.05499288295
1.03,-0.0002328567862,-0.05446997156
1.04,-0.001845429893,-0.05389685781
1.05,-0.003429240909,-0.05327452734
1.06,-0.004982128989,-0.05260410099
1.07,-0.006502003226,-0.05188682884
1.08,-0.007986849373,-0.05112408409
1.09,-0.009434736137,-0.05031735675
1.1,-0.01084382105,-0.049468247
1.11,-0.01221235593,-0.04857845848
1.12,-0.01353869184,-0.04764979136
1.13,-0.01482128375,-0.04668413529
1.14,-0.0160586946,-0.04568346219
1.15,-0.01724959904,-0.04464981896
1.16,-0.01839278669,-0.04358532011
1.17,-0.01948716496,-0.04249214027
1.18,-0.02053176145,-0.04137250676
1.19,-0.02152572591,-0.04022869201
1.2,-0.02246833177,-0.03906300604
1.21,-0.02335897724,-0.03787778901
1.22,-0.02419718599,-0.03667540366
1.23,-0.02498260742,-0.03545822798
1.24,-0.02571501656,-0.0342286478
1.25,-0.02639431349,-0.03298904957
1.26,-0.02702052241,-0.03174181322
1.27,-0.02759379041,-0.03048930515
1.28,-0.02811438568,-0.0292338714
1.29,-0.02858269559,-0.02797783089
1.3,-0.02899922421,-0.02672346899
1.31,-0.02936458969,-0.02547303116
1.32,-0.02967952113,-0.02422871687
1.33,-0.0299448553,-0.02299267368
1.34,-0.030161533,-0.02176699168
1.35,-0.03033059512,-0.02055369806
1.36,-0.03045317848,-0.019354752
1.37,-0.03053051143,-0.01817203985
1.38,-0.03056390918,-0.01700737054
1.39,-0.03055476895,-0.01586247137
1.4,-0.03050456491,-0.01473898401
1.41,-0.03041484297,-0.01363846091
1.42,-0.0302872154,-0.01256236191
1.43,-0.03012335527,-0.0115120513
1.44,-0.02992499082,-0.01048879512
1.45,-0.02969389972,-0.009493758809
1.46,-0.02943190323,-0.008528005221
1.47,-0.02914086026,-0.007592492946
1.48,-0.02882266149,-0.00668807498
1.49,-0.02847922332,-0.005815497724
1.5,-0.02811248193,-0.004975400331
1.51,-0.02772438725,-0.00416831438
1.52,-0.02731689703,-0.003394663878
1.53,-0.02689197092,-0.002654765598
1.54,-0.0264515646,-0.001948829734
1.55,-0.02599762398,-0.001276960871
1.56,-0.02553207954,-0.0006391592735
1.57,-0.02505684073,-3.532247087E-05
1.58,-0.02457379052,0.0005347528587
1.59,-0.02408478005,0.001071368718
1.6,-0.02359162351,0.001574923341
1.61,-0.02309609309,0.002045908482
1.62,-0.02259991421,0.002484906435
1.63,-0.02210476086,0.002892586826
1.64,-0.0216122512,0.003269703154
1.65,-0.02112394331,0.003617089122
1.66,-0.02064133131,0.00393565476
1.67,-0.0201658415,0.004226382347
1.68,-0.01969882896,0.004490322159
1.69,-0.01924157428,0.004728588051
1.7,-0.01879528055,0.004942352881
1.71,-0.01836107069,0.005132843806
1.72,-0.01793998502,0.005301337454
1.73,-0.01753297905,0.005449154989
1.74,-0.01714092167,0.005577657086
1.75,-0.01676459351,0.005688238836
1.76,-0.01640468568,0.005782324589
1.77,-0.01606179874,0.005861362757
1.78,-0.01573644199,0.005926820586
1.79,-0.01542903303,0.005980178929
1.8,-0.01513989765,0.006022927008
1.81,-0.01486926997,0.006056557216
1.82,-0.01461729286,0.006082559935
1.83,-0.01438401868,0.006102418426
1.84,-0.01416941027,0.006117603772
1.85,-0.01397334224,0.006129569905
1.86,-0.01379560246,0.006139748739
1.87,-0.01363589391,0.006149545399
1.88,-0.0134938367,0.006160333581
1.89,-0.01336897039,0.006173451051
1.9,-0.0132607565,0.00619019529
1.91,-0.01316858127,0.006211819298
1.92,-0.01309175867,0.006239527581
1.93,-0.01302953357,0.006274472311
1.94,-0.01298108511,0.006317749689
1.95,-0.01294553028,0.00637039651
1.96,-0.01292192767,0.006433386943
1.97,-0.01290928136,0.006507629529
1.98,-0.01290654496,0.006593964415
1.99,-0.01291262581,0.006693160825
2,-0.0129263893,0.006805914765
2.01,-0.01294666323,0.006932846995
2.02,-0.01297224237,0.007074501235
2.03,-0.01300189301,0.007231342642
2.04,-0.01303435763,0.007403756549
2.05,-0.01306835959,0.007592047455
2.06,-0.01310260784,0.007796438294
2.07,-0.01313580171,0.008017069966
2.08,-0.01316663568,0.008254001129
2.09,-0.01319380406,0.008507208265
2.1,-0.01321600582,0.008776586
2.11,-0.01323194918,0.0090619477
2.12,-0.01324035634,0.00936302631
2.13,-0.01323996798,0.009679475458
2.14,-0.0132295478,0.01001087081
2.15,-0.0132078869,0.01035671165
2.16,-0.01317380809,0.01071642274
2.17,-0.01312617004,0.01108935637
2.18,-0.01306387136,0.01147479465
2.19,-0.01298585448,0.01187195204
2.2,-0.0128911094,0.01227997803
2.21,-0.01277867728,0.01269796009
2.22,-0.01264765382,0.01312492676
2.23,-0.01249719253,0.01355985091
2.24,-0.01232650773,0.01400165325
2.25,-0.01213487734,0.01444920589
2.26,-0.01192164557,0.01490133608
2.27,-0.01168622524,0.01535683015
2.28,-0.01142809999,0.01581443747
2.29,-0.01114682621,0.01627287456
2.3,-0.01084203474,0.01673082933
2.31,-0.01051343234,0.01718696533
2.32,-0.0101608029,0.01763992612
2.33,-0.009784008409,0.01808833967
2.34,-0.009382989713,0.01853082281
2.35,-0.008957766947,0.0189659857
2.36,-0.008508439783,0.0193924363
2.37,-0.008035187397,0.01980878486
2.38,-0.007538268198,0.02021364842
2.39,-0.007018019301,0.02060565515
2.4,-0.006474855761,0.02098344885
2.41,-0.005909269566,0.0213456932
2.42,-0.005321828389,0.02169107607
2.43,-0.00471317411,0.02201831369
2.44,-0.004084021107,0.02232615471
2.45,-0.00343515433,0.02261338422
2.46,-0.002767427159,0.02287882757
2.47,-0.002081759053,0.02312135411
2.48,-0.001379133005,0.02333988077
2.49,-0.0006605927994,0.0235333755
2.5,7.275990444E-05,0.02370086051
2.51,0.0008197686649,0.0238414154
2.52,0.00157922551,0.02395418004
2.53,0.002349874339,0.02403835731
2.54,0.003130414467,0.02409321564
2.55,0.003919504292,0.0241180913
2.56,0.004715765083,0.02411239051
2.57,0.00551778487,0.02407559139
2.58,0.006324122423,0.02400724556
2.59,0.007133311315,0.02390697962
2.6,0.007943864045,0.0237744964
2.61,0.008754276219,0.02360957589
2.62,0.009563030769,0.023412076
2.63,0.0103686022,0.02318193314
2.64,0.01116946083,0.02291916242
2.65,0.01196407708,0.02262385774
2.66,0.0127509257,0.02229619159
2.67,0.01352848998,0.02193641465
2.68,0.01429526597,0.02154485507
2.69,0.01504976654,0.02112191769
2.7,0.01579052552,0.02066808285
2.71,0.01651610163,0.02018390511
2.72,0.01722508242,0.01967001169
2.73,0.01791608806,0.01912710075
2.74,0.01858777499,0.01855593944
2.75,0.01923883954,0.01795736172
2.76,0.01986802137,0.01733226608
2.77,0.02047410669,0.01668161301
2.78,0.02105593149,0.01600642231
2.79,0.02161238447,0.01530777028
2.8,0.02214240985,0.01458678671
2.81,0.02264501005,0.01384465176
2.82,0.02311924809,0.01308259269
2.83,0.02356424991,0.01230188049
2.84,0.02397920637,0.01150382637
2.85,0.0243633752,0.01068977819
2.86,0.02471608259,0.009861116802
2.87,0.02503672469,0.009019252261
2.88,0.02532476882,0.008165620056
2.89,0.02557975453,0.007301677238
2.9,0.0258012944,0.006428898527
2.91,0.02598907462,0.005548772393
2.92,0.02614285536,0.004662797127
2.93,0.02626247099,0.003772476906
2.94,0.02634782996,0.002879317874
2.95,0.02639891453,0.001984824249
2.96,0.02641578035,0.001090494456
2.97,0.02639855571,0.0001978173205
2.98,0.02634744067,-0.0006917316918
2.99,0.02626270596,-0.001576694155
3,0.02614469168,-0.002455632288
3.01,0.02599380586,-0.003327132468
3.02,0.02581052274,-0.004189808642
3.03,0.02559538097,-0.005042305622
3.04,0.02534898157,-0.005883302268
3.05,0.02507198579,-0.00671151454
3.06,0.02476511277,-0.007525698405
3.07,0.02442913704,-0.008324652607
3.08,0.02406488599,-0.00910722128
3.09,0.02367323703,-0.009872296402
3.1,0.02325511485,-0.01061882009
3.11,0.02281148836,-0.0113457867
3.12,0.02234336773,-0.01205224479
3.13,0.02185180119,-0.01273729887
3.14,0.02133787181,-0.01340011098
3.15,0.02080269427,-0.01403990207
3.16,0.02024741148,-0.01465595322
3.17,0.01967319124,-0.01524760662
3.18,0.01908122279,-0.01581426641
3.19,0.01847271342,-0.01635539927
3.2,0.01784888502,-0.01687053489
3.21,0.01721097065,-0.01735926617
3.22,0.01656021109,-0.01782124927
3.23,0.01589785148,-0.01825620349
3.24,0.01522513794,-0.01866391088
3.25,0.01454331423,-0.01904421579
3.26,0.01385361849,-0.01939702414
3.27,0.01315728008,-0.01972230254
3.28,0.01245551637,-0.02002007728
3.29,0.01174952977,-0.02029043309
3.3,0.01104050472,-0.02053351179
3.31,0.01032960488,-0.02074951076
3.32,0.009617970338,-0.0209386813
3.33,0.008906715009,-0.02110132678
3.34,0.008196924113,-0.02123780073
3.35,0.007489651802,-0.0213485048
3.36,0.006785918907,-0.02143388652
3.37,0.006086710844,-0.02149443708
3.38,0.005392975649,-0.02153068891
3.39,0.004705622175,-0.02154321322
3.4,0.004025518442,-0.02153261744
3.41,0.003353490136,-0.02149954262
3.42,0.002690319284,-0.02144466071
3.43,0.00203674308,-0.02136867188
3.44,0.00139345288,-0.02127230167
3.45,0.0007610933678,-0.02115629826
3.46,0.0001402618777,-0.02102142959
3.47,-0.0004684921061,-0.02086848051
3.48,-0.00106466729,-0.02069824998
3.49,-0.001647810744,-0.0205115482
3.5,-0.00221751791,-0.02030919381
3.51,-0.002773432454,-0.02009201104
3.52,-0.003315245952,-0.01986082703
3.53,-0.003842697425,-0.01961646905
3.54,-0.004355572724,-0.01935976185
3.55,-0.00485370376,-0.01909152506
3.56,-0.005336967603,-0.01881257067
3.57,-0.005805285426,-0.01852370054
3.58,-0.006258621334,-0.01822570403
3.59,-0.006696981056,-0.01791935573
3.6,-0.007120410517,-0.01760541327
3.61,-0.007528994302,-0.01728461521
3.62,-0.007922854005,-0.01695767912
3.63,-0.008302146487,-0.01662529965
3.64,-0.00866706203,-0.01628814685
3.65,-0.009017822422,-0.01594686452
3.66,-0.009354678948,-0.01560206877
3.67,-0.009677910324,-0.01525434658
3.68,-0.009987820571,-0.01490425468
3.69,-0.01028473682,-0.0145523184
3.7,-0.01056900711,-0.01419903076
3.71,-0.0108409981,-0.01384485164
3.72,-0.01110109278,-0.01349020718
3.73,-0.01134968821,-0.01313548917
3.74,-0.01158719313,-0.01278105478
3.75,-0.01181402572,-0.01242722626
3.76,-0.01203061121,-0.01207429086
3.77,-0.01223737966,-0.0117225009
3.78,-0.01243476364,-0.01137207397
3.79,-0.012623196,-0.0110231932
3.8,-0.01280310767,-0.01067600776
3.81,-0.01297492551,-0.01033063344
3.82,-0.0131390702,-0.009987153355
3.83,-0.0132959542,-0.009645618791
3.84,-0.01344597979,-0.00930605014
3.85,-0.01358953716,-0.008968437977
3.86,-0.01372700257,-0.008632744228
3.87,-0.01385873668,-0.008298903448
3.88,-0.01398508284,-0.00796682419
3.89,-0.01410636561,-0.007636390464
3.9,-0.01422288925,-0.007307463289
3.91,-0.01433493645,-0.006979882308
3.92,-0.01444276706,-0.006653467489
3.93,-0.01454661701,-0.006328020879
3.94,-0.01464669727,-0.006003328417
3.95,-0.01474319301,-0.005679161802
3.96,-0.01483626284,-0.005355280396
3.97,-0.01492603816,-0.005031433166
3.98,-0.01501262266,-0.004707360651
3.99,-0.01509609194,-0.004382796952
4,-0.01517649325,-0.004057471728
4.01,-0.01525384534,-0.003731112205
4.02,-0.0153281385,-0.003403445173
4.03,-0.01539933462,-0.003074198983
4.04,-0.01546736747,-0.002743105516
4.05,-0.01553214306,-0.002409902134
4.06,-0.01559354008,-0.002074333599
4.07,-0.01565141058,-0.001736153949
4.08,-0.01570558059,-0.001395128331
4.09,-0.01575585101,-0.001051034785
4.1,-0.01580199851,-0.0007036659636
4.11,-0.01584377659,-0.0003528307935
4.12,-0.01588091666,1.643939219E-06
4.13,-0.01591312935,0.000359912075
4.14,-0.01594010574,0.0007221066492
4.15,-0.01596151882,0.001088338547
4.16,-0.01597702494,0.001458695246
4.17,-0.01598626538,0.00183323966
4.18,-0.01598886795,0.002212009071
4.19,-0.01598444871,0.002595014174
4.2,-0.01597261365,0.002982238223
4.21,-0.01595296053,0.00337363628
4.22,-0.01592508067,0.003769134584
4.23,-0.01588856082,0.004168630024
4.24,-0.01584298505,0.004571989737
4.25,-0.01578793669,0.004979050806
4.26,-0.0157230002,0.005389620091
4.27,-0.01564776316,0.005803474165
4.28,-0.01556181817,0.006220359372
4.29,-0.01546476482,0.006639992002
4.3,-0.01535621154,0.007062058579
4.31,-0.01523577758,0.007486216267
4.32,-0.01510309481,0.007912093386
4.33,-0.01495780963,0.008339290043
4.34,-0.01479958469,0.008767378869
4.35,-0.01462810072,0.009195905866
4.36,-0.01444305821,0.009624391353
4.37,-0.01424417905,0.01005233102
4.38,-0.0140312081,0.01047919705
4.39,-0.01380391477,0.01090443942
4.4,-0.01356209438,0.01132748715
4.41,-0.01330556961,0.01174774976
4.42,-0.01303419172,0.01216461876
4.43,-0.01274784179,0.0125774692
4.44,-0.01244643178,0.01298566133
4.45,-0.01212990561,0.01338854227
4.46,-0.01179823998,0.01378544778
4.47,-0.01145144528,0.01417570408
4.48,-0.01108956622,0.01455862969
4.49,-0.01071268246,0.01493353734
4.5,-0.01032090913,0.01529973589
4.51,-0.009914397135,0.0156565323
4.52,-0.00949333351,0.01600323361
4.53,-0.009057941524,0.01633914892
4.54,-0.008608480739,0.01666359142
4.55,-0.008145246941,0.01697588038
4.56,-0.007668571959,0.01727534315
4.57,-0.007178823362,0.01756131718
4.58,-0.006676404061,0.01783315195
4.59,-0.006161751783,0.01809021098
4.6,-0.005635338449,0.01833187369
4.61,-0.005097669435,0.01855753734
4.62,-0.004549282737,0.01876661885
4.63,-0.003990748028,0.0189585566
4.64,-0.003422665616,0.01913281218
4.65,-0.002845665308,0.01928887209
4.66,-0.002260405178,0.01942624933
4.67,-0.001667570251,0.019544485
4.68,-0.001067871101,0.01964314973
4.69,-0.0004620423605,0.01972184514
4.7,0.000149158831,0.01978020512
4.71,0.0007649544636,0.01981789708
4.72,0.001384547351,0.01983462309
4.73,0.00200712289,0.01983012093
4.74,0.00263185087,0.01980416506
4.75,0.003257887341,0.01975656746
4.76,0.003884376516,0.01968717837
4.77,0.004510452719,0.01959588698
4.78,0.005135242363,0.01948262193
4.79,0.005757865954,0.01934735175
4.8,0.006377440116,0.01919008522
4.81,0.00699307963,0.01901087156
4.82,0.007603899482,0.01880980053
4.83,0.008209016913,0.01858700244
4.84,0.008807553464,0.01834264802
4.85,0.009398637012,0.01807694825
4.86,0.009981403788,0.01779015393
4.87,0.01055500038,0.01748255535
4.88,0.01111858569,0.01715448167
4.89,0.01167133288,0.01680630028
4.9,0.01221243128,0.0164384161
4.91,0.01274108821,0.01605127068
4.92,0.0132565308,0.01564534126
4.93,0.01375800774,0.01522113976
4.94,0.01424479096,0.01477921163
4.95,0.01471617724,0.01432013465
4.96,0.0151714898,0.0138445176
4.97,0.01561007973,0.01335299894
4.98,0.01603132742,0.0128462453
4.99,0.01643464388,0.01232495003
5,0.01681947196,0.01178983155
5.01,0.0171852875,0.01124163175
5.02,0.0175316004,0.01068111431
5.03,0.01785795556,0.01010906289
5.04,0.01816393378,0.009526279425
5.05,0.01844915248,0.008933582221
5.06,0.0187132664,0.00833180415
5.07,0.01895596817,0.007721790739
5.08,0.01917698875,0.007104398267
5.09,0.01937609784,0.00648049184
5.1,0.01955310408,0.005850943461
5.11,0.01970785525,0.005216630088
5.12,0.0198402383,0.0045784317
5.13,0.01995017933,0.003937229367
5.14,0.02003764341,0.003293903332
5.15,0.02010263435,0.002649331114
5.16,0.02014519432,0.002004385633
5.17,0.02016540347,0.001359933363
5.18,0.02016337932,0.000716832523
5.19,0.02013927616,7.59312991E-05
5.2,0.02009328433,-0.000561933879
5.21,0.02002562943,-0.00119594002
5.22,0.01993657136,-0.001825279199
5.23,0.01982640342,-0.002449160123
5.24,0.01969545125,-0.003066809642
5.25,0.01954407167,-0.003677474189
5.26,0.01937265153,-0.004280421152
5.27,0.01918160643,-0.004874940178
5.28,0.01897137942,-0.005460344393
5.29,0.01874243965,-0.006035971552
5.3,0.01849528092,-0.006601185101
5.31,0.01823042021,-0.007155375161
5.32,0.01794839622,-0.007697959427
5.33,0.01764976778,-0.00822838397
5.34,0.01733511231,-0.008746123966
5.35,0.01700502419,-0.009250684324
5.36,0.0166601132,-0.009741600226
5.37,0.01630100281,-0.01021843758
5.38,0.01592832861,-0.01068079338
5.39,0.0155427366,-0.01112829598
5.4,0.01514488158,-0.01156060523
5.41,0.01473542552,-0.01197741265
5.42,0.01431503587,-0.01237844134
5.43,0.01388438402,-0.01276344594
5.44,0.01344414362,-0.01313221243
5.45,0.0129949891,-0.0134845579
5.46,0.01253759405,-0.01382033019
5.47,0.01207262975,-0.01413940746
5.48,0.01160076368,-0.01444169769
5.49,0.01112265814,-0.01472713813
5.5,0.01063896878,-0.01499569464
5.51,0.01015034337,-0.01524736095
5.52,0.009657420446,-0.01548215794
5.53,0.009160828112,-0.01570013272
5.54,0.008661182887,-0.01590135779
5.55,0.008159088597,-0.01608593008
5.56,0.007655135338,-0.0162539699
5.57,0.007149898514,-0.01640561995
5.58,0.006643937934,-0.0165410442
5.59,0.006137796988,-0.01666042675
5.6,0.005632001895,-0.01676397068
5.61,0.005127061019,-0.01685189688
5.62,0.004623464267,-0.01692444281
5.63,0.004121682561,-0.01698186125
5.64,0.003622167384,-0.01702441912
5.65,0.003125350402,-0.01705239614
5.66,0.00263164317,-0.01706608364
5.67,0.002141436903,-0.01706578323
5.68,0.001655102332,-0.01705180558
5.69,0.001172989626,-0.01702446917
5.7,0.0006954283972,-0.01698409902
5.71,0.0002227277683,-0.01693102549
5.72,-0.0002448234817,-0.01686558305
5.73,-0.0007069567074,-0.01678810912
5.74,-0.001163423119,-0.01669894294
5.75,-0.001613993441,-0.01659842438
5.76,-0.002058457505,-0.01648689293
5.77,-0.002496623791,-0.0163646866
5.78,-0.002928318905,-0.01623214096
5.79,-0.003353387004,-0.01608958815
5.8,-0.003771689178,-0.01593735597
5.81,-0.004183102775,-0.01577576705
5.82,-0.004587520689,-0.01560513801
5.83,-0.00498485061,-0.01542577871
5.84,-0.00537501423,-0.01523799158
5.85,-0.005757946421,-0.01504207096
5.86,-0.006133594391,-0.01483830252
5.87,-0.0065019168,-0.01462696277
5.88,-0.00686288287,-0.01440831857
5.89,-0.007216471471,-0.01418262677
5.9,-0.007562670197,-0.01395013389
5.91,-0.007901474429,-0.0137110758
5.92,-0.008232886397,-0.01346567759
5.93,-0.008556914243,-0.01321415339
5.94,-0.008873571083,-0.01295670633
5.95,-0.009182874076,-0.01269352848
5.96,-0.009484843507,-0.01242480095
5.97,-0.009779501885,-0.01215069398
5.98,-0.01006687305,-0.01187136711
5.99,-0.01034698132,-0.01158696941
6,-0.01061985064,-0.01129763977
