"Freq [GHz]","re(S(Tx_p1,Tx_p1)) []","im(S(Tx_p1,Tx_p1)) []"
1,0.1341684409,-0.1772787943
1.01,0.1300438041,-0.1786533848
1.02,0.1258849523,-0.1799759676
1.03,0.1216933038,-0.1812423425
1.04,0.1174704925,-0.1824485513
1.05,0.1132183514,-0.1835908768
1.06,0.1089388954,-0.1846658424
1.07,0.1046343056,-0.1856702107
1.08,0.1003069136,-0.1866009818
1.09,0.09595918639,-0.1874553914
1.1,0.09159371178,-0.1882309085
1.11,0.08721318416,-0.1889252333
1.12,0.08282039087,-0.1895362935
1.13,0.078418199,-0.190062242
1.14,0.07400954256,-0.1905014525
1.15,0.06959741018,-0.1908525164
1.16,0.06518483326,-0.1911142383
1.17,0.06077487451,-0.1912856317
1.18,0.056370617,-0.1913659144
1.19,0.05197515362,-0.1913545032
1.2,0.04759157697,-0.1912510094
1.21,0.04322296978,-0.1910552327
1.22,0.03887239566,-0.190767156
1.23,0.03454289037,-0.1903869392
1.24,0.03023745353,-0.1899149132
1.25,0.02595904076,-0.1893515741
1.26,0.02171055624,-0.188697576
1.27,0.01749484578,-0.1879537251
1.28,0.01331469026,-0.1871209727
1.29,0.009172799562,-0.1862004084
1.3,0.00507180691,-0.1851932531
1.31,0.001014263653,-0.1841008521
1.32,-0.002997365512,-0.1829246681
1.33,-0.006960706898,-0.1816662737
1.34,-0.01087348176,-0.1803273447
1.35,-0.01473350979,-0.1789096523
1.36,-0.01853871226,-0.1774150564
1.37,-0.02228711467,-0.1758454984
1.38,-0.02597684904,-0.1742029934
1.39,-0.02960615583,-0.1724896238
1.4,-0.03317338544,-0.1707075319
1.41,-0.03667699934,-0.1688589129
1.42,-0.04011557084,-0.166946008
1.43,-0.04348778548,-0.1649710976
1.44,-0.0467924411,-0.1629364947
1.45,-0.05002844757,-0.160844538
1.46,-0.05319482615,-0.158697586
1.47,-0.05629070859,-0.1564980104
1.48,-0.05931533587,-0.15424819
1.49,-0.06226805673,-0.1519505049
1.5,-0.06514832581,-0.1496073307
1.51,-0.06795570162,-0.1472210331
1.52,-0.07068984423,-0.1447939624
1.53,-0.07335051269,-0.1423284485
1.54,-0.07593756225,-0.139826796
1.55,-0.07845094139,-0.1372912797
1.56,-0.08089068862,-0.1347241399
1.57,-0.08325692913,-0.1321275787
1.58,-0.08554987123,-0.1295037556
1.59,-0.08776980271,-0.1268547843
1.6,-0.08991708697,-0.1241827289
1.61,-0.09199215915,-0.1214896013
1.62,-0.09399552201,-0.1187773578
1.63,-0.09592774186,-0.1160478969
1.64,-0.09778944431,-0.113303057
1.65,-0.09958131004,-0.1105446139
1.66,-0.1013040704,-0.1077742796
1.67,-0.1029585033,-0.1049937005
1.68,-0.1045454284,-0.1022044561
1.69,-0.1060657032,-0.09940805815
1.7,-0.1075202184,-0.09660594978
1.71,-0.1089098937,-0.09379950522
1.72,-0.1102356736,-0.09099002944
1.73,-0.1114985228,-0.08817875819
1.74,-0.1126994223,-0.08536685829
1.75,-0.1138393653,-0.08255542808
1.76,-0.1149193531,-0.07974549818
1.77,-0.115940391,-0.0769380324
1.78,-0.116903485,-0.07413392889
1.79,-0.1178096374,-0.07133402149
1.8,-0.1186598438,-0.06853908126
1.81,-0.1194550894,-0.06574981825
1.82,-0.1201963457,-0.06296688331
1.83,-0.1208845675,-0.06019087025
1.84,-0.1215206896,-0.05742231798
1.85,-0.1221056245,-0.05466171292
1.86,-0.1226402592,-0.05190949148
1.87,-0.1231254531,-0.04916604266
1.88,-0.1235620357,-0.04643171082
1.89,-0.1239508042,-0.04370679847
1.9,-0.1242925219,-0.04099156918
1.91,-0.1245879162,-0.03828625061
1.92,-0.1248376776,-0.03559103758
1.93,-0.1250424575,-0.03290609512
1.94,-0.125202868,-0.0302315617
1.95,-0.1253194804,-0.02756755237
1.96,-0.1253928245,-0.02491416202
1.97,-0.1254233884,-0.02227146856
1.98,-0.1254116176,-0.01963953615
1.99,-0.1253579156,-0.01701841845
2,-0.1252626431,-0.01440816172
2.01,-0.125126119,-0.01180880807
2.02,-0.1249486201,-0.009220398508
2.03,-0.1247303824,-0.006642976004
2.04,-0.1244716013,-0.004076588505
2.05,-0.1241724329,-0.001521291844
2.06,-0.1238329949,0.001022847416
2.07,-0.1234533679,0.003555749228
2.08,-0.1230335971,0.006077317404
2.09,-0.1225736933,0.008587437068
2.1,-0.1220736352,0.01108597221
2.11,-0.1215333709,0.01357276337
2.12,-0.1209528198,0.01604762544
2.13,-0.1203318751,0.01851034561
2.14,-0.1196704056,0.02096068143
2.15,-0.1189682581,0.02339835902
2.16,-0.1182252597,0.02582307144
2.17,-0.1174412206,0.02823447722
2.18,-0.1166159362,0.03063219896
2.19,-0.11574919,0.03301582223
2.2,-0.1148407562,0.03538489451
2.21,-0.1138904023,0.03773892433
2.22,-0.1128978921,0.04007738056
2.23,-0.1118629882,0.04239969192
2.24,-0.110785455,0.04470524658
2.25,-0.1096650613,0.04699339197
2.26,-0.1085015834,0.04926343471
2.27,-0.1072948075,0.05151464076
2.28,-0.1060445331,0.05374623571
2.29,-0.1047505751,0.05595740519
2.3,-0.1034127669,0.05814729549
2.31,-0.1020309632,0.06031501431
2.32,-0.100605042,0.06245963166
2.33,-0.09913490821,0.06458018091
2.34,-0.09762049518,0.06667565999
2.35,-0.09606176774,0.06874503272
2.36,-0.09445872435,0.07078723028
2.37,-0.09281139941,0.07280115282
2.38,-0.09111986548,0.07478567115
2.39,-0.08938423532,0.07673962861
2.4,-0.0876046639,0.078661843
2.41,-0.0857813503,0.08055110867
2.42,-0.08391453943,0.08240619863
2.43,-0.08200452366,0.08422586686
2.44,-0.08005164442,0.08600885059
2.45,-0.07805629347,0.08775387276
2.46,-0.07601891427,0.08945964449
2.47,-0.07394000304,0.09112486764
2.48,-0.07182010975,0.09274823741
2.49,-0.069659839,0.09432844503
2.5,-0.06745985071,0.09586418042
2.51,-0.06522086067,0.09735413497
2.52,-0.062943641,0.09879700429
2.53,-0.06062902038,0.100191491
2.54,-0.05827788425,0.1015363075
2.55,-0.05589117471,0.1028301787
2.56,-0.05346989046,0.1040718453
2.57,-0.05101508643,0.1052600656
2.58,-0.04852787338,0.1063936194
2.59,-0.04600941733,0.1074713099
2.6,-0.04346093879,0.1084919668
2.61,-0.04088371199,0.109454449
2.62,-0.03827906383,0.110357647
2.63,-0.0356483728,0.1112004856
2.64,-0.03299306772,0.1119819267
2.65,-0.03031462642,0.112700971
2.66,-0.02761457421,0.1133566614
2.67,-0.02489448231,0.1139480844
2.68,-0.02215596614,0.114474373
2.69,-0.01940068353,0.1149347083
2.7,-0.01663033277,0.1153283221
2.71,-0.01384665066,0.1156544983
2.72,-0.01105141034,0.1159125752
2.73,-0.008246419194,0.116101947
2.74,-0.005433516521,0.1162220657
2.75,-0.002614571246,0.1162724423
2.76,0.0002085204966,0.1162526485
2.77,0.003033837821,0.1161623179
2.78,0.005859437604,0.1160011471
2.79,0.008683357051,0.1157688971
2.8,0.0115036163,0.1154653939
2.81,0.01431822108,0.1150905294
2.82,0.01712516536,0.1146442623
2.83,0.01992243407,0.1141266185
2.84,0.02270800583,0.1135376915
2.85,0.02547985562,0.112877643
2.86,0.0282359576,0.1121467028
2.87,0.03097428778,0.111345169
2.88,0.03369282677,0.1104734081
2.89,0.0363895625,0.1095318546
2.9,0.03906249292,0.108521011
2.91,0.04170962866,0.1074414469
2.92,0.04432899572,0.1062937992
2.93,0.046918638,0.1050787707
2.94,0.04947661998,0.1037971299
2.95,0.05200102915,0.10244971
2.96,0.05448997856,0.1010374079
2.97,0.0569416092,0.09956118289
2.98,0.05935409241,0.09802205608
2.99,0.06172563214,0.09642110857
3,0.06405446722,0.09475948036
3.01,0.06633887352,0.09303836887
3.02,0.06857716604,0.09125902736
3.03,0.07076770093,0.08942276339
3.04,0.07290887744,0.08753093708
3.05,0.07499913976,0.08558495937
3.06,0.07703697877,0.0835862902
3.07,0.07902093376,0.08153643661
3.08,0.08094959402,0.07943695078
3.09,0.08282160029,0.07728942808
3.1,0.08463564622,0.07509550495
3.11,0.08639047964,0.07285685685
3.12,0.08808490381,0.07057519611
3.13,0.0897177785,0.06825226978
3.14,0.09128802106,0.06588985738
3.15,0.09279460728,0.06348976874
3.16,0.09423657227,0.06105384171
3.17,0.09561301115,0.05858393992
3.18,0.09692307969,0.05608195047
3.19,0.09816599486,0.05354978172
3.2,0.09934103523,0.05098936092
3.21,0.1004475414,0.04840263201
3.22,0.101484916,0.0457915533
3.23,0.1024526242,0.04315809519
3.24,0.1033501935,0.04050423796
3.25,0.1041772138,0.03783196952
3.26,0.1049333374,0.0351432832
3.27,0.1056182785,0.03244017556
3.28,0.1062318131,0.02972464422
3.29,0.1067737787,0.02699868576
3.3,0.1072440737,0.02426429365
3.31,0.1076426571,0.02152345611
3.32,0.1079695476,0.01877815423
3.33,0.1082248231,0.01603035987
3.34,0.10840862,0.01328203385
3.35,0.1085211324,0.01053512402
3.36,0.108562611,0.007791563457
3.37,0.1085333627,0.005053268688
3.38,0.1084337488,0.002322137996
3.39,0.1082641849,-0.0003999502489
3.4,0.1080251392,-0.003111139183
3.41,0.1077171315,-0.00580959499
3.42,0.1073407321,-0.008493508376
3.43,0.1068965605,-0.01116109599
3.44,0.1063852844,-0.01381060178
3.45,0.105807618,-0.01644029828
3.46,0.1051643211,-0.01904848785
3.47,0.1044561974,-0.02163350383
3.48,0.1036840934,-0.02419371164
3.49,0.102848897,-0.02672750984
3.5,0.1019515358,-0.02923333109
3.51,0.1009929761,-0.03170964308
3.52,0.09997422105,-0.03415494933
3.53,0.09889630964,-0.03656779005
3.54,0.09776031487,-0.03894674281
3.55,0.09656734249,-0.04129042325
3.56,0.09531852951,-0.04359748564
3.57,0.09401504272,-0.04586662346
3.58,0.09265807727,-0.04809656989
3.59,0.0912488552,-0.05028609822
3.6,0.08978862399,-0.05243402226
3.61,0.08827865517,-0.05453919664
3.62,0.08672024286,-0.0566005171
3.63,0.08511470238,-0.05861692069
3.64,0.08346336886,-0.06058738597
3.65,0.08176759588,-0.0625109331
3.66,0.08002875408,-0.06438662398
3.67,0.07824822986,-0.0662135622
3.68,0.07642742404,-0.06799089312
3.69,0.07456775058,-0.06971780373
3.7,0.07267063532,-0.07139352265
3.71,0.0707375147,-0.07301731995
3.72,0.0687698346,-0.07458850701
3.73,0.06676904908,-0.07610643631
3.74,0.06473661926,-0.07757050122
3.75,0.06267401218,-0.07898013575
3.76,0.06058269964,-0.08033481422
3.77,0.05846415719,-0.08163405103
3.78,0.056319863,-0.08287740022
3.79,0.05415129689,-0.08406445521
3.8,0.05195993932,-0.08519484834
3.81,0.04974727039,-0.08626825052
3.82,0.04751476893,-0.08728437079
3.83,0.0452639116,-0.08824295587
3.84,0.04299617196,-0.08914378974
3.85,0.04071301965,-0.08998669314
3.86,0.03841591957,-0.09077152312
3.87,0.03610633105,-0.0914981725
3.88,0.03378570709,-0.09216656945
3.89,0.03145549363,-0.0927766769
3.9,0.02911712881,-0.09332849207
3.91,0.02677204228,-0.09382204592
3.92,0.02442165452,-0.09425740264
3.93,0.02206737622,-0.09463465911
3.94,0.01971060766,-0.09495394434
3.95,0.01735273806,-0.09521541897
3.96,0.01499514505,-0.09541927469
3.97,0.01263919414,-0.09556573369
3.98,0.0102862381,-0.09565504817
3.99,0.007937616518,-0.09568749973
4,0.005594655295,-0.09566339884
4.01,0.003258666146,-0.09558308434
4.02,0.0009309461585,-0.09544692283
4.03,-0.001387222651,-0.09525530816
4.04,-0.00369457376,-0.0950086609
4.05,-0.005989856548,-0.0947074278
4.06,-0.00827183669,-0.09435208123
4.07,-0.01053929653,-0.09394311866
4.08,-0.01279103546,-0.09348106214
4.09,-0.01502587024,-0.09296645777
4.1,-0.01724263537,-0.09239987516
4.11,-0.0194401834,-0.09178190695
4.12,-0.02161738524,-0.09111316823
4.13,-0.02377313046,-0.09039429607
4.14,-0.02590632761,-0.08962594902
4.15,-0.02801590447,-0.08880880653
4.16,-0.03010080833,-0.08794356855
4.17,-0.03216000628,-0.08703095492
4.18,-0.03419248542,-0.08607170495
4.19,-0.03619725313,-0.08506657687
4.2,-0.03817333732,-0.08401634736
4.21,-0.04011978663,-0.08292181105
4.22,-0.04203567068,-0.08178378004
4.23,-0.04392008025,-0.08060308336
4.24,-0.04577212753,-0.07938056655
4.25,-0.04759094628,-0.07811709113
4.26,-0.04937569204,-0.07681353412
4.27,-0.05112554232,-0.07547078754
4.28,-0.05283969676,-0.07408975798
4.29,-0.05451737733,-0.07267136604
4.3,-0.05615782845,-0.07121654592
4.31,-0.05776031721,-0.06972624486
4.32,-0.05932413344,-0.06820142273
4.33,-0.06084858995,-0.06664305152
4.34,-0.06233302259,-0.06505211482
4.35,-0.06377679041,-0.0634296074
4.36,-0.06517927578,-0.06177653468
4.37,-0.06653988451,-0.06009391229
4.38,-0.06785804596,-0.05838276552
4.39,-0.06913321315,-0.05664412891
4.4,-0.07036486281,-0.05487904573
4.41,-0.07155249554,-0.05308856749
4.42,-0.07269563582,-0.05127375347
4.43,-0.07379383214,-0.04943567024
4.44,-0.07484665702,-0.04757539116
4.45,-0.07585370709,-0.0456939959
4.46,-0.07681460313,-0.04379256997
4.47,-0.07772899014,-0.04187220421
4.48,-0.07859653731,-0.03993399435
4.49,-0.0794169381,-0.03797904047
4.5,-0.08018991026,-0.03600844655
4.51,-0.08091519578,-0.03402332001
4.52,-0.08159256095,-0.03202477117
4.53,-0.08222179633,-0.03001391282
4.54,-0.08280271674,-0.02799185972
4.55,-0.08333516119,-0.02595972815
4.56,-0.08381899294,-0.02391863538
4.57,-0.08425409936,-0.02186969925
4.58,-0.08464039194,-0.01981403767
4.59,-0.08497780622,-0.01775276816
4.6,-0.0852663017,-0.0156870074
4.61,-0.08550586181,-0.01361787071
4.62,-0.08569649378,-0.01154647167
4.63,-0.08583822858,-0.009473921592
4.64,-0.08593112081,-0.007401329098
4.65,-0.08597524859,-0.005329799667
4.66,-0.08597071346,-0.003260435181
4.67,-0.08591764025,-0.001194333485
4.68,-0.08581617697,0.0008674120589
4.69,-0.08566649462,0.002923712999
4.7,-0.08546878711,0.004973486235
4.71,-0.0852232711,0.007015654438
4.72,-0.08493018579,0.00904914648
4.73,-0.08458979284,0.01107289785
4.74,-0.08420237614,0.01308585106
4.75,-0.08376824166,0.01508695607
4.76,-0.08328771727,0.0170751707
4.77,-0.08276115254,0.01904946098
4.78,-0.08218891859,0.02100880162
4.79,-0.08157140784,0.02295217634
4.8,-0.08090903384,0.02487857827
4.81,-0.08020223107,0.02678701038
4.82,-0.07945145471,0.02867648577
4.83,-0.07865718046,0.03054602812
4.84,-0.07781990427,0.03239467203
4.85,-0.07694014216,0.03422146335
4.86,-0.07601842999,0.03602545961
4.87,-0.07505532321,0.03780573032
4.88,-0.07405139663,0.03956135733
4.89,-0.07300724422,0.04129143519
4.9,-0.07192347882,0.0429950715
4.91,-0.07080073192,0.04467138723
4.92,-0.06963965343,0.04631951708
4.93,-0.06844091139,0.04793860977
4.94,-0.06720519176,0.04952782843
4.95,-0.06593319813,0.0510863509
4.96,-0.06462565149,0.05261337003
4.97,-0.06328328994,0.05410809406
4.98,-0.06190686845,0.05556974689
4.99,-0.06049715857,0.05699756841
5,-0.05905494818,0.05839081485
5.01,-0.05758104119,0.05974875904
5.02,-0.05607625729,0.06107069077
5.03,-0.05454143162,0.06235591709
5.04,-0.05297741456,0.06360376259
5.05,-0.05138507134,0.06481356977
5.06,-0.04976528183,0.06598469927
5.07,-0.04811894021,0.06711653027
5.08,-0.04644695464,0.06820846071
5.09,-0.04475024697,0.06925990765
5.1,-0.04302975246,0.07027030756
5.11,-0.04128641938,0.07123911662
5.12,-0.03952120875,0.07216581102
5.13,-0.03773509398,0.0730498873
5.14,-0.03592906053,0.0738908626
5.15,-0.03410410556,0.07468827497
5.16,-0.03226123758,0.07544168373
5.17,-0.03040147609,0.0761506697
5.18,-0.02852585119,0.07681483551
5.19,-0.02663540325,0.07743380594
5.2,-0.02473118244,0.07800722817
5.21,-0.02281424841,0.0785347721
5.22,-0.02088566984,0.07901613062
5.23,-0.01894652404,0.0794510199
5.24,-0.01699789652,0.07983917972
5.25,-0.01504088053,0.0801803737
5.26,-0.01307657666,0.08047438958
5.27,-0.01110609233,0.08072103953
5.28,-0.00913054134,0.08092016042
5.29,-0.007151043398,0.08107161405
5.3,-0.005168723605,0.08117528742
5.31,-0.003184711955,0.08123109301
5.32,-0.00120014282,0.08123896902
5.33,0.0007838455871,0.08119887958
5.34,0.002766111758,0.08111081502
5.35,0.004745511444,0.08097479207
5.36,0.006720898228,0.08079085409
5.37,0.008691124107,0.08055907128
5.38,0.01065504009,0.08027954084
5.39,0.01261149681,0.07995238719
5.4,0.01455934513,0.07957776213
5.41,0.01649743682,0.079155845
5.42,0.01842462513,0.07868684282
5.43,0.02033976555,0.07817099043
5.44,0.02224171637,0.07760855058
5.45,0.02412933948,0.07699981409
5.46,0.02600150096,0.07634509985
5.47,0.02785707185,0.07564475496
5.48,0.02969492887,0.07489915475
5.49,0.0315139551,0.07410870281
5.5,0.03331304077,0.07327383098
5.51,0.03509108398,0.07239499938
5.52,0.03684699144,0.07147269637
5.53,0.03857967928,0.07050743845
5.54,0.04028807379,0.06949977026
5.55,0.0419711122,0.06845026442
5.56,0.04362774347,0.06735952145
5.57,0.04525692907,0.06622816958
5.58,0.04685764379,0.06505686463
5.59,0.04842887653,0.06384628979
5.6,0.04996963108,0.06259715538
5.61,0.05147892696,0.06131019862
5.62,0.05295580018,0.05998618338
5.63,0.05439930408,0.05862589981
5.64,0.05580851008,0.05723016409
5.65,0.05718250853,0.05579981802
5.66,0.05852040947,0.05433572864
5.67,0.05982134344,0.05283878783
5.68,0.06108446223,0.05130991188
5.69,0.06230893969,0.04975004098
5.7,0.06349397247,0.04816013876
5.71,0.0646387808,0.04654119173
5.72,0.06574260921,0.04489420876
5.73,0.0668047273,0.04322022047
5.74,0.06782443041,0.04152027861
5.75,0.0688010404,0.03979545544
5.76,0.06973390625,0.03804684308
5.77,0.07062240482,0.03627555277
5.78,0.07146594145,0.03448271417
5.79,0.07226395062,0.03266947462
5.8,0.07301589656,0.03083699835
5.81,0.07372127384,0.02898646572
5.82,0.07437960797,0.02711907234
5.83,0.0749904559,0.02523602826
5.84,0.07555340658,0.02333855709
5.85,0.07606808146,0.02142789511
5.86,0.07653413492,0.01950529038
5.87,0.07695125475,0.01757200176
5.88,0.07731916255,0.015629298
5.89,0.07763761412,0.01367845672
5.9,0.07790639979,0.0117207635
5.91,0.07812534475,0.009757510794
5.92,0.07829430936,0.007789996967
5.93,0.07841318937,0.005819525234
5.94,0.07848191615,0.003847402626
5.95,0.07850045689,0.001874938933
5.96,0.07846881475,-9.65543649E-05
5.97,0.07838702892,-0.00206576517
5.98,0.0782551748,-0.004031381847
5.99,0.07807336392,-0.005992094314
6,0.07784174406,-0.007946595128
