"Freq [GHz]","re(S(Tx_p1,Tx_p1)) []","im(S(Tx_p1,Tx_p1)) []"
1,0.1294082696,-0.1408170925
1.01,0.1266800241,-0.1434682238
1.02,0.1238575232,-0.1461121727
1.03,0.120939875,-0.1487432516
1.04,0.1179264443,-0.151355839
1.05,0.1148168459,-0.1539443834
1.06,0.1116109381,-0.1565034072
1.07,0.1083088167,-0.1590275108
1.08,0.1049108085,-0.1615113759
1.09,0.1014174658,-0.1639497701
1.1,0.09782955968,-0.1663375503
1.11,0.09414807511,-0.1686696671
1.12,0.09037420446,-0.1709411681
1.13,0.08650934215,-0.1731472024
1.14,0.08255507881,-0.1752830239
1.15,0.07851319574,-0.1773439954
1.16,0.07438565921,-0.1793255922
1.17,0.07017461489,-0.1812234059
1.18,0.06588238225,-0.1830331479
1.19,0.06151144888,-0.184750653
1.2,0.05706446498,-0.1863718829
1.21,0.05254423761,-0.1878929294
1.22,0.04795372516,-0.1893100181
1.23,0.04329603158,-0.1906195111
1.24,0.03857440077,-0.1918179104
1.25,0.03379221083,-0.1929018609
1.26,0.02895296831,-0.193868153
1.27,0.02406030247,-0.1947137257
1.28,0.01911795948,-0.1954356691
1.29,0.01412979659,-0.1960312268
1.3,0.009099776306,-0.1964977985
1.31,0.004031960474,-0.1968329418
1.32,-0.001069495571,-0.1970343751
1.33,-0.006200348953,-0.1970999787
1.34,-0.01135627519,-0.1970277972
1.35,-0.01653287415,-0.1968160409
1.36,-0.02172567604,-0.1964630874
1.37,-0.02693014738,-0.195967483
1.38,-0.03214169704,-0.1953279438
1.39,-0.03735568221,-0.194543357
1.4,-0.04256741443,-0.1936127813
1.41,-0.04777216563,-0.1925354482
1.42,-0.0529651741,-0.1913107623
1.43,-0.05814165053,-0.1899383016
1.44,-0.063296784,-0.1884178179
1.45,-0.06842574796,-0.1867492368
1.46,-0.07352370619,-0.1849326576
1.47,-0.07858581875,-0.182968353
1.48,-0.08360724785,-0.1808567687
1.49,-0.08858316382,-0.1785985229
1.5,-0.09350875086,-0.1761944053
1.51,-0.0983792129,-0.1736453763
1.52,-0.1031897793,-0.1709525659
1.53,-0.1079357107,-0.1681172721
1.54,-0.1126123045,-0.1651409602
1.55,-0.1172149004,-0.1620252602
1.56,-0.1217388862,-0.158771966
1.57,-0.1261797032,-0.1553830326
1.58,-0.1305328513,-0.1518605745
1.59,-0.1347938944,-0.1482068635
1.6,-0.1389584661,-0.144424326
1.61,-0.1430222741,-0.1405155403
1.62,-0.1469811057,-0.1364832345
1.63,-0.1508308327,-0.132330283
1.64,-0.1545674162,-0.1280597037
1.65,-0.1581869112,-0.123674655
1.66,-0.1616854714,-0.119178432
1.67,-0.1650593538,-0.1145744638
1.68,-0.1683049229,-0.1098663092
1.69,-0.1714186548,-0.1050576533
1.7,-0.1743971421,-0.1001523038
1.71,-0.1772370968,-0.09515418667
1.72,-0.1799353554,-0.0900673424
1.73,-0.1824888816,-0.0848959216
1.74,-0.1848947705,-0.07964418073
1.75,-0.1871502521,-0.07431647768
1.76,-0.1892526942,-0.06891726728
1.77,-0.1911996059,-0.0634510966
1.78,-0.1929886404,-0.05792260031
1.79,-0.1946175983,-0.05233649578
1.8,-0.1960844296,-0.04669757829
1.81,-0.1973872369,-0.04101071597
1.82,-0.1985242773,-0.03528084477
1.83,-0.1994939649,-0.02951296339
1.84,-0.2002948727,-0.02371212805
1.85,-0.2009257346,-0.01788344724
1.86,-0.201385447,-0.01203207647
1.87,-0.2016730703,-0.006163212884
1.88,-0.2017878302,-0.0002820899085
1.89,-0.2017291193,0.005606028203
1.9,-0.2014964975,0.01149585181
1.91,-0.2010896932,0.01738207137
1.92,-0.2005086039,0.02325936295
1.93,-0.1997532966,0.02912239373
1.94,-0.1988240082,0.03496582755
1.95,-0.1977211453,0.04078433043
1.96,-0.1964452848,0.0465725761
1.97,-0.1949971728,0.05232525154
1.98,-0.1933777249,0.05803706248
1.99,-0.1915880251,0.06370273889
2,-0.1896293254,0.06931704046
2.01,-0.1875030446,0.07487476202
2.02,-0.1852107673,0.08037073898
2.03,-0.1827542424,0.08579985265
2.04,-0.180135382,0.0911570356
2.05,-0.1773562594,0.09643727688
2.06,-0.1744191075,0.1016356273
2.07,-0.1713263168,0.1067472044
2.08,-0.1680804329,0.1117671979
2.09,-0.1646841549,0.1166908743
2.1,-0.1611403323,0.121513582
2.11,-0.1574519626,0.1262307561
2.12,-0.1536221888,0.1308379233
2.13,-0.1496542958,0.1353307064
2.14,-0.1455517082,0.1397048288
2.15,-0.1413179862,0.1439561193
2.16,-0.1369568229,0.148080516
2.17,-0.1324720405,0.1520740712
2.18,-0.1278675866,0.1559329547
2.19,-0.1231475307,0.1596534586
2.2,-0.1183160601,0.1632320007
2.21,-0.113377476,0.1666651283
2.22,-0.1083361891,0.1699495222
2.23,-0.1031967157,0.1730819999
2.24,-0.09796367337,0.1760595188
2.25,-0.09264177597,0.1788791799
2.26,-0.08723582961,0.1815382306
2.27,-0.08175072778,0.1840340674
2.28,-0.07619144661,0.1863642392
2.29,-0.07056304004,0.1885264494
2.3,-0.06487063488,0.1905185589
2.31,-0.05911942585,0.1923385878
2.32,-0.05331467049,0.1939847182
2.33,-0.04746168401,0.1954552954
2.34,-0.04156583411,0.1967488307
2.35,-0.03563253573,0.1978640021
2.36,-0.02966724575,0.1987996564
2.37,-0.02367545762,0.1995548102
2.38,-0.01766269602,0.2001286514
2.39,-0.01163451139,0.2005205395
2.4,-0.005596474501,0.2007300073
2.41,0.0004458289877,0.2007567607
2.42,0.006486804058,0.2006006795
2.43,0.01252085181,0.2002618179
2.44,0.01854237497,0.1997404042
2.45,0.02454578339,0.1990368407
2.46,0.03052549956,0.1981517039
2.47,0.03647596408,0.1970857437
2.48,0.04239164117,0.1958398829
2.49,0.04826702405,0.1944152161
2.5,0.05409664044,0.1928130096
2.51,0.0598750579,0.1910346992
2.52,0.06559688918,0.1890818898
2.53,0.07125679758,0.1869563533
2.54,0.07684950213,0.1846600275
2.55,0.08236978286,0.1821950137
2.56,0.0878124859,0.1795635754
2.57,0.09317252859,0.1767681355
2.58,0.09844490445,0.1738112748
2.59,0.1036246881,0.1706957288
2.6,0.1087070403,0.1674243853
2.61,0.1136872124,0.1640002822
2.62,0.1185605512,0.1604266038
2.63,0.1233225036,0.1567066782
2.64,0.127968621,0.1528439742
2.65,0.1324945634,0.1488420974
2.66,0.1368961045,0.1447047877
2.67,0.1411691347,0.1404359145
2.68,0.1453096662,0.1360394741
2.69,0.1493138363,0.1315195851
2.7,0.1531779113,0.1268804846
2.71,0.1568982904,0.1221265242
2.72,0.1604715089,0.117262166
2.73,0.1638942421,0.1122919776
2.74,0.1671633079,0.1072206283
2.75,0.1702756704,0.1020528845
2.76,0.1732284428,0.09679360479
2.77,0.1760188901,0.09144773541
2.78,0.1786444319,0.08602030546
2.79,0.1811026449,0.08051642201
2.8,0.1833912652,0.0749412651
2.81,0.1855081906,0.06930008275
2.82,0.1874514825,0.06359818582
2.83,0.1892193681,0.05784094292
2.84,0.1908102418,0.05203377513
2.85,0.1922226669,0.04618215075
2.86,0.1934553769,0.04029158002
2.87,0.194507277,0.03436760972
2.88,0.1953774447,0.02841581783
2.89,0.1960651311,0.02244180807
2.9,0.1965697615,0.01645120449
2.91,0.1968909356,0.010449646
2.92,0.1970284286,0.004442780878
2.93,0.1969821904,-0.001563738669
2.94,0.1967523467,-0.007564262027
2.95,0.1963391979,-0.01355314563
2.96,0.1957432195,-0.01952475846
2.97,0.1949650611,-0.02547348747
2.98,0.1940055459,-0.03139374303
2.99,0.1928656702,-0.03727996438
3,0.1915466016,-0.04312662495
3.01,0.1900496788,-0.04892823775
3.02,0.1883764093,-0.05467936067
3.03,0.1865284688,-0.06037460172
3.04,0.1845076987,-0.06600862427
3.05,0.1823161048,-0.07157615216
3.06,0.1799558551,-0.07707197483
3.07,0.1774292778,-0.08249095232
3.08,0.1747388587,-0.08782802025
3.09,0.1718872389,-0.09307819464
3.1,0.1688772124,-0.09823657676
3.11,0.165711723,-0.1032983578
3.12,0.1623938613,-0.1082588236
3.13,0.1589268622,-0.1131133588
3.14,0.1553141011,-0.1178574519
3.15,0.1515590908,-0.1224866991
3.16,0.1476654784,-0.1269968083
3.17,0.1436370409,-0.1313836041
3.18,0.1394776823,-0.1356430306
3.19,0.1351914292,-0.1397711565
3.2,0.1307824271,-0.1437641776
3.21,0.1262549363,-0.1476184214
3.22,0.1216133277,-0.1513303502
3.23,0.1168620784,-0.1548965641
3.24,0.1120057674,-0.158313805
3.25,0.1070490712,-0.1615789589
3.26,0.1019967591,-0.1646890593
3.27,0.09685368859,-0.1676412896
3.28,0.09162480053,-0.1704329864
3.29,0.08631511437,-0.173061641
3.3,0.08092972327,-0.1755249025
3.31,0.07547378906,-0.1778205799
3.32,0.06995253728,-0.1799466435
3.33,0.06437125203,-0.1819012276
3.34,0.05873527085,-0.1836826315
3.35,0.0530499795,-0.1852893214
3.36,0.04732080677,-0.1867199317
3.37,0.04155321914,-0.187973266
3.38,0.03575271551,-0.1890482984
3.39,0.02992482187,-0.1899441743
3.4,0.0240750859,-0.1906602109
3.41,0.01820907163,-0.1911958981
3.42,0.01233235406,-0.1915508982
3.43,0.006450513706,-0.191725047
3.44,0.000569131287,-0.1917183531
3.45,-0.005306217725,-0.191530998
3.46,-0.01116996846,-0.1911633358
3.47,-0.01701657202,-0.1906158926
3.48,-0.02284050082,-0.1898893661
3.49,-0.02863625392,-0.1889846243
3.5,-0.03439836231,-0.1879027053
3.51,-0.04012139412,-0.1866448152
3.52,-0.04579995992,-0.1852123276
3.53,-0.05142871779,-0.1836067815
3.54,-0.0570023785,-0.1818298801
3.55,-0.06251571055,-0.1798834889
3.56,-0.06796354513,-0.1777696336
3.57,-0.0733407811,-0.1754904982
3.58,-0.07864238985,-0.1730484224
3.59,-0.08386342002,-0.1704458997
3.6,-0.08899900229,-0.1676855745
3.61,-0.09404435394,-0.1647702395
3.62,-0.09899478338,-0.1617028326
3.63,-0.1038456946,-0.1584864345
3.64,-0.1085925917,-0.155124265
3.65,-0.1132310825,-0.1516196801
3.66,-0.1177568836,-0.1479761686
3.67,-0.1221658237,-0.1441973483
3.68,-0.1264538476,-0.1402869629
3.69,-0.1306170203,-0.1362488775
3.7,-0.1346515304,-0.1320870757
3.71,-0.1385536937,-0.1278056547
3.72,-0.1423199569,-0.123408822
3.73,-0.1459469001,-0.1189008906
3.74,-0.149431241,-0.1142862752
3.75,-0.1527698372,-0.1095694875
3.76,-0.1559596892,-0.1047551319
3.77,-0.1589979433,-0.09984790099
3.78,-0.161881894,-0.09485257083
3.79,-0.1646089867,-0.08977399628
3.8,-0.1671768197,-0.08461710624
3.81,-0.1695831465,-0.07938689881
3.82,-0.1718258778,-0.07408843639
3.83,-0.1739030831,-0.06872684075
3.84,-0.1758129929,-0.06330728796
3.85,-0.1775539996,-0.05783500341
3.86,-0.1791246591,-0.05231525666
3.87,-0.1805236924,-0.04675335634
3.88,-0.1817499859,-0.04115464496
3.89,-0.1828025927,-0.03552449375
3.9,-0.1836807334,-0.02986829742
3.91,-0.1843837964,-0.02419146897
3.92,-0.1849113384,-0.0184994344
3.93,-0.1852630846,-0.01279762751
3.94,-0.1854389288,-0.00709148462
3.95,-0.1854389331,-0.001386439359
3.96,-0.185263328,0.004312082586
3.97,-0.1849125115,0.009998668683
3.98,-0.1843870489,0.01566792475
3.99,-0.1836876718,0.02131448013
4,-0.1828152774,0.02693299284
4.01,-0.1817709272,0.03251815466
4.02,-0.1805558457,0.03806469623
4.03,-0.1791714193,0.04356739207
4.04,-0.1776191948,0.04902106552
4.05,-0.1759008771,0.0544205937
4.06,-0.1740183282,0.05976091237
4.07,-0.1719735642,0.0650370207
4.08,-0.1697687543,0.07024398603
4.09,-0.1674062175,0.07537694851
4.1,-0.1648884207,0.0804311257
4.11,-0.162217976,0.08540181705
4.12,-0.159397638,0.09028440831
4.13,-0.1564303009,0.09507437587
4.14,-0.1533189955,0.09976729099
4.15,-0.1500668863,0.1043588239
4.16,-0.1466772679,0.1088447479
4.17,-0.1431535621,0.1132209433
4.18,-0.1394993139,0.1174834009
4.19,-0.1357181885,0.1216282263
4.2,-0.1318139671,0.1256516429
4.21,-0.1277905433,0.1295499958
4.22,-0.1236519194,0.1333197549
4.23,-0.1194022019,0.1369575181
4.24,-0.1150455978,0.1404600145
4.25,-0.1105864104,0.1438241074
4.26,-0.1060290347,0.1470467971
4.27,-0.1013779534,0.1501252233
4.28,-0.09663773213,0.153056668
4.29,-0.09181301531,0.1558385578
4.3,-0.08690852122,0.1584684662
4.31,-0.08192903753,0.1609441155
4.32,-0.07687941657,0.1632633792
4.33,-0.07176457053,0.1654242831
4.34,-0.06658946665,0.167425008
4.35,-0.06135912242,0.16926389
4.36,-0.05607860058,0.1709394231
4.37,-0.05075300428,0.1724502594
4.38,-0.04538747203,0.1737952107
4.39,-0.03998717276,0.1749732492
4.4,-0.03455730079,0.1759835084
4.41,-0.02910307078,0.1768252835
4.42,-0.02362971269,0.177498032
4.43,-0.01814246675,0.1780013737
4.44,-0.01264657838,0.1783350913
4.45,-0.007147293153,0.1784991296
4.46,-0.001649851758,0.1784935962
4.47,0.003840515046,0.1783187604
4.48,0.00931859143,0.1779750531
4.49,0.01477918149,0.177463066
4.5,0.0202171142,0.1767835506
4.51,0.02562724834,0.1759374175
4.52,0.03100447742,0.1749257354
4.53,0.03634373449,0.1737497292
4.54,0.04163999694,0.1724107792
4.55,0.04688829132,0.1709104192
4.56,0.05208369795,0.1692503349
4.57,0.05722135563,0.1674323619
4.58,0.06229646616,0.1654584839
4.59,0.06730429889,0.1633308304
4.6,0.07224019514,0.1610516743
4.61,0.07709957252,0.1586234299
4.62,0.08187792926,0.1560486499
4.63,0.08657084836,0.1533300229
4.64,0.09117400172,0.1504703706
4.65,0.0956831541,0.147472645
4.66,0.1000941671,0.1443399249
4.67,0.1044030029,0.1410754133
4.68,0.1086057281,0.1376824338
4.69,0.112698517,0.1341644272
4.7,0.1166776556,0.1305249481
4.71,0.1205395444,0.1267676613
4.72,0.1242807022,0.1228963378
4.73,0.1278977688,0.1189148516
4.74,0.1313875084,0.1148271752
4.75,0.134746812,0.110637376
4.76,0.1379727008,0.106349612
4.77,0.1410623283,0.1019681279
4.78,0.144012983,0.09749725055
4.79,0.1468220908,0.092941385
4.8,0.1494872173,0.08830500991
4.81,0.1520060695,0.08359267322
4.82,0.1543764985,0.0788089876
4.83,0.1565965004,0.07395862601
4.84,0.1586642186,0.069046317
4.85,0.1605779453,0.06407684018
4.86,0.1623361224,0.05905502146
4.87,0.1639373433,0.0539857284
4.88,0.1653803537,0.04887386543
4.89,0.1666640524,0.04372436912
4.9,0.1677874924,0.03854220335
4.91,0.1687498813,0.03333235453
4.92,0.1695505818,0.02809982674
4.93,0.1701891123,0.02284963698
4.94,0.1706651467,0.01758681024
4.95,0.1709785146,0.01231637475
4.96,0.1711292013,0.007043357084
4.97,0.1711173473,0.001772777415
4.98,0.1709432481,-0.003490355334
4.99,0.1706073535,-0.008741048251
5,0.1701102669,-0.01397432919
5.01,0.1694527445,-0.01918525151
5.02,0.1686356942,-0.02436889875
5.03,0.1676601746,-0.02952038929
5.04,0.1665273937,-0.03463488098
5.05,0.1652387072,-0.03970757567
5.06,0.1637956172,-0.04473372377
5.07,0.1621997704,-0.04970862867
5.08,0.1604529564,-0.05462765116
5.09,0.1585571054,-0.05948621378
5.1,0.1565142864,-0.06427980504
5.11,0.1543267047,-0.06900398369
5.12,0.1519966999,-0.07365438275
5.13,0.1495267429,-0.07822671366
5.14,0.1469194337,-0.08271677013
5.15,0.1441774987,-0.0871204321
5.16,0.1413037874,-0.09143366946
5.17,0.1383012699,-0.09565254579
5.18,0.1351730336,-0.0997732219
5.19,0.1319222801,-0.1037919593
5.2,0.1285523219,-0.1077051238
5.21,0.125066579,-0.1115091885
5.22,0.1214685754,-0.115200737
5.23,0.1177619357,-0.1187764666
5.24,0.1139503811,-0.1222331913
5.25,0.1100377261,-0.1255678444
5.26,0.1060278743,-0.1287774813
5.27,0.1019248146,-0.1318592822
5.28,0.09773261727,-0.1348105542
5.29,0.09345543001,-0.1376287343
5.3,0.08909747355,-0.1403113906
5.31,0.08466303767,-0.1428562256
5.32,0.08015647692,-0.145261077
5.33,0.07558220633,-0.1475239202
5.34,0.07094469706,-0.1496428697
5.35,0.06624847204,-0.1516161808
5.36,0.06149810151,-0.1534422508
5.37,0.05669819859,-0.1551196202
5.38,0.05185341477,-0.1566469742
5.39,0.04696843539,-0.1580231434
5.4,0.04204797509,-0.1592471044
5.41,0.03709677327,-0.1603179811
5.42,0.03211958949,-0.1612350447
5.43,0.02712119886,-0.1619977142
5.44,0.02210638752,-0.1626055569
5.45,0.01707994795,-0.1630582885
5.46,0.01204667448,-0.1633557727
5.47,0.007011358602,-0.1634980215
5.48,0.001978784483,-0.1634851946
5.49,-0.003046275635,-0.1633175989
5.5,-0.008059065957,-0.1629956883
5.51,-0.01305485164,-0.1625200627
5.52,-0.01802892329,-0.1618914668
5.53,-0.02297660138,-0.16111079
5.54,-0.02789324069,-0.1601790643
5.55,-0.03277423463,-0.1590974636
5.56,-0.03761501962,-0.1578673021
5.57,-0.0424110793,-0.1564900328
5.58,-0.04715794879,-0.1549672459
5.59,-0.05185121883,-0.1533006667
5.6,-0.05648653985,-0.1514921543
5.61,-0.06105962606,-0.1495436987
5.62,-0.06556625935,-0.1474574196
5.63,-0.07000229322,-0.1452355631
5.64,-0.07436365656,-0.1428805001
5.65,-0.0786463574,-0.1403947236
5.66,-0.08284648653,-0.1377808456
5.67,-0.08696022112,-0.135041595
5.68,-0.09098382811,-0.1321798145
5.69,-0.09491366763,-0.1291984574
5.7,-0.09874619629,-0.1261005851
5.71,-0.1024779703,-0.1228893633
5.72,-0.1061056487,-0.1195680595
5.73,-0.1096259961,-0.1161400389
5.74,-0.1130358858,-0.1126087617
5.75,-0.1163323022,-0.1089777791
5.76,-0.1195123439,-0.1052507299
5.77,-0.1225732259,-0.101431337
5.78,-0.125512282,-0.09752340333
5.79,-0.1283269674,-0.09353080844
5.8,-0.1310148605,-0.08945750433
5.81,-0.1335736652,-0.08530751174
5.82,-0.1360012127,-0.08108491605
5.83,-0.1382954634,-0.07679386331
5.84,-0.1404545083,-0.07243855617
5.85,-0.1424765712,-0.0680232497
5.86,-0.1443600092,-0.06355224728
5.87,-0.1461033147,-0.0590298964
5.88,-0.1477051164,-0.05446058436
5.89,-0.1491641799,-0.0498487341
5.9,-0.1504794091,-0.04519879982
5.91,-0.1516498469,-0.04051526276
5.92,-0.1526746754,-0.0358026268
5.93,-0.1535532168,-0.03106541417
5.94,-0.1542849337,-0.02630816108
5.95,-0.154869429,-0.02153541339
5.96,-0.1553064464,-0.01675172224
5.97,-0.15559587,-0.01196163973
5.98,-0.1557377243,-0.007169714574
5.99,-0.1557321739,-0.002380487772
6,-0.1555795228,0.00240151169
