"Freq [GHz]","re(S(Tx_p1,Tx_p1)) []","im(S(Tx_p1,Tx_p1)) []"
1,0.2516038741,-0.3089924861
1.01,0.2455506315,-0.312714924
1.02,0.2394056512,-0.3164129205
1.03,0.2331679797,-0.3200801583
1.04,0.2268368798,-0.3237105537
1.05,0.2204118105,-0.3272982439
1.06,0.2138924081,-0.3308375751
1.07,0.2072784693,-0.3343230895
1.08,0.2005699354,-0.3377495133
1.09,0.1937668782,-0.3411117431
1.1,0.1868694877,-0.3444048338
1.11,0.1798780605,-0.3476239857
1.12,0.1727929904,-0.3507645319
1.13,0.1656147593,-0.3538219254
1.14,0.1583439309,-0.3567917275
1.15,0.1509811438,-0.3596695948
1.16,0.1435271077,-0.3624512682
1.17,0.1359825993,-0.3651325608
1.18,0.1283484602,-0.367709347
1.19,0.1206255957,-0.3701775518
1.2,0.1128149743,-0.3725331406
1.21,0.1049176288,-0.3747721093
1.22,0.0969346576,-0.3768904756
1.23,0.08886722787,-0.3788842699
1.24,0.08071657858,-0.3807495276
1.25,0.07248402494,-0.3824822822
1.26,0.06417096332,-0.3840785584
1.27,0.05577887696,-0.3855343666
1.28,0.04730934219,-0.3868456978
1.29,0.03876403529,-0.3880085197
1.3,0.03014473976,-0.389018773
1.31,0.02145335414,-0.3898723693
1.32,0.01269190006,-0.3905651894
1.33,0.003862530646,-0.3910930826
1.34,-0.005032460775,-0.3914518669
1.35,-0.01399063191,-0.3916373303
1.36,-0.02300938255,-0.3916452324
1.37,-0.03208594561,-0.3914713081
1.38,-0.0412173782,-0.3911112706
1.39,-0.05040055275,-0.3905608169
1.4,-0.05963214832,-0.3898156332
1.41,-0.06890864214,-0.3888714014
1.42,-0.0782263014,-0.3877238066
1.43,-0.08758117536,-0.3863685453
1.44,-0.09696908793,-0.3848013349
1.45,-0.1063856307,-0.3830179229
1.46,-0.1158261562,-0.3810140981
1.47,-0.1252857726,-0.3787857021
1.48,-0.1347593376,-0.3763286409
1.49,-0.1442414544,-0.373638898
1.5,-0.1537264677,-0.3707125476
1.51,-0.1632084603,-0.3675457687
1.52,-0.1726812512,-0.3641348594
1.53,-0.1821383938,-0.3604762519
1.54,-0.1915731752,-0.3565665278
1.55,-0.2009786171,-0.3524024337
1.56,-0.2103474764,-0.3479808974
1.57,-0.2196722478,-0.3432990441
1.58,-0.228945167,-0.3383542123
1.59,-0.2381582151,-0.3331439712
1.6,-0.2473031234,-0.3276661365
1.61,-0.2563713801,-0.3219187877
1.62,-0.2653542379,-0.3159002837
1.63,-0.2742427218,-0.30960928
1.64,-0.283027639,-0.3030447446
1.65,-0.2916995893,-0.2962059735
1.66,-0.3002489769,-0.2890926068
1.67,-0.3086660226,-0.2817046436
1.68,-0.3169407775,-0.2740424566
1.69,-0.3250631378,-0.2661068063
1.7,-0.3330228603,-0.2578988546
1.71,-0.3408095788,-0.2494201778
1.72,-0.3484128215,-0.2406727785
1.73,-0.3558220293,-0.2316590971
1.74,-0.3630265751,-0.2223820227
1.75,-0.3700157834,-0.2128449021
1.76,-0.3767789514,-0.2030515491
1.77,-0.3833053697,-0.1930062522
1.78,-0.3895843449,-0.1827137811
1.79,-0.3956052222,-0.1721793924
1.8,-0.401357408,-0.1614088342
1.81,-0.4068303939,-0.1504083494
1.82,-0.4120137809,-0.1391846778
1.83,-0.4168973034,-0.1277450572
1.84,-0.4214708541,-0.1160972229
1.85,-0.4257245086,-0.1042494064
1.86,-0.429648551,-0.09221033197
1.87,-0.4332334983,-0.07998921313
1.88,-0.4364701262,-0.06759574657
1.89,-0.4393494936,-0.05504010558
1.9,-0.4418629677,-0.04233293179
1.91,-0.4440022487,-0.02948532562
1.92,-0.4457593945,-0.01650883545
1.93,-0.447126844,-0.003415445405
1.94,-0.4480974414,0.009782438096
1.95,-0.4486644591,0.02307200116
1.96,-0.4488216198,0.03644003848
1.97,-0.4485631191,0.04987297062
1.98,-0.4478836459,0.06335686253
1.99,-0.4467784032,0.0768774433
2,-0.4452431275,0.09042012696
2.01,-0.4432741072,0.1039700345
2.02,-0.4408682003,0.1175120167
2.03,-0.4380228509,0.1310306786
2.04,-0.4347361045,0.144510404
2.05,-0.4310066224,0.1579353817
2.06,-0.4268336948,0.1712896318
2.07,-0.4222172522,0.1845570341
2.08,-0.4171578765,0.1977213554
2.09,-0.4116568092,0.210766279
2.1,-0.4057159603,0.2236754339
2.11,-0.3993379135,0.2364324252
2.12,-0.3925259317,0.2490208641
2.13,-0.3852839602,0.261424399
2.14,-0.3776166283,0.2736267465
2.15,-0.3695292501,0.285611723
2.16,-0.361027823,0.2973632757
2.17,-0.3521190248,0.3088655145
2.18,-0.3428102096,0.3201027433
2.19,-0.3331094019,0.3310594914
2.2,-0.3230252892,0.3417205447
2.21,-0.3125672126,0.3520709767
2.22,-0.3017451568,0.362096179
2.23,-0.2905697379,0.3717818912
2.24,-0.2790521894,0.3811142308
2.25,-0.2672043478,0.3900797223
2.26,-0.2550386358,0.3986653251
2.27,-0.2425680443,0.4068584614
2.28,-0.2298061134,0.4146470432
2.29,-0.2167669113,0.4220194975
2.3,-0.2034650129,0.428964792
2.31,-0.1899154765,0.4354724585
2.32,-0.1761338192,0.4415326157
2.33,-0.1621359916,0.4471359913
2.34,-0.1479383511,0.4522739417
2.35,-0.1335576347,0.4569384717
2.36,-0.1190109298,0.4611222524
2.37,-0.1043156454,0.4648186369
2.38,-0.08948948161,0.4680216764
2.39,-0.07455039858,0.4707261327
2.4,-0.05951658508,0.4729274911
2.41,-0.04440642618,0.4746219705
2.42,-0.02923847055,0.4758065326
2.43,-0.01403139731,0.476478889
2.44,0.001196017446,0.4766375073
2.45,0.0164249344,0.4762816151
2.46,0.03163648495,0.4754112025
2.47,0.04681180521,0.4740270232
2.48,0.06193207002,0.4721305934
2.49,0.07697852695,0.4697241895
2.5,0.09193253002,0.4668108444
2.51,0.1067755733,0.4633943413
2.52,0.1214893241,0.4594792068
2.53,0.1360556559,0.4550707019
2.54,0.1504566802,0.4501748114
2.55,0.164674779,0.4447982322
2.56,0.1786926353,0.4389483597
2.57,0.1924932638,0.4326332727
2.58,0.2060600403,0.4258617172
2.59,0.2193767304,0.4186430885
2.6,0.2324275174,0.4109874123
2.61,0.2451970291,0.402905324
2.62,0.2576703631,0.3944080471
2.63,0.2698331121,0.3855073708
2.64,0.2816713863,0.3762156256
2.65,0.2931718365,0.3665456585
2.66,0.3043216744,0.3565108073
2.67,0.3151086922,0.3461248733
2.68,0.3255212807,0.3354020942
2.69,0.3355484463,0.3243571152
2.7,0.345179826,0.3130049597
2.71,0.3544057013,0.3013610004
2.72,0.3632170105,0.2894409281
2.73,0.3716053592,0.2772607215
2.74,0.3795630301,0.264836616
2.75,0.3870829901,0.2521850722
2.76,0.3941588967,0.2393227444
2.77,0.4007851023,0.226266449
2.78,0.4069566577,0.2130331326
2.79,0.4126693126,0.1996398402
2.8,0.4179195163,0.1861036838
2.81,0.4227044156,0.1724418109
2.82,0.4270218516,0.1586713735
2.83,0.430870355,0.1448094969
2.84,0.4342491401,0.1308732502
2.85,0.437158097,0.1168796155
2.86,0.4395977825,0.1028454595
2.87,0.44156941,0.08878750432
2.88,0.4430748374,0.07472230008
2.89,0.4441165545,0.06066619743
2.9,0.4446976683,0.04663532156
2.91,0.444821888,0.03264554675
2.92,0.4444935081,0.01871247209
2.93,0.4437173913,0.004851398018
2.94,0.4424989492,-0.008922695852
2.95,0.4408441233,-0.02259517198
2.96,0.4387593644,-0.03615175489
2.97,0.4362516111,-0.04957854998
2.98,0.4333282683,-0.06286206115
2.99,0.4299971841,-0.07598920709
3,0.4262666266,-0.08894733637
3.01,0.4221452605,-0.1017242411
3.02,0.4176421224,-0.1143081696
3.03,0.4127665965,-0.1266878369
3.04,0.4075283894,-0.138852435
3.05,0.4019375053,-0.1507916412
3.06,0.3960042203,-0.1624956245
3.07,0.3897390575,-0.1739550521
3.08,0.3831527613,-0.1851610928
3.09,0.3762562722,-0.1961054207
3.1,0.3690607017,-0.2067802164
3.11,0.3615773072,-0.2171781672
3.12,0.3538174676,-0.2272924664
3.13,0.3457926587,-0.2371168112
3.14,0.3375144297,-0.2466453985
3.15,0.3289943794,-0.2558729212
3.16,0.3202441337,-0.2647945616
3.17,0.3112753232,-0.273405985
3.18,0.3020995616,-0.2817033313
3.19,0.2927284248,-0.2896832061
3.2,0.2831734313,-0.297342671
3.21,0.273446022,-0.3046792321
3.22,0.2635575427,-0.3116908286
3.23,0.2535192262,-0.31837582
3.24,0.2433421755,-0.3247329729
3.25,0.2330373488,-0.3307614466
3.26,0.2226155443,-0.3364607788
3.27,0.2120873872,-0.3418308702
3.28,0.2014633167,-0.3468719685
3.29,0.1907535749,-0.3515846524
3.3,0.1799681966,-0.355969815
3.31,0.1691169994,-0.3600286471
3.32,0.1582095765,-0.3637626196
3.33,0.1472552889,-0.3671734666
3.34,0.13626326,-0.370263168
3.35,0.1252423706,-0.3730339319
3.36,0.1142012553,-0.3754881773
3.37,0.1031482996,-0.3776285169
3.38,0.09209163891,-0.3794577396
3.39,0.08103915751,-0.3809787941
3.4,0.06999848944,-0.3821947719
3.41,0.05897701989,-0.3831088911
3.42,0.04798188775,-0.3837244807
3.43,0.03701998903,-0.3840449648
3.44,0.02609798123,-0.384073848
3.45,0.01522228852,-0.3838147009
3.46,0.004399107784,-0.3832711466
3.47,-0.00636558462,-0.3824468471
3.48,-0.01706602531,-0.3813454914
3.49,-0.02769665571,-0.3799707837
3.5,-0.03825211323,-0.3783264323
3.51,-0.04872722188,-0.3764161398
3.52,-0.05911698236,-0.3742435938
3.53,-0.06941656173,-0.3718124584
3.54,-0.07962128266,-0.3691263668
3.55,-0.08972661232,-0.3661889147
3.56,-0.09972815103,-0.3630036546
3.57,-0.1096216207,-0.359574091
3.58,-0.119402853,-0.3559036768
3.59,-0.1290677777,-0.3519958102
3.6,-0.1386124106,-0.3478538327
3.61,-0.1480328419,-0.3434810286
3.62,-0.1573252244,-0.3388806243
3.63,-0.1664857617,-0.3340557895
3.64,-0.1755106972,-0.3290096391
3.65,-0.1843963028,-0.3237452355
3.66,-0.193138868,-0.3182655923
3.67,-0.2017346898,-0.3125736785
3.68,-0.2101800624,-0.306672424
3.69,-0.2184712681,-0.3005647252
3.7,-0.2266045679,-0.2942534516
3.71,-0.2345761938,-0.2877414537
3.72,-0.2423823405,-0.2810315703
3.73,-0.2500191585,-0.2741266379
3.74,-0.257482748,-0.2670294994
3.75,-0.2647691532,-0.2597430141
3.76,-0.2718743574,-0.252270068
3.77,-0.2787942791,-0.244613584
3.78,-0.2855247689,-0.2367765338
3.79,-0.2920616073,-0.2287619484
3.8,-0.298400503,-0.22057293
3.81,-0.3045370929,-0.212212664
3.82,-0.3104669422,-0.2036844307
3.83,-0.3161855458,-0.1949916173
3.84,-0.3216883307,-0.18613773
3.85,-0.3269706592,-0.177126406
3.86,-0.3320278332,-0.1679614253
3.87,-0.3368550989,-0.1586467225
3.88,-0.3414476534,-0.1491863982
3.89,-0.3458006511,-0.1395847303
3.9,-0.349909212,-0.1298461847
3.91,-0.35376843,-0.1199754258
3.92,-0.3573733826,-0.1099773265
3.93,-0.3607191412,-0.0998569777
3.94,-0.3638007826,-0.08961969717
3.95,-0.3666134005,-0.0792710377
3.96,-0.3691521182,-0.0688167948
3.97,-0.3714121022,-0.05826301352
3.98,-0.3733885758,-0.04761599455
3.99,-0.3750768341,-0.03688229952
4,-0.3764722587,-0.02606875536
4.01,-0.3775703334,-0.01518245793
4.02,-0.3783666604,-0.004230774534
4.03,-0.3788569767,0.006778654383
4.04,-0.3790371708,0.01783791458
4.05,-0.3789032995,0.02893881838
4.06,-0.3784516057,0.04007290603
4.07,-0.3776785355,0.05123144817
4.08,-0.3765807554,0.06240544932
4.09,-0.3751551705,0.07358565245
4.1,-0.3733989414,0.08476254463
4.11,-0.3713095017,0.09592636383
4.12,-0.3688845753,0.1070671067
4.13,-0.3661221935,0.1181745375
4.14,-0.3630207114,0.1292381981
4.15,-0.3595788242,0.1402474192
4.16,-0.3557955834,0.1511913319
4.17,-0.3516704119,0.1620588815
4.18,-0.3472031187,0.1728388413
4.19,-0.3423939136,0.1835198277
4.2,-0.3372434204,0.1940903161
4.21,-0.3317526895,0.2045386584
4.22,-0.3259232105,0.2148531001
4.23,-0.3197569229,0.2250217996
4.24,-0.3132562266,0.2350328474
4.25,-0.3064239912,0.2448742864
4.26,-0.2992635641,0.2545341325
4.27,-0.2917787783,0.2640003966
4.28,-0.2839739583,0.2732611063
4.29,-0.2758539253,0.2823043288
4.3,-0.2674240012,0.2911181942
4.31,-0.2586900112,0.2996909185
4.32,-0.2496582859,0.3080108278
4.33,-0.2403356611,0.3160663826
4.34,-0.2307294774,0.3238462018
4.35,-0.2208475775,0.3313390875
4.36,-0.2106983033,0.3385340492
4.37,-0.2002904909,0.345420329
4.38,-0.1896334645,0.3519874254
4.39,-0.1787370294,0.358225118
4.4,-0.167611463,0.3641234919
4.41,-0.1562675054,0.3696729612
4.42,-0.1447163475,0.3748642925
4.43,-0.1329696193,0.3796886284
4.44,-0.1210393759,0.3841375096
4.45,-0.1089380823,0.3882028975
4.46,-0.09667859808,0.3918771952
4.47,-0.08427415927,0.3951532682
4.48,-0.07173836055,0.3980244648
4.49,-0.05908513554,0.4004846349
4.5,-0.04632873631,0.4025281482
4.51,-0.03348371183,0.4041499117
4.52,-0.02056488547,0.4053453862
4.53,-0.007587331572,0.4061106011
4.54,0.005433648783,0.4064421689
4.55,0.01848255288,0.4063372984
4.56,0.03154370217,0.4057938059
4.57,0.04460126874,0.4048101266
4.58,0.05763930244,0.4033853232
4.59,0.07064175852,0.4015190945
4.6,0.08359252577,0.3992117816
4.61,0.09647545507,0.3964643736
4.62,0.1092743883,0.3932785112
4.63,0.1219731873,0.3896564895
4.64,0.1345557637,0.3856012589
4.65,0.1470061077,0.3811164248
4.66,0.1593083182,0.3762062458
4.67,0.1714466321,0.3708756305
4.68,0.1834054532,0.3651301327
4.69,0.1951693823,0.3589759454
4.7,0.2067232454,0.352419893
4.71,0.2180521226,0.3454694227
4.72,0.2291413761,0.3381325937
4.73,0.2399766783,0.3304180655
4.74,0.2505440387,0.3223350851
4.75,0.2608298304,0.313893472
4.76,0.2708208161,0.3051036028
4.77,0.2805041732,0.2959763939
4.78,0.2898675181,0.2865232835
4.79,0.2988989293,0.2767562119
4.8,0.3075869703,0.2666876012
4.81,0.3159207108,0.2563303333
4.82,0.323889747,0.2456977275
4.83,0.331484221,0.2348035164
4.84,0.338694839,0.2236618221
4.85,0.345512888,0.2122871298
4.86,0.3519302515,0.2006942623
4.87,0.357939424,0.1888983525
4.88,0.363533524,0.1769148161
4.89,0.3687063054,0.1647593234
4.9,0.3734521683,0.1524477703
4.91,0.3777661673,0.1399962492
4.92,0.3816440195,0.1274210196
4.93,0.3850821102,0.1147384779
4.94,0.3880774974,0.1019651277
4.95,0.3906279152,0.08911754917
4.96,0.392731775,0.07621236911
4.97,0.3943881659,0.06326623034
4.98,0.3955968534,0.05029576156
4.99,0.3963582764,0.0373175473
5,0.3966735431,0.02434809804
5.01,0.3965444253,0.01140382063
5.02,0.3959733513,-0.001499010828
5.03,0.3949633974,-0.01434428376
5.04,0.3935182782,-0.02711607532
5.05,0.3916423352,-0.03979867999
5.06,0.3893405246,-0.0523766366
5.07,0.3866184032,-0.06483475453
5.08,0.3834821141,-0.07715813924
5.09,0.3799383699,-0.08933221688
5.1,0.3759944358,-0.101342758
5.11,0.3716581114,-0.1131759005
5.12,0.3669377111,-0.124818171
5.13,0.3618420442,-0.1362565063
5.14,0.3563803933,-0.1474782721
5.15,0.3505624926,-0.1584712825
5.16,0.3443985048,-0.1692238164
5.17,0.3378989978,-0.1797246342
5.18,0.3310749206,-0.1899629925
5.19,0.3239375784,-0.1999286576
5.2,0.3164986072,-0.209611918
5.21,0.3087699483,-0.2190035953
5.22,0.3007638223,-0.2280950538
5.23,0.2924927027,-0.2368782087
5.24,0.2839692888,-0.2453455334
5.25,0.2752064799,-0.253490065
5.26,0.2662173476,-0.2613054081
5.27,0.2570151092,-0.2687857386
5.28,0.2476131013,-0.2759258042
5.29,0.2380247526,-0.2827209255
5.3,0.2282635577,-0.2891669942
5.31,0.218343051,-0.2952604714
5.32,0.2082767804,-0.3009983832
5.33,0.1980782826,-0.3063783163
5.34,0.1877610572,-0.3113984115
5.35,0.177338543,-0.3160573566
5.36,0.1668240937,-0.3203543776
5.37,0.1562309547,-0.3242892295
5.38,0.1455722407,-0.3278621852
5.39,0.1348609138,-0.3310740239
5.4,0.1241097625,-0.3339260184
5.41,0.1133313815,-0.3364199216
5.42,0.1025381527,-0.3385579517
5.43,0.0917422265,-0.3403427771
5.44,0.08095550468,-0.3417775002
5.45,0.07018962399,-0.3428656403
5.46,0.05945594082,-0.3436111166
5.47,0.04876551694,-0.34401823
5.48,0.03812910629,-0.344091644
5.49,0.02755714297,-0.3438363664
5.5,0.01705973021,-0.3432577292
5.51,0.006646630599,-0.3423613691
5.52,-0.003672742615,-0.3411532076
5.53,-0.01388933304,-0.3396394301
5.54,-0.02399444754,-0.3378264662
5.55,-0.03397976144,-0.3357209687
5.56,-0.04383732263,-0.3333297931
5.57,-0.05355955453,-0.3306599774
5.58,-0.06313925791,-0.3277187218
5.59,-0.07256961162,-0.324513368
5.6,-0.08184417223,-0.3210513798
5.61,-0.09095687264,-0.3173403231
5.62,-0.09990201957,-0.3133878467
5.63,-0.1086742901,-0.3092016636
5.64,-0.1172687274,-0.3047895323
5.65,-0.1256807351,-0.3001592388
5.66,-0.1339060711,-0.2953185797
5.67,-0.1419408404,-0.2902753449
5.68,-0.1497814872,-0.2850373017
5.69,-0.1574247864,-0.2796121796
5.7,-0.1648678334,-0.2740076552
5.71,-0.1721080348,-0.2682313385
5.72,-0.1791430969,-0.2622907598
5.73,-0.185971015,-0.2561933574
5.74,-0.1925900609,-0.2499464659
5.75,-0.1989987711,-0.2435573059
5.76,-0.2051959336,-0.2370329743
5.77,-0.2111805751,-0.2303804352
5.78,-0.2169519473,-0.2236065126
5.79,-0.2225095137,-0.216717883
5.8,-0.227852935,-0.2097210697
5.81,-0.2329820561,-0.2026224375
5.82,-0.2378968913,-0.195428189
5.83,-0.2425976106,-0.188144361
5.84,-0.2470845256,-0.1807768227
5.85,-0.2513580758,-0.173331274
5.86,-0.2554188144,-0.1658132454
5.87,-0.2592673955,-0.1582280981
5.88,-0.2629045601,-0.1505810259
5.89,-0.2663311238,-0.1428770568
5.9,-0.2695479638,-0.1351210563
5.91,-0.2725560067,-0.1273177313
5.92,-0.2753562173,-0.1194716341
5.93,-0.2779495869,-0.1115871685
5.94,-0.2803371226,-0.1036685948
5.95,-0.2825198378,-0.09572003726
5.96,-0.2844987422,-0.08774549056
5.97,-0.286274833,-0.07974882798
5.98,-0.2878490872,-0.07173380951
5.99,-0.2892224539,-0.06370409058
6,-0.2903958474,-0.05566323119
