"Freq [GHz]","re(S(Tx_p1,Tx_p1)) []","im(S(Tx_p1,Tx_p1)) []"
1,-0.1987744096,-0.2803648899
1.01,-0.2090783016,-0.2685056993
1.02,-0.2188446581,-0.2561871534
1.03,-0.2280456877,-0.2434329503
1.04,-0.2366549197,-0.2302686083
1.05,-0.244647307,-0.2167213766
1.06,-0.251999322,-0.2028201416
1.07,-0.2586890482,-0.1885953293
1.08,-0.2646962654,-0.1740788026
1.09,-0.2700025292,-0.1593037563
1.1,-0.2745912445,-0.1443046074
1.11,-0.2784477322,-0.1291168822
1.12,-0.2815592903,-0.1137771026
1.13,-0.2839152481,-0.09832266598
1.14,-0.2855070137,-0.08279172613
1.15,-0.286328115,-0.06722307095
1.16,-0.2863742336,-0.05165599848
1.17,-0.2856432322,-0.03613019184
1.18,-0.2841351749,-0.02068559317
1.19,-0.2818523407,-0.005362277011
1.2,-0.2787992296,0.009799676586
1.21,-0.2749825626,0.02476030881
1.22,-0.2704112739,0.03947990842
1.23,-0.2650964967,0.05391913719
1.24,-0.2590515423,0.06803915426
1.25,-0.252291872,0.08180173902
1.26,-0.2448350628,0.09516941194
1.27,-0.2367007662,0.1081055534
1.28,-0.2279106609,0.1205745201
1.29,-0.2184883992,0.1325417579
1.3,-0.2084595468,0.1439739129
1.31,-0.1978515179,0.1548389373
1.32,-0.186693503,0.1651061928
1.33,-0.1750163923,0.1747465496
1.34,-0.1628526938,0.1837324803
1.35,-0.1502364458,0.1920381504
1.36,-0.1372031247,0.1996395029
1.37,-0.1237895488,0.2065143382
1.38,-0.1100337779,0.2126423889
1.39,-0.09597500776,0.2180053882
1.4,-0.08165346242,0.2225871335
1.41,-0.06711028233,0.2263735433
1.42,-0.05238740976,0.2293527085
1.43,-0.0375274715,0.2315149371
1.44,-0.02257365917,0.2328527926
1.45,-0.00756960868,0.2333611259
1.46,0.007440727346,0.2330371007
1.47,0.02241319771,0.231880212
1.48,0.03730358238,0.2298922977
1.49,0.05206771752,0.2270775443
1.5,0.0666616217,0.2234424845
1.51,0.08104162203,0.2189959891
1.52,0.0951644797,0.2137492515
1.53,0.1089875147,0.2077157654
1.54,0.1224687292,0.2009112966
1.55,0.1355669296,0.1933538469
1.56,0.1482418459,0.1850636126
1.57,0.1604542501,0.1760629361
1.58,0.1721660705,0.1663762508
1.59,0.1833405039,0.1560300212
1.6,0.1939421243,0.1450526751
1.61,0.203936988,0.1334745318
1.62,0.2132927349,0.1213277236
1.63,0.2219786852,0.1086461123
1.64,0.2299659319,0.09546520047
1.65,0.2372274289,0.08182203799
1.66,0.2437380733,0.06775512355
1.67,0.2494747828,0.05330430218
1.68,0.2544165681,0.03851065842
1.69,0.2585445985,0.02341640584
1.7,0.2618422629,0.008064772897
1.71,0.2642952235,-0.007500114174
1.72,0.2658914643,-0.02323335152
1.73,0.2666213323,-0.03908938021
1.74,0.2664775728,-0.05502211105
1.75,0.265455358,-0.07098505117
1.76,0.2635523085,-0.08693143206
1.77,0.2607685085,-0.1028143388
1.78,0.2571065135,-0.1185868402
1.79,0.2525713522,-0.1342021186
1.8,0.2471705201,-0.149613601
1.81,0.2409139675,-0.1647750885
1.82,0.2338140794,-0.1796408859
1.83,0.2258856501,-0.1941659299
1.84,0.2171458493,-0.208305916
1.85,0.2076141829,-0.2220174236
1.86,0.1973124464,-0.2352580388
1.87,0.1862646722,-0.2479864747
1.88,0.1744970703,-0.2601626896
1.89,0.1620379632,-0.2717480008
1.9,0.1489177145,-0.282705196
1.91,0.1351686516,-0.2929986401
1.92,0.1208249831,-0.3025943787
1.93,0.1059227102,-0.3114602366
1.94,0.09049953412,-0.3195659118
1.95,0.074594757,-0.3268830645
1.96,0.05824917954,-0.3333854011
1.97,0.04150499352,-0.3390487523
1.98,0.02440567044,-0.3438511463
1.99,0.006995846422,-0.3477728755
2,-0.01067879643,-0.3507965571
2.01,-0.02857165178,-0.3529071877
2.02,-0.04663531361,-0.3540921915
2.03,-0.06482170326,-0.354341462
2.04,-0.08308219862,-0.3536473966
2.05,-0.101367765,-0.3520049248
2.06,-0.1196290876,-0.3494115292
2.07,-0.1378167048,-0.3458672604
2.08,-0.1558811421,-0.3413747433
2.09,-0.1737730471,-0.3359391783
2.1,-0.1914433231,-0.3295683336
2.11,-0.2088432635,-0.3222725322
2.12,-0.2259246848,-0.3140646301
2.13,-0.2426400586,-0.3049599896
2.14,-0.2589426421,-0.2949764435
2.15,-0.2747866063,-0.2841342544
2.16,-0.290127163,-0.2724560662
2.17,-0.3049206879,-0.259966849
2.18,-0.3191248418,-0.2466938386
2.19,-0.332698688,-0.2326664682
2.2,-0.345602806,-0.2179162953
2.21,-0.3577994019,-0.2024769221
2.22,-0.3692524142,-0.1863839101
2.23,-0.3799276146,-0.1696746895
2.24,-0.3897927052,-0.1523884634
2.25,-0.3988174093,-0.1345661067
2.26,-0.4069735578,-0.1162500606
2.27,-0.4142351697,-0.09748422254
2.28,-0.4205785269,-0.07831383203
2.29,-0.4259822428,-0.05878535268
2.3,-0.430427325,-0.0389463507
2.31,-0.4338972312,-0.01884537022
2.32,-0.4363779191,0.001468194187
2.33,-0.4378578893,0.02194422756
2.34,-0.4383282212,0.04253202665
2.35,-0.4377826026,0.06318043389
2.36,-0.4362173516,0.08383797273
2.37,-0.4336314318,0.1044529841
2.38,-0.4300264607,0.1249737634
2.39,-0.4254067101,0.145348698
2.4,-0.4197791002,0.1655264047
2.41,-0.4131531861,0.1854558665
2.42,-0.4055411374,0.2050865687
2.43,-0.3969577102,0.2243686338
2.44,-0.3874202132,0.2432529552
2.45,-0.3769484657,0.2616913282
2.46,-0.3655647495,0.2796365798
2.47,-0.3532937539,0.2970426946
2.48,-0.3401625144,0.3138649392
2.49,-0.3262003445,0.3300599816
2.5,-0.3114387619,0.3455860089
2.51,-0.2959114084,0.3604028392
2.52,-0.2796539639,0.3744720304
2.53,-0.2627040552,0.3877569843
2.54,-0.2451011592,0.4002230453
2.55,-0.2268865013,0.4118375945
2.56,-0.2081029485,0.4225701383
2.57,-0.1887948986,0.4323923914
2.58,-0.1690081651,0.4412783535
2.59,-0.1487898578,0.4492043811
2.6,-0.1281882602,0.4561492515
2.61,-0.1072527035,0.4620942216
2.62,-0.08603343808,0.4670230796
2.63,-0.06458150166,0.47092219
2.64,-0.04294858603,0.4737805314
2.65,-0.02118690154,0.4755897282
2.66,0.0006509598314,0.4763440746
2.67,0.02251216239,0.4760405511
2.68,0.04434376553,0.474678835
2.69,0.06609286274,0.4722613025
2.7,0.08770672072,0.4687930242
2.71,0.109132918,0.4642817534
2.72,0.1303194828,0.4587379071
2.73,0.15121503,0.4521745394
2.74,0.1717688959,0.444607309
2.75,0.1919312719,0.4360544386
2.76,0.2116533358,0.4265366679
2.77,0.2308873798,0.4160771998
2.78,0.2495869363,0.4047016402
2.79,0.2677069002,0.3924379309
2.8,0.2852036477,0.3793162769
2.81,0.3020351506,0.3653690668
2.82,0.3181610873,0.3506307882
2.83,0.3335429481,0.3351379368
2.84,0.348144137,0.3189289208
2.85,0.3619300671,0.3020439593
2.86,0.3748682515,0.2845249766
2.87,0.3869283882,0.266415492
2.88,0.3980824394,0.2477605044
2.89,0.4083047044,0.2286063742
2.9,0.4175718866,0.2090007004
2.91,0.4258631538,0.1889921953
2.92,0.4331601923,0.1686305561
2.93,0.4394472535,0.147966333
2.94,0.4447111944,0.1270507964
2.95,0.448941511,0.105935801
2.96,0.452130364,0.08467364934
2.97,0.4542725983,0.06331695347
2.98,0.4553657544,0.04191849609
2.99,0.4554100733,0.02053109138
3,0.4544084939,-0.0007925543913
3.01,0.452366643,-0.02199998177
3.02,0.4492928183,-0.04303911643
3.03,0.4451979644,-0.06385840632
3.04,0.4400956413,-0.08440695734
3.05,0.4340019863,-0.1046346673
3.06,0.4269356689,-0.1244923575
3.07,0.4189178389,-0.1439319021
3.08,0.4099720676,-0.162906354
3.09,0.4001242831,-0.1813700685
3.1,0.3894026992,-0.1992788219
3.11,0.3778377376,-0.2165899281
3.12,0.3654619448,-0.233262349
3.13,0.3523099036,-0.2492568023
3.14,0.3384181383,-0.2645358629
3.15,0.3238250153,-0.2790640603
3.16,0.3085706393,-0.2928079704
3.17,0.2926967438,-0.3057363015
3.18,0.276246578,-0.3178199748
3.19,0.2592647899,-0.3290321987
3.2,0.2417973049,-0.3393485368
3.21,0.2238912023,-0.3487469702
3.22,0.2055945872,-0.3572079522
3.23,0.1869564614,-0.3647144571
3.24,0.1680265905,-0.3712520217
3.25,0.1488553703,-0.3768087802
3.26,0.1294936909,-0.381375492
3.27,0.1099927997,-0.384945562
3.28,0.09040416365,-0.3875150544
3.29,0.07077933094,-0.3890826989
3.3,0.05116979278,-0.3896498897
3.31,0.03162684525,-0.3892206776
3.32,0.01220145193,-0.3878017544
3.33,-0.007055892512,-0.3854024308
3.34,-0.02609529729,-0.382034607
3.35,-0.0448676087,-0.3777127361
3.36,-0.06332454124,-0.3724537807
3.37,-0.08141880622,-0.3662771633
3.38,-0.09910423756,-0.3592047093
3.39,-0.1163359144,-0.3512605841
3.4,-0.1330702803,-0.3424712238
3.41,-0.1492652584,-0.3328652595
3.42,-0.1648803627,-0.3224734362
3.43,-0.1798768051,-0.311328526
3.44,-0.1942175969,-0.2994652354
3.45,-0.2078676462,-0.286920108
3.46,-0.2207938496,-0.273731422
3.47,-0.2329651787,-0.2599390832
3.48,-0.2443527606,-0.2455845141
3.49,-0.2549299521,-0.2307105379
3.5,-0.2646724092,-0.2153612599
3.51,-0.2735581482,-0.1995819453
3.52,-0.2815676021,-0.1834188934
3.53,-0.2886836694,-0.16691931
3.54,-0.2948917565,-0.1501311764
3.55,-0.3001798131,-0.1331031178
3.56,-0.3045383607,-0.1158842687
3.57,-0.3079605137,-0.09852413787
3.58,-0.3104419943,-0.08107247245
3.59,-0.3119811394,-0.063579121
3.6,-0.3125789005,-0.04609389696
3.61,-0.3122388369,-0.02866644209
3.62,-0.3109671016,-0.01134609058
3.63,-0.3087724197,0.005818265874
3.64,-0.3056660604,0.02277831163
3.65,-0.301661802,0.03948643897
3.66,-0.2967758894,0.05589587787
3.67,-0.2910269859,0.07196082339
3.68,-0.2844361176,0.08763656026
3.69,-0.2770266122,0.1028795844
3.7,-0.2688240304,0.1176477208
3.71,-0.2598560926,0.1319002383
3.72,-0.2501525987,0.1455979593
3.73,-0.2397453431,0.1587033658
3.74,-0.2286680233,0.1711807008
3.75,-0.2169561447,0.1829960645
3.76,-0.2046469191,0.1941175053
3.77,-0.1917791599,0.2045151059
3.78,-0.1783931724,0.2141610629
3.79,-0.1645306395,0.223029761
3.8,-0.1502345052,0.2310978415
3.81,-0.1355488535,0.238344264
3.82,-0.1205187845,0.2447503614
3.83,-0.1051902885,0.2502998895
3.84,-0.08961011669,0.2549790686
3.85,-0.07382565096,0.2587766191
3.86,-0.05788477116,0.2616837901
3.87,-0.04183572168,0.2636943807
3.88,-0.0257269769,0.2648047544
3.89,-0.009607106103,0.2650138469
3.9,0.006475361603,0.2643231663
3.91,0.02247207239,0.262736786
3.92,0.03833498204,0.2602613315
3.93,0.05401648943,0.2569059593
3.94,0.06946956865,0.2526823291
3.95,0.08464789951,0.2476045697
3.96,0.09950599593,0.2416892369
3.97,0.1139993321,0.234955266
3.98,0.1280844656,0.2274239172
3.99,0.141719158,0.2191187146
4,0.1548624916,0.2100653791
4.01,0.1674749824,0.2002917557
4.02,0.1795186898,0.1898277338
4.03,0.190957321,0.1787051636
4.04,0.2017563315,0.1669577658
4.05,0.2118830205,0.1546210367
4.06,0.2213066212,0.1417321485
4.07,0.2299983856,0.128329845
4.08,0.2379316641,0.1144543331
4.09,0.2450819788,0.1001471698
4.1,0.2514270912,0.08545114664
4.11,0.2569470631,0.07041016939
4.12,0.2616243124,0.05506913592
4.13,0.2654436606,0.03947381073
4.14,0.2683923752,0.02367069737
4.15,0.2704602048,0.007706908764
4.16,0.2716394072,-0.008369963952
4.17,0.2719247706,-0.02451198401
4.18,0.2713136284,-0.04067100241
4.19,0.2698058661,-0.05679879191
4.2,0.2674039221,-0.07284718115
4.21,0.2641127807,-0.08876818864
4.22,0.2599399584,-0.1045141561
4.23,0.2548954837,-0.1200378811
4.24,0.2489918692,-0.135292748
4.25,0.2422440774,-0.1502328579
4.26,0.2346694796,-0.1648131556
4.27,0.2262878084,-0.1789895555
4.28,0.2171211032,-0.1927190638
4.29,0.2071936502,-0.205959898
4.3,0.1965319153,-0.2186716031
4.31,0.1851644719,-0.2308151644
4.32,0.1731219224,-0.2423531156
4.33,0.1604368141,-0.2532496435
4.34,0.1471435501,-0.2634706876
4.35,0.1332782949,-0.272984035
4.36,0.1188788756,-0.2817594104
4.37,0.1039846774,-0.2897685605
4.38,0.08863653646,-0.2969853332
4.39,0.07287662742,-0.303385751
4.4,0.05674834805,-0.3089480777
4.41,0.04029620018,-0.3136528801
4.42,0.0235656678,-0.317483083
4.43,0.00660309236,-0.3204240169
4.44,-0.01054445423,-0.3224634607
4.45,-0.02782929861,-0.3235916761
4.46,-0.04520329658,-0.3238014365
4.47,-0.06261796512,-0.3230880481
4.48,-0.08002461521,-0.3214493649
4.49,-0.09737448527,-0.3188857959
4.5,-0.1146188749,-0.315400306
4.51,-0.1317092781,-0.3109984095
4.52,-0.1485975168,-0.3056881571
4.53,-0.1652358722,-0.2994801153
4.54,-0.1815772162,-0.2923873398
4.55,-0.1975751404,-0.2844253411
4.56,-0.2131840835,-0.2756120445
4.57,-0.2283594561,-0.2659677428
4.58,-0.2430577633,-0.2555150424
4.59,-0.2572367238,-0.2442788038
4.6,-0.2708553864,-0.2322860758
4.61,-0.2838742422,-0.2195660228
4.62,-0.2962553333,-0.2061498477
4.63,-0.307962357,-0.1920707084
4.64,-0.3189607661,-0.1773636293
4.65,-0.3292178634,-0.1620654076
4.66,-0.3387028927,-0.1462145145
4.67,-0.3473871227,-0.1298509926
4.68,-0.3552439271,-0.1130163486
4.69,-0.3622488579,-0.09575344141
4.7,-0.3683797133,-0.07810636791
4.71,-0.3736165996,-0.06012034408
4.72,-0.3779419861,-0.04184158387
4.73,-0.3813407547,-0.02331717505
4.74,-0.3838002421,-0.004594952714
4.75,-0.3853102759,0.01427662919
4.76,-0.3858632035,0.03324862806
4.77,-0.3854539147,0.05227174414
4.78,-0.3840798569,0.07129645301
4.79,-0.3817410438,0.09027313869
4.8,-0.3784400572,0.109152227
4.81,-0.3741820411,0.1278843188
4.82,-0.3689746901,0.1464203227
4.83,-0.36282823,0.1647115871
4.84,-0.3557553918,0.182710031
4.85,-0.347771379,0.200368273
4.86,-0.3388938283,0.2176397588
4.87,-0.3291427636,0.2344788865
4.88,-0.3185405437,0.2508411286
4.89,-0.3071118038,0.2666831521
4.9,-0.2948833901,0.2819629349
4.91,-0.2818842897,0.2966398783
4.92,-0.2681455541,0.3106749164
4.93,-0.2537002167,0.324030621
4.94,-0.2385832056,0.3366713017
4.95,-0.2228312516,0.3485631024
4.96,-0.2064827902,0.3596740914
4.97,-0.1895778602,0.3699743476
4.98,-0.1721579976,0.3794360407
4.99,-0.154266125,0.3880335055
5,-0.1359464383,0.3957433113
5.01,-0.1172442889,0.4025443241
5.02,-0.09820606372,0.4084177636
5.03,-0.078879062,0.4133472533
5.04,-0.05931136974,0.4173188644
5.05,-0.03955173213,0.4203211534
5.06,-0.01964942423,0.4223451918
5.07,0.0003458798054,0.4233845909
5.08,0.02038423843,0.4234355183
5.09,0.04041557517,0.422496708
5.1,0.06038981138,0.420569464
5.11,0.08025699894,0.4176576564
5.12,0.09996745262,0.413767711
5.13,0.1194718816,0.4089085921
5.14,0.13872152,0.4030917782
5.15,0.1576682559,0.3963312312
5.16,0.1762647583,0.388643359
5.17,0.1944646027,0.3800469714
5.18,0.2122223932,0.3705632297
5.19,0.2294938823,0.36021559
5.2,0.246236088,0.3490297405
5.21,0.2624074065,0.3370335324
5.22,0.2779677218,0.324256906
5.23,0.2928785114,0.3107318099
5.24,0.3071029469,0.2964921165
5.25,0.320605991,0.2815735305
5.26,0.3333544886,0.2660134944
5.27,0.3453172541,0.2498510883
5.28,0.356465152,0.2331269255
5.29,0.3667711731,0.2158830444
5.3,0.376210504,0.1981627965
5.31,0.3847605917,0.1800107309
5.32,0.3924012012,0.1614724755
5.33,0.3991144672,0.1425946161
5.34,0.4048849401,0.1234245721
5.35,0.4096996239,0.1040104709
5.36,0.4135480092,0.08440101952
5.37,0.4164220987,0.06464537605
5.38,0.4183164257,0.04479301884
5.39,0.4192280668,0.02489361553
5.4,0.4191566465,0.004996891548
5.41,0.4181043362,-0.01484750142
5.42,0.4160758455,-0.0345901167
5.43,0.4130784073,-0.0541818432
5.44,0.4091217558,-0.07357403497
5.45,0.404218098,-0.09271863938
5.46,0.3983820786,-0.1115683237
5.47,0.3916307381,-0.1300765993
5.48,0.3839834652,-0.1481979443
5.49,0.3754619424,-0.1658879222
5.5,0.3660900856,-0.1831032987
5.51,0.3558939781,-0.1998021546
5.52,0.3449017981,-0.2159439954
5.53,0.3331437418,-0.2314898562
5.54,0.3206519403,-0.2464024036
5.55,0.3074603715,-0.2606460318
5.56,0.2936047677,-0.2741869555
5.57,0.2791225177,-0.286993296
5.58,0.2640525656,-0.2990351637
5.59,0.2484353047,-0.3102847346
5.6,0.2323124681,-0.3207163204
5.61,0.2157270156,-0.3303064343
5.62,0.1987230176,-0.3390338497
5.63,0.1813455359,-0.346879653
5.64,0.1636405026,-0.3538272904
5.65,0.1456545959,-0.359862608
5.66,0.1274351147,-0.3649738856
5.67,0.1090298516,-0.3691518641
5.68,0.09048696441,-0.3723897657
5.69,0.07185484741,-0.3746833078
5.7,0.05318200141,-0.3760307103
5.71,0.03451690426,-0.376432696
5.72,0.01590788134,-0.3758924839
5.73,-0.002597023327,-0.3744157767
5.74,-0.02095017504,-0.3720107406
5.75,-0.03910447512,-0.3686879794
5.76,-0.05701348605,-0.3644605014
5.77,-0.07463155456,-0.3593436802
5.78,-0.09191393258,-0.3533552092
5.79,-0.1088168955,-0.3465150499
5.8,-0.1252978575,-0.3388453739
5.81,-0.1413154837,-0.3303704993
5.82,-0.1568297991,-0.3211168216
5.83,-0.1718022927,-0.3111127382
5.84,-0.186196019,-0.300388569
5.85,-0.199975694,-0.2889764704
5.86,-0.2131077868,-0.2769103457
5.87,-0.2255606068,-0.2642257504
5.88,-0.2373043855,-0.2509597928
5.89,-0.2483113528,-0.2371510312
5.9,-0.2585558081,-0.2228393672
5.91,-0.2680141858,-0.2080659351
5.92,-0.2766651145,-0.1928729883
5.93,-0.2844894706,-0.1773037834
5.94,-0.2914704254,-0.1614024606
5.95,-0.2975934865,-0.1452139231
5.96,-0.3028465321,-0.1287837139
5.97,-0.3072198392,-0.112157891
5.98,-0.3107061054,-0.09538290169
5.99,-0.3133004638,-0.0785054558
6,-0.3150004918,-0.06157239847
