"Freq [GHz]","re(S(Tx_p1,Tx_p1)) []","im(S(Tx_p1,Tx_p1)) []"
1,0.03747077997,-0.2325131256
1.01,0.03025843897,-0.2290206476
1.02,0.02323154989,-0.2253193311
1.03,0.0164000082,-0.221414845
1.04,0.009773430198,-0.2173135785
1.05,0.003361110544,-0.2130226125
1.06,-0.002828018008,-0.2085496888
1.07,-0.008785422722,-0.2039031785
1.08,-0.01450300674,-0.1990920488
1.09,-0.01997314272,-0.1941258286
1.1,-0.0251887041,-0.1890145729
1.11,-0.03014309418,-0.1837688264
1.12,-0.03483027274,-0.1783995856
1.13,-0.03924478037,-0.1729182609
1.14,-0.04338176042,-0.167336637
1.15,-0.04723697859,-0.1616668336
1.16,-0.05080684005,-0.1559212646
1.17,-0.05408840427,-0.1501125978
1.18,-0.05707939741,-0.144253714
1.19,-0.05977822233,-0.1383576652
1.2,-0.06218396627,-0.132437634
1.21,-0.06429640609,-0.1265068921
1.22,-0.06611601135,-0.1205787591
1.23,-0.06764394487,-0.1146665618
1.24,-0.06888206124,-0.1087835937
1.25,-0.06983290296,-0.1029430749
1.26,-0.07049969446,-0.09715811294
1.27,-0.07088633395,-0.09144166372
1.28,-0.0709973832,-0.08580649374
1.29,-0.07083805535,-0.08026514293
1.3,-0.07041420063,-0.07482988855
1.31,-0.06973229031,-0.06951271019
1.32,-0.06879939875,-0.0643252558
1.33,-0.06762318376,-0.05927880907
1.34,-0.06621186518,-0.05438425811
1.35,-0.06457420203,-0.04965206549
1.36,-0.06271946797,-0.04509223973
1.37,-0.06065742556,-0.04071430844
1.38,-0.05839829896,-0.03652729288
1.39,-0.05595274561,-0.03253968435
1.4,-0.05333182666,-0.02875942212
1.41,-0.05054697641,-0.02519387327
1.42,-0.04760997078,-0.02184981417
1.43,-0.04453289504,-0.0187334139
1.44,-0.04132811068,-0.01585021949
1.45,-0.0380082218,-0.01320514303
1.46,-0.03458604087,-0.01080245069
1.47,-0.03107455417,-0.008645753675
1.48,-0.02748688684,-0.006738001086
1.49,-0.02383626782,-0.005081474704
1.5,-0.02013599461,-0.003677785706
1.51,-0.0163993981,-0.002527873301
1.52,-0.01263980748,-0.001632005253
1.53,-0.008870515389,-0.0009897802974
1.54,-0.005104743331,-0.0006001324082
1.55,-0.001355607554,-0.000461336894
1.56,0.002363914601,-0.000571018288
1.57,0.006041017739,-0.0009261599902
1.58,0.009663100768,-0.001523115619
1.59,0.01321779848,-0.002357622027
1.6,0.01669301227,-0.003424813914
1.61,0.02007693991,-0.004719240009
1.62,0.02335810433,-0.006234880724
1.63,0.0265253813,-0.007965167242
1.64,0.02956802591,-0.009903001965
1.65,0.0324756979,-0.01204078024
1.66,0.03523848569,-0.0143704133
1.67,0.03784692898,-0.01688335236
1.68,0.04029204012,-0.01957061371
1.69,0.04256532388,-0.02242280486
1.7,0.04465879584,-0.02543015152
1.71,0.04656499924,-0.02858252541
1.72,0.04827702028,-0.03186947277
1.73,0.04978850178,-0.0352802435
1.74,0.05109365537,-0.0388038209
1.75,0.05218727191,-0.04242895176
1.76,0.05306473041,-0.0461441769
1.77,0.0537220052,-0.04993786194
1.78,0.05415567156,-0.05379822829
1.79,0.05436290962,-0.05771338417
1.8,0.05434150666,-0.06167135574
1.81,0.05408985783,-0.06566011803
1.82,0.05360696519,-0.06966762581
1.83,0.05289243517,-0.07368184414
1.84,0.05194647457,-0.07769077865
1.85,0.05076988488,-0.08168250532
1.86,0.04936405521,-0.08564519987
1.87,0.0477309537,-0.08956716654
1.88,0.04587311753,-0.09343686617
1.89,0.04379364156,-0.09724294369
1.9,0.04149616563,-0.1009742547
1.91,0.03898486059,-0.1046198915
1.92,0.03626441307,-0.1081692075
1.93,0.03334000918,-0.1116118417
1.94,0.03021731699,-0.1149377415
1.95,0.02690246803,-0.1181371842
1.96,0.02340203781,-0.1212007981
1.97,0.01972302544,-0.1241195823
1.98,0.01587283234,-0.1268849244
1.99,0.01185924029,-0.1294886184
2,0.007690388625,-0.1319228802
2.01,0.003374750981,-0.1341803626
2.02,-0.001078888669,-0.136254168
2.03,-0.00566146038,-0.1381378613
2.04,-0.01036363303,-0.1398254796
2.05,-0.01517583946,-0.1413115425
2.06,-0.02008830185,-0.1425910592
2.07,-0.02509105729,-0.1436595357
2.08,-0.03017398351,-0.1445129798
2.09,-0.03532682457,-0.1451479049
2.1,-0.04053921658,-0.1455613332
2.11,-0.04580071333,-0.1457507959
2.12,-0.05110081167,-0.1457143344
2.13,-0.05642897677,-0.1454504977
2.14,-0.06177466698,-0.144958341
2.15,-0.0671273584,-0.1442374208
2.16,-0.07247656896,-0.1432877909
2.17,-0.07781188209,-0.1421099953
2.18,-0.08312296977,-0.1407050614
2.19,-0.08839961504,-0.1390744918
2.2,-0.09363173388,-0.1372202541
2.21,-0.09880939634,-0.1351447711
2.22,-0.1039228469,-0.1328509094
2.23,-0.1089625244,-0.1303419665
2.24,-0.1139190803,-0.1276216583
2.25,-0.1187833972,-0.1246941048
2.26,-0.1235466058,-0.1215638155
2.27,-0.1282001007,-0.1182356739
2.28,-0.132735556,-0.1147149214
2.29,-0.1371449394,-0.111007141
2.3,-0.1414205257,-0.1071182399
2.31,-0.1455549084,-0.1030544317
2.32,-0.1495410119,-0.09882221882
2.33,-0.1533721007,-0.09442837389
2.34,-0.1570417896,-0.08987992105
2.35,-0.1605440511,-0.08518411716
2.36,-0.1638732227,-0.08034843268
2.37,-0.1670240133,-0.07538053251
2.38,-0.169991508,-0.07028825672
2.39,-0.172771172,-0.06507960126
2.4,-0.1753588543,-0.05976269882
2.41,-0.177750789,-0.05434579963
2.42,-0.1799435969,-0.04883725251
2.43,-0.1819342857,-0.04324548612
2.44,-0.1837202487,-0.03757899038
2.45,-0.1852992639,-0.03184629823
2.46,-0.186669491,-0.02605596774
2.47,-0.187829468,-0.02021656452
2.48,-0.1887781074,-0.01433664461
2.49,-0.1895146909,-0.008424737815
2.5,-0.1900388638,-0.002489331446
2.51,-0.1903506288,0.003461145327
2.52,-0.1904503388,0.009418336642
2.53,-0.190338689,0.01537397451
2.54,-0.1900167093,0.02131989281
2.55,-0.1894857546,0.02724804066
2.56,-0.1887474962,0.0331504951
2.57,-0.1878039118,0.03901947325
2.58,-0.1866572752,0.04484734365
2.59,-0.1853101459,0.05062663705
2.6,-0.1837653579,0.05635005643
2.61,-0.1820260089,0.06201048635
2.62,-0.1800954486,0.06760100167
2.63,-0.177977267,0.07311487544
2.64,-0.1756752827,0.07854558626
2.65,-0.1731935311,0.08388682477
2.66,-0.170536252,0.08913249963
2.67,-0.1677078775,0.09427674271
2.68,-0.1647130204,0.09931391361
2.69,-0.1615564615,0.1042386036
2.7,-0.158243138,0.109045639
2.71,-0.1547781313,0.1137300834
2.72,-0.1511666555,0.1182872403
2.73,-0.1474140454,0.122712654
2.74,-0.143525745,0.1270021108
2.75,-0.1395072968,0.1311516393
2.76,-0.13536433,0.1351575101
2.77,-0.1311025504,0.1390162352
2.78,-0.1267277293,0.1427245668
2.79,-0.1222456939,0.1462794957
2.8,-0.1176623167,0.1496782494
2.81,-0.1129835069,0.1529182896
2.82,-0.1082152003,0.1559973093
2.83,-0.1033633509,0.1589132301
2.84,-0.0984339223,0.1616641984
2.85,-0.09343287967,0.1642485819
2.86,-0.08836618192,0.1666649656
2.87,-0.0832397744,0.1689121478
2.88,-0.07805958192,0.1709891357
2.89,-0.07283150217,0.1728951407
2.9,-0.06756139951,0.1746295743
2.91,-0.06225509916,0.1761920425
2.92,-0.05691838174,0.177582342
2.93,-0.0515569782,0.1788004544
2.94,-0.04617656506,0.179846542
2.95,-0.04078276008,0.1807209422
2.96,-0.03538111819,0.1814241632
2.97,-0.02997712778,0.1819568788
2.98,-0.02457620729,0.1823199233
2.99,-0.01918370213,0.1825142873
3,-0.01380488182,0.1825411126
3.01,-0.008444937417,0.1824016878
3.02,-0.003108979255,0.1820974434
3.03,0.002197965191,0.1816299482
3.04,0.007470953158,0.1810009042
3.05,0.01270512828,0.1802121433
3.06,0.01789572211,0.1792656227
3.07,0.02303805545,0.1781634217
3.08,0.02812753958,0.1769077375
3.09,0.03315967737,0.1755008824
3.1,0.03813006429,0.1739452798
3.11,0.0430343893,0.1722434618
3.12,0.04786843578,0.1703980657
3.13,0.05262808231,0.1684118312
3.14,0.05730930351,0.1662875983
3.15,0.06190817081,0.1640283041
3.16,0.06642085326,0.1616369809
3.17,0.0708436184,0.1591167539
3.18,0.07517283309,0.1564708389
3.19,0.07940496445,0.1537025407
3.2,0.08353658085,0.1508152506
3.21,0.087564353,0.1478124454
3.22,0.09148505505,0.1446976848
3.23,0.09529556589,0.1414746106
3.24,0.09899287048,0.1381469445
3.25,0.1025740613,0.1347184865
3.26,0.10603634,0.1311931139
3.27,0.109377019,0.127574779
3.28,0.1125935233,0.1238675081
3.29,0.1156833926,0.1200753996
3.3,0.118644283,0.1162026221
3.31,0.1214739696,0.1122534133
3.32,0.1241703485,0.1082320776
3.33,0.1267314393,0.1041429843
3.34,0.1291553877,0.09999056577
3.35,0.131440468,0.09577931508
3.36,0.1335850856,0.09151378371
3.37,0.1355877802,0.08719857909
3.38,0.1374472283,0.08283836194
3.39,0.1391622464,0.07843784343
3.4,0.1407317936,0.07400178213
3.41,0.1421549748,0.06953498075
3.42,0.1434310435,0.06504228268
3.43,0.144559405,0.06052856825
3.44,0.1455396192,0.05599875086
3.45,0.1463714035,0.05145777273
3.46,0.1470546357,0.04691060052
3.47,0.1475893569,0.04236222061
3.48,0.1479757738,0.0378176342
3.49,0.1482142616,0.0332818521
3.5,0.1483053664,0.02875988929
3.51,0.1482498073,0.02425675925
3.52,0.1480484786,0.01977746798
3.53,0.1477024517,0.01532700787
3.54,0.1472129765,0.01091035121
3.55,0.1465814834,0.006532443591
3.56,0.1458095839,0.002198197038
3.57,0.1448990715,-0.002087517093
3.58,0.1438519229,-0.006319875368
3.59,0.1426702975,-0.01049410973
3.6,0.1413565378,-0.01460551511
3.61,0.1399131689,-0.01864945721
3.62,0.1383428978,-0.02262138037
3.63,0.1366486118,-0.02651681563
3.64,0.1348333774,-0.03033138876
3.65,0.1329004385,-0.0340608285
3.66,0.1308532132,-0.03770097473
3.67,0.1286952919,-0.04124778674
3.68,0.1264304334,-0.04469735146
3.69,0.1240625617,-0.0480458917
3.7,0.1215957613,-0.05128977426
3.71,0.1190342732,-0.05442551808
3.72,0.1163824894,-0.0574498022
3.73,0.1136449475,-0.06035947361
3.74,0.110826325,-0.06315155492
3.75,0.1079314324,-0.06582325191
3.76,0.1049652067,-0.06837196077
3.77,0.101932704,-0.07079527519
3.78,0.09883909167,-0.07309099307
3.79,0.09568964033,-0.07525712306
3.8,0.09248971512,-0.07729189066
3.81,0.08924476678,-0.07919374404
3.82,0.08596032232,-0.08096135942
3.83,0.08264197523,-0.08259364612
3.84,0.07929537541,-0.0840897511
3.85,0.07592621879,-0.08544906311
3.86,0.07254023659,-0.08667121632
3.87,0.06914318429,-0.08775609349
3.88,0.06574083042,-0.08870382857
3.89,0.062338945,-0.08951480883
3.9,0.05894328791,-0.09018967634
3.91,0.05555959693,-0.09072932902
3.92,0.05219357575,-0.09113492092
3.93,0.04885088184,-0.09140786206
3.94,0.04553711415,-0.09154981757
3.95,0.04225780089,-0.09156270623
3.96,0.03901838718,-0.09144869841
3.97,0.03582422279,-0.09121021327
3.98,0.03268054985,-0.09084991551
3.99,0.02959249072,-0.09037071126
4,0.02656503596,-0.08977574349
4.01,0.0236030324,-0.08906838669
4.02,0.0207111715,-0.08825224097
4.03,0.01789397781,-0.08733112549
4.04,0.01515579785,-0.08630907126
4.05,0.01250078911,-0.08519031341
4.06,0.009932909562,-0.08397928272
4.07,0.007455907366,-0.08268059671
4.08,0.00507331112,-0.08129905005
4.09,0.002788420458,-0.07983960448
4.1,0.0006042971463,-0.07830737817
4.11,-0.001476243332,-0.0767076346
4.12,-0.003450639662,-0.0750457709
4.13,-0.005316592027,-0.07332730582
4.14,-0.007072068856,-0.07155786716
4.15,-0.00871531296,-0.06974317887
4.16,-0.01024484704,-0.06788904779
4.17,-0.01165947851,-0.06600134998
4.18,-0.01295830371,-0.06408601678
4.19,-0.01414071133,-0.06214902066
4.2,-0.01520638517,-0.06019636069
4.21,-0.01615530621,-0.058234048
4.22,-0.01698775382,-0.0562680909
4.23,-0.01770430633,-0.05430447998
4.24,-0.01830584076,-0.05234917315
4.25,-0.01879353181,-0.05040808056
4.26,-0.0191688501,-0.04848704956
4.27,-0.01943355952,-0.04659184974
4.28,-0.01958971394,-0.04472815799
4.29,-0.01963965307,-0.04290154376
4.3,-0.01958599749,-0.04111745438
4.31,-0.01943164305,-0.03938120072
4.32,-0.01917975439,-0.03769794301
4.33,-0.01883375775,-0.036072677
4.34,-0.01839733307,-0.03451022042
4.35,-0.01787440533,-0.03301519987
4.36,-0.01726913525,-0.03159203803
4.37,-0.0165859092,-0.03024494145
4.38,-0.0158293286,-0.0289778887
4.39,-0.01500419853,-0.02779461915
4.4,-0.01411551588,-0.02669862223
4.41,-0.01316845681,-0.02569312737
4.42,-0.01216836369,-0.02478109445
4.43,-0.01112073158,-0.02396520505
4.44,-0.01003119414,-0.02324785424
4.45,-0.008905509169,-0.02263114323
4.46,-0.007749543674,-0.02211687261
4.47,-0.006569258612,-0.02170653646
4.48,-0.005370693278,-0.02140131721
4.49,-0.004159949403,-0.02120208128
4.5,-0.002943175012,-0.02110937556
4.51,-0.001726548068,-0.0211234247
4.52,-0.00051625996,-0.02124412928
4.53,0.0006815011328,-0.02147106483
4.54,0.001860566942,-0.02180348162
4.55,0.003014805844,-0.02224030548
4.56,0.004138139571,-0.02278013934
4.57,0.005224559857,-0.02342126571
4.58,0.006268144977,-0.02416165002
4.59,0.007263076126,-0.02499894481
4.6,0.008203653595,-0.02593049474
4.61,0.009084312699,-0.02695334255
4.62,0.009899639417,-0.02806423569
4.63,0.01064438569,-0.02925963393
4.64,0.01131348434,-0.03053571764
4.65,0.01190206357,-0.03188839691
4.66,0.012405461,-0.03331332145
4.67,0.01281923719,-0.0348058911
4.68,0.01313918866,-0.03636126726
4.69,0.01336136024,-0.03797438473
4.7,0.01348205692,-0.03963996446
4.71,0.01349785497,-0.0413525267
4.72,0.01340561241,-0.04310640488
4.73,0.01320247874,-0.04489575994
4.74,0.01288590398,-0.04671459524
4.75,0.01245364689,-0.04855677184
4.76,0.01190378241,-0.05041602432
4.77,0.01123470833,-0.05228597693
4.78,0.01044515104,-0.05416016005
4.79,0.009534170538,-0.05603202701
4.8,0.008501164441,-0.05789497112
4.81,0.007345871239,-0.05974234294
4.82,0.006068372582,-0.0615674677
4.83,0.004669094691,-0.06336366279
4.84,0.003148808868,-0.0651242554
4.85,0.001508631095,-0.06684260012
4.86,-0.0002499792773,-0.06851209654
4.87,-0.002125221736,-0.07012620673
4.88,-0.004114957723,-0.07167847267
4.89,-0.00621671464,-0.07316253345
4.9,-0.008427690735,-0.07457214228
4.91,-0.01074476086,-0.07590118323
4.92,-0.0131644831,-0.07714368766
4.93,-0.0156831062,-0.07829385031
4.94,-0.01829657786,-0.07934604498
4.95,-0.0210005538,-0.0802948398
4.96,-0.0237904076,-0.08113501196
4.97,-0.0266612413,-0.08186156201
4.98,-0.0296078967,-0.0824697275
4.99,-0.03262496737,-0.08295499615
5,-0.03570681131,-0.08331311824
5.01,-0.03884756421,-0.08354011851
5.02,-0.04204115332,-0.08363230721
5.03,-0.04528131191,-0.08358629052
5.04,-0.04856159414,-0.08339898022
5.05,-0.05187539049,-0.08306760252
5.06,-0.05521594362,-0.08258970617
5.07,-0.05857636451,-0.08196316969
5.08,-0.06194964912,-0.0811862078
5.09,-0.06532869518,-0.080257377
5.1,-0.06870631935,-0.07917558024
5.11,-0.07207527454,-0.07794007077
5.12,-0.0754282674,-0.07655045502
5.13,-0.07875797593,-0.07500669474
5.14,-0.08205706718,-0.07330910803
5.15,-0.08531821492,-0.07145836967
5.16,-0.08853411737,-0.06945551041
5.17,-0.09169751478,-0.06730191548
5.18,-0.09480120693,-0.06499932209
5.19,-0.09783807049,-0.06254981617
5.2,-0.1008010761,-0.05995582817
5.21,-0.1036833055,-0.05722012799
5.22,-0.1064779675,-0.05434581916
5.23,-0.1091784151,-0.0513363321
5.24,-0.1117781605,-0.04819541661
5.25,-0.1142708914,-0.04492713361
5.26,-0.1166504853,-0.0415358461
5.27,-0.1189110243,-0.03802620935
5.28,-0.1210468091,-0.03440316049
5.29,-0.1230523724,-0.03067190729
5.3,-0.1249224917,-0.02683791644
5.31,-0.1266522014,-0.0229069011
5.32,-0.1282368044,-0.01888480797
5.33,-0.1296718832,-0.01477780374
5.34,-0.1309533094,-0.01059226112
5.35,-0.1320772537,-0.006334744335
5.36,-0.1330401946,-0.002011994258
5.37,-0.1338389256,0.002369086891
5.38,-0.1344705629,0.00680145116
5.39,-0.1349325517,0.01127792078
5.4,-0.1352226712,0.01579120435
5.41,-0.1353390396,0.02033391323
5.42,-0.1352801181,0.02489857811
5.43,-0.1350447133,0.02947766566
5.44,-0.1346319799,0.03406359541
5.45,-0.1340414217,0.03864875644
5.46,-0.1332728922,0.04322552432
5.47,-0.1323265939,0.04778627778
5.48,-0.1312030778,0.05232341548
5.49,-0.1299032406,0.05682937254
5.5,-0.1284283223,0.06129663689
5.51,-0.1267799025,0.06571776552
5.52,-0.1249598959,0.07008540035
5.53,-0.1229705472,0.07439228392
5.54,-0.1208144253,0.07863127465
5.55,-0.1184944162,0.08279536187
5.56,-0.1160137162,0.08687768028
5.57,-0.1133758234,0.09087152416
5.58,-0.1105845295,0.09477036099
5.59,-0.10764391,0.09856784464
5.6,-0.1045583143,0.102257828
5.61,-0.1013323557,0.105834375
5.62,-0.09797089987,0.1092917724
5.63,-0.09447905358,0.1126245404
5.64,-0.09086215257,0.115827443
5.65,-0.08712574915,0.1188954979
5.66,-0.08327559936,0.1218239851
5.67,-0.07931764973,0.1246084557
5.68,-0.07525802378,0.1272447389
5.69,-0.07110300813,0.1297289497
5.7,-0.06685903843,0.1320574945
5.71,-0.06253268505,0.1342270768
5.72,-0.05813063856,0.1362347019
5.73,-0.05365969512,0.1380776813
5.74,-0.04912674172,0.1397536353
5.75,-0.04453874139,0.1412604962
5.76,-0.03990271831,0.1425965099
5.77,-0.03522574303,0.1437602369
5.78,-0.03051491765,0.1447505527
5.79,-0.02577736112,0.1455666478
5.8,-0.02102019463,0.1462080261
5.81,-0.01625052718,0.1466745036
5.82,-0.01147544131,0.1469662057
5.83,-0.006701979034,0.1470835644
5.84,-0.001937128073,0.1470273142
5.85,0.002812191686,0.146798488
5.86,0.007539141401,0.146398412
5.87,0.01223697615,0.1458287
5.88,0.01689905743,0.1450912474
5.89,0.02151886531,0.1441882245
5.9,0.02609001012,0.1431220689
5.91,0.03060624372,0.1418954783
5.92,0.03506147031,0.1405114019
5.93,0.0394497568,0.1389730316
5.94,0.04376534263,0.1372837934
5.95,0.04800264908,0.1354473373
5.96,0.05215628811,0.1334675282
5.97,0.05622107059,0.1313484347
5.98,0.06019201402,0.1290943195
5.99,0.06406434967,0.1267096282
6,0.06783352918,0.1241989785
