"Freq [GHz]","re(S(Antenna1_1_1,Antenna1_1_1)) []","im(S(Antenna1_1_1,Antenna1_1_1)) []"
3,-0.204178714864393,-0.161178482550326
3.0175,-0.211203109568113,-0.144636028109694
3.035,-0.216547750155877,-0.128203685935135
3.0525,-0.220500285710828,-0.112102211935154
3.07,-0.223370491337973,-0.0963849203417744
3.0875,-0.225405629516216,-0.0809548801164111
3.105,-0.226727577163493,-0.0656210775868729
3.1225,-0.227307582575642,-0.0501764047139398
3.14,-0.226983202636417,-0.0344752297538418
3.1575,-0.225510032342242,-0.01848987885733
3.175,-0.222631846786947,-0.0023327185873757
3.1925,-0.218149172326567,0.013758915250697
3.21,-0.211968706324643,0.0294673277844935
3.2275,-0.204117384713898,0.044461498113907
3.245,-0.194736083557488,0.0584300393095647
3.2625,-0.184063400794222,0.0711350397704738
3.28,-0.172371002071495,0.0824475421154707
3.2975,-0.159921086614446,0.0923316541140073
3.315,-0.146934152420238,0.100821127848584
3.3325,-0.133573680062174,0.107988449987987
3.35,-0.11994648150353,0.113915496936748
3.3675,-0.106113744250088,0.118671661748012
3.385,-0.0921067148353257,0.122301326150613
3.4025,-0.0779422152806052,0.124819252917757
3.42,-0.0636356823450445,0.126210931555361
3.4375,-0.0492118153710872,0.126435261345451
3.455,-0.0346998200590284,0.125474348769513
3.4725,-0.020150468554579,0.123182686285026
3.49,-0.00568969595072149,0.119453388630546
3.5075,0.00850273629314871,0.114198117664848
3.525,0.0221984107987439,0.107370050886772
3.5425,0.0351354791043429,0.0989851995871344
3.56,0.0470434048962276,0.0891371708746442
3.5775,0.0576740378879105,0.0780008173368556
3.595,0.0668335868109724,0.0658220362921434
3.6125,0.074408981470613,0.0528938320875833
3.63,0.0803825769852797,0.039521881422455
3.6475,0.0848310743278567,0.0259854403561825
3.665,0.0879049124475196,0.0125386805142499
3.6825,0.0898493297838762,-0.000696853348724118
3.7,0.0908703326799312,-0.0137673360670457
3.7175,0.0910898318260535,-0.0267677207649002
3.735,0.0905316573087256,-0.0398349067331986
3.7525,0.0891097196078017,-0.0530959684014919
3.77,0.0866409070976299,-0.0666137735109587
3.7875,0.0828830195281248,-0.0803415148215199
3.805,0.0775926458130687,-0.0940976444292459
3.8225,0.0705924608290634,-0.107570055873511
3.84,0.0618332921713762,-0.120352989742784
3.8575,0.0514349717621956,-0.132012697738082
3.875,0.0396925597835563,-0.14216990592763
3.8925,0.0270898505110333,-0.1504410380773
3.91,0.0141978353432703,-0.156985171966277
3.9275,0.00142449469574257,-0.162035208231569
3.945,-0.0109889166566892,-0.165956008155373
3.9625,-0.0230114505340443,-0.169148218523447
3.98,-0.034813359698702,-0.17194068464105
3.9975,-0.0467040405265682,-0.174499527064147
4.015,-0.0590313862031807,-0.176779103121408
4.0325,-0.072068425389359,-0.178529786508156
4.05,-0.0859178714975466,-0.179362302529086
4.0675,-0.100461365083123,-0.178852469829049
4.085,-0.115368449634418,-0.176658310459608
4.1025,-0.130163827521041,-0.172617307574202
4.12,-0.144334933633759,-0.166796628072821
4.1375,-0.157450244424726,-0.159482140144531
4.155,-0.169255557795065,-0.151109335560812
4.1725,-0.179721786043562,-0.142155736115485
4.19,-0.189031782429405,-0.13302512835446
4.2075,-0.197511215541315,-0.123955838883789
4.225,-0.205524294321167,-0.114977742377547
4.2425,-0.21336456121238,-0.105928144474886
4.26,-0.22117133277287,-0.0965195638253502
4.2775,-0.228893792752481,-0.086437914025592
4.295,-0.236310061352024,-0.0754419131670934
4.3125,-0.243092386494981,-0.0634357793590176
4.33,-0.248845961107705,-0.0503996221813655
4.3475,-0.253284497918056,-0.036731961218722
4.365,-0.256328135629581,-0.0227719343660522
4.3825,-0.25804179019443,-0.00882951446209181
4.4,-0.258589681356727,0.0048735740166782
4.4175,-0.258171953675344,0.0182274551156563
4.435,-0.256965207212216,0.0312214187143901
4.4525,-0.255084287722235,0.0439055354879779
4.47,-0.252573222747339,0.0563437374265535
4.4875,-0.249422307861216,0.0685756693907658
4.505,-0.245599794781707,0.0805988919673633
4.5225,-0.241083092447115,0.0923739139441541
4.54,-0.235876661766758,0.103845498473731
4.5575,-0.230010621950141,0.114967917166971
4.575,-0.223522731149896,0.12572120490568
4.5925,-0.216433585374567,0.136109981382228
4.61,-0.208727955864611,0.146144212482437
4.6275,-0.200353042437317,0.155809400515602
4.645,-0.191237835772872,0.165039042330799
4.6625,-0.181329142125147,0.173702686974265
4.68,-0.170632300204464,0.181618184643152
4.6975,-0.159241071707484,0.188588241670509
4.715,-0.147343162448439,0.194452068419153
4.7325,-0.135194992853118,0.199136046894432
4.75,-0.123069511926468,0.202685576552509
4.7675,-0.111283887189455,0.205316739156673
4.785,-0.099795905406277,0.207301060917492
4.8025,-0.0885332041644192,0.208842465513443
4.82,-0.0773324147133895,0.210059884294483
4.8375,-0.0659958126355009,0.21095194771025
4.855,-0.0543585089910797,0.211395900374808
4.8725,-0.0423467771781133,0.211181336072645
4.89,-0.0300107055381593,0.210069045522687
4.9075,-0.0175220100079405,0.20785793719614
4.925,-0.0051381531500066,0.204440840230167
4.9425,0.00685627902733012,0.199833611013452
4.96,0.0182136599412632,0.194170138463809
4.9775,0.0287745642600577,0.187665994178574
4.995,0.0384923231428626,0.180562471487687
5.0125,0.0474254463089308,0.173067911602735
5.03,0.0557021087035955,0.165313105183859
5.0475,0.0634688012924528,0.157332441008657
5.065,0.0708390748055996,0.149074150114811
5.0825,0.0778571018227459,0.140434184179724
5.1,0.0844852066449856,0.131301714110645
5.1175,0.0906165661849929,0.121601830021313
5.135,0.0961066106919779,0.111323239051138
5.1525,0.100811648776138,0.100524561767916
5.17,0.104622294671788,0.0893200993967518
5.1875,0.107482363151543,0.0778522244670456
5.205,0.109389671066754,0.066260874060482
5.2225,0.110381499172424,0.0546601579856642
5.24,0.110512153781779,0.0431283339799276
5.2575,0.109831672835372,0.031711936723398
5.275,0.108372969766153,0.0204397384589234
5.2925,0.106150528268707,0.00933925090398873
5.31,0.103168882499154,-0.00155145793263489
5.3275,0.0994354081198827,-0.012181034474773
5.345,0.0949707287010454,-0.0224912910047589
5.3625,0.0898116210040344,-0.0324288958720674
5.38,0.0840049151011566,-0.0419561688996153
5.3975,0.077595015798397,-0.05105529807898
5.415,0.0706106537291197,-0.0597231356259799
5.4325,0.0630571269944566,-0.0679577933869256
5.45,0.0549183618048112,-0.0757419112824465
5.4675,0.0461693544115184,-0.0830292636770214
5.485,0.0367954143608024,-0.0897405698606569
5.5025,0.0268117120701373,-0.0957712554790727
5.52,0.0162760771242837,-0.10100962722747
5.5375,0.0052900401513105,-0.105360071044002
5.555,-0.00601297389764388,-0.108763898334656
5.5725,-0.0174890368148911,-0.111211078612336
5.59,-0.0290082079534677,-0.112739076453378
5.6075,-0.0404746930466019,-0.113419256463761
5.625,-0.051836846520542,-0.113335292970196
5.6425,-0.0630643157204086,-0.112590289845951
5.66,-0.0742253249043226,-0.111210207473148
5.6775,-0.0853494372038964,-0.109184409676208
5.695,-0.0964457067293867,-0.106471866511883
5.7125,-0.107492588524913,-0.103016924697022
5.73,-0.1184372286317,-0.0987657759917912
5.7475,-0.129201859388465,-0.0936790505042344
5.765,-0.139693355899291,-0.0877384882200316
5.7825,-0.149812235627395,-0.0809483626614394
5.8,-0.159459103633422,-0.0733340815479716
5.8175,-0.168538762453406,-0.0649405386061683
5.835,-0.176963782553893,-0.0558314754231766
5.8525,-0.184659497369672,-0.0460891449377676
5.87,-0.191571078815307,-0.0358120560929935
5.8875,-0.197671229402114,-0.0251084187711878
5.905,-0.202965202380823,-0.0140843668036854
5.9225,-0.207489389573243,-0.00282860048514318
5.94,-0.211301117959736,0.00860235270647357
5.9575,-0.21446027330292,0.020192763560927
5.975,-0.217006863427146,0.0319655324352481
5.9925,-0.218941210760506,0.0439675120961522
6.01,-0.220213886168465,0.05624485017423
6.0275,-0.220730259935347,0.0688148826757622
6.045,-0.220370158470559,0.0816432735344283
6.0625,-0.219017988204867,0.0946343658777774
6.08,-0.216575736399794,0.107650389837276
6.0975,-0.213038273130416,0.120482683844955
6.115,-0.208467986030695,0.132957564357157
6.1325,-0.202980691463245,0.144946669085843
6.15,-0.196714159938508,0.156385342960046
6.1675,-0.18979236408438,0.167271091387036
6.185,-0.182297140627281,0.177643252811577
6.2025,-0.174256248930751,0.187551396986113
6.22,-0.1656509588272,0.197023643994935
6.2375,-0.156439398882203,0.206045785180041
6.255,-0.146586437118545,0.214557880066406
6.2725,-0.136088837059457,0.222468438451942
6.29,-0.124986574596036,0.229679787820513
6.3075,-0.113356722624128,0.236114185551855
6.325,-0.101293156166599,0.241730181820327
6.3425,-0.0888809284860673,0.246522722533547
6.36,-0.0761763747625586,0.250507041502296
6.3775,-0.063201903157211,0.253693071359589
6.395,-0.0499587191669478,0.256061344129989
6.4125,-0.0364534638804966,0.257551439403755
6.43,-0.0227286478146765,0.258069757545666
6.4475,-0.00888421519291783,0.257516159680456
6.465,0.00492025500925817,0.255821397431336
6.4825,0.0184868373846386,0.252982086284661
6.5,0.0316196839207054,0.249079332513388
6.5175,0.0441287454668139,0.244291819702494
6.535,0.0560231274659922,0.238841591175715
6.5525,0.0673776463622551,0.232899921268096
6.57,0.0783381638825904,0.226553521670472
6.5875,0.0890649751246483,0.219775500759947
6.605,0.0996670307732246,0.212431467168286
6.6225,0.110147717408068,0.20432118863192
6.64,0.120380202119912,0.19524470067665
6.6575,0.130121694129174,0.185073465201874
6.675,0.139064082364175,0.173804860419489
6.6925,0.146907040107379,0.161582774857862
6.71,0.153432456547827,0.148677029254603
6.7275,0.158558256453092,0.135426674635239
6.745,0.162355564380045,0.1221630896947
6.7625,0.165023928282058,0.109134883434197
6.78,0.166831623144852,0.0964560793503089
6.7975,0.168038168123342,0.0840921540896611
6.815,0.168821111480619,0.0718874047580632
6.8325,0.169227511153557,0.0596252232785727
6.85,0.169163019180892,0.0471037080679874
6.8675,0.168420464555958,0.0342052514422466
6.885,0.166738676570863,0.0209412229217695
6.9025,0.163874260795284,0.00746064002663982
6.92,0.159666324284951,-0.00597772859701506
6.9375,0.154077258386896,-0.0190602567634646
6.955,0.147130652951566,-0.0314284205164855
6.9725,0.1391613406739,-0.0428596812665988
6.99,0.130440107368578,-0.053276053530422
7.0075,0.121207917403724,-0.0627085027922591
7.025,0.11163557883186,-0.0712606998158676
7.0425,0.101808717543222,-0.079062507953799
7.06,0.0917370774150219,-0.0862274473235834
7.0775,0.0813804394198321,-0.0928245657562555
7.095,0.0706802218532477,-0.0988688173721194
7.1125,0.0595866043213339,-0.104327591425934
7.13,0.0480749508899505,-0.109136588034607
7.1475,0.0361505752481373,-0.113217013568021
7.165,0.0238454208078928,-0.116488021981287
7.1825,0.0112124344719212,-0.118872282601191
7.2,-0.0016772830210512,-0.120296705830934
7.2175,-0.0147324900487441,-0.120692968136105
7.235,-0.0278368148675095,-0.120002512686165
7.2525,-0.0408456070423132,-0.11818819484259
7.27,-0.0535902059316158,-0.11525075890351
7.2875,-0.065893172372152,-0.111244566480079
7.305,-0.0775938471571235,-0.106285127792551
7.3225,-0.0885787775832059,-0.100542044108617
7.34,-0.0988079729408853,-0.094214914031509
7.3575,-0.108327181397824,-0.0874954418032372
7.375,-0.117259089405135,-0.0805245126291326
7.3925,-0.125841081705409,-0.0734021649266223
7.41,-0.13420134617989,-0.0659643771442168
7.4275,-0.142398079967028,-0.0580535527060337
7.445,-0.150384654752904,-0.0494887398553081
7.4625,-0.158008447775368,-0.0401216023227478
7.48,-0.165038006123691,-0.029886720506114
7.4975,-0.171212212665468,-0.0188325338678065
7.515,-0.176298961247697,-0.00712428920358121
7.5325,-0.180148171193218,0.00498214271542449
7.55,-0.18272550402484,0.0171889535716137
7.5675,-0.184118367901379,0.0292151222026073
7.585,-0.184513141012826,0.0408503713154763
7.6025,-0.184149913568736,0.0519912038220889
7.62,-0.183266446594827,0.062650866544796
7.6375,-0.182045158640596,0.0729419008166338
7.655,-0.180575461846672,0.0830366509324468
7.6725,-0.178839358368761,0.0931159969948262
7.69,-0.176722262986432,0.10331859897916
7.7075,-0.174045162353188,0.113701895009582
7.725,-0.170609843468449,0.124222604764303
7.7425,-0.166246838559015,0.13473968010344
7.76,-0.160856068054011,0.145037777336673
7.7775,-0.154432463026475,0.154865432629005
7.795,-0.147072326258067,0.163979804923515
7.8125,-0.138960008788772,0.172189248586179
7.83,-0.130362512087323,0.179334341813131
7.8475,-0.121554018152767,0.185490250069705
7.865,-0.112742040849722,0.190768361133018
7.8825,-0.104059442496619,0.195341110227682
7.9,-0.0955467056110171,0.199403504921729
7.9175,-0.0871523375175164,0.203130617779263
7.935,-0.0787517212100491,0.20663913046796
7.9525,-0.0701812144254035,0.209960678401395
7.97,-0.0612810468006506,0.213032854048411
7.9875,-0.0519383195276356,0.215710409337642
8.005,-0.0421208555070984,0.217794986318993
8.0225,-0.0318941579219963,0.219077490465101
8.04,-0.0214147704312569,0.219369153024456
8.0575,-0.010929857350025,0.218572160159127
8.075,-0.000699409967079411,0.216714383379281
8.0925,0.00905267403686506,0.213906813008787
8.11,0.0181686293546111,0.210332817533193
8.1275,0.0265801319114547,0.206210342098694
8.145,0.0343116049719109,0.201748537536409
8.1625,0.0414637198307925,0.197108705384173
8.18,0.048181849848697,0.192377904988539
8.1975,0.0546173465021831,0.187560102925219
8.215,0.0608904663237723,0.182585390267069
8.2325,0.0670625416435329,0.177333754990972
8.25,0.0731221274325975,0.171667174121857
8.2675,0.079007002849122,0.165428102383193
8.285,0.084524430309397,0.158561333252677
8.3025,0.0894990587060252,0.15107069467033
8.32,0.0937614240422101,0.1430286705037
8.3375,0.0971740100507186,0.134567509792082
8.355,0.0996512555103348,0.125861751137157
8.3725,0.10117138063792,0.117105074318412
8.39,0.101778860749387,0.108484549972229
8.4075,0.101577120574831,0.100155476455694
8.425,0.10071182146993,0.0922202058355597
8.4425,0.0993462407953991,0.0847145157087089
8.46,0.0976317676943104,0.077604804619338
8.4775,0.0956782003345336,0.0707982737659222
8.495,0.0935297617520761,0.0641661244130666
8.5125,0.091152878469689,0.0575768749700646
8.53,0.0884402875659718,0.0509338534607402
8.5475,0.085232903114263,0.0442087071512136
8.565,0.0813566218903961,0.0374623257790779
8.5825,0.0766669441444908,0.0308464483381863
8.6,0.0710912338521182,0.0245833032206525
8.6175,0.0646577781668371,0.0189260641720484
8.635,0.0575030771025602,0.0141082708509463
8.6525,0.0498537053999316,0.0102940725644277
8.67,0.0419854933794071,0.00754194264230303
8.6875,0.0341689575906478,0.00579187769007585
8.705,0.0266882524710111,0.00487402743672579
8.7225,0.0195549727429694,0.00450459913239328
8.74,0.0127175875389035,0.00447569351053556
8.7575,0.00603701337895332,0.00465045181571299
8.775,-0.000667046139941178,0.00499422496875334
8.7925,-0.00756150573347011,0.00557953469471681
8.81,-0.014750693518514,0.00656466404410273
8.8275,-0.0222442127537873,0.00815229737263858
8.845,-0.0299486850994032,0.0105392196878345
8.8625,-0.0376838947603449,0.0138695829161905
8.88,-0.0452178830323567,0.0182024745941194
8.8975,-0.052311432835229,0.023500212143442
8.915,-0.0587610253071093,0.029638287806968
8.9325,-0.0644308041136565,0.0364327424587438
8.95,-0.0692676456502445,0.0436772169937354
8.9675,-0.0732979317170438,0.0511806893438563
8.985,-0.0766088050953091,0.0587979222634962
9.0025,-0.0793195930451628,0.0664473038140538
9.02,-0.0815502525435603,0.0741141272486579
9.0375,-0.08339320773913,0.0818405069597258
9.055,-0.0848932990258753,0.0897054077197286
9.0725,-0.0860383939764466,0.0977994123344817
9.09,-0.0867611029814052,0.106198964907121
9.1075,-0.0869503537513837,0.114944217174692
9.125,-0.0864704118324824,0.124023623819632
9.1425,-0.0851498673523455,0.133397966998345
9.16,-0.0828897321958088,0.142877475346244
9.1775,-0.0796432484129476,0.152286918901952
9.195,-0.0754239686276929,0.161442176258063
9.2125,-0.070304227987997,0.170174810757453
9.23,-0.0644036397509898,0.178353961037595
9.2475,-0.0578694513263708,0.185901567286431
9.265,-0.0508522042109223,0.192797968357719
9.2825,-0.0434812181197482,0.199076601965872
9.3,-0.0358446568486911,0.204808631876117
9.3175,-0.0279781924716704,0.210080380175499
9.335,-0.019864659730604,0.214967992209522
9.3525,-0.0114449026438263,0.219514432027461
9.37,-0.00263772819279893,0.223713519034573
9.3875,0.00663500394154268,0.227504338557342
9.405,0.0164232054227782,0.230777282070611
9.4225,0.0267283979217726,0.233390636608197
9.44,0.0374926946953613,0.235194528208797
9.4575,0.048599269126374,0.236057546675729
9.475,0.0598844179314599,0.235890811395014
9.4925,0.0711590649140206,0.234664672549171
9.51,0.0822356783175132,0.232414590725566
9.5275,0.0929554291870993,0.229234760352149
9.545,0.103210216704481,0.225260388698208
9.5625,0.112954996801716,0.220641802429611
9.58,0.122184327470888,0.215561231389994
9.5975,0.131033193537103,0.21007979312414
9.615,0.139595701043962,0.204203795094498
9.6325,0.147943321980873,0.197877958264044
9.65,0.156098313159937,0.191003327381566
9.6675,0.164018156823214,0.183465287586389
9.685,0.171594417736082,0.175165606660686
9.7025,0.178666280845361,0.166051516879316
9.72,0.18504581204157,0.156135477636475
9.7375,0.190549392667401,0.145501304778967
9.755,0.195028409049508,0.134295373177063
9.7725,0.198392454393076,0.12270492134545
9.79,0.200619992551384,0.110928357810701
9.8075,0.201754260957181,0.0991442327311244
9.825,0.201885507913353,0.0874857928859727
9.8425,0.201123708295253,0.076026731534282
9.86,0.199567988043278,0.0647811868953164
9.8775,0.197279647501753,0.0537178313562325
9.895,0.194264778509397,0.0427847681538346
9.9125,0.190470252919048,0.0319396205506217
9.93,0.185793852666059,0.0211781696566966
9.9475,0.180106212714583,0.0105553684473116
9.965,0.173279757474842,0.000194380023795425
9.9825,0.165218465949553,-0.0097179955012786
10,0.155882358951836,-0.0189481682579527
