"Freq [GHz]","re(S(Antenna1_1_1,Antenna1_1_1)) []","im(S(Antenna1_1_1,Antenna1_1_1)) []"
3,-0.201472265853813,-0.162734833694726
3.0175,-0.209462410474743,-0.147260336565194
3.035,-0.216170837233377,-0.131367353968235
3.0525,-0.221615780240928,-0.115133665859854
3.07,-0.225785453710973,-0.0986027834349744
3.0875,-0.228620138210316,-0.0818221401049711
3.105,-0.230025723064293,-0.0648847917559729
3.1225,-0.229914071720842,-0.0479528565051398
3.14,-0.228252510817117,-0.0312485500380418
3.1575,-0.225099212295042,-0.01501297027533
3.175,-0.220605852690447,0.000552305192724296
3.1925,-0.214982039457567,0.015336661794897
3.21,-0.208432301280643,0.0293416544725935
3.2275,-0.201096781006898,0.042658737551007
3.245,-0.192990715641888,0.0554231985795647
3.2625,-0.183996644893822,0.0677127417154738
3.28,-0.173938583943695,0.0794802131864707
3.2975,-0.162659442773446,0.0905345717825073
3.315,-0.150105419840238,0.100570371706184
3.3325,-0.136379951123074,0.109241835821347
3.35,-0.12174639089413,0.116256135177248
3.3675,-0.106577208199888,0.121452859741012
3.385,-0.0912670990665257,0.124841382858413
3.4025,-0.0761405811356052,0.126583109643167
3.42,-0.0613864107201445,0.126925634427461
3.4375,-0.0470409939896872,0.126113040547451
3.455,-0.0330489226285884,0.124318463240013
3.4725,-0.019243781233979,0.121574594159226
3.49,-0.00554192850172149,0.117767601968546
3.5075,0.0080197157365487,0.112713934567848
3.525,0.0212672770909739,0.106245177084072
3.5425,0.0339243007668429,0.0982837549011344
3.56,0.0456805828688276,0.0888831769397442
3.5775,0.0562679733054105,0.0782215524775556
3.595,0.0655155190139724,0.0665551326541434
3.6125,0.073366430448613,0.0541526619463833
3.63,0.0798551382511797,0.041236416754455
3.6475,0.0850577648391367,0.0279507517728825
3.665,0.0890336950148896,0.0143703011914499
3.6825,0.0918031462873762,0.000526958790975881
3.7,0.0933259633958112,-0.0135470979235557
3.7175,0.0935221483515335,-0.0277657330575902
3.735,0.0923235271480626,-0.0419795280203986
3.7525,0.0897145388842517,-0.0559947036115919
3.77,0.08575175845413,-0.0696126769541587
3.7875,0.0805548975858248,-0.0826727227506199
3.805,0.0742739339841687,-0.0950800559488459
3.8225,0.0670462621680634,-0.106808364540211
3.84,0.0589610711487762,-0.117876300826684
3.8575,0.0500447634013956,-0.128307481707682
3.875,0.0402728896366063,-0.13808949443613
3.8925,0.0295727456967333,-0.1471579482246
3.91,0.0179544886265703,-0.155329733732277
3.9275,0.00549546421614257,-0.162422853010769
3.945,-0.0076452347257892,-0.168275601457073
3.9625,-0.0212465598381443,-0.172789175326547
3.98,-0.035065473424802,-0.17595262864975
3.9975,-0.0488840325177682,-0.177842390067067
4.015,-0.0625487922713807,-0.178596897131408
4.0325,-0.075990657036559,-0.178374586072856
4.05,-0.0892196623551366,-0.177308244396886
4.0675,-0.102296849795423,-0.175469405557149
4.085,-0.115292112405018,-0.172853106062508
4.1025,-0.128240795720341,-0.169387099563602
4.12,-0.141111962554759,-0.164962390573521
4.1375,-0.153797645311626,-0.159475756029131
4.155,-0.166126177723385,-0.152871478488712
4.1725,-0.177895581943862,-0.145169781252485
4.19,-0.188917010491405,-0.13647338908646
4.2075,-0.199055163781515,-0.126950165427089
4.225,-0.208253415408367,-0.116797034154647
4.2425,-0.21653596535758,-0.106196207995486
4.26,-0.2239864315476,-0.0952772615599502
4.2775,-0.230709745277481,-0.084096873680792
4.295,-0.236789648579924,-0.0726424928716934
4.3125,-0.242255629868481,-0.0608584152685176
4.33,-0.247093589622305,-0.0486675893266655
4.3475,-0.251160513585556,-0.036051558212122
4.365,-0.254339560159261,-0.0230713976947522
4.3825,-0.25654523193613,-0.00984482938739181
4.4,-0.257748067793927,0.0034824004020782
4.4175,-0.257977991498644,0.0167728095148863
4.435,-0.257306317370846,0.0299274685398801
4.4525,-0.255814218238595,0.0428992490511679
4.47,-0.253560329622239,0.0556846134507035
4.4875,-0.250560316622916,0.0682977515169358
4.505,-0.246786572408207,0.0807376829052833
4.5225,-0.242188414951215,0.0929618032699541
4.54,-0.236725059927958,0.104877113201431
4.5575,-0.230398304097251,0.116353752584471
4.575,-0.223271348973966,0.12725683205568
4.5925,-0.215464886997967,0.137485091869328
4.61,-0.207129899961111,0.147001481536087
4.6275,-0.198405615832517,0.155842805630802
4.645,-0.189377408123772,0.164102613377799
4.6625,-0.180050619143567,0.171891159643965
4.68,-0.170351641090964,0.179285114048852
4.6975,-0.160158489141744,0.186284470585509
4.715,-0.149352608471839,0.192792871452123
4.7325,-0.137875462038118,0.198630438638532
4.75,-0.125770574681268,0.203577436478609
4.7675,-0.113212767216025,0.207361871454773
4.785,-0.100502195932777,0.209976621909492
4.8025,-0.0878828672771192,0.211476943777443
4.82,-0.0755368922102895,0.212010897547423
4.8375,-0.0635475306295009,0.21177254703345
4.855,-0.0518929678527797,0.210943603412508
4.8725,-0.0404716396097433,0.209641771150945
4.89,-0.0291500522546593,0.207891243690687
4.9075,-0.0178174798947405,0.20562321026474
4.925,-0.0064306206699066,0.202704542287027
4.9425,0.00496459825463012,0.198984257547352
4.96,0.0162389972730632,0.194342601136409
4.9775,0.0272099513806677,0.188727918593144
4.995,0.0376841174825626,0.182171465788787
5.0125,0.0474992295523308,0.174777950908235
5.03,0.0565528044669055,0.166697245977529
5.0475,0.0648109737784529,0.158087859851257
5.065,0.0722976017571996,0.149083984266611
5.0825,0.0790699185258559,0.139775208334424
5.1,0.0851901606259856,0.130202678484145
5.1175,0.0907023893150929,0.120369661532113
5.135,0.0956202981780779,0.110260217264838
5.1525,0.0999270015977382,0.0998583054364158
5.17,0.103583462129588,0.0891612633752518
5.1875,0.106539937864743,0.0781851842862456
5.205,0.108745235355394,0.066963624333802
5.2225,0.110151139031924,0.0555436166615642
5.24,0.110712789546179,0.0439832019538276
5.2575,0.110388364257832,0.032352674685098
5.275,0.109141952037663,0.0207385563303234
5.2925,0.106951720331907,0.00924653506628873
5.31,0.103822119769654,-0.00200129945453489
5.3275,0.0997955006153797,-0.012877982135873
5.345,0.0949568033556454,-0.0232713152592889
5.3625,0.0894260323681344,-0.0331066348822674
5.38,0.0833370310450566,-0.0423646051189953
5.3975,0.076806453923197,-0.05108568816368
5.415,0.0699017590224697,-0.0593561359627799
5.4325,0.0626194205440566,-0.0672762683281256
5.45,0.0548830372042112,-0.0749185195374465
5.4675,0.0465655936598184,-0.0822877733173214
5.485,0.0375323254459024,-0.0892977339475569
5.5025,0.0276930133421373,-0.0957735605752727
5.52,0.0170478666532837,-0.10148343807927
5.5375,0.0057114186735005,-0.106192420315302
5.555,-0.00609556211284388,-0.109723848534856
5.5725,-0.0180867017884911,-0.112009798638936
5.59,-0.0299733556173677,-0.113113979431878
5.6075,-0.0415328886596019,-0.113218029279761
5.625,-0.052661467813742,-0.112573074644896
5.6425,-0.0633571642711086,-0.111508065556251
5.66,-0.0738973107036226,-0.110137707983048
5.6775,-0.0844992006897964,-0.108449317391808
5.695,-0.0953306139606867,-0.106300639993283
5.7125,-0.106451341146813,-0.103465863658082
5.73,-0.117787547122,-0.0997035845700912
5.7475,-0.129144494737965,-0.0948263040698344
5.765,-0.140251709930291,-0.0887518414092316
5.7825,-0.150825765069145,-0.0815236247323394
5.8,-0.160632016762322,-0.0732967326914716
5.8175,-0.169528597003006,-0.0642965169468683
5.835,-0.177482583291793,-0.0547636322182766
5.8525,-0.184557085651872,-0.0449015477722676
5.87,-0.190876103092887,-0.0348399952519935
5.8875,-0.196579103934614,-0.0246217248778878
5.905,-0.201778298069953,-0.0142126761779854
5.9225,-0.206528834066443,-0.00352952757144318
5.94,-0.210817101972436,0.00752483986727357
5.9575,-0.21456683867722,0.019027666870327
5.975,-0.217658466312946,0.0310117640214481
5.9925,-0.219954973515806,0.0434537000989522
6.01,-0.221327733538365,0.05627464813543
6.0275,-0.221677315637147,0.0693511396759622
6.045,-0.220946655559859,0.0825317541347983
6.0625,-0.219126067983567,0.0956558280673774
6.08,-0.216226140083994,0.108560809124496
6.0975,-0.212357639652016,0.121107838572055
6.115,-0.207630262026795,0.133211744420457
6.1325,-0.202157635823225,0.144831701781643
6.15,-0.196039893404508,0.155966815637346
6.1675,-0.18934982713148,0.166645485739936
6.185,-0.182124565250681,0.176910545760877
6.2025,-0.174363741749451,0.186802625566613
6.22,-0.16603417834516,0.196344201621835
6.2375,-0.157080346298003,0.205526509538541
6.255,-0.147439371307975,0.214301114555606
6.2725,-0.137058944992957,0.222577621788842
6.29,-0.125915998835736,0.230228710476213
6.3075,-0.114033288965328,0.237103135828155
6.325,-0.101490323925499,0.243046235081327
6.3425,-0.0884248330795673,0.247925665828787
6.36,-0.0750218243160586,0.251657875880556
6.3775,-0.0614895956412109,0.254228907105589
6.395,-0.0480256627633478,0.255702589648079
6.4125,-0.0347795458149966,0.256210843845555
6.43,-0.0218222802080665,0.255924878261866
6.4475,-0.00913288408991783,0.255011784305856
6.465,0.00339106341685817,0.253586689822836
6.4825,0.0158978421376387,0.251674116454461
6.5,0.0285279843487054,0.249191709437188
6.5175,0.0414209414040139,0.245973182988194
6.535,0.0544715803011922,0.241723416666715
6.5525,0.0674742308065551,0.236248825467096
6.57,0.0801329934873904,0.229463737232472
6.5875,0.0921289866756483,0.221424217826847
6.605,0.103196242837225,0.212321302906686
6.6225,0.113182898249068,0.20243487983132
6.64,0.122078574078412,0.19206221395765
6.6575,0.129999608019874,0.181443442396874
6.675,0.137137461614575,0.170707274249489
6.6925,0.143687479854379,0.159853245948162
6.71,0.149781097866827,0.148774584990703
6.7275,0.155442581441092,0.137312377190339
6.745,0.160582326727345,0.1253219974797
6.7625,0.165026029081358,0.112729948592197
6.78,0.168567293806052,0.0995640598673089
6.7975,0.171024617712442,0.0859503334561611
6.815,0.172284191755619,0.0720815515762632
6.8325,0.172316976659557,0.0581716870413727
6.85,0.171168909717492,0.0444131310115874
6.8675,0.168932728823762,0.0309501568263466
6.885,0.165715135958913,0.0178738429017695
6.9025,0.161612220972684,0.00523452723183982
6.92,0.156700115735651,-0.00693844895071506
6.9375,0.151039697229896,-0.0186210425008646
6.955,0.144728013866566,-0.0297834530377855
6.9725,0.1377846123693,-0.0404482363510988
6.99,0.130250024948378,-0.050617716790122
7.0075,0.122146638016424,-0.0603081851182591
7.025,0.11346484965336,-0.0695372842434677
7.0425,0.104160194158722,-0.078300345297099
7.06,0.0941681545270219,-0.0865454693753834
7.0775,0.0834354161482321,-0.0941600578806555
7.095,0.0719579607320477,-0.100978617196119
7.1125,0.0598114036452339,-0.106813897239934
7.13,0.0471597780562905,-0.111503804935607
7.1475,0.0342356561635374,-0.114959006732721
7.165,0.0212947340678928,-0.117193944955177
7.1825,0.00855792593992115,-0.118328360921441
7.2,-0.0038402690283512,-0.118556014009234
7.2175,-0.0158792264270441,-0.118088711013105
7.235,-0.0276449650282095,-0.117092830679165
7.2525,-0.0392891083995132,-0.11563885887559
7.27,-0.0509663395926158,-0.11368072283641
7.2875,-0.062770043627152,-0.111072159164579
7.305,-0.0746866189711235,-0.107615277476151
7.3225,-0.0865828837236059,-0.103126052009617
7.34,-0.0982302573340853,-0.097496203682509
7.3575,-0.109357676510424,-0.0907324759422372
7.375,-0.119716426888135,-0.0829619354598326
7.3925,-0.129075403556409,-0.0744117351728223
7.41,-0.13746487363989,-0.0653832353039168
7.4275,-0.144969426634128,-0.0560791235298337
7.445,-0.151728390725314,-0.0466173319433081
7.4625,-0.157884205396268,-0.0370235006093478
7.48,-0.163537926121491,-0.027249983398214
7.4975,-0.168723334553468,-0.0172122162660485
7.515,-0.173404035962096,-0.00682960737648121
7.5325,-0.177490608367018,0.00394115366412449
7.55,-0.18086961893527,0.0150882444005137
7.5675,-0.183434421653979,0.0265443580470073
7.585,-0.185109098156726,0.0382005331309763
7.6025,-0.185860632539236,0.0499275297324889
7.62,-0.185698814951927,0.061597476290696
7.6375,-0.184666930318296,0.0731001888482339
7.655,-0.182828068421772,0.0843515222143468
7.6725,-0.180251734533201,0.0952941054874262
7.69,-0.177003873086132,0.10589285746326
7.7075,-0.173141330696088,0.116128332416182
7.725,-0.168710044412149,0.125990363458803
7.7425,-0.163745382272215,0.13547321089774
7.76,-0.158273164698311,0.144572168594773
7.7775,-0.152310643014775,0.153280853907305
7.795,-0.145867597508417,0.161588399039915
7.8125,-0.138948276161372,0.169476323723679
7.83,-0.131546804887823,0.176923018839731
7.8475,-0.123671625508067,0.183872550274205
7.865,-0.115342382111822,0.190269925434528
7.8825,-0.106595416197319,0.196055667470282
7.9,-0.0974861247619171,0.201173354129429
7.9175,-0.0880875788363464,0.205577943856463
7.935,-0.0784852980224891,0.20924296803776
7.9525,-0.0687690486529035,0.212164829283595
7.97,-0.0590232824088506,0.214363056762211
7.9875,-0.0493181912826356,0.215876241309642
8.005,-0.0397032814793984,0.216754287818593
8.0225,-0.0302049186645963,0.217048399225501
8.04,-0.0208281109877669,0.216804878480956
8.0575,-0.011558785318725,0.216046527611427
8.075,-0.00238522819597941,0.214766908919281
8.0925,0.00669230206056506,0.212943290127007
8.11,0.0156534418779111,0.210540066987658
8.1275,0.0244524377518547,0.207520088518294
8.145,0.0330187855909109,0.203857688950409
8.1625,0.0412642342788925,0.199550373276273
8.18,0.049094999852797,0.194626052469839
8.1975,0.0564264923232831,0.189143535480419
8.215,0.0631968515241723,0.183185590346249
8.2325,0.0693755439511329,0.176845927721372
8.25,0.0749643671258975,0.170213349496257
8.2675,0.079993404427802,0.163368427247693
8.285,0.084506652314097,0.156335693113277
8.3025,0.0885319653480252,0.14912411689973
8.32,0.0920778104658101,0.14172716677861
8.3375,0.0951292354379186,0.134136260037082
8.355,0.0976514202284348,0.126353711250257
8.3725,0.0995990899992504,0.118401303241412
8.39,0.100928285917597,0.110322289494929
8.4075,0.101606494010831,0.102177010709894
8.425,0.10161808985783,0.0940344996567597
8.4425,0.100964087879199,0.0859636390705389
8.46,0.0996574878287104,0.078027182740088
8.4775,0.0977171656743337,0.0702803695404222
8.495,0.0951635818109761,0.0627736122487666
8.5125,0.092018427002179,0.0555567817823646
8.53,0.0883081656454218,0.0486818042299402
8.5475,0.084069196694063,0.0422010610893136
8.565,0.0793510623570961,0.0361611894500779
8.5825,0.0742144873248908,0.0305944656598963
8.6,0.0687230592860182,0.0255118730224525
8.6175,0.0629303574195371,0.0209022194095484
8.635,0.0568670775668302,0.0167399107136463
8.6525,0.0505339196785316,0.0130006637308277
8.67,0.0439049087620071,0.00968075819770303
8.6875,0.0369425034156478,0.00681290399347585
8.705,0.0295947087379111,0.00448010528182579
8.7225,0.0219131886678694,0.00280598847979328
8.74,0.0139819624599035,0.00189338908133556
8.7575,0.00593084542435332,0.00181251992251299
8.775,-0.00208575081074118,0.00257972857115334
8.7925,-0.00991920490907011,0.00415046601001681
8.81,-0.017457083812214,0.00642976911210273
8.8275,-0.0246437771653873,0.00929789210113858
8.845,-0.0314843264238032,0.0126435410631345
8.8625,-0.0380296834954449,0.0163943186587905
8.88,-0.0443477161798567,0.0205345714125194
8.8975,-0.050489071980229,0.025104764660842
8.915,-0.0564588161194093,0.030182510503368
8.9325,-0.0622028935637565,0.0358513951646138
8.95,-0.0676135412780445,0.0421677048890354
8.9675,-0.0725515015356438,0.0491356599138563
8.985,-0.0768774507232091,0.0566986825876962
9.0025,-0.0804823410433628,0.0647486799453538
9.02,-0.0833072381296603,0.0731493125131579
9.0375,-0.08534729558043,0.0817648770295258
9.055,-0.0866401698987753,0.0904852197664286
9.0725,-0.0872443441065766,0.0992392960125817
9.09,-0.0872156582261052,0.107994609161221
9.1075,-0.0865899547989837,0.116744950424692
9.125,-0.0853765133263824,0.125492642783601
9.1425,-0.0835761004539455,0.134238970598745
9.16,-0.0811431968505088,0.142964781051444
9.1775,-0.0780509279093476,0.151627193700252
9.195,-0.0742819630910429,0.160172426526663
9.2125,-0.069828806577597,0.168542749520253
9.23,-0.0646902170698098,0.176679744625495
9.2475,-0.0588678528364708,0.184522723719541
9.265,-0.0523667736708223,0.192004278739519
9.2825,-0.0452010403886482,0.199046952736472
9.3,-0.0374024942036911,0.205564958326217
9.3175,-0.0290283803670004,0.211472703355399
9.335,-0.020163001648904,0.216698538436022
9.3525,-0.0109104133044963,0.221199103157461
9.37,-0.00137866126949893,0.224968331510513
9.3875,0.00834017886634268,0.228036318025442
9.405,0.0181874701194782,0.230456570868311
9.4225,0.0281463051288726,0.232284486803297
9.44,0.0382365654558613,0.233553513098097
9.4575,0.048497088531174,0.234256945947329
9.475,0.0589598575572599,0.234341968958514
9.4925,0.0696241876701206,0.233718738231071
9.51,0.0804392564761132,0.232282383001766
9.5275,0.0913008327896993,0.229941460717459
9.545,0.102063553246181,0.226644211816008
9.5625,0.112565155362416,0.222394649564211
9.58,0.122631497008488,0.217242376771294
9.5975,0.132168862817103,0.21132754029474
9.615,0.141132675938262,0.204772393559898
9.6325,0.149525811283173,0.197681713139144
9.65,0.157380857863337,0.190124314671666
9.6675,0.164736857980414,0.182126379975089
9.685,0.171617199853982,0.173676919255386
9.7025,0.178014082882711,0.164742436890606
9.72,0.18388242968427,0.155285971883375
9.7375,0.189143279764201,0.145285447327267
9.755,0.193694454534428,0.134747400572463
9.7725,0.197425130537176,0.12371401647975
9.79,0.200230915436684,0.112263228975201
9.8075,0.202026737602881,0.100502984455224
9.825,0.202755844480353,0.0885614164193727
9.8425,0.202394067046853,0.0765748161929821
9.86,0.200949099831378,0.0646751968183164
9.8775,0.198454961723453,0.0529791792430625
9.895,0.194962252709997,0.0415799358933346
9.9125,0.190525460459948,0.0305438580536217
9.93,0.185189366166259,0.0199132242068866
9.9475,0.178977307572683,0.00971525881471163
9.965,0.171884317777142,-2.33824452045748E-05
9.9825,0.163877663156753,-0.0092591936501786
10,0.154905965473736,-0.0179151886164527
