"Freq [GHz]","re(S(Tx_p1,Tx_p1)) []","im(S(Tx_p1,Tx_p1)) []"
1,0.07664205728,0.05890794497
1.01,0.08126820202,0.05221362876
1.02,0.0853157962,0.04518915039
1.03,0.08876323748,0.0378840504
1.04,0.09159317483,0.03034907212
1.05,0.09379254143,0.02263578986
1.06,0.09535255387,0.01479624395
1.07,0.09626867896,0.006882583959
1.08,0.09654057119,-0.001053274066
1.09,0.09617198297,-0.008959976348
1.1,0.09517065043,-0.01678704277
1.11,0.09354815794,-0.02448515991
1.12,0.09131978398,-0.03200645454
1.13,0.08850433134,-0.03930474723
1.14,0.08512394435,-0.04633578577
1.15,0.08120391548,-0.05305745887
1.16,0.07677248364,-0.05942999066
1.17,0.07186062594,-0.06541611683
1.18,0.06650184435,-0.07098124354
1.19,0.06073194865,-0.07609358998
1.2,0.05458883624,-0.08072431582
1.21,0.04811226942,-0.08484763464
1.22,0.04134365032,-0.08844091396
1.23,0.03432579348,-0.09148476284
1.24,0.02710269584,-0.09396310737
1.25,0.01971930394,-0.09586325419
1.26,0.01222127779,-0.09717594219
1.27,0.004654751544,-0.09789538175
1.28,-0.002933909774,-0.09801928111
1.29,-0.01049835703,-0.09754885913
1.3,-0.01799250728,-0.09648884315
1.31,-0.02537079705,-0.09484745124
1.32,-0.03258843791,-0.0926363573
1.33,-0.03960167324,-0.08987063811
1.34,-0.04636803487,-0.0865687012
1.35,-0.05284659788,-0.08275219247
1.36,-0.0589982318,-0.07844588305
1.37,-0.06478584582,-0.0736775348
1.38,-0.07017462729,-0.06847774537
1.39,-0.07513226347,-0.06287976685
1.4,-0.07962916123,-0.05691931388
1.41,-0.08363864427,-0.05063434341
1.42,-0.0871371306,-0.04406481737
1.43,-0.09010429433,-0.03725245127
1.44,-0.09252320528,-0.03024044692
1.45,-0.09438044396,-0.0230732124
1.46,-0.09566619202,-0.01579607249
1.47,-0.09637429726,-0.008454971621
1.48,-0.09650231224,-0.001096172469
1.49,-0.09605150644,0.006234047271
1.5,-0.09502685231,0.01348969713
1.51,-0.09343698556,0.02062537255
1.52,-0.09129414074,0.0275965476
1.53,-0.08861406316,0.03435985953
1.54,-0.0854158986,0.04087338317
1.55,-0.08172206225,0.04709689364
1.56,-0.07755808864,0.05299211588
1.57,-0.07295246401,0.05852296001
1.58,-0.06793644303,0.06365574177
1.59,-0.06254385108,0.06835938734
1.6,-0.05681087382,0.07260562246
1.61,-0.05077583503,0.0763691453
1.62,-0.04447896404,0.07962778338
1.63,-0.03796215345,0.08236263415
1.64,-0.03126870793,0.08455818943
1.65,-0.02444308463,0.08620244327
1.66,-0.01753062566,0.08728698329
1.67,-0.01057728297,0.08780706481
1.68,-0.003629335894,0.0877616672
1.69,0.003266898064,0.0871535317
1.7,0.01006535891,0.08598917965
1.71,0.01672054558,0.08427890985
1.72,0.02318782212,0.08203677376
1.73,0.0294237276,0.07928052709
1.74,0.03538628779,0.07603155625
1.75,0.04103532758,0.07231477812
1.76,0.04633278076,0.06815851195
1.77,0.05124299528,0.06359432209
1.78,0.05573303063,0.05865683086
1.79,0.05977294408,0.05338350073
1.8,0.06333606202,0.04781438618
1.81,0.06639923268,0.04199185546
1.82,0.06894305622,0.0359602833
1.83,0.07095208821,0.02976571633
1.84,0.07241501266,0.0234555134
1.85,0.07332478086,0.0170779638
1.86,0.07367871273,0.01068188688
1.87,0.07347855763,0.004316217079
1.88,0.07273051238,-0.001970420789
1.89,0.07144519447,-0.00813014125
1.9,0.06963756957,-0.01411622729
1.91,0.0673268328,-0.01988355341
1.92,0.06453624432,-0.0253889969
1.93,0.06129292035,-0.03059183171
1.94,0.05762758183,-0.03545409932
1.95,0.05357426335,-0.03994095159
1.96,0.049169986,-0.04402096063
1.97,0.04445439828,-0.04766639141
1.98,0.03946938988,-0.05085343362
1.99,0.03425868342,-0.05356238956
2,0.02886740983,-0.05577781608
2.01,0.02334167312,-0.05748861891
2.02,0.01772811039,-0.05868809904
2.03,0.01207345292,-0.05937395112
2.04,0.006424094043,-0.05954821494
2.05,0.0008256693264,-0.05921718185
2.06,-0.004677346068,-0.05839125824
2.07,-0.01004201807,-0.05708478937
2.08,-0.01522730845,-0.05531584688
2.09,-0.02019440014,-0.05310598399
2.1,-0.02490699019,-0.05047996259
2.11,-0.0293315483,-0.0474654567
2.12,-0.03343753914,-0.04409273688
2.13,-0.03719760769,-0.04039434003
2.14,-0.04058772713,-0.03640472933
2.15,-0.04358730956,-0.03215994836
2.16,-0.04617928019,-0.02769727374
2.17,-0.04835011622,-0.02305486999
2.18,-0.05008985185,-0.01827145027
2.19,-0.05139205135,-0.01338594599
2.2,-0.05225375222,-0.008437188235
2.21,-0.05267538076,-0.003463603418
2.22,-0.05266064236,0.001497074823
2.23,-0.05221638907,0.006408075708
2.24,-0.05135246698,0.01123384202
2.25,-0.05008154572,0.01594026029
2.26,-0.04841893275,0.02049486978
2.27,-0.04638237466,0.02486704953
2.28,-0.04399184786,0.02902818325
2.29,-0.04126934085,0.03295180196
2.3,-0.03823863025,0.03661370418
2.31,-0.03492505251,0.03999205411
2.32,-0.03135527334,0.04306745791
2.33,-0.0275570567,0.0458230186
2.34,-0.02355903503,0.04824437002
2.35,-0.01939048262,0.05031969054
2.36,-0.01508109346,0.05203969735
2.37,-0.01066076543,0.05339762187
2.38,-0.006159392046,0.05438916763
2.39,-0.001606663311,0.05501245125
2.4,0.002968123068,0.05526792807
2.41,0.007536238904,0.05515830339
2.42,0.01206969009,0.05468843085
2.43,0.01654136752,0.05386519948
2.44,0.02092518361,0.05269741085
2.45,0.02519619371,0.05119564811
2.46,0.029330702,0.04937213868
2.47,0.03330635154,0.04724061222
2.48,0.03710219849,0.04481615592
2.49,0.04069877071,0.04211506873
2.5,0.04407811093,0.03915471642
2.51,0.04722380539,0.03595338913
2.52,0.05012099863,0.03253016304
2.53,0.05275639544,0.02890476763
2.54,0.05511825144,0.02509745983
2.55,0.0571963534,0.02112890611
2.56,0.05898199107,0.01702007351
2.57,0.06046792205,0.01279213009
2.58,0.06164833139,0.00846635519
2.59,0.06251878765,0.004064059736
2.6,0.06307619713,-0.0003934838621
2.61,0.06331875774,-0.004885102331
2.62,0.06324591407,-0.00938977383
2.63,0.06285831506,-0.01388667233
2.64,0.0621577751,-0.01835520558
2.65,0.06114723974,-0.02277504776
2.66,0.05983075649,-0.02712616831
2.67,0.05821345105,-0.03138885831
2.68,0.05630150912,-0.03554375595
2.69,0.05410216359,-0.03957187253
2.7,0.05162368665,-0.04345462045
2.71,0.04887538602,-0.04717384431
2.72,0.04586760465,-0.05071185642
2.73,0.04261172244,-0.05405147747
2.74,0.03912015903,-0.05717608319
2.75,0.03540637609,-0.06006965745
2.76,0.03148487782,-0.06271685193
2.77,0.02737120806,-0.06510305244
2.78,0.02308194281,-0.06721445154
2.79,0.0186346765,-0.06903812691
2.8,0.01404800103,-0.07056212473
2.81,0.009341476192,-0.07177554723
2.82,0.004535590746,-0.07266864301
2.83,-0.0003482868792,-0.07323289911
2.84,-0.00528796867,-0.07346113337
2.85,-0.01026051837,-0.07334758545
2.86,-0.01524233418,-0.07288800526
2.87,-0.02020924288,-0.07207973709
2.88,-0.02513660491,-0.07092179792
2.89,-0.02999943015,-0.06941494859
2.9,-0.03477250368,-0.06756175632
2.91,-0.03943052056,-0.06536664733
2.92,-0.04394822891,-0.06283594832
2.93,-0.04830057993,-0.05997791592
2.94,-0.05246288384,-0.05680275299
2.95,-0.05641097023,-0.05332261115
2.96,-0.06012135164,-0.04955157889
2.97,-0.06357138874,-0.04550565487
2.98,-0.06673945576,-0.04120270599
2.99,-0.06960510468,-0.03666241025
3,-0.07214922665,-0.03190618427
3.01,-0.07435420913,-0.02695709584
3.02,-0.07620408759,-0.02183976142
3.03,-0.07768468992,-0.01658022952
3.04,-0.07878377267,-0.01120585005
3.05,-0.07949114753,-0.005745130512
3.06,-0.07979879693,-0.0002275798081
3.07,-0.07970097764,0.005316459603
3.08,-0.07919431124,0.01085599018
3.09,-0.07827786039,0.01635954741
3.1,-0.0769531901,0.02179539646
3.11,-0.07522441296,0.02713173623
3.12,-0.07309821768,0.03233690947
3.13,-0.07058388012,0.03737961782
3.14,-0.06769325618,0.04222914015
3.15,-0.0644407561,0.046855553
3.16,-0.06084329955,0.05122995136
3.17,-0.05692025129,0.05532466835
3.18,-0.05269333711,0.05911349198
3.19,-0.0481865399,0.06257187735
3.2,-0.04342597597,0.06567715238
3.21,-0.03843975167,0.06840871528
3.22,-0.03325780087,0.07074822172
3.23,-0.02791170366,0.07267975983
3.24,-0.02243448721,0.07419001103
3.25,-0.01686040956,0.07526839478
3.26,-0.01122472787,0.07590719514
3.27,-0.005563452235,0.07610166759
3.28,8.691293697E-05,0.07585012409
3.29,0.005689638272,0.07515399489
3.3,0.0112080472,0.07401786565
3.31,0.01660579983,0.07244948854
3.32,0.02184718038,0.07045976648
3.33,0.02689738537,0.0680627096
3.34,0.03172280976,0.06527536371
3.35,0.03629132812,0.0621177105
3.36,0.04057256761,0.05861253986
3.37,0.04453817009,0.05478529481
3.38,0.04816203999,0.05066389012
3.39,0.05142057538,0.04627850583
3.4,0.05429287921,0.04166135745
3.41,0.05676094835,0.03684644482
3.42,0.05880983789,0.03186928191
3.43,0.0604277988,0.02676661023
3.44,0.06160638694,0.02157609871
3.45,0.06234054225,0.01633603309
3.46,0.06262863675,0.01108499806
3.47,0.06247249093,0.005861555554
3.48,0.06187735792,0.0007039225273
3.49,0.06085187586,-0.004350348237
3.5,0.05940798874,-0.009264680956
3.51,0.05756083664,-0.01400377995
3.52,0.05532861674,-0.01853391987
3.53,0.05273241661,-0.02282321995
3.54,0.04979602183,-0.02684189958
3.55,0.04654570011,-0.03056251269
3.56,0.0430099645,-0.03396015853
3.57,0.03921931841,-0.03701266715
3.58,0.03520598534,-0.03970075791
3.59,0.03100362637,-0.04200816971
3.6,0.02664704855,-0.04392176232
3.61,0.02217190737,-0.04543158809
3.62,0.0176144064,-0.04653093414
3.63,0.01301099731,-0.04721633514
3.64,0.008398083155,-0.04748755732
3.65,0.003811727826,-0.04734755465
3.66,-0.0007126256005,-0.04680239836
3.67,-0.005140425202,-0.04586118121
3.68,-0.009438266937,-0.04453589834
3.69,-0.01357413576,-0.04284130647
3.7,-0.01751762941,-0.04079476351
3.71,-0.02124016331,-0.03841605082
3.72,-0.02471515546,-0.03572718024
3.73,-0.02791819041,-0.0327521884
3.74,-0.03082716147,-0.02951692037
3.75,-0.03342239098,-0.02604880518
3.76,-0.03568672829,-0.02237662538
3.77,-0.0376056256,-0.01853028288
3.78,-0.03916719195,-0.01454056319
3.79,-0.0403622257,-0.01043890013
3.8,-0.04118422633,-0.006257142833
3.81,-0.04162938626,-0.002027327018
3.82,-0.04169656363,0.002218548028
3.83,-0.04138723717,0.006448735072
3.84,-0.04070544438,0.01063194589
3.85,-0.03965770418,0.01473754831
3.86,-0.03825292552,0.01873575234
3.87,-0.03650230327,0.02259778446
3.88,-0.03441920285,0.0262960494
3.89,-0.03201903524,0.02980427888
3.9,-0.02931912348,0.03309766691
3.91,-0.02633856262,0.03615299149
3.92,-0.02309807403,0.03894872267
3.93,-0.01961985591,0.04146511712
3.94,-0.01592743087,0.04368429939
3.95,-0.01204549217,0.04559033044
3.96,-0.007999749352,0.04716926384
3.97,-0.003816774459,0.04840919026
3.98,0.0004761504254,0.0493002711
3.99,0.004851183692,0.04983476187
4,0.009280072212,0.05000702619
4.01,0.0137342965,0.0498135412
4.02,0.01818521288,0.04925289511
4.03,0.02260419245,0.04832577761
4.04,0.02696275717,0.04703496379
4.05,0.03123271296,0.04538529206
4.06,0.03538628029,0.04338363647
4.07,0.03939622242,0.0410388738
4.08,0.04323597178,0.03836184533
4.09,0.04687975471,0.03536531352
4.1,0.05030271488,0.03206391326
4.11,0.05348103569,0.0284740974
4.12,0.05639206176,0.02461407627
4.13,0.05901441947,0.0205037505
4.14,0.06132813645,0.01616463662
4.15,0.06331475988,0.01161978484
4.16,0.0649574728,0.006893688286
4.17,0.0662412082,0.00201218308
4.18,0.06715275972,-0.002997661294
4.19,0.06768088821,-0.008107661819
4.2,0.06781642285,-0.01328865233
4.21,0.06755235572,-0.01851062465
4.22,0.06688392817,-0.02374288045
4.23,0.06580870792,-0.0289541937
4.24,0.06432665489,-0.03411298315
4.25,0.06244017477,-0.03918749432
4.26,0.0601541584,-0.04414598998
4.27,0.05747600586,-0.04895694798
4.28,0.05441563388,-0.05358926504
4.29,0.05098546543,-0.05801246496
4.3,0.04720040065,-0.06219690929
4.31,0.04307776829,-0.06611400869
4.32,0.03863725729,-0.06973643275
4.33,0.03390082839,-0.07303831613
4.34,0.02889260569,-0.07599545879
4.35,0.02363874875,-0.07858551812
4.36,0.01816730585,-0.08078819066
4.37,0.0125080494,-0.08258538145
4.38,0.006692294724,-0.08396135892
4.39,0.00075270386,-0.0849028936
4.4,-0.005276924104,-0.08539937896
4.41,-0.01136187408,-0.08544293306
4.42,-0.01746674547,-0.08502847995
4.43,-0.02355568986,-0.08415380976
4.44,-0.02959265376,-0.08281961721
4.45,-0.03554162415,-0.08102951796
4.46,-0.04136687455,-0.07879004293
4.47,-0.04703320949,-0.07611061077
4.48,-0.05250620538,-0.07300347894
4.49,-0.05775244565,-0.06948367404
4.5,-0.06273974857,-0.06556890229
4.51,-0.06743738586,-0.06127944113
4.52,-0.07181629077,-0.05663801304
4.53,-0.07584925429,-0.05166964278
4.54,-0.07951110811,-0.04640149944
4.55,-0.08277889366,-0.0408627244
4.56,-0.08563201604,-0.03508424671
4.57,-0.08805238225,-0.02909858713
4.58,-0.09002452315,-0.02293965219
4.59,-0.09153569837,-0.0166425195
4.6,-0.09257598395,-0.01024321571
4.61,-0.0931383422,-0.003778488351
4.62,-0.09321867344,0.002714427225
4.63,-0.0928158493,0.009198044367
4.64,-0.09193172747,0.01563486397
4.65,-0.09057114754,0.02198761421
4.66,-0.08874190787,0.02821948982
4.67,-0.08645472355,0.03429438958
4.68,-0.08372316521,0.04017715042
4.69,-0.08056357907,0.0458337768
4.7,-0.07699498836,0.05123166375
4.71,-0.07303897635,0.056339812
4.72,-0.06871955183,0.06112903373
4.73,-0.06406299738,0.06557214721
4.74,-0.05909770147,0.06964415899
4.75,-0.05385397535,0.073322432
4.76,-0.04836385586,0.0765868382
4.77,-0.04266089563,0.07941989459
4.78,-0.03677994195,0.08180688116
4.79,-0.03075690618,0.08373594006
4.8,-0.02462852523,0.0851981549
4.81,-0.01843211702,0.08618760967
4.82,-0.01220533184,0.08670142678
4.83,-0.005985901427,0.0867397839
4.84,0.0001886122013,0.08630590969
4.85,0.006281066403,0.0854060585
4.86,0.01225498409,0.08404946434
4.87,0.01807479478,0.08224827478
4.88,0.02370606874,0.08001746536
4.89,0.02911574285,0.07737473541
4.9,0.03427233658,0.07434038619
4.91,0.03914615697,0.07093718237
4.92,0.0437094914,0.06719019803
4.93,0.04793678707,0.06312664826
4.94,0.05180481653,0.05877570749
4.95,0.05529282829,0.05416831587
4.96,0.05838268194,0.0493369747
4.97,0.06105896718,0.04431553217
4.98,0.06330910634,0.03913896044
4.99,0.06512343978,0.03384312518
5,0.06649529388,0.02846454866
5.01,0.06742103107,0.02304016744
5.02,0.06790008165,0.01760708561
5.03,0.0679349568,0.01220232492
5.04,0.06753124251,0.006862572559
5.05,0.06669757385,0.001623928133
5.06,0.06544558931,-0.00347834918
5.07,0.0637898647,-0.008410091759
5.08,0.06174782623,-0.01313847153
5.09,0.05933964256,-0.01763224317
5.1,0.05658809558,-0.02186198081
5.11,0.05351842984,-0.02580030622
5.12,0.05015818077,-0.02942210659
5.13,0.04653698203,-0.03270473957
5.14,0.04268635256,-0.03562822356
5.15,0.03863946412,-0.03817541059
5.16,0.03443089061,-0.04033213988
5.17,0.03009634055,-0.04208736936
5.18,0.02567237463,-0.04343328326
5.19,0.02119611053,-0.04436537348
5.2,0.01670491744,-0.04488249297
5.21,0.01223610325,-0.04498687946
5.22,0.007826597526,-0.04468414826
5.23,0.003512633548,-0.04398325326
5.24,-0.0006705668587,-0.04289641559
5.25,-0.004689102104,-0.04143901996
5.26,-0.008510689426,-0.03962947915
5.27,-0.01210494955,-0.03748906767
5.28,-0.01544367378,-0.03504172601
5.29,-0.01850107007,-0.03231383764
5.3,-0.02125398491,-0.02933398104
5.31,-0.02368209803,-0.02613265987
5.32,-0.02576808769,-0.02274201444
5.33,-0.02749776439,-0.01919551817
5.34,-0.02886017152,-0.01552766281
5.35,-0.02984765211,-0.01177363656
5.36,-0.03045588125,-0.007968999054
5.37,-0.03068386423,-0.004149357327
5.38,-0.03053390133,-0.0003500467575
5.39,-0.03001152033,0.003394179267
5.4,-0.02912537853,0.007049447424
5.41,-0.02788713644,0.01058304707
5.42,-0.02631130555,0.0139636946
5.43,-0.02441507309,0.01716177714
5.44,-0.02221810671,0.02014957367
5.45,-0.01974234221,0.02290145214
5.46,-0.01701175755,0.02539404156
5.47,-0.01405213626,0.02760637859
5.48,-0.01089082336,0.02952002845
5.49,-0.007556476595,0.0311191806
5.5,-0.004078815892,0.03239071972
5.51,-0.000488373189,0.03332427298
5.52,0.003183754971,0.03391223481
5.53,0.006906150352,0.03414977036
5.54,0.01064730987,0.03403479935
5.55,0.01437587515,0.03356796155
5.56,0.0180608538,0.03275256543
5.57,0.02167183171,0.03159452154
5.58,0.02517917594,0.03010226164
5.59,0.02855422779,0.02828664501
5.6,0.03176948585,0.02616085281
5.61,0.03479877903,0.02374027134
5.62,0.03761742928,0.02104236499
5.63,0.04020240406,0.01808653934
5.64,0.0425324582,0.01489399478
5.65,0.04458826497,0.0114875712
5.66,0.04635253598,0.007891583772
5.67,0.04781012926,0.004131650329
5.68,0.04894814492,0.0002345104916
5.69,0.04975600765,-0.003772162917
5.7,0.05022553491,-0.007859959706
5.71,0.05035099019,-0.01199993465
5.72,0.0501291199,-0.01616281546
5.73,0.04955917321,-0.02031921516
5.74,0.04864290356,-0.02443984762
5.75,0.0473845513,-0.02849574457
5.76,0.04579080637,-0.03245847223
5.77,0.04387075097,-0.03630034563
5.78,0.04163578153,-0.03999463826
5.79,0.03909951052,-0.04351578489
5.8,0.03627764814,-0.04683957504
5.81,0.03318786492,-0.04994333469
5.82,0.02984963624,-0.05280609403
5.83,0.02628407033,-0.05540873871
5.84,0.02251372161,-0.05773414292
5.85,0.01856239152,-0.05976728216
5.86,0.01445491933,-0.0614953244
5.87,0.01021696555,-0.06290769843
5.88,0.005874790826,-0.06399613862
5.89,0.001455033303,-0.06475470578
5.9,-0.003015512704,-0.06517978423
5.91,-0.007510113672,-0.06527005551
5.92,-0.01200230673,-0.06502644982
5.93,-0.01646609975,-0.06445207638
5.94,-0.02087615937,-0.06355213443
5.95,-0.02520798467,-0.0623338069
5.96,-0.02943806505,-0.060806139
5.97,-0.03354402059,-0.05897990408
5.98,-0.0375047242,-0.05686745934
5.99,-0.04130040479,-0.0544825941
6,-0.04491273129,-0.05184037303
