"Freq [GHz]","re(S(Tx_p1,Tx_p1)) []","im(S(Tx_p1,Tx_p1)) []"
1,0.1218264221,0.02891084581
1.01,0.1251928874,0.02101952298
1.02,0.1278653571,0.0128029898
1.03,0.1298175151,0.00432665459
1.04,0.1310293684,-0.004341984796
1.05,0.1314874248,-0.01313398585
1.06,0.1311847991,-0.02197962271
1.07,0.1301212481,-0.0308090551
1.08,0.1283031308,-0.03955299661
1.09,0.1257432977,-0.04814337348
1.1,0.1224609085,-0.05651396567
1.11,0.118481182,-0.06460102184
1.12,0.113835082,-0.07234384058
1.13,0.1085589439,-0.07968531092
1.14,0.1026940462,-0.08657240531
1.15,0.09628613584,-0.09295661945
1.16,0.08938491164,-0.09879435425
1.17,0.08204347467,-0.1040472358
1.18,0.07431775318,-0.1086823703
1.19,0.06626590986,-0.1126725327
1.2,0.05794773996,-0.1159962869
1.21,0.04942406817,-0.1186380389
1.22,0.0407561525,-0.1205880236
1.23,0.03200510278,-0.1218422274
1.24,0.0232313212,-0.1224022495
1.25,0.0144939716,-0.1222751068
1.26,0.00585048373,-0.1214729866
1.27,-0.002643902216,-0.1200129525
1.28,-0.01093654628,-0.1179166106
1.29,-0.01897777106,-0.1152097413
1.3,-0.02672117314,-0.1119219055
1.31,-0.03412388199,-0.1080860302
1.32,-0.04114676603,-0.1037379825
1.33,-0.04775458605,-0.09891613736
1.34,-0.05391609775,-0.09366094747
1.35,-0.05960410551,-0.08801451991
1.36,-0.06479547061,-0.08202020621
1.37,-0.06947107763,-0.07572221041
1.38,-0.07361576344,-0.0691652196
1.39,-0.07721821349,-0.06239406013
1.4,-0.08027083042,-0.05545338243
1.41,-0.08276958028,-0.04838737566
1.42,-0.08471382137,-0.04123951409
1.43,-0.08610612094,-0.03405233416
1.44,-0.08695206456,-0.02686724246
1.45,-0.08726006261,-0.0197243529
1.46,-0.08704115806,-0.01266235126
1.47,-0.08630883896,-0.005718384519
1.48,-0.08507885883,0.001072027931
1.49,-0.08336906706,0.00767506446
1.5,-0.08119925114,0.01405865637
1.51,-0.07859099164,0.02019253149
1.52,-0.07556753013,0.02604825008
1.53,-0.07215364972,0.03159923632
1.54,-0.068375567,0.03682080875
1.55,-0.06426083385,0.04169021243
1.56,-0.05983824678,0.04618665538
1.57,-0.05513776137,0.05029135099
1.58,-0.0501904087,0.05398756777
1.59,-0.04502821086,0.05726068701
1.6,-0.03968409229,0.06009826826
1.61,-0.03419178398,0.06249012183
1.62,-0.02858571763,0.06442838705
1.63,-0.02290090717,0.06590761416
1.64,-0.01717281563,0.06692484752
1.65,-0.01143720571,0.06747970713
1.66,-0.005729972773,0.06757446529
1.67,-8.69601073E-05,0.06721411492
1.68,0.005456243675,0.06640642599
1.69,0.01086452417,0.06516198654
1.7,0.01610347631,0.06349422464
1.71,0.02113965297,0.06141940826
1.72,0.02594082469,0.05895661973
1.73,0.03047624707,0.05612770242
1.74,0.03471693264,0.05295717716
1.75,0.03863592293,0.04947212696
1.76,0.04220855657,0.0457020487
1.77,0.04541272885,0.04167867147
1.78,0.04822913802,0.03743574152
1.79,0.05064151352,0.03300877497
1.8,0.05263682154,0.02843477959
1.81,0.05420544322,0.02375194822
1.82,0.05534132128,0.01899932666
1.83,0.05604207117,0.01421645975
1.84,0.05630905333,0.009443019983
1.85,0.05614740373,0.004718423406
1.86,0.05556602048,8.143803826E-05
1.87,0.05457750517,-0.004430209505
1.88,0.05319805821,-0.008780223415
1.89,0.05144732839,-0.01293411816
1.9,0.04934821763,-0.01685958207
1.91,0.04692664276,-0.02052681923
1.92,0.04421125691,-0.02390886415
1.93,0.04123313395,-0.02698186391
1.94,0.03802541998,-0.02972532314
1.95,0.03462295663,-0.03212230753
1.96,0.03106188147,-0.03415960238
1.97,0.02737921122,-0.03582782331
1.98,0.02361241389,-0.03712147701
1.99,0.01979897629,-0.03803897088
2,0.01597597332,-0.03858257097
2.01,0.01217964582,-0.03875830888
2.02,0.008444993227,-0.0385758389
2.03,0.004805387529,-0.03804824753
2.04,0.001292214414,-0.03719181862
2.05,-0.002065452916,-0.0360257578
2.06,-0.005241142227,-0.03457188097
2.07,-0.008211228795,-0.03285427195
2.08,-0.01095513642,-0.03089891519
2.09,-0.01345549022,-0.02873330964
2.1,-0.01569821937,-0.02638607041
2.11,-0.01767260881,-0.023886525
2.12,-0.01937130008,-0.02126431058
2.13,-0.02079024208,-0.01854897937
2.14,-0.02192859366,-0.01576961825
2.15,-0.0227885808,-0.0129544889
2.16,-0.02337531183,-0.01013069396
2.17,-0.02369655496,-0.007323874404
2.18,-0.02376248285,-0.004557942443
2.19,-0.02358538981,-0.001854853639
2.2,-0.02317938719,0.0007655788849
2.21,-0.02256008315,0.003285826147
2.22,-0.02174425303,0.005690739758
2.23,-0.02074950665,0.007967602871
2.24,-0.01959395861,0.01010613623
2.25,-0.01829590771,0.01209846075
2.26,-0.01687353116,0.01393901899
2.27,-0.01534459873,0.0156244583
2.28,-0.01372621163,0.01715347959
2.29,-0.01203457027,0.01852665574
2.3,-0.01028477415,0.01974622444
2.31,-0.008490656812,0.02081586059
2.32,-0.006664657485,0.02174043361
2.33,-0.00481773082,0.02252575499
2.34,-0.002959294846,0.02317832178
2.35,-0.001097216817,0.02370506137
2.36,0.0007621642614,0.02411308266
2.37,0.002613980268,0.02440943871
2.38,0.004454744273,0.02460090535
2.39,0.006282231563,0.02469377981
2.4,0.008095334917,0.02469370298
2.41,0.009893898087,0.02460550836
2.42,0.01167853173,0.02443309991
2.43,0.01345041635,0.02417936093
2.44,0.01521109668,0.02384609449
2.45,0.0169622725,0.02343399652
2.46,0.01870559017,0.02294266088
2.47,0.02044243971,0.02237061568
2.48,0.0221737614,0.02171538958
2.49,0.02389986617,0.02097360583
2.5,0.02562027324,0.02014110166
2.51,0.02733356819,0.01921307006
2.52,0.02903728426,0.01818422061
2.53,0.03072780906,0.0170489557
2.54,0.0324003182,0.01580155839
2.55,0.03404873699,0.01443638777
2.56,0.03566573078,0.01294807811
2.57,0.03724272359,0.01133173742
2.58,0.03876994484,0.009583142039
2.59,0.04023650262,0.007698923107
2.6,0.04163048232,0.005676741868
2.61,0.04293906842,0.00351545048
2.62,0.04414868719,0.001215235596
2.63,0.04524516768,-0.001222257688
2.64,0.04621391805,-0.003793823538
2.65,0.04704011435,-0.006494616323
2.66,0.04770889836,-0.009318095969
2.67,0.04820558136,-0.01225599843
2.68,0.0485158506,-0.01529833157
2.69,0.04862597508,-0.01843339638
2.7,0.04852300772,-0.02164783286
2.71,0.04819498076,-0.02492668982
2.72,0.04763109174,-0.02825351706
2.73,0.04682187743,-0.03161047861
2.74,0.04575937352,-0.03497848482
2.75,0.04443725816,-0.03833734146
2.76,0.0428509777,-0.04166591333
2.77,0.04099785343,-0.04494229999
2.78,0.03887716841,-0.04814402123
2.79,0.036490234,-0.05124820969
2.8,0.03384043568,-0.05423180822
2.81,0.03093325847,-0.05707176968
2.82,0.02777629226,-0.05974525692
2.83,0.02437921764,-0.06222984101
2.84,0.02075377312,-0.06450369576
2.85,0.01691370459,-0.066545787
2.86,0.01287469821,-0.06833605511
2.87,0.008654297701,-0.06985558961
2.88,0.004271807365,-0.07108679478
2.89,-0.0002518181464,-0.07201354534
2.9,-0.004894096067,-0.07262133161
2.91,-0.009631148672,-0.07289739346
2.92,-0.01443784627,-0.07283084256
2.93,-0.019287959,-0.0724127727
2.94,-0.02415431644,-0.07163635773
2.95,-0.02900897418,-0.0704969369
2.96,-0.03382338641,-0.06899208757
2.97,-0.03856858379,-0.06712168486
2.98,-0.04321535583,-0.06488794841
2.99,-0.04773443705,-0.06229547581
3,-0.05209669633,-0.05935126273
3.01,-0.05627332872,-0.05606470954
3.02,-0.06023604913,-0.05244761403
3.03,-0.0639572872,-0.04851415027
3.04,-0.0674103827,-0.04428083301
3.05,-0.07056978078,-0.0397664674
3.06,-0.0734112261,-0.03499208366
3.07,-0.07591195508,-0.02998085623
3.08,-0.07805088511,-0.0247580071
3.09,-0.07980879969,-0.01935069287
3.1,-0.081168528,-0.01378787523
3.11,-0.08211511762,-0.008100174744
3.12,-0.08263599876,-0.002319707798
3.13,-0.08272113826,0.00352009325
3.14,-0.08236318151,0.00938467635
3.15,-0.08155758058,0.01523858203
3.16,-0.08030270638,0.02104567093
3.17,-0.07859994319,0.02676936555
3.18,-0.07645376341,0.03237290506
3.19,-0.07387178087,0.0378196115
3.2,-0.07086478093,0.04307316576
3.21,-0.06744672571,0.0480978911
3.22,-0.06363473328,0.05285904211
3.23,-0.0594490294,0.05732309643
3.24,-0.05491287102,0.06145804664
3.25,-0.05005244099,0.06523368936
3.26,-0.04489671348,0.06862190856
3.27,-0.03947729032,0.07159694985
3.28,-0.03382820853,0.0741356827
3.29,-0.02798571989,0.07621784722
3.3,-0.02198804372,0.07782628225
3.31,-0.0158750943,0.07894713178
3.32,-0.009688185086,0.07957002651
3.33,-0.003469711971,0.07968823783
3.34,0.002737181672,0.07929880154
3.35,0.008888955064,0.07840260903
3.36,0.01494203182,0.07700446399
3.37,0.02085316978,0.075113103
3.38,0.02657983506,0.07274117892
3.39,0.03208057611,0.06990520635
3.4,0.03731539382,0.06662546901
3.41,0.04224610324,0.06292588933
3.42,0.04683668303,0.05883386103
3.43,0.05105360824,0.05438004611
3.44,0.05486616284,0.0495981379
3.45,0.05824672809,0.04452459265
3.46,0.06117104342,0.03919833211
3.47,0.06361843688,0.03366042042
3.48,0.06557202234,0.02795371851
3.49,0.06701886122,0.02212251988
3.5,0.06795008707,0.01621217168
3.51,0.06836099161,0.01026868501
3.52,0.06825107132,0.004338338953
3.53,0.06762403443,-0.001532717708
3.54,0.06648776836,-0.00729886267
3.55,0.06485426823,-0.01291539011
3.56,0.06273952769,-0.01833889048
3.57,0.06016339342,-0.0235276163
3.58,0.05714938537,-0.02844183038
3.59,0.05372448508,-0.03304413309
3.6,0.04991889452,-0.03729976588
3.61,0.04576576859,-0.04117688835
3.62,0.04130092412,-0.04464682654
3.63,0.03656252898,-0.04768429085
3.64,0.03159077438,-0.05026756188
3.65,0.02642753399,-0.05237864338
3.66,0.0211160134,-0.05400338147
3.67,0.01570039316,-0.05513155004
3.68,0.01022546907,-0.05575690231
3.69,0.004736292649,-0.05587718909
3.7,-0.0007221848462,-0.05549414437
3.71,-0.00610546206,-0.05461343941
3.72,-0.01136982805,-0.05324460658
3.73,-0.01647269118,-0.05140093443
3.74,-0.02137289409,-0.04909933572
3.75,-0.02603101271,-0.0463601903
3.76,-0.03040963757,-0.0432071647
3.77,-0.03447363573,-0.03966701062
3.78,-0.03819039222,-0.03576934441
3.79,-0.0415300297,-0.03154640952
3.8,-0.04446560566,-0.02703282433
3.81,-0.04697328642,-0.0222653173
3.82,-0.04903249752,-0.01728245154
3.83,-0.05062605025,-0.01212434102
3.84,-0.05174024412,-0.006832360091
3.85,-0.05236494543,-0.001448848496
3.86,-0.05249364201,0.003983186469
3.87,-0.05212347446,0.009420368868
3.88,-0.05125524411,0.01481925247
3.89,-0.04989339843,0.02013661697
3.9,-0.04804599405,0.02532976059
3.91,-0.0457246382,0.03035678775
3.92,-0.04294440915,0.03517689029
3.93,-0.03972375609,0.03975062126
3.94,-0.03608437945,0.04404015985
3.95,-0.032051092,0.04800956647
3.96,-0.02765166174,0.05162502674
3.97,-0.02291663712,0.05485508351
3.98,-0.01787915536,0.0576708557
3.99,-0.01257473472,0.06004624298
4,-0.007041051461,0.06195811533
4.01,-0.001317702239,0.06338648636
4.02,0.004554046988,0.06431466943
4.03,0.01053152479,0.06472941541
4.04,0.01657092968,0.0646210312
4.05,0.02262761608,0.06398347775
4.06,0.02865638955,0.06281444666
4.07,0.03461180988,0.06111541433
4.08,0.04044850073,0.05889167257
4.09,0.04612146386,0.05615233479
4.1,0.0515863965,0.05291031704
4.11,0.05680000957,0.04918229302
4.12,0.06172034491,0.04498862253
4.13,0.06630708915,0.04035325308
4.14,0.07052188181,0.03530359427
4.15,0.07432861539,0.02987036516
4.16,0.07769372467,0.02408741473
4.17,0.08058646284,0.01799151615
4.18,0.08297916178,0.01162213544
4.19,0.08484747407,0.005021175915
4.2,0.08617059406,-0.001767300547
4.21,0.08693145578,-0.00869737345
4.22,0.08711690537,-0.0157215831
4.23,0.08671784589,-0.02279126723
4.24,0.08572935277,-0.02985691237
4.25,0.084150758,-0.03686851733
4.26,0.08198570194,-0.04377596589
4.27,0.0792421514,-0.05052940565
4.28,0.07593238333,-0.05707962982
4.29,0.07207293364,-0.06337845867
4.3,0.0676845109,-0.06937911732
4.31,0.06279187537,-0.07503660624
4.32,0.05742368376,-0.08030806139
4.33,0.0516123008,-0.0851531004
4.34,0.04539357881,-0.08953415167
4.35,0.0388066071,-0.09341676325
4.36,0.03189343298,-0.09676988867
4.37,0.02469875671,-0.09956614692
4.38,0.01726960296,-0.1017820541
4.39,0.0096549715,-0.1033982248
4.4,0.001905470014,-0.1043995408
4.41,-0.005927067691,-0.1047752864
4.42,-0.01378997496,-0.1045192479
4.43,-0.02163015361,-0.1036297775
4.44,-0.02939447997,-0.1021098199
4.45,-0.03703021205,-0.0999669027
4.46,-0.04448539448,-0.09721308865
4.47,-0.05170925787,-0.0938648924
4.48,-0.05865260894,-0.08994316051
4.49,-0.0652682084,-0.08547291687
4.5,-0.07151113322,-0.0804831743
4.51,-0.07733912024,-0.07500671414
4.52,-0.08271288828,-0.06907983565
4.53,-0.08759643598,-0.0627420774
4.54,-0.09195731279,-0.056035913
4.55,-0.09576686111,-0.04900642394
4.56,-0.09900042728,-0.04170095225
4.57,-0.1016375399,-0.03416873621
4.58,-0.1036620544,-0.02646053207
4.59,-0.1050622617,-0.01862822534
4.6,-0.1058309623,-0.01072443481
4.61,-0.1059655029,-0.002802112838
4.62,-0.1054677779,0.005085854682
4.63,-0.1043441944,0.01288704539
4.64,-0.1026056024,0.02054989118
4.65,-0.1002671905,0.02802405939
4.66,-0.09734834886,0.03526082158
4.67,-0.09387250098,0.04221340681
4.68,-0.08986690531,0.04883733699
4.69,-0.08536242982,0.05509074173
4.7,-0.08039330098,0.06093465053
4.71,-0.07499682978,0.06633326045
4.72,-0.0692131172,0.07125417744
4.73,-0.06308474181,0.07566863012
4.74,-0.0566564321,0.07955165465
4.75,-0.04997472619,0.08288225008
4.76,-0.0430876217,0.08564350333
4.77,-0.03604421841,0.08782268364
4.78,-0.02889435626,0.08941130626
4.79,-0.02168825135,0.09040516547
4.8,-0.01447613234,0.09080433738
4.81,-0.007307879559,0.09061315267
4.82,-0.0002326691499,0.08984014025
4.83,0.006701375647,0.08849794224
4.84,0.01344752407,0.08660320135
4.85,0.01996076634,0.08417642151
4.86,0.0261981292,0.08124180266
4.87,0.03211897686,0.07782705099
4.88,0.03768529557,0.07396316555
4.89,0.04286196021,0.06968420249
4.9,0.04761698134,0.06502701827
4.91,0.05192173113,0.060030993
4.92,0.05575114666,0.05473773555
4.93,0.05908390912,0.04919077172
4.94,0.06190259737,0.04343521736
4.95,0.06419381458,0.03751743797
4.96,0.06594828646,0.03148469699
4.97,0.06716092997,0.02538479469
4.98,0.06783089115,0.01926570007
4.99,0.06796155136,0.01317517809
5,0.06756050067,0.007160415055
5.01,0.06663947823,0.001267644843
5.02,0.06521427879,-0.00445822105
5.03,0.06330462551,-0.009973956495
5.04,0.06093400914,-0.01523837356
5.05,0.05812949398,-0.02021266186
5.06,0.0549214916,-0.02486071116
5.07,0.05134350347,-0.02914941377
5.08,0.047431834,-0.03304894357
5.09,0.0432252762,-0.03653300833
5.1,0.03876477212,-0.03957907239
5.11,0.03409305095,-0.04216854679
5.12,0.02925424791,-0.04428694421
5.13,0.02429350739,-0.04592399649
5.14,0.01925657412,-0.04707373283
5.15,0.01418937648,-0.04773451694
5.16,0.009137606264,-0.04790904233
5.17,0.004146299339,-0.04760428489
5.18,-0.0007405781689,-0.04683141289
5.19,-0.005480533501,-0.04560565464
5.2,-0.01003293607,-0.04394612501
5.21,-0.01435938686,-0.04187561221
5.22,-0.01842406407,-0.03942032708
5.23,-0.02219404073,-0.03660961744
5.24,-0.02563957054,-0.03347565068
5.25,-0.02873433826,-0.03005306829
5.26,-0.03145567178,-0.0263786163
5.27,-0.03378471307,-0.02249075619
5.28,-0.03570654609,-0.01842926094
5.29,-0.03721028025,-0.01423480124
5.3,-0.0382890884,-0.009948527158
5.31,-0.0389401993,-0.005611650316
5.32,-0.03916484497,-0.001265032096
5.33,-0.03896816404,0.003051217119
5.34,-0.03835906279,0.007298122555
5.35,-0.03735003636,0.01143820875
5.36,-0.03595695294,0.01543583793
5.37,-0.0341988045,0.01925751899
5.38,-0.03209742802,0.0228721836
5.39,-0.0296772015,0.02625142634
5.4,-0.02696471957,0.02936970648
5.41,-0.02398845348,0.03220450965
5.42,-0.02077840079,0.03473646822
5.43,-0.01736572972,0.0369494399
5.44,-0.01378242348,0.03883054488
5.45,-0.0100609296,0.04037016231
5.46,-0.006233818985,0.04156188762
5.47,-0.002333459524,0.04240245292
5.48,0.001608291854,0.04289161311
5.49,0.005560374694,0.04303200083
5.5,0.009492784947,0.04282895401
5.51,0.01337680659,0.04229031995
5.52,0.01718521281,0.0414262401
5.53,0.02089243534,0.0402489201
5.54,0.024474701,0.0387723896
5.55,0.02791013529,0.03701225628
5.56,0.03117883354,0.03498545863
5.57,0.03426290042,0.03271002169
5.58,0.03714645966,0.03020481971
5.59,0.03981563584,0.02748934948
5.6,0.04225851096,0.02458351743
5.61,0.0444650585,0.02150744347
5.62,0.04642705842,0.01828128364
5.63,0.04813799632,0.01492507356
5.64,0.04959295037,0.01145859375
5.65,0.0507884697,0.007901257436
5.66,0.05172244771,0.004272021214
5.67,0.05239399382,0.0005893178805
5.68,0.05280330701,-0.003128989221
5.69,0.05295155401,-0.006865631757
5.7,0.05284075519,-0.01060394356
5.71,0.05247368028,-0.01432785141
5.72,0.05185375608,-0.01802185185
5.73,0.0509849878,-0.02167097652
5.74,0.04987189517,-0.02526074876
5.75,0.04851946406,-0.02877713431
5.76,0.04693311402,-0.03220648891
5.77,0.04511868149,-0.03553550566
5.78,0.04308241822,-0.03875116482
5.79,0.04083100397,-0.04184068859
5.8,0.03837157219,-0.04479150333
5.81,0.03571174694,-0.04759121125
5.82,0.03285968937,-0.05022757348
5.83,0.0298241513,-0.05268850592
5.84,0.0266145338,-0.05496208914
5.85,0.02324094811,-0.05703659306
5.86,0.01971427637,-0.05890051674
5.87,0.01604622964,-0.06054264338
5.88,0.01224940041,-0.0619521101
5.89,0.008337307345,-0.06311849162
5.9,0.004324429759,-0.06403189688
5.91,0.0002262296488,-0.06468307695
5.92,-0.003940840637,-0.06506354248
5.93,-0.008159346787,-0.0651656887
5.94,-0.01241089836,-0.06498292543
5.95,-0.0166761931,-0.06450980983
5.96,-0.02093508042,-0.06374217905
5.97,-0.02516664432,-0.06267728007
5.98,-0.02934930576,-0.0613138939
5.99,-0.0334609438,-0.05965245136
6,-0.03747903482,-0.05769513766
