"Freq [GHz]","re(S(Tx_p1,Tx_p1)) []","im(S(Tx_p1,Tx_p1)) []"
1,0.1003990246,0.09521560245
1.01,0.10776102,0.08695731287
1.02,0.1144474965,0.07814858929
1.03,0.1204178154,0.06884375258
1.04,0.1256355921,0.05910013707
1.05,0.1300689274,0.04897777145
1.06,0.1336906172,0.0385390396
1.07,0.1364783365,0.02784832301
1.08,0.1384147976,0.01697162661
1.09,0.1394878795,0.005976190197
1.1,0.1396907272,-0.005069912608
1.11,0.1390218196,-0.01609818469
1.12,0.1374850051,-0.02704012281
1.13,0.1350895033,-0.03782763926
1.14,0.1318498742,-0.04839348456
1.15,0.1277859518,-0.05867166878
1.16,0.1229227456,-0.06859787826
1.17,0.1172903073,-0.07810988514
1.18,0.1109235653,-0.08714794688
1.19,0.1038621271,-0.09565519306
1.2,0.09615005048,-0.1035779971
1.21,0.08783558514,-0.1108663301
1.22,0.07897088546,-0.1174740954
1.23,0.06961169661,-0.12335944
1.24,0.05981701505,-0.1284850429
1.25,0.04964872538,-0.1328183761
1.26,0.03917121516,-0.1363319385
1.27,0.02845096996,-0.1390034591
1.28,0.01755615038,-0.1408160686
1.29,0.006556153572,-0.1417584375
1.3,-0.004478838605,-0.1418248791
1.31,-0.01547832184,-0.1410154161
1.32,-0.02637193961,-0.1393358085
1.33,-0.03708995796,-0.1367975427
1.34,-0.04756374178,-0.1334177801
1.35,-0.05772622893,-0.1292192651
1.36,-0.06751239852,-0.1242301905
1.37,-0.07685972939,-0.1184840224
1.38,-0.08570864471,-0.1120192833
1.39,-0.09400293846,-0.1048792948
1.4,-0.1016901796,-0.09711188134
1.41,-0.1087220901,-0.08876903636
1.42,-0.1150548916,-0.079906554
1.43,-0.120649619,-0.07058362864
1.44,-0.125472395,-0.06086242604
1.45,-0.1294946641,-0.0508076302
1.46,-0.1326933836,-0.04048597011
1.47,-0.1350511674,-0.02996573145
1.48,-0.1365563848,-0.01931625813
1.49,-0.1372032094,-0.008607449175
1.5,-0.1369916215,0.002090743832
1.51,-0.1359273634,0.01270881341
1.52,-0.1340218483,0.02317818177
1.53,-0.1312920268,0.03343167048
1.54,-0.1277602127,0.04340394993
1.55,-0.1234538708,0.05303196455
1.56,-0.118405373,0.06225533073
1.57,-0.112651724,0.07101670466
1.58,-0.1062342626,0.07926211856
1.59,-0.09919834358,0.08694128406
1.6,-0.09159300252,0.09400786253
1.61,-0.08347060929,0.1004197027
1.62,-0.07488651327,0.1061390464
1.63,-0.0658986836,0.1111327048
1.64,-0.05656734685,0.1153722056
1.65,-0.04695462468,0.1188339143
1.66,-0.03712417209,0.121499132
1.67,-0.02714081759,0.1233541714
1.68,-0.01707020494,0.1243904121
1.69,-0.006978436363,0.1246043393
1.7,0.003068283702,0.1239975641
1.71,0.01300400547,0.122576828
1.72,0.02276339238,0.1203539905
1.73,0.03228208262,0.1173460005
1.74,0.04149705465,0.1135748478
1.75,0.05034699726,0.1090674961
1.76,0.05877268448,0.1038557928
1.77,0.06671735491,0.09797635335
1.78,0.07412709429,0.09147041911
1.79,0.08095121966,0.08438368322
1.8,0.08714266251,0.07676608359
1.81,0.09265834735,0.06867156004
1.82,0.09745956213,0.06015777296
1.83,0.1015123155,0.05128578259
1.84,0.1047876758,0.04211968795
1.85,0.1072620863,0.03272622529
1.86,0.108917651,0.02317432727
1.87,0.1097423849,0.01353464463
1.88,0.109730423,0.003879033153
1.89,0.1088821828,-0.005719989893
1.9,0.1072044749,-0.01518981539
1.91,0.1047105581,-0.0244583322
1.92,0.1014201345,-0.03345453091
1.93,0.09735928177,-0.04210911445
1.94,0.09256032235,-0.05035510806
1.95,0.08706162702,-0.05812846102
1.96,0.08090735448,-0.06536863193
1.97,0.07414712794,-0.07201915003
1.98,0.06683565173,-0.07802814468
1.99,0.05903227102,-0.08334883581
2,0.05080047996,-0.08793997876
2.01,0.04220738314,-0.09176625725
2.02,0.03332311695,-0.0947986194
2.03,0.0242202376,-0.09701455242
2.04,0.01497308308,-0.09839829242
2.05,0.005657116743,-0.09894096705
2.06,-0.003651739542,-0.09864066955
2.07,-0.012877775,-0.0975024637
2.08,-0.02194615439,-0.09553832044
2.09,-0.03078356981,-0.09276698752
2.1,-0.03931887279,-0.08921379474
2.11,-0.04748367976,-0.08491039792
2.12,-0.05521294504,-0.0798944656
2.13,-0.06244549568,-0.07420931298
2.14,-0.06912452327,-0.06790348818
2.15,-0.07519802896,-0.06103031635
2.16,-0.08061921797,-0.05364740732
2.17,-0.08534684136,-0.04581613266
2.18,-0.08934548305,-0.03760107834
2.19,-0.09258579111,-0.02906947875
2.2,-0.09504465277,-0.02029063813
2.21,-0.09670531357,-0.01133534483
2.22,-0.09755744109,-0.00227528407
2.23,-0.0975971349,0.006817545987
2.24,-0.09682688401,0.0158714099
2.25,-0.09525547415,0.02481539817
2.26,-0.09289784697,0.03357997387
2.27,-0.08977491368,0.04209749918
2.28,-0.08591332582,0.05030273855
2.29,-0.08134520591,0.05813333539
2.3,-0.07610784069,0.06553025987
2.31,-0.07024333994,0.07243822518
2.32,-0.06379826366,0.0788060702
2.33,-0.05682322069,0.0845871065
2.34,-0.04937244157,0.08973942787
2.35,-0.04150332889,0.09422618053
2.36,-0.03327598816,0.09801579264
2.37,-0.0247527425,0.1010821615
2.38,-0.01599763467,0.1034047971
2.39,-0.007075919887,0.1049689214
2.4,0.001946446665,0.1057655214
2.41,0.01100332365,0.1057913566
2.42,0.02002889465,0.1050489202
2.43,0.02895817204,0.1035463532
2.44,0.03772748937,0.1012973132
2.45,0.04627497754,0.09832079855
2.46,0.05454102041,0.09464092874
2.47,0.06246868531,0.0902866841
2.48,0.07000412416,0.0852916068
2.49,0.07709694117,0.07969346657
2.5,0.08370052353,0.07353389537
2.51,0.0897723317,0.06685799447
2.52,0.0952741469,0.05971391958
2.53,0.1001722735,0.05215244867
2.54,0.1044376954,0.04422653802
2.55,0.1080461849,0.03599087195
2.56,0.1109783659,0.02750141194
2.57,0.1132197308,0.01881495059
2.58,0.1147606137,0.009988675466
2.59,0.1155961223,0.001079748018
2.6,0.1157260313,-0.00785509833
2.61,0.1151546417,-0.01675993692
2.62,0.113890609,-0.02558000037
2.63,0.1119467458,-0.0342620044
2.64,0.1093398032,-0.04275444133
2.65,0.1060902346,-0.05100784233
2.66,0.1022219482,-0.05897500832
2.67,0.09776205144,-0.06661121013
2.68,0.09274059123,-0.07387435896
2.69,0.0871902945,-0.08072514918
2.7,0.08114631126,-0.08712717548
2.71,0.0746459631,-0.09304702704
2.72,0.06772849876,-0.09845436153
2.73,0.06043485818,-0.1033219617
2.74,0.05280744546,-0.1076257777
2.75,0.04488991096,-0.1113449574
2.76,0.03672694187,-0.1144618673
2.77,0.02836406052,-0.1169621068
2.78,0.01984742893,-0.1188345168
2.79,0.01122365818,-0.1200711833
2.8,0.002539620918,-0.120667439
2.81,-0.006157734856,-0.1206218604
2.82,-0.01482157231,-0.1199362621
2.83,-0.0234053542,-0.1186156872
2.84,-0.03186303441,-0.1166683919
2.85,-0.04014925367,-0.1141058239
2.86,-0.04821953987,-0.1109425923
2.87,-0.05603051327,-0.1071964278
2.88,-0.06354009616,-0.1028881296
2.89,-0.07070772629,-0.09804149984
2.9,-0.07749457284,-0.09268326109
2.91,-0.0838637532,-0.08684295661
2.92,-0.08978054871,-0.08055283207
2.93,-0.09521261695,-0.07384769724
2.94,-0.1001301981,-0.06676476746
2.95,-0.1045063128,-0.05934348452
2.96,-0.1083169481,-0.05162531728
2.97,-0.1115412302,-0.04365354295
2.98,-0.1141615794,-0.03547301
2.99,-0.1161638467,-0.02712988454
3,-0.1175374284,-0.01867138203
3.01,-0.1182753575,-0.01014548683
3.02,-0.1183743705,-0.001600662046
3.03,-0.1178349481,0.006914447439
3.04,-0.1166613288,0.01535131578
3.05,-0.114861496,0.02366183791
3.06,-0.1124471385,0.03179862914
3.07,-0.1094335838,0.03971531988
3.08,-0.1058397072,0.04736684258
3.09,-0.1016878158,0.05470970854
3.1,-0.09700351133,0.06170227228
3.11,-0.09181553103,0.06830498159
3.12,-0.08615557095,0.07448061157
3.13,-0.08005809216,0.08019448156
3.14,-0.07356011287,0.08541465392
3.15,-0.06670098818,0.09011211424
3.16,-0.05952217966,0.09426093265
3.17,-0.05206701667,0.09783840628
3.18,-0.04438045096,0.1008251833
3.19,-0.0365088063,0.1032053689
3.2,-0.0284995241,0.1049666134
3.21,-0.02040090626,0.1061001845
3.22,-0.0122618557,0.1066010225
3.23,-0.004131615359,0.1064677802
3.24,0.003940494333,0.1057028484
3.25,0.01190533925,0.1043123658
3.26,0.01971423669,0.1023062149
3.27,0.02731922189,0.09969800289
3.28,0.03467331602,0.09650502801
3.29,0.04173079562,0.09274822938
3.3,0.04844746339,0.08845212109
3.31,0.05478091997,0.08364470836
3.32,0.0606908361,0.0783573851
3.33,0.06613922432,0.07262481138
3.34,0.07109070891,0.06648476953
3.35,0.07551279254,0.0599779975
3.36,0.07937611762,0.05314799837
3.37,0.08265472004,0.04604082488
3.38,0.0853262727,0.03870483821
3.39,0.08737231564,0.03119044078
3.4,0.08877846986,0.02354978271
3.41,0.08953463119,0.0158364428
3.42,0.08963514068,0.008105084514
3.43,0.08907892816,0.0004110889507
3.44,0.08786962523,-0.00718983357
3.45,0.08601564459,-0.01464205042
3.46,0.08353022242,-0.02189042902
3.47,0.08043142125,-0.02888077098
3.48,0.07674209095,-0.03556025388
3.49,0.07248978606,-0.04187787609
3.5,0.06770663826,-0.04778489989
3.51,0.0624291834,-0.05323528775
3.52,0.05669814318,-0.0581861265
3.53,0.05055816225,-0.06259803417
3.54,0.04405750222,-0.06643554427
3.55,0.03724769465,-0.06966746248
3.56,0.03018315593,-0.07226719098
3.57,0.02292076737,-0.07421301588
3.58,0.01551942448,-0.07548835395
3.59,0.008039559898,-0.07608195495
3.6,0.0005426447401,-0.07598805678
3.61,-0.006909326355,-0.07520649108
3.62,-0.0142543612,-0.07374273751
3.63,-0.02143100142,-0.07160792591
3.64,-0.02837885373,-0.06881878567
3.65,-0.03503911537,-0.06539754289
3.66,-0.04135508844,-0.06137176606
3.67,-0.04727267777,-0.05677416178
3.68,-0.05274086728,-0.05164232273
3.69,-0.05771217025,-0.04601843031
3.7,-0.062143049,-0.03994891507
3.71,-0.06599430021,-0.03348407838
3.72,-0.06923140218,-0.02667767907
3.73,-0.07182482121,-0.01958648909
3.74,-0.0737502743,-0.01226982263
3.75,-0.07498894617,-0.004789042865
3.76,-0.07552765897,0.002792948784
3.77,-0.07535899341,0.01041223654
3.78,-0.07448136064,0.01800442246
3.79,-0.07289902459,0.02550516244
3.8,-0.07062207483,0.03285070136
3.81,-0.06766635049,0.03997840299
3.82,-0.06405331607,0.04682727031
3.83,-0.0598098904,0.05333845185
3.84,-0.05496823031,0.05945573023
3.85,-0.04956547079,0.06512598877
3.86,-0.04364342388,0.07029965259
3.87,-0.03724823871,0.07493110066
3.88,-0.03043002534,0.07897904537
3.89,-0.02324244539,0.08240687665
3.9,-0.01574227272,0.08518296777
3.91,-0.007988927466,0.08728094004
3.92,-4.398727526E-05,0.08867988429
3.93,0.008029320538,0.08936453692
3.94,0.01616664172,0.08932540879
3.95,0.02430302845,0.08855886559
3.96,0.03237347893,0.08706715851
3.97,0.04031347857,0.08485840469
3.98,0.04805953807,0.08194651705
3.99,0.05554972359,0.07835108371
4,0.06272417422,0.07409719765
4.01,0.06952560183,0.06921523767
4.02,0.07589976854,0.06374060233
4.03,0.08179593709,0.05771339883
4.04,0.08716728959,0.05117808968
4.05,0.09197131035,0.0441831001
4.06,0.09617012868,0.03678038982
4.07,0.09973081811,0.02902499353
4.08,0.1026256487,0.02097453437
4.09,0.1048322898,0.01268871545
4.1,0.1063339606,0.004228794781
4.11,0.107119528,-0.004342950875
4.12,0.1071835491,-0.01296376744
4.13,0.1065262599,-0.02157096433
4.14,0.1051535091,-0.03010244866
4.15,0.1030766394,-0.03849724702
4.16,0.1003123169,-0.04669600911
4.17,0.09688231203,-0.05464148765
4.18,0.09281323565,-0.06227898965
4.19,0.08813623227,-0.06955679417
4.2,0.08288663669,-0.07642653251
4.21,0.07710359781,-0.08284352732
4.22,0.07082967501,-0.08876708754
4.23,0.06411041263,-0.09416075714
4.24,0.05699389807,-0.09899251606
4.25,0.04953030931,-0.1032349325
4.26,0.04177145748,-0.106865267
4.27,0.03377033005,-0.1098655279
4.28,0.02558063998,-0.1122224814
4.29,0.01725638572,-0.1139276159
4.3,0.008851426852,-0.1149770659
4.31,0.0004190792837,-0.1153714954
4.32,-0.007988266325,-0.1151159477
4.33,-0.01631949989,-0.1142196623
4.34,-0.02452511861,-0.1126958656
4.35,-0.03255752329,-0.1105615376
4.36,-0.04037128306,-0.10783716
4.37,-0.04792336794,-0.1045464497
4.38,-0.05517334929,-0.100716081
4.39,-0.06208356851,-0.09637540189
4.4,-0.06861927515,-0.09155614615
4.41,-0.07474873557,-0.08629214618
4.42,-0.08044331399,-0.08061904818
4.43,-0.08567752781,-0.07457403285
4.44,-0.09042907917,-0.06819554331
4.45,-0.0946788652,-0.06152302212
4.46,-0.09841096887,-0.0545966584
4.47,-0.1016126328,-0.0474571461
4.48,-0.1042742182,-0.04014545377
4.49,-0.1063891503,-0.0327026063
4.5,-0.107953853,-0.02516947826
4.51,-0.1089676736,-0.01758659896
4.52,-0.1094327986,-0.009993968698
4.53,-0.1093541628,-0.002430885743
4.54,-0.1087393515,0.005064216346
4.55,-0.1075984974,0.01245392161
4.56,-0.1059441721,0.01970197519
4.57,-0.1037912726,0.02677341786
4.58,-0.1011569038,0.03363471175
4.59,-0.09806025626,0.04025385756
4.6,-0.09452248062,0.04660050327
4.61,-0.09056655753,0.05264604424
4.62,-0.08621716454,0.05836371477
4.63,-0.08150053964,0.06372867075
4.64,-0.07644434215,0.06871806331
4.65,-0.0710775113,0.07331110328
4.66,-0.06543012331,0.07748911624
4.67,-0.05953324752,0.08123558812
4.68,-0.05341880243,0.08453620141
4.69,-0.04711941244,0.08737886206
4.7,-0.04066826619,0.08975371743
4.71,-0.03409897715,0.0916531657
4.72,-0.02744544732,0.09307185751
4.73,-0.02074173458,0.09400669038
4.74,-0.01402192415,0.09445679703
4.75,-0.00732000443,0.09442352846
4.76,-0.0006697471805,0.09391043285
4.77,0.005895408081,0.09292323141
4.78,0.01234246601,0.09146979204
4.79,0.01863898435,0.08956010171
4.8,0.02475318082,0.08720623828
4.81,0.03065403903,0.08442234217
4.82,0.03631141478,0.08122458801
4.83,0.04169614395,0.07763115621
4.84,0.0467801535,0.07366220386
4.85,0.05153657678,0.06933983412
4.86,0.05593987434,0.06468806285
4.87,0.0599659611,0.05973278099
4.88,0.06359234063,0.05450171074
4.89,0.06679824677,0.04902435345
4.9,0.06956479228,0.04333192705
4.91,0.07187512416,0.03745729049
4.92,0.07371458428,0.03143485292
4.93,0.07507087373,0.02530046534
4.94,0.07593421885,0.01909129263
4.95,0.07629753622,0.01284566414
4.96,0.07615659357,0.006602901584
4.97,0.07551016328,0.0004031231904
4.98,0.07436016487,-0.005712976123
4.99,0.07271179242,-0.01170436839
5,0.07057362327,-0.01752995909
5.01,0.06795770401,-0.02314887507
5.02,0.0648796101,-0.02852077153
5.03,0.06135847569,-0.03360615543
5.04,0.05741699063,-0.03836672184
5.05,0.05308136206,-0.04276569931
5.06,0.04838123864,-0.04676820003
5.07,0.04334959603,-0.05034157007
5.08,0.03802258286,-0.05345573476
5.09,0.03243932736,-0.05608353436
5.1,0.02664170512,-0.05820104493
5.11,0.02067406963,-0.05978787953
5.12,0.01458294756,-0.06082746517
5.13,0.008416701473,-0.06130729108
5.14,0.002225163252,-0.06121912444
5.15,-0.003940758075,-0.0605591901
5.16,-0.01002948996,-0.05932831131
5.17,-0.01598922704,-0.05753200916
5.18,-0.02176837427,-0.05518055888
5.19,-0.02731599776,-0.05228900189
5.2,-0.03258227849,-0.04887711288
5.21,-0.03751896432,-0.04496932207
5.22,-0.04207981539,-0.04059459284
5.23,-0.04622103876,-0.03578625597
5.24,-0.0499017079,-0.03058180166
5.25,-0.05308416296,-0.02502263132
5.26,-0.05573438838,-0.01915377098
5.27,-0.05782236418,-0.01302354895
5.28,-0.05932238788,-0.00668324018
5.29,-0.06021336431,-0.0001866801762
5.3,-0.0604790607,0.006410148516
5.31,-0.06010832472,0.01304955427
5.32,-0.05909526353,0.01967259549
5.33,-0.05743938204,0.02621955768
5.34,-0.05514567875,0.03263044498
5.35,-0.05222469784,0.03884548281
5.36,-0.04869253641,0.04480562797
5.37,-0.04457080579,0.05045308254
5.38,-0.03988654631,0.05573180789
5.39,-0.03467209498,0.06058803471
5.4,-0.02896490576,0.06497076516
5.41,-0.02280732256,0.0688322629
5.42,-0.01624630518,0.07212852673
5.43,-0.009333109004,0.07481974331
5.44,-0.002122919441,0.07687071457
5.45,0.005325557293,0.07825125515
5.46,0.01295054512,0.0789365552
5.47,0.02068768817,0.07890750404
5.48,0.02847057705,0.07815097015
5.49,0.03623130753,0.07666003309
5.5,0.04390106757,0.07443416329
5.51,0.05141074792,0.0714793459
5.52,0.05869157086,0.0678081454
5.53,0.06567573139,0.06343970795
5.54,0.07229704439,0.05839969929
5.55,0.07849159107,0.05272017656
5.56,0.0841983576,0.04643939316
5.57,0.08935985855,0.03960153659
5.58,0.09392273765,0.03225640008
5.59,0.0978383383,0.02445898983
5.6,0.1010632364,0.0162690704
5.61,0.1035597283,0.007750652028
5.62,0.1052962668,-0.001028575693
5.63,0.1062478389,-0.009997858286
5.64,0.1063962801,-0.01908403268
5.65,0.1057305185,-0.02821221832
5.66,0.1042467465,-0.0373065353
5.67,0.1019485156,-0.04629084135
5.68,0.09884675211,-0.05508947872
5.69,0.09495969322,-0.06362802224
5.7,0.09031274235,-0.07183401911
5.71,0.08493824581,-0.07963771141
5.72,0.07887519242,-0.08697273226
5.73,0.07216883949,-0.09377676696
5.74,0.06487026957,-0.09999217072
5.75,0.05703588324,-0.1055665356
5.76,0.04872683416,-0.1104531991
5.77,0.04000841346,-0.1146116896
5.78,0.03094939111,-0.118008101
5.79,0.02162132245,-0.1206153952
5.8,0.01209782866,-0.1224136273
5.81,0.002453859959,-0.1233900915
5.82,-0.007235049377,-0.1235393878
5.83,-0.01689352513,-0.1228634079
5.84,-0.02644708753,-0.1213712431
5.85,-0.03582286719,-0.119079015
5.86,-0.04495029449,-0.1160096323
5.87,-0.05376175448,-0.1121924784
5.88,-0.06219320028,-0.1076630335
5.89,-0.07018471826,-0.1024624377
5.9,-0.07768103945,-0.09663700043
5.91,-0.084631992,-0.09023766339
5.92,-0.09099289059,-0.08331942399
5.93,-0.09672485945,-0.07594072666
5.94,-0.1017950866,-0.06816282984
5.95,-0.1061770079,-0.06004915634
5.96,-0.1098504195,-0.05166463514
5.97,-0.1128015201,-0.0430750422
5.98,-0.1150228832,-0.03434634821
5.99,-0.1165133611,-0.02554408043
6,-0.1172779237,-0.01673270612
