"Freq [GHz]","re(S(Tx_p1,Tx_p1)) []","im(S(Tx_p1,Tx_p1)) []"
1,0.08279216805,0.07245174699
1.01,0.08872225895,0.06539862581
1.02,0.09405910114,0.05788092709
1.03,0.09876645477,0.04994757597
1.04,0.1028120204,0.04165038197
1.05,0.106167677,0.03304373384
1.06,0.1088096982,0.02418427386
1.07,0.1107189454,0.01513055264
1.08,0.1118810354,0.005942665832
1.09,0.1122864808,-0.003318125807
1.1,0.1119308013,-0.01258979132
1.11,0.1108146045,-0.02180993736
1.12,0.1089436327,-0.03091622682
1.13,0.106328777,-0.03984680558
1.14,0.1029860538,-0.04854073487
1.15,0.09893654537,-0.05693842586
1.16,0.09420630129,-0.06498207347
1.17,0.0888262012,-0.07261608563
1.18,0.0828317782,-0.0797875042
1.19,0.07626300277,-0.08644641384
1.2,0.06916402788,-0.09254633441
1.21,0.06158289614,-0.09804459303
1.22,0.05357121043,-0.1029026716
1.23,0.04518377011,-0.1070865253
1.24,0.03647817512,-0.1105668692
1.25,0.02751440118,-0.1133194275
1.26,0.01835434958,-0.1153251437
1.27,0.00906137561,-0.1165703474
1.28,-0.0003001999701,-0.1170468761
1.29,-0.009665591379,-0.1167521486
1.3,-0.01897005516,-0.11568919
1.31,-0.02814939891,-0.1138666065
1.32,-0.0371404859,-0.1112985098
1.33,-0.04588172992,-0.1080043925
1.34,-0.05431357504,-0.1040089547
1.35,-0.06237895465,-0.0993418849
1.36,-0.07002372508,-0.09403759655
1.37,-0.07719706895,-0.08813492527
1.38,-0.08385186409,-0.08167678891
1.39,-0.08994501463,-0.07470981599
1.4,-0.09543774095,-0.06728394679
1.41,-0.1002958266,-0.05945201231
1.42,-0.1044898203,-0.05126929645
1.43,-0.1079951923,-0.04279308657
1.44,-0.1107924448,-0.03408221807
1.45,-0.1128671778,-0.02519661792
1.46,-0.1142101103,-0.01619685235
1.47,-0.1148170601,-0.007143683139
1.48,-0.1146888839,0.001902363217
1.49,-0.1138313807,0.0108814098
1.5,-0.1122551622,0.01973462384
1.51,-0.109975493,0.02840458918
1.52,-0.1070121052,0.03683565464
1.53,-0.1033889905,0.04497425702
1.54,-0.09913417331,0.05276921817
1.55,-0.09427946934,0.06017201574
1.56,-0.08886023194,0.06713702857
1.57,-0.08291508955,0.07362175692
1.58,-0.07648567679,0.0795870191
1.59,-0.06961636126,0.08499712598
1.6,-0.06235396759,0.08982003487
1.61,-0.05474750014,0.09402748453
1.62,-0.04684786481,0.09759511305
1.63,-0.03870759043,0.1005025602
1.64,-0.03038054939,0.1027335557
1.65,-0.02192167732,0.1042759939
1.66,-0.0133866908,0.1051219971
1.67,-0.004831802412,0.1052679664
1.68,0.00368656817,0.1047146207
1.69,0.0121120878,0.1034670236
1.7,0.0203888094,0.101534597
1.71,0.02846147803,0.09893112085
1.72,0.03627584414,0.09567471539
1.73,0.04377898409,0.09178780693
1.74,0.05091962773,0.08729707229
1.75,0.05764849229,0.08223336088
1.76,0.06391862134,0.07663159164
1.77,0.06968572711,0.07053062221
1.78,0.07490853371,0.06397308826
1.79,0.07954911858,0.0570052106
1.8,0.08357324851,0.04967656856
1.81,0.08695070668,0.04203983793
1.82,0.08965560628,0.03415049295
1.83,0.09166668617,0.02606647175
1.84,0.09296758378,0.01784780583
1.85,0.09354708032,0.009556214589
1.86,0.09339931322,0.001254666658
1.87,0.092523951,-0.006993089252
1.88,0.09092632581,-0.01512302077
1.89,0.08861751932,-0.02307133139
1.9,0.08561439799,-0.03077499838
1.91,0.08193959447,-0.03817232364
1.92,0.07762143226,-0.04520349146
1.93,0.07269379184,-0.05181112686
1.94,0.06719591703,-0.05794084755
1.95,0.06117216142,-0.06354180248
1.96,0.05467167551,-0.06856718984
1.97,0.04774803613,-0.07297474717
1.98,0.04045882094,-0.07672720665
1.99,0.0328651313,-0.07979270874
2,0.02503106803,-0.08214516778
2.01,0.01702316541,-0.08376458371
2.02,0.008909789341,-0.08463729475
2.03,0.0007605064643,-0.08475616653
2.04,-0.007354568473,-0.08412071414
2.05,-0.01536543925,-0.08273715447
2.06,-0.02320290069,-0.08061838703
2.07,-0.03079920883,-0.07778390273
2.08,-0.03808874037,-0.07425962088
2.09,-0.0450086331,-0.07007765592
2.1,-0.0514993994,-0.06527601628
2.11,-0.05750550502,-0.05989823878
2.12,-0.06297590601,-0.05399296282
2.13,-0.06786453718,-0.04761344971
2.14,-0.07213074612,-0.04081705286
2.15,-0.07573966781,-0.03366464556
2.16,-0.07866253528,-0.02622001337
2.17,-0.08087692326,-0.0185492188
2.18,-0.08236692208,-0.01071994596
2.19,-0.0831232406,-0.002800833442
2.2,-0.08314323755,0.005139196609
2.21,-0.08243088191,0.01303160512
2.22,-0.08099664355,0.02080889054
2.23,-0.07885731678,0.0284052236
2.24,-0.07603577969,0.03575705509
2.25,-0.07256069348,0.0428036902
2.26,-0.06846614641,0.04948782308
2.27,-0.06379124758,0.05575602645
2.28,-0.05857967654,0.06155919143
2.29,-0.05287919484,0.0668529137
2.3,-0.04674112619,0.07159782289
2.31,-0.04021981192,0.07575985293
2.32,-0.03337204876,0.0793104519
2.33,-0.0262565157,0.08222673066
2.34,-0.01893319687,0.08449155062
2.35,-0.01146280696,0.08609355139
2.36,-0.003906225616,0.08702712016
2.37,0.003676053335,0.08729230497
2.38,0.01122445211,0.08689467503
2.39,0.01868081372,0.08584513149
2.4,0.02598887659,0.08415967258
2.41,0.03309471529,0.08185911766
2.42,0.03994714379,0.07896879466
2.43,0.0464980788,0.07551819594
2.44,0.05270286096,0.0715406075
2.45,0.0585205325,0.06707271671
2.46,0.06391407052,0.06215420351
2.47,0.06885057568,0.05682732012
2.48,0.0733014165,0.05113646396
2.49,0.07724233018,0.04512774848
2.5,0.0806534811,0.03884857603
2.51,0.08351947861,0.03234721688
2.52,0.08582935621,0.02567239796
2.53,0.08757651418,0.01887290462
2.54,0.08875862836,0.01199719835
2.55,0.08937752749,0.005093052831
2.56,0.08943904202,-0.001792789254
2.57,0.08895282716,-0.008614937199
2.58,0.08793216297,-0.01532964932
2.59,0.08639373427,-0.02189510515
2.6,0.08435739336,-0.02827165172
2.61,0.08184590792,-0.03442202368
2.62,0.07888469685,-0.04031153659
2.63,0.07550155667,-0.04590825356
2.64,0.07172638055,-0.05118312503
2.65,0.06759087255,-0.05611010209
2.66,0.06312825904,-0.06066622362
2.67,0.05837299948,-0.06483167764
2.68,0.05336049839,-0.06858983752
2.69,0.04812682054,-0.07192727364
2.7,0.04270841111,-0.0748337412
2.71,0.03714182247,-0.07730214516
2.72,0.03146344936,-0.07932848292
2.73,0.02570927403,-0.08091176606
2.74,0.01991462284,-0.08205392199
2.75,0.01411393582,-0.08275967678
2.76,0.00834055063,-0.08303642043
2.77,0.002626502069,-0.08289405603
2.78,-0.00299766142,-0.08234483424
2.79,-0.00850304335,-0.08140317473
2.8,-0.0138625458,-0.08008547628
2.81,-0.01905099623,-0.07840991738
2.82,-0.02404525377,-0.07639624927
2.83,-0.02882429461,-0.07406558328
2.84,-0.0333692759,-0.07144017471
2.85,-0.03766357837,-0.06854320517
2.86,-0.04169282741,-0.06539856562
2.87,-0.04544489322,-0.0620306422
2.88,-0.04890987033,-0.05846410692
2.89,-0.05208003734,-0.05472371535
2.9,-0.05494979788,-0.05083411313
2.91,-0.05751560389,-0.04681965335
2.92,-0.05977586269,-0.0427042264
2.93,-0.0617308294,-0.03851110399
2.94,-0.06338248651,-0.03426279858
2.95,-0.06473441253,-0.02998093968
2.96,-0.06579164171,-0.02568616769
2.97,-0.06656051717,-0.02139804626
2.98,-0.06704853962,-0.01713499356
2.99,-0.06726421398,-0.01291423255
3,-0.06721689636,-0.008751760348
3.01,-0.06691664362,-0.004662336174
3.02,-0.06637406789,-0.0006594871893
3.03,-0.06560019827,0.003244468667
3.04,-0.06460635168,0.007038384191
3.05,-0.06340401491,0.01071223028
3.06,-0.06200473946,0.01425703098
3.07,-0.06042005066,0.01766478823
3.08,-0.05866137235,0.02092839857
3.09,-0.05673996777,0.02404156416
3.1,-0.05466689735,0.02699870076
3.11,-0.05245299351,0.02979484514
3.12,-0.05010885221,0.03242556469
3.13,-0.04764484059,0.03488687179
3.14,-0.04507111979,0.03717514537
3.15,-0.04239768143,0.03928706225
3.16,-0.039634396,0.04121954027
3.17,-0.03679107105,0.04296969507
3.18,-0.0338775167,0.04453481225
3.19,-0.03090361582,0.04591233595
3.2,-0.02787939593,0.04709987472
3.21,-0.02481509982,0.04809522485
3.22,-0.02172125174,0.04889641114
3.23,-0.01860871608,0.04950174425
3.24,-0.0154887456,0.04990989349
3.25,-0.01237301621,0.05011997337
3.26,-0.009273645929,0.0501316417
3.27,-0.006203195708,0.04994520654
3.28,-0.00317465022,0.04956173917
3.29,-0.0002013773906,0.04898318958
3.3,0.002702934214,0.04821250094
3.31,0.005524360373,0.04725371938
3.32,0.008248848203,0.04611209519
3.33,0.01086234417,0.04479417161
3.34,0.0133509415,0.04330785766
3.35,0.01570104484,0.04166248136
3.36,0.01789954925,0.03986882043
3.37,0.01993403039,0.03793910761
3.38,0.021792942,0.03588700841
3.39,0.02346581653,0.03372756968
3.4,0.02494346457,0.03147713796
3.41,0.02621816836,0.02915324738
3.42,0.02728386466,0.02677447731
3.43,0.02813631228,0.02436028122
3.44,0.02877323981,0.02193078826
3.45,0.02919446915,0.01950658043
3.46,0.02940201086,0.01710844836
3.47,0.0294001281,0.01475712979
3.48,0.02919536595,0.01247303487
3.49,0.02879654417,0.01027596343
3.5,0.02821471158,0.008184819229
3.51,0.02746306151,0.006217326772
3.52,0.02655680828,0.00438975619
3.53,0.02551302558,0.002716661908
3.54,0.02435044842,0.001210640504
3.55,0.02308924132,-0.0001178869369
3.56,0.02175073575,-0.001260863087
3.57,0.02035714113,-0.002212748849
3.58,0.01893123383,-0.002970640173
3.59,0.0174960294,-0.003534344079
3.6,0.01607444382,-0.003906411447
3.61,0.0146889496,-0.004092125003
3.62,0.01336123308,-0.00409944178
3.63,0.01211185918,-0.003938890217
3.64,0.01095994988,-0.003623422972
3.65,0.009922882492,-0.003168227445
3.66,0.009016013568,-0.002590496807
3.67,0.008252433735,-0.00190916521
3.68,0.007642758297,-0.001144611549
3.69,0.007194957739,-0.000318336822
3.7,0.006914231563,0.0005473793136
3.71,0.006802928033,0.00142983674
3.72,0.006860511559,0.002306281476
3.73,0.007083578528,0.003154274117
3.74,0.007465921458,0.003952053508
3.75,0.007998640422,0.004678889133
3.76,0.008670299793,0.005315415888
3.77,0.009467127481,0.005843945303
3.78,0.01037325305,0.006248747676
3.79,0.01137098039,0.006516300208
3.8,0.01244108988,0.006635496879
3.81,0.01356316476,0.006597816544
3.82,0.01471593549,0.006397446548
3.83,0.01587763625,0.006031360033
3.84,0.01702636697,0.005499345953
3.85,0.01814045468,0.004803991732
3.86,0.01919880789,0.003950619352
3.87,0.02018125784,0.002947176514
3.88,0.02106888106,0.001804085284
3.89,0.02184429788,0.0005340513932
3.9,0.0224919421,-0.000848162031
3.91,0.02299829776,-0.002325991925
3.92,0.02335209949,-0.003881359131
3.93,0.02354449362,-0.005494973433
3.94,0.02356915817,-0.00714665437
3.95,0.02342238026,-0.008815662233
3.96,0.02310309062,-0.01048103364
3.97,0.02261285525,-0.01212191614
3.98,0.02195582534,-0.01371789645
3.99,0.02113864689,-0.01524931715
4,0.02017033243,-0.01669757711
4.01,0.01906209742,-0.01804541109
4.02,0.01782716474,-0.01927714463
4.03,0.01648054095,-0.02037892081
4.04,0.01503876823,-0.02133889583
4.05,0.0135196564,-0.02214740114
4.06,0.01194199938,-0.0227970704
4.07,0.01032528083,-0.02328292989
4.08,0.008689373342,-0.02360245199
4.09,0.00705423597,-0.02375557154
4.1,0.00543961442,-0.02374466567
4.11,0.003864748256,-0.02357449804
4.12,0.00234808917,-0.02325212913
4.13,0.0009070341232,-0.02278679437
4.14,-0.0004423231701,-0.02218975258
4.15,-0.001685419289,-0.02147410744
4.16,-0.002809423939,-0.02065460478
4.17,-0.003803416242,-0.01974740928
4.18,-0.004658532585,-0.01876986364
4.19,-0.00536808455,-0.01774023412
4.2,-0.005927645908,-0.01667744596
4.21,-0.006335108098,-0.0156008123
4.22,-0.006590704027,-0.01452976055
4.23,-0.006697000485,-0.01348355954
4.24,-0.006658859832,-0.01248105112
4.25,-0.006483372013,-0.01154038945
4.26,-0.00617975831,-0.01067879122
4.27,-0.005759248533,-0.009912299626
4.28,-0.005234933659,-0.009255564728
4.29,-0.004621596135,-0.008721642642
4.3,-0.003935520286,-0.00832181549
4.31,-0.003194285395,-0.008065433917
4.32,-0.002416544151,-0.007959783531
4.33,-0.00162178922,-0.008009976365
4.34,-0.0008301107205,-0.008218868111
4.35,-6.194737762E-05,-0.008587001589
4.36,0.0006621659157,-0.009112576609
4.37,0.001321851466,-0.009791446133
4.38,0.001897140516,-0.01061713839
4.39,0.002368720899,-0.01158090438
4.4,0.00271817829,-0.01267178998
4.41,0.002928228862,-0.01387673179
4.42,0.002982941305,-0.01518067554
4.43,0.002867946303,-0.01656671597
4.44,0.002570631678,-0.01801625672
4.45,0.002080321576,-0.01950918908
4.46,0.001388438159,-0.02102408777
4.47,0.0004886443846,-0.02253842256
4.48,-0.000623033431,-0.02402878381
4.49,-0.00194810448,-0.02547112039
4.5,-0.003485534888,-0.02684098817
4.51,-0.005231692714,-0.02811380711
4.52,-0.007180317467,-0.02926512516
4.53,-0.009322514951,-0.03027088679
4.54,-0.01164677815,-0.0311077039
4.55,-0.01413903473,-0.03175312707
4.56,-0.01678272153,-0.03218591438
4.57,-0.0195588863,-0.03238629563
4.58,-0.0224463167,-0.03233622893
4.59,-0.0254216963,-0.03201964732
4.6,-0.02845978709,-0.03142269221
4.61,-0.03153363766,-0.03053393103
4.62,-0.03461481602,-0.02934455607
4.63,-0.03767366547,-0.02784856167
4.64,-0.04067958173,-0.02604289696
4.65,-0.04360130913,-0.02392759141
4.66,-0.04640725328,-0.0215058508
4.67,-0.04906580721,-0.01878412113
4.68,-0.05154568785,-0.0157721187
4.69,-0.05381627902,-0.01248282452
4.7,-0.05584797731,-0.00893244187
4.71,-0.05761253648,-0.00514031622
4.72,-0.05908340627,-0.001128817126
4.73,-0.06023606113,0.003076817649
4.74,-0.06104831445,0.007448675068
4.75,-0.06150061381,0.01195639548
4.76,-0.06157631307,0.01656743516
4.77,-0.061261917,0.02124736017
4.78,-0.06054729472,0.02596016876
4.79,-0.05942585847,0.03066863859
4.8,-0.05789470443,0.03533469497
4.81,-0.05595471322,0.03991979562
4.82,-0.05361060789,0.04438532736
4.83,-0.05087096786,0.04869300956
4.84,-0.04774819823,0.05280529938
4.85,-0.04425845398,0.0566857932
4.86,-0.0404215198,0.06029961924
4.87,-0.03626064656,0.06361381593
4.88,-0.0318023464,0.06659769092
4.89,-0.02707614881,0.06922315618
4.9,-0.02211432083,0.07146503435
4.91,-0.01695155493,0.07330133262
4.92,-0.01162462877,0.07471348037
4.93,-0.006172041267,0.07568652766
4.94,-0.0006336298817,0.07620930218
4.95,0.004949825834,0.07627452292
4.96,0.01053700915,0.07587886937
4.97,0.01608647423,0.07502300607
4.98,0.0215570521,0.07371156255
4.99,0.02690824939,0.0719530698
5,0.03210063484,0.06975985469
5.01,0.03709620908,0.0671478946
5.02,0.04185875327,0.06413663494
5.03,0.04635415296,0.06074877271
5.04,0.05055069362,0.05701000961
5.05,0.05441932526,0.05294877874
5.06,0.05793389381,0.04859594884
5.07,0.06107133754,0.04398451048
5.08,0.06381184757,0.03914924847
5.09,0.06613899189,0.03412640484
5.1,0.0680398029,0.02895333671
5.11,0.06950482912,0.02366817294
5.12,0.07052815195,0.01830947368
5.13,0.07110736903,0.01291589616
5.14,0.07124354594,0.007525870101
5.15,0.07094113831,0.002177285606
5.16,0.0702078867,-0.00309280395
5.17,0.06905468677,-0.008248461898
5.18,0.06749543719,-0.01325512939
5.19,0.06554686817,-0.01807986629
5.2,0.063228353,-0.0226915708
5.21,0.06056170536,-0.02706117726
5.22,0.05757096484,-0.0311618316
5.23,0.054282173,-0.03496904451
5.24,0.0507231422,-0.03846082233
5.25,0.0469232193,-0.041617776
5.26,0.04291304603,-0.04442320865
5.27,0.03872431785,-0.04686318217
5.28,0.03438954265,-0.04892656365
5.29,0.02994180092,-0.05060505224
5.3,0.02541450844,-0.05189318723
5.31,0.02084118271,-0.05278833799
5.32,0.01625521417,-0.05329067665
5.33,0.01168964305,-0.05340313407
5.34,0.007176942904,-0.05313133986
5.35,0.002748811482,-0.05248354724
5.36,-0.00156403006,-0.05147054325
5.37,-0.005732028976,-0.05010554509
5.38,-0.009726982895,-0.0484040833
5.39,-0.01352221121,-0.0463838725
5.4,-0.01709271515,-0.04406467044
5.41,-0.02041532574,-0.04146812616
5.42,-0.023468839,-0.03861761822
5.43,-0.02623413774,-0.03553808382
5.44,-0.02869429921,-0.03225583992
5.45,-0.03083468814,-0.02879839734
5.46,-0.03264303469,-0.02519426907
5.47,-0.03410949685,-0.02147277381
5.48,-0.035226707,-0.01766383626
5.49,-0.03598980254,-0.01379778507
5.5,-0.03639644031,-0.009905150063
5.51,-0.03644679504,-0.006016459869
5.52,-0.03614354192,-0.002162041256
5.53,-0.03549182347,0.001628178482
5.54,-0.03449920131,0.005324864925
5.55,-0.03317559314,0.008899464486
5.56,-0.03153319572,0.01232438585
5.57,-0.02958639435,0.01557317384
5.58,-0.02735165985,0.01862067473
5.59,-0.02484743377,0.02144319219
5.6,-0.02209400264,0.02401863309
5.61,-0.01911336248,0.02632664247
5.62,-0.01592907426,0.02834872715
5.63,-0.01256611146,0.03006836745
5.64,-0.009050700667,0.0314711168
5.65,-0.005410156191,0.03254468877
5.66,-0.001672709667,0.03327903145
5.67,0.002132664414,0.03366638908
5.68,0.005976426357,0.03370135072
5.69,0.009828651219,0.03338088624
5.7,0.01365921027,0.03270436938
5.71,0.01743795316,0.03167358824
5.72,0.02113489007,0.03029274316
5.73,0.02472037315,0.02856843221
5.74,0.02816527665,0.02650962445
5.75,0.031441175,0.02412762104
5.76,0.03452051841,0.02143600445
5.77,0.03737680526,0.01845057586
5.78,0.0399847509,0.01518928081
5.79,0.04232045206,0.01167212339
5.8,0.04436154653,0.007921068765
5.81,0.04608736729,0.003959934376
5.82,0.0474790906,-0.0001857302437
5.83,0.0485198772,-0.004488774997
5.84,0.04919500598,-0.008920591951
5.85,0.04949199916,-0.0134512692
5.86,0.04940073822,-0.01804975566
5.87,0.04891356939,-0.02268403669
5.88,0.04802539785,-0.02732131998
5.89,0.04673376932,-0.03192823163
5.9,0.04503893799,-0.03647102149
5.91,0.04294391951,-0.04091577735
5.92,0.04045452781,-0.04522864685
5.93,0.03757939452,-0.04937606626
5.94,0.0343299698,-0.0533249946
5.95,0.03072050349,-0.05704315184
5.96,0.02676800561,-0.06049925929
5.97,0.02249218522,-0.06366328046
5.98,0.01791536722,-0.06650666012
5.99,0.01306238644,-0.06900255943
6,0.007960459011,-0.07112608477
