"Freq [GHz]","re(S(Tx_p1,Tx_p1)) []","im(S(Tx_p1,Tx_p1)) []"
1,0.05188132062,0.06248449007
1.01,0.05697050713,0.05859863939
1.02,0.06176566586,0.05432525503
1.03,0.0662387668,0.04968263693
1.04,0.07036223536,0.04469110553
1.05,0.07410911102,0.03937312847
1.06,0.07745324127,0.03375343159
1.07,0.08036950846,0.02785908751
1.08,0.0828340865,0.02171957563
1.09,0.08482472293,0.01536680782
1.1,0.08632104132,0.008835114888
1.11,0.08730485782,0.002161189639
1.12,0.08776050524,-0.004616016661
1.13,0.08767515731,-0.0114554465
1.14,0.08703914581,-0.01831413794
1.15,0.08584626238,-0.0251474758
1.16,0.0840940379,-0.03190949085
1.17,0.08178399136,-0.03855320433
1.18,0.07892184141,-0.04503101387
1.19,0.07551767405,-0.0512951162
1.2,0.07158606052,-0.05729796043
1.21,0.06714612065,-0.06299272547
1.22,0.06222152757,-0.06833381381
1.23,0.05684045122,-0.07327735381
1.24,0.05103543884,-0.07778170194
1.25,0.04484323225,-0.08180793624
1.26,0.03830452288,-0.08532033242
1.27,0.03146364657,-0.08828681392
1.28,0.02436822169,-0.09067936811
1.29,0.01706873525,-0.09247442017
1.3,0.009618082402,-0.09365315875
1.31,0.002071066191,-0.09420180667
1.32,-0.005516135204,-0.09411183167
1.33,-0.01308652552,-0.09338009338
1.34,-0.02058286345,-0.09200892369
1.35,-0.02794824222,-0.09000613862
1.36,-0.03512666763,-0.08738498207
1.37,-0.04206362484,-0.08416400169
1.38,-0.04870662561,-0.0803668596
1.39,-0.05500572788,-0.07602208112
1.4,-0.06091401986,-0.071162746
1.41,-0.0663880619,-0.06582612771
1.42,-0.07138828035,-0.06005328701
1.43,-0.07587930811,-0.05388862689
1.44,-0.07983026831,-0.04737941643
1.45,-0.0832149982,-0.04057529152
1.46,-0.08601221187,-0.0335277406
1.47,-0.08820560118,-0.0262895836
1.48,-0.08978387588,-0.01891445205
1.49,-0.09074074471,-0.01145627811
1.5,-0.09107484029,-0.003968799611
1.51,-0.09078959178,0.003494912061
1.52,-0.08989304981,0.01088289568
1.53,-0.08839766901,0.01814471026
1.54,-0.08632005408,0.02523180746
1.55,-0.08368067546,0.03209786328
1.56,-0.08050356119,0.03869906683
1.57,-0.07681597135,0.04499436507
1.58,-0.07264806157,0.05094566348
1.59,-0.06803254167,0.05651798344
1.6,-0.06300433536,0.06167957787
1.61,-0.05760024612,0.06640200791
1.62,-0.05185863396,0.07066018344
1.63,-0.04581910718,0.0744323714
1.64,-0.03952223206,0.07770017602
1.65,-0.0330092631,0.08044849521
1.66,-0.02632189533,0.08266545801
1.67,-0.0195020393,0.08434234739
1.68,-0.01259161889,0.0854735132
1.69,-0.005632391002,0.08605627919
1.7,0.001334214313,0.08609084819
1.71,0.008267235417,0.08558020886
1.72,0.01512630489,0.08453004665
1.73,0.02187176263,0.08294866137
1.74,0.02846475945,0.08084689291
1.75,0.03486735464,0.07823805587
1.76,0.04104261097,0.07513788319
1.77,0.04695469032,0.07156447837
1.78,0.05256895329,0.06753827493
1.79,0.05785206538,0.06308200126
1.8,0.06277211215,0.05822064857
1.81,0.06729872529,0.05298143899
1.82,0.07140322073,0.04739379069
1.83,0.07505874938,0.04148927661
1.84,0.07824046057,0.03530157318
1.85,0.08092567719,0.0288663954
1.86,0.08309408131,0.02222141494
1.87,0.08472790788,0.01540615792
1.88,0.08581214396,0.008461879439
1.89,0.0863347301,0.001431412458
1.9,0.08628675993,-0.00564101096
1.91,0.08566267396,-0.01270996735
1.92,0.08446044288,-0.01972907912
1.93,0.08268173583,-0.02665128141
1.94,0.08033206868,-0.03342911754
1.95,0.07742092788,-0.04001506164
1.96,0.07396186499,-0.04636186606
1.97,0.06997255791,-0.0524229304
1.98,0.06547483481,-0.05815268854
1.99,0.0604946574,-0.06350700929
2,0.05506206082,-0.06844360567
2.01,0.04921104799,-0.07292244754
2.02,0.04297943709,-0.0769061718
2.03,0.03640866163,-0.08036048437
2.04,0.02954352329,-0.08325454762
2.05,0.02243189868,-0.08556134737
2.06,0.01512440198,-0.0872580335
2.07,0.007674005986,-0.08832622824
2.08,0.0001356254354,-0.08875229696
2.09,-0.007434333471,-0.08852757643
2.1,-0.01497845234,-0.08764855626
2.11,-0.02243880309,-0.08611700956
2.12,-0.02975746785,-0.0839400701
2.13,-0.03687706985,-0.08113025349
2.14,-0.04374130869,-0.07770542105
2.15,-0.05029549331,-0.07368868576
2.16,-0.0564870656,-0.06910826062
2.17,-0.06226610822,-0.06399725049
2.18,-0.06758582976,-0.05839338952
2.19,-0.07240302123,-0.05233872676
2.2,-0.07667847778,-0.04587926384
2.21,-0.08037738045,-0.03906454858
2.22,-0.08346963302,-0.03194722978
2.23,-0.08593014983,-0.02458257836
2.24,-0.08773909121,-0.01702798082
2.25,-0.0888820437,-0.009342411339
2.26,-0.08935014322,-0.001585888783
2.27,-0.0891401402,0.006181074542
2.28,-0.08825440619,0.01389802588
2.29,-0.08670088272,0.02150512007
2.3,-0.08449297356,0.0289436563
2.31,-0.08164938253,0.03615659734
2.32,-0.07819389966,0.04308906543
2.33,-0.07415513899,0.04968880972
2.34,-0.0695662322,0.05590663977
2.35,-0.06446448233,0.06169682157
2.36,-0.05889098271,0.06701743196
2.37,-0.05289020617,0.07183066844
2.38,-0.0465095701,0.07610311229
2.39,-0.03979898293,0.07980594304
2.4,-0.03281037776,0.08291510368
2.41,-0.02559723878,0.08541141618
2.42,-0.01821412588,0.08728064775
2.43,-0.01071620302,0.08851352906
2.44,-0.003158775121,0.08910572592
2.45,0.00440316153,0.08905776669
2.46,0.01191535131,0.08837492814
2.47,0.01932468967,0.08706708283
2.48,0.02657960872,0.08514851147
2.49,0.03363043501,0.08263768404
2.5,0.04042971729,0.07955701348
2.51,0.04693252246,0.07593258623
2.52,0.05309669849,0.07179387341
2.53,0.05888310365,0.06717342711
2.54,0.06425580176,0.06210656541
2.55,0.06918222398,0.05663105019
2.56,0.07363329766,0.05078676134
2.57,0.0775835434,0.04461537069
2.58,0.08101114198,0.03816001865
2.59,0.08389797267,0.03146499651
2.6,0.08622962505,0.02457543649
2.61,0.08799538643,0.0175370118
2.62,0.08918820715,0.01039564813
2.63,0.08980464598,0.003197247845
2.64,0.08984479808,-0.004012572107
2.65,0.0893122075,-0.01118872824
2.66,0.08821376661,-0.0182869042
2.67,0.08655960421,-0.02526377011
2.68,0.0843629642,-0.03207718806
2.69,0.08164007637,-0.03868640404
2.7,0.07841002058,-0.04505222713
2.71,0.07469458554,-0.05113719676
2.72,0.07051812284,-0.05690573873
2.73,0.06590739697,-0.06232431096
2.74,0.0608914316,-0.06736153972
2.75,0.05550135225,-0.07198834715
2.76,0.04977022534,-0.07617807062
2.77,0.0437328933,-0.07990657447
2.78,0.03742580553,-0.08315235438
2.79,0.0308868446,-0.08589663465
2.8,0.02415514739,-0.08812345807
2.81,0.01727092053,-0.08981976833
2.82,0.01027524974,-0.09097548436
2.83,0.003209902746,-0.09158356597
2.84,-0.003882874559,-0.09164006994
2.85,-0.0109605688,-0.09114419545
2.86,-0.01798061654,-0.09009831795
2.87,-0.02490062827,-0.08850800997
2.88,-0.03167861825,-0.08638204778
2.89,-0.03827323979,-0.08373240255
2.9,-0.04464402463,-0.08057421472
2.91,-0.05075162556,-0.07692575034
2.92,-0.05655806046,-0.07280833843
2.93,-0.06202695648,-0.06824628817
2.94,-0.06712379209,-0.06326678538
2.95,-0.07181613534,-0.05789976763
2.96,-0.07607387584,-0.0521777776
2.97,-0.07986944832,-0.04613579484
2.98,-0.08317804546,-0.03981104593
2.99,-0.08597781739,-0.03324279388
3,-0.08825005576,-0.0264721073
3.01,-0.08997935982,-0.01954161073
3.02,-0.09115378254,-0.01249521748
3.03,-0.09176495442,-0.005377846732
3.04,-0.09180818333,0.001764873107
3.05,-0.09128252858,0.008886912561
3.06,-0.09019084777,0.01594215825
3.07,-0.08853981533,0.02288473648
3.08,-0.08633991182,0.02966934042
3.09,-0.08360538338,0.03625155804
3.1,-0.08035417128,0.04258819775
3.11,-0.07660781138,0.04863760879
3.12,-0.07239130416,0.05435999339
3.13,-0.06773295597,0.05971770779
3.14,-0.06266419252,0.06467554913
3.15,-0.05721934609,0.06920102568
3.16,-0.05143541798,0.07326460766
3.17,-0.04535181823,0.0768399564
3.18,-0.03901008471,0.07990412962
3.19,-0.03245358388,0.08243776083
3.2,-0.02572719597,0.08442521139
3.21,-0.01887698696,0.08585469354
3.22,-0.01194987051,0.08671836362
3.23,-0.004993262425,0.08701238437
3.24,0.001945269132,0.08673695605
3.25,0.008818354951,0.08589631591
3.26,0.01557917448,0.08449870638
3.27,0.02218180112,0.08255631205
3.28,0.02858154026,0.0800851663
3.29,0.03473525726,0.07710502836
3.3,0.04060169286,0.07363923199
3.31,0.0461417635,0.06971450721
3.32,0.05131884417,0.06536077652
3.33,0.05609903185,0.06061092755
3.34,0.0604513874,0.05550056407
3.35,0.0643481543,0.05006773729
3.36,0.06776495275,0.04435265989
3.37,0.07068094763,0.03839740489
3.38,0.07307898955,0.03224559199
3.39,0.07494572787,0.02594206354
3.4,0.07627169518,0.01953255289
3.41,0.07705136284,0.01306334749
3.42,0.07728316734,0.006580949261
3.43,0.07696950744,0.0001317347371
3.44,0.07611671247,-0.006238382569
3.45,0.07473498197,-0.01248428518
3.46,0.07283829745,-0.01856197772
3.47,0.07044430688,-0.02442890371
3.48,0.06757418298,-0.03004425097
3.49,0.06425245629,-0.03536924352
3.5,0.06050682429,-0.04036741786
3.51,0.05636793799,-0.04500488194
3.52,0.05186916748,-0.04925055487
3.53,0.04704634807,-0.05307638575
3.54,0.04193750877,-0.05645755013
3.55,0.0365825851,-0.05937262259
3.56,0.03102311804,-0.06180372427
3.57,0.02530194142,-0.06373664418
3.58,0.01946285975,-0.06516093332
3.59,0.01355031887,-0.06606997074
3.6,0.007609071803,-0.06646100109
3.61,0.00168384219,-0.06633514293
3.62,-0.004181012224,-0.06569736783
3.63,-0.009941833413,-0.06455644998
3.64,-0.0155559917,-0.06292488655
3.65,-0.02098220658,-0.06081878926
3.66,-0.02618085707,-0.05825774764
3.67,-0.03111427919,-0.05526466489
3.68,-0.03574704776,-0.05186556755
3.69,-0.04004624036,-0.04808939013
3.7,-0.04398168086,-0.04396773653
3.71,-0.04752616039,-0.03953462
3.72,-0.05065563364,-0.03482618365
3.73,-0.05334938866,-0.02988040409
3.74,-0.05559018838,-0.02473678054
3.75,-0.05736438253,-0.01943601221
3.76,-0.05866198876,-0.01401966693
3.77,-0.05947674215,-0.008529844065
3.78,-0.05980611251,-0.003008834808
3.79,-0.05965128941,0.002501216732
3.8,-0.05901713503,0.007958648524
3.81,-0.05791210542,0.01332260833
3.82,-0.05634814101,0.01855337094
3.83,-0.05434052771,0.02361264185
3.84,-0.05190773025,0.02846384433
3.85,-0.04907119962,0.03307238717
3.86,-0.04585515698,0.0374059106
3.87,-0.04228635655,0.04143450799
3.88,-0.03839383029,0.04513092151
3.89,-0.03420861746,0.04847071012
3.9,-0.02976348214,0.05143238854
3.91,-0.02509262202,0.05399753657
3.92,-0.02023137192,0.05615087817
3.93,-0.01521590522,0.05788033025
3.94,-0.01008293669,0.05917702172
3.95,-0.004869429805,0.06003528342
3.96,0.0003876883583,0.06045261012
3.97,0.005651801759,0.06042959616
3.98,0.01088686699,0.05996984647
3.99,0.01605765952,0.05907986517
4,0.02113000255,0.05776892397
4.01,0.02607097687,0.05604891307
4.02,0.03084911038,0.05393417709
4.03,0.03543454646,0.05144133885
4.04,0.03979919052,0.04858911376
4.05,0.04391683471,0.04539811758
4.06,0.04776326093,0.04189067027
4.07,0.05131632274,0.03809059839
4.08,0.05455600693,0.03402303854
4.09,0.05746447612,0.02971424382
4.1,0.06002609345,0.0251913955
4.11,0.06222743131,0.0204824212
4.12,0.06405726548,0.01561582123
4.13,0.06550655687,0.01062050385
4.14,0.06656842242,0.005525630393
4.15,0.06723809722,0.0003604704345
4.16,0.06751288972,-0.004845732699
4.17,0.06739213156,-0.01006388641
4.18,0.06687712388,-0.01526516369
4.19,0.06597108132,-0.02042110897
4.2,0.06467907512,-0.02550373598
4.21,0.06300797611,-0.03048561847
4.22,0.06096639864,-0.035339975
4.23,0.05856464566,-0.04004074903
4.24,0.05581465534,-0.04456268538
4.25,0.05272994925,-0.04888140445
4.26,0.04932558178,-0.05297347519
4.27,0.04561809035,-0.05681648783
4.28,0.04162544573,-0.06038912736
4.29,0.03736700169,-0.06367124842
4.3,0.03286344285,-0.066643952
4.31,0.02813672986,-0.06928966452
4.32,0.02321004059,-0.07159221902
4.33,0.01810770623,-0.07353693859
4.34,0.01285514118,-0.07511072143
4.35,0.007478765614,-0.07630212704
4.36,0.002005919774,-0.07710146259
4.37,-0.003535230958,-0.07750086851
4.38,-0.009115800772,-0.07749440197
4.39,-0.01470629852,-0.07707811704
4.4,-0.02027675341,-0.07625013984
4.41,-0.02579685147,-0.07501073728
4.42,-0.03123608238,-0.07336237774
4.43,-0.03656389653,-0.07130978201
4.44,-0.0417498714,-0.06885996299
4.45,-0.04676388647,-0.06602225258
4.46,-0.05157630547,-0.06280831437
4.47,-0.05615816464,-0.05923214084
4.48,-0.06048136551,-0.05531003394
4.49,-0.06451887038,-0.05106056817
4.5,-0.06824489881,-0.04650453536
4.51,-0.07163512301,-0.04166487073
4.52,-0.07466686028,-0.03656655992
4.53,-0.07731926032,-0.03123652703
4.54,-0.07957348534,-0.02570350385
4.55,-0.081412881,-0.01999788079
4.56,-0.08282313603,-0.01415154024
4.57,-0.08379242881,-0.008197673272
4.58,-0.08431155885,-0.00217058088
4.59,-0.08437406167,0.003894538883
4.6,-0.08397630546,0.009961816341
4.61,-0.08311756817,0.01599494649
4.62,-0.08180009375,0.02195743428
4.63,-0.0800291267,0.02781284699
4.64,-0.077812924,0.03352507152
4.65,-0.07516274385,0.0390585746
4.66,-0.07209281095,0.04437866361
4.67,-0.06862025793,0.04945174585
4.68,-0.06476504326,0.05424558408
4.69,-0.06054984562,0.05872954593
4.7,-0.05599993536,0.06287484525
4.71,-0.05114302369,0.06665477295
4.72,-0.04600909038,0.07004491551
4.73,-0.04063019109,0.07302335891
4.74,-0.0350402455,0.07557087614
4.75,-0.02927480779,0.07767109653
4.76,-0.02337082083,0.07931065505
4.77,-0.01736635602,0.08047932001
4.78,-0.01130034059,0.08117009786
4.79,-0.00521227444,0.0813793136
4.8,0.0008580613677,0.08110666586
4.81,0.006870902074,0.08035525572
4.82,0.01278680021,0.07913158834
4.83,0.01856692777,0.07744554725
4.84,0.02417337678,0.07531034072
4.85,0.02956945576,0.07274242044
4.86,0.03471997932,0.06976137256
4.87,0.03959154834,0.06638978168
4.88,0.04415281789,0.06265306857
4.89,0.04837475047,0.05857930262
4.9,0.05223085192,0.05419899045
4.91,0.05569738761,0.04954484216
4.92,0.05875357667,0.04465151717
4.93,0.06138176219,0.03955535174
4.94,0.0635675554,0.03429407059
4.95,0.06529995235,0.02890648507
4.96,0.0665714216,0.02343218085
4.97,0.0673779619,0.01791119776
4.98,0.06771912912,0.01238370522
4.99,0.067598032,0.006889675944
5,0.06702129662,0.001468561538
5.01,0.06599899993,-0.00384102717
5.02,0.06454457296,-0.009001631728
5.03,0.0626746746,-0.01397724659
5.04,0.06040903744,-0.01873360568
5.05,0.05777028715,-0.02323845215
5.06,0.0547837374,-0.02746178887
5.07,0.05147716249,-0.03137610726
5.08,0.04788055011,-0.03495659249
5.09,0.04402583687,-0.03818130327
5.1,0.03994662929,-0.04103132472
5.11,0.03567791322,-0.04349089341
5.12,0.03125575455,-0.0455474936
5.13,0.02671699421,-0.04719192432
5.14,0.02209894046,-0.04841833718
5.15,0.01743906124,-0.04922424512
5.16,0.01277467951,-0.0496105025
5.17,0.008142674221,-0.04958125745
5.18,0.003579189402,-0.04914387735
5.19,-0.0008806461814,-0.04830884879
5.2,-0.005202986702,-0.0470896534
5.21,-0.009355522263,-0.04550262112
5.22,-0.01330771545,-0.04356676275
5.23,-0.01703101991,-0.04130358352
5.24,-0.02049907952,-0.03873687958
5.25,-0.02368790718,-0.03589251956
5.26,-0.02657604201,-0.032798213
5.27,-0.02914468454,-0.02948326783
5.28,-0.03137780887,-0.02597833884
5.29,-0.03326225184,-0.02231516926
5.3,-0.0347877785,-0.01852632741
5.31,-0.03594712411,-0.01464494036
5.32,-0.0367360124,-0.01070442677
5.33,-0.0371531504,-0.006738230587
5.34,-0.03720020004,-0.002779557792
5.35,-0.03688172686,0.001138882053
5.36,-0.03620512653,0.004985127517
5.37,-0.03518052952,0.008728208409
5.38,-0.03382068513,0.01233837846
5.39,-0.03214082538,0.01578733579
5.4,-0.03015851025,0.01904842939
5.41,-0.02789345529,0.02209684993
5.42,-0.02536734309,0.02490980341
5.43,-0.02260362024,0.0274666659
5.44,-0.01962728157,0.02974911827
5.45,-0.01646464352,0.03174125946
5.46,-0.01314310882,0.03342969733
5.47,-0.009690924727,0.03480361631
5.48,-0.006136937166,0.03585482096
5.49,-0.002510343223,0.03657775544
5.5,0.001159555384,0.03696949845
5.51,0.004843595329,0.0370297341
5.52,0.008512988573,0.03676069903
5.53,0.01213955062,0.03616710675
5.54,0.01569591761,0.03525605024
5.55,0.01915575006,0.03403688435
5.56,0.02249392088,0.03252108963
5.57,0.02568668603,0.03072211975
5.58,0.02871183596,0.02865523468
5.59,0.03154882652,0.02633732213
5.6,0.03417888842,0.02378670986
5.61,0.03658511452,0.02102297165
5.62,0.03875252469,0.01806672966
5.63,0.04066810837,0.01493945608
5.64,0.04232084531,0.01166327669
5.65,0.04370170545,0.008260779104
5.66,0.04480362907,0.004754827992
5.67,0.04562148876,0.001168389642
5.68,0.04615203522,-0.002475632253
5.69,0.04639382874,-0.006154547934
5.7,0.04634715884,-0.009846018743
5.71,0.04601395426,-0.01352817922
5.72,0.04539768597,-0.01717974358
5.73,0.0445032655,-0.02078009646
5.74,0.0433369411,-0.02430936821
5.75,0.04190619389,-0.02774849522
5.76,0.0402196363,-0.03107926645
5.77,0.03828691441,-0.03428435722
5.78,0.03611861602,-0.03734735194
5.79,0.03372618558,-0.04025275734
5.8,0.03112184693,-0.04298600828
5.81,0.02831853449,-0.04553346786
5.82,0.02532983309,-0.047882424
5.83,0.02216992618,-0.05002108435
5.84,0.01885355215,-0.05193857136
5.85,0.01539596769,-0.05362491921
5.86,0.01181291737,-0.05507107407
5.87,0.008120607777,-0.05626889889
5.88,0.00433568508,-0.05721118369
5.89,0.0004752139912,-0.05789166185
5.9,-0.003443343352,-0.05830503283
5.91,-0.007402150449,-0.05844699112
5.92,-0.0113830231,-0.05831426106
5.93,-0.01536746129,-0.05790463687
5.94,-0.01933668772,-0.05721702674
5.95,-0.02327169417,-0.0562514999
5.96,-0.0271532968,-0.05500933494
5.97,-0.03096220096,-0.05349306791
5.98,-0.03467907592,-0.05170653835
5.99,-0.03828463966,-0.04965493132
6,-0.04175975344,-0.04734481374
