"Freq [GHz]","re(S(Tx_p1,Tx_p1)) []","im(S(Tx_p1,Tx_p1)) []"
1,0.05122767894,0.05418926099
1.01,0.05576095147,0.04972809646
1.02,0.05990797207,0.04490921624
1.03,0.06364054045,0.0397644878
1.04,0.06693295991,0.03432816972
1.05,0.06976227297,0.02863671893
1.06,0.07210847823,0.02272857309
1.07,0.07395473021,0.01664390632
1.08,0.07528751605,0.01042436152
1.09,0.07609680701,0.004112762212
1.1,0.07637618183,-0.00224719353
1.11,0.07612291994,-0.008611253569
1.12,0.07533806275,-0.01493494302
1.13,0.07402644204,-0.02117390276
1.14,0.07219667464,-0.02728423124
1.15,0.06986112323,-0.03322282596
1.16,0.06703582385,-0.03894772073
1.17,0.06374038033,-0.04441841529
1.18,0.05999782742,-0.04959619377
1.19,0.05583446363,-0.05444442891
1.2,0.05127965572,-0.05892886894
1.21,0.04636561722,-0.06301790476
1.22,0.04112716297,-0.06668281494
1.23,0.03560144159,-0.06989798612
1.24,0.02982764932,-0.0726411072
1.25,0.02384672867,-0.0748933369
1.26,0.01770105208,-0.0766394414
1.27,0.0114340958,-0.07786790279
1.28,0.005090105826,-0.07857099704
1.29,-0.001286241093,-0.07874484098
1.3,-0.007650178516,-0.07838940835
1.31,-0.01395719058,-0.07750851456
1.32,-0.02016334867,-0.07610977176
1.33,-0.02622564176,-0.07420451176
1.34,-0.03210229754,-0.07180768138
1.35,-0.03775309176,-0.06893770853
1.36,-0.04313964334,-0.06561634138
1.37,-0.04822569212,-0.06186846122
1.38,-0.05297735826,-0.05772187261
1.39,-0.05736337946,-0.05320707041
1.4,-0.06135532509,-0.04835698745
1.41,-0.0649277852,-0.04320672514
1.42,-0.06805853282,-0.03779326901
1.43,-0.07072865812,-0.03215519241
1.44,-0.07292267427,-0.02633235139
1.45,-0.07462859336,-0.02036557333
1.46,-0.075837973,-0.01429634283
1.47,-0.0765459333,-0.008166487669
1.48,-0.076751145,-0.002017868014
1.49,-0.07645578922,0.004107928484
1.5,-0.07566549075,0.0101698824
1.51,-0.07438922554,0.01612782719
1.52,-0.07263920483,0.02194271995
1.53,-0.07043073779,0.02757689656
1.54,-0.0677820748,0.03299430936
1.55,-0.06471423396,0.03816074618
1.56,-0.06125081314,0.04304402965
1.57,-0.05741779002,0.04761419621
1.58,-0.05324331272,0.05184365462
1.59,-0.04875748311,0.055707324
1.6,-0.04399213512,0.05918275181
1.61,-0.03898060987,0.06225021242
1.62,-0.0337575295,0.06489278712
1.63,-0.02835857087,0.06709642658
1.64,-0.02282024053,0.06884999695
1.65,-0.0171796516,0.07014531054
1.66,-0.01147430331,0.07097714241
1.67,-0.00574186336,0.07134323373
1.68,-1.995322103E-05,0.07124428284
1.69,0.005654063611,0.07068392474
1.7,0.01124329078,0.06966869927
1.71,0.01671150585,0.06820800854
1.72,0.02202336496,0.0663140632
1.73,0.0271446057,0.06400181754
1.74,0.03204224816,0.06128889271
1.75,0.0366847941,0.05819548754
1.76,0.04104242396,0.05474427589
1.77,0.04508719104,0.05096028967
1.78,0.04879321191,0.04687078658
1.79,0.05213685181,0.04250510154
1.8,0.05509690346,0.03789448096
1.81,0.05765475736,0.03307189932
1.82,0.05979456135,0.02807185765
1.83,0.06150336712,0.02293016376
1.84,0.06277126092,0.01768369481
1.85,0.06359147587,0.01237014283
1.86,0.06396048306,0.007027744636
1.87,0.06387805888,0.001694997706
1.88,0.06334732602,-0.003589635372
1.89,0.06237476581,-0.008788031517
1.9,0.06097020026,-0.0138627173
1.91,0.05914674205,-0.01877718145
1.92,0.05692071169,-0.02349618538
1.93,0.05431152149,-0.02798606804
1.94,0.05134152639,-0.03221504065
1.95,0.04803584269,-0.03615346713
1.96,0.04442213611,-0.03977412607
1.97,0.04053038129,-0.04305245029
1.98,0.03639259546,-0.04596674023
1.99,0.03204254972,-0.04849834809
2,0.02751546132,-0.05063182973
2.01,0.02284767154,-0.05235506232
2.02,0.01807631314,-0.05365932601
2.03,0.01323897233,-0.05453934885
2.04,0.008373349737,-0.05499331457
2.05,0.003516925053,-0.0550228338
2.06,-0.001293370145,-0.0546328798
2.07,-0.006021467241,-0.05383169035
2.08,-0.01063245923,-0.05263063817
2.09,-0.01509287969,-0.05104407288
2.1,-0.01937095936,-0.04908913685
2.11,-0.02343685775,-0.04678555952
2.12,-0.02726286812,-0.04415543303
2.13,-0.03082359465,-0.04122297325
2.14,-0.03409610111,-0.03801426989
2.15,-0.03706003112,-0.03455702936
2.16,-0.03969770024,-0.03088031381
2.17,-0.04199416091,-0.02701427959
2.18,-0.04393724151,-0.02298991802
2.19,-0.04551756099,-0.01883880089
2.2,-0.04672852093,-0.01459283305
2.21,-0.0475662769,-0.01028401352
2.22,-0.04802969109,-0.005944206827
2.23,-0.04812026818,-0.001604925244
2.24,-0.04784207626,0.002702877172
2.25,-0.0472016546,0.006948998479
2.26,-0.04620790977,0.01110417048
2.27,-0.04487200158,0.01514022811
2.28,-0.04320721989,0.01903026668
2.29,-0.04122885339,0.02274878716
2.3,-0.03895405103,0.02627182963
2.31,-0.03640167684,0.02957709514
2.32,-0.03359215849,0.03264405569
2.33,-0.03054733034,0.03545405285
2.34,-0.02729027107,0.03799038405
2.35,-0.02384513651,0.04023837692
2.36,-0.02023698818,0.04218545087
2.37,-0.01649161812,0.0438211655
2.38,-0.01263537079,0.04513725536
2.39,-0.008694962898,0.04612765045
2.4,-0.004697302347,0.04678848193
2.41,-0.0006693075253,0.04711807273
2.42,0.003362271661,0.04711691261
2.43,0.007371029402,0.04678761777
2.44,0.01133107461,0.04613487501
2.45,0.01521719478,0.04516537084
2.46,0.01900501151,0.04388770631
2.47,0.02267112576,0.04231229839
2.48,0.02619325153,0.04045126915
2.49,0.02955033652,0.03831832439
2.5,0.03272266846,0.03592862313
2.51,0.03569196646,0.03329864026
2.52,0.03844145666,0.0304460241
2.53,0.04095593195,0.02738945118
2.54,0.04322179606,0.02414848027
2.55,0.04522709225,0.02074340784
2.56,0.04696151761,0.01719512687
2.57,0.04841642416,0.0135249908
2.58,0.04958480792,0.00975468401
2.59,0.0504612879,0.005906100259
2.6,0.05104207657,0.002001229845
2.61,0.05132494388,-0.001937944126
2.62,0.05130917657,-0.005889539985
2.63,0.05099553476,-0.009831862691
2.64,0.05038620746,-0.01374348045
2.65,0.04948476849,-0.01760329379
2.66,0.04829613413,-0.02139059812
2.67,0.04682652342,-0.02508514128
2.68,0.04508342156,-0.02866717759
2.69,0.04307554694,-0.03211751997
2.7,0.04081282131,-0.03541759167
2.71,0.03830634274,-0.03854947928
2.72,0.03556836055,-0.04149598819
2.73,0.03261225097,-0.04424070164
2.74,0.0294524921,-0.04676804417
2.75,0.02610463668,-0.04906335008
2.76,0.02258528097,-0.05111293671
2.77,0.01891202796,-0.05290418263
2.78,0.0151034432,-0.05442560976
2.79,0.01117900191,-0.05566696855
2.8,0.007159025808,-0.05661932485
2.81,0.003064608758,-0.05727514662
2.82,-0.001082469575,-0.05762838891
2.83,-0.005259842404,-0.05767457462
2.84,-0.009444666781,-0.05741086925
2.85,-0.0136137464,-0.05683614723
2.86,-0.01774366537,-0.05595104785
2.87,-0.02181093173,-0.05475801877
2.88,-0.02579212903,-0.05326134545
2.89,-0.02966407419,-0.05146716501
2.9,-0.03340397933,-0.0493834635
2.91,-0.03698961537,-0.04702005574
2.92,-0.04039947492,-0.04438854763
2.93,-0.04361293201,-0.04150228088
2.94,-0.04661039631,-0.03837626071
2.95,-0.04937345953,-0.03502706755
2.96,-0.05188503216,-0.03147275386
2.97,-0.05412946845,-0.02773272777
2.98,-0.05609267861,-0.02382762518
2.99,-0.05776222674,-0.0197791725
3,-0.05912741396,-0.01561004188
3.01,-0.06017934642,-0.01134370124
3.02,-0.06091098812,-0.007004260859
3.03,-0.06131719876,-0.002616318877
3.04,-0.06139475757,0.001795193082
3.05,-0.06114237371,0.006205162237
3.06,-0.06056068446,0.01058844386
3.07,-0.05965224217,0.01492000653
3.08,-0.05842149167,0.01917507235
3.09,-0.05687473872,0.02332925242
3.1,-0.05502011113,0.02735867689
3.11,-0.05286751325,0.03124012015
3.12,-0.05042857511,0.03495112121
3.13,-0.04771659572,0.03847010006
3.14,-0.04474648224,0.04177647034
3.15,-0.04153468419,0.044850749
3.16,-0.03809912268,0.04767466344
3.17,-0.03445911451,0.05023125673
3.18,-0.03063529021,0.05250499074
3.19,-0.02664950557,0.05448184786
3.2,-0.02252474558,0.05614943033
3.21,-0.01828501997,0.05749705736
3.22,-0.01395524955,0.05851585875
3.23,-0.009561142517,0.05919886427
3.24,-0.005129060167,0.05954108725
3.25,-0.0006858716876,0.05953960096
3.26,0.003741202115,0.05919360593
3.27,0.008124755848,0.05850448634
3.28,0.01243737675,0.05747585363
3.29,0.01665183112,0.0561135753
3.3,0.02074125857,0.0544257871
3.31,0.02467937245,0.0524228869
3.32,0.02844066437,0.05011750886
3.33,0.03200061039,0.04752447666
3.34,0.03533587649,0.044660735
3.35,0.03842452035,0.04154525898
3.36,0.04124618675,0.03819894141
3.37,0.04378229359,0.03464445837
3.38,0.04601620576,0.03090611409
3.39,0.04793339411,0.0270096664
3.4,0.04952157699,0.02298213443
3.41,0.05077084226,0.01885159083
3.42,0.05167374768,0.01464694073
3.43,0.05222539817,0.01039769028
3.44,0.05242349896,0.00613370755
3.45,0.05226838367,0.001884978671
3.46,0.05176301723,-0.002318637559
3.47,0.05091297368,-0.006447653844
3.48,0.04972638944,-0.01047319433
3.49,0.04821389287,-0.01436722761
3.5,0.04638851149,-0.01810279036
3.51,0.04426555827,-0.02165419921
3.52,0.04186249882,-0.02499724899
3.53,0.03919880135,-0.0281093956
3.54,0.0362957714,-0.03096992223
3.55,0.03317637354,-0.03356008774
3.56,0.02986504206,-0.03586325652
3.57,0.02638748276,-0.03786500931
3.58,0.02277046775,-0.03955323474
3.59,0.01904162531,-0.04091820149
3.6,0.01522922649,-0.04195261126
3.61,0.01136197016,-0.04265163279
3.62,0.007468767923,-0.04301291725
3.63,0.003578530546,-0.04303659555
3.64,-0.0002800430771,-0.04272525787
3.65,-0.00407867298,-0.04208391617
3.66,-0.007789700177,-0.04111994996
3.67,-0.01138628258,-0.039843036
3.68,-0.01484258371,-0.03826506244
3.69,-0.01813395306,-0.03640002797
3.7,-0.02123709722,-0.03426392658
3.71,-0.02413024043,-0.03187461854
3.72,-0.02679327367,-0.02925168838
3.73,-0.02920789096,-0.02641629073
3.74,-0.03135771201,-0.02339098478
3.75,-0.03322838982,-0.02019955876
3.76,-0.03480770241,-0.01686684534
3.77,-0.0360856276,-0.01341852964
3.78,-0.03705440001,-0.009880951236
3.79,-0.03770854951,-0.006280901955
3.8,-0.03804492072,-0.002645421352
3.81,-0.03806267303,0.0009984081911
3.82,-0.03776326138,0.00462366465
3.83,-0.03715039768,0.008203785701
3.84,-0.03622999366,0.01171276212
3.85,-0.03501008574,0.01512532315
3.86,-0.03350074317,0.01841711189
3.87,-0.03171396063,0.02156484889
3.88,-0.02966353714,0.02454648227
3.89,-0.0273649429,0.02734132315
3.9,-0.02483517623,0.0299301652
3.91,-0.02209261275,0.03229538751
3.92,-0.01915684891,0.03442104056
3.93,-0.01604854226,0.03629291503
3.94,-0.01278925051,0.03789859376
3.95,-0.00940127149,0.03922748757
3.96,-0.00590748589,0.04027085574
3.97,-0.002331204487,0.04102181237
3.98,0.001303978823,0.04147531996
3.99,0.004974327025,0.04162817185
4,0.008656092268,0.0414789651
4.01,0.01232563999,0.0410280655
4.02,0.01595956476,0.04027756643
4.03,0.01953479807,0.03923124303
4.04,0.02302870852,0.03789450323
4.05,0.02641919516,0.0362743367
4.06,0.02968477493,0.03437926281
4.07,0.03280466512,0.03221927821
4.08,0.0357588623,0.02980580442
4.09,0.03852821846,0.02715163556
4.1,0.0410945158,0.02427088592
4.11,0.04344054097,0.02117893699
4.12,0.04555015959,0.01789238302
4.13,0.04740839164,0.01442897443
4.14,0.04900148803,0.01080755769
4.15,0.05031700843,0.00704801066
4.16,0.05134389993,0.003171172149
4.17,0.05207257614,-0.0008012355499
4.18,0.05249499564,-0.004846692176
4.19,0.05260473882,-0.008941973992
4.2,0.0523970815,-0.01306325795
4.21,0.05186906398,-0.01718623595
4.22,0.05101955354,-0.02128623937
4.23,0.04984929885,-0.02533837353
4.24,0.04836097425,-0.02931766172
4.25,0.04655921235,-0.03319919783
4.26,0.0444506232,-0.03695830631
4.27,0.0420437986,-0.04057070803
4.28,0.03934930041,-0.04401269033
4.29,0.0363796319,-0.04726127908
4.3,0.03314919148,-0.05029441083
4.31,0.02967420866,-0.05309110256
4.32,0.02597266226,-0.05563161701
4.33,0.02206418133,-0.05789762111
4.34,0.01796992964,-0.05987233543
4.35,0.0137124747,-0.06154067262
4.36,0.009315642918,-0.06288936305
4.37,0.004804362389,-0.06390706597
4.38,0.0002044951719,-0.06458446494
4.39,-0.004457338914,-0.06491434657
4.4,-0.009153944963,-0.06489166176
4.41,-0.01385774002,-0.0645135691
4.42,-0.01854094243,-0.06377946038
4.43,-0.02317576148,-0.06269096835
4.44,-0.02773458558,-0.06125195719
4.45,-0.03219016706,-0.05946849639
4.46,-0.03651580227,-0.05734881882
4.47,-0.04068550556,-0.05490326405
4.48,-0.04467417594,-0.05214420799
4.49,-0.04845775566,-0.04908597984
4.5,-0.05201337986,-0.04574476767
4.51,-0.05531951676,-0.04213851366
4.52,-0.05835609807,-0.03828680001
4.53,-0.06110463928,-0.03421072652
4.54,-0.06354834965,-0.02993278074
4.55,-0.06567223186,-0.02547670157
4.56,-0.06746317119,-0.02086733672
4.57,-0.06891001411,-0.01613049501
4.58,-0.0700036362,-0.01129279371
4.59,-0.07073699938,-0.006381501697
4.6,-0.07110519796,-0.001424378663
4.61,-0.07110549355,0.003550488998
4.62,-0.07073733824,0.008514855177
4.63,-0.07000238593,0.01344048333
4.64,-0.06890449116,0.01829931739
4.65,-0.06744969516,0.0230636536
4.66,-0.06564619869,0.02770631233
4.67,-0.0635043213,0.03220080897
4.68,-0.06103644669,0.03652152265
4.69,-0.05825695407,0.04064386178
4.7,-0.05518213537,0.04454442486
4.71,-0.05183009853,0.04820115528
4.72,-0.04822065714,0.05159348871
4.73,-0.04437520689,0.05470249147
4.74,-0.0403165896,0.05751098861
4.75,-0.03606894575,0.06000368021
4.76,-0.03165755659,0.06216724472
4.77,-0.02710867722,0.06399042812
4.78,-0.02244936199,0.06546411799
4.79,-0.01770728394,0.06658140175
4.8,-0.01291054989,0.06733760838
4.81,-0.008087513004,0.06773033354
4.82,-0.00326658452,0.06775944778
4.83,0.001523953532,0.06742708815
4.84,0.006256132985,0.06673763359
4.85,0.01090247998,0.06569766462
4.86,0.01543618977,0.06431590823
4.87,0.01983129454,0.06260316888
4.88,0.02406282332,0.06057224656
4.89,0.02810695282,0.05823784325
4.9,0.03194114877,0.05561645883
4.91,0.03554429707,0.05272627762
4.92,0.03889682448,0.04958704678
4.93,0.04198080873,0.04621994757
4.94,0.0447800779,0.04264746052
4.95,0.04728029931,0.03889322534
4.96,0.04946905787,0.03498189634
4.97,0.05133592422,0.03093899398
4.98,0.0528725128,0.026790753
4.99,0.05407252981,0.0225639676
5,0.05493181145,0.01828583384
5.01,0.05544835206,0.01398378954
5.02,0.05562232234,0.009685351926
5.03,0.05545607718,0.005417953088
5.04,0.05495415282,0.001208773527
5.05,0.05412325292,-0.00291542587
5.06,0.05297222288,-0.006928473069
5.07,0.05151201181,-0.01080495478
5.08,0.04975562149,-0.01452038626
5.09,0.04771804169,-0.01805138016
5.1,0.04541617115,-0.02137581331
5.11,0.04286872374,-0.0244729901
5.12,0.04009611944,-0.02732380108
5.13,0.0371203598,-0.02991087504
5.14,0.03396488807,-0.03221872283
5.15,0.03065443408,-0.03423387104
5.16,0.02721484458,-0.03594498351
5.17,0.02367289968,-0.03734296893
5.18,0.02005611684,-0.0384210723
5.19,0.01639254358,-0.03917494871
5.2,0.01271054084,-0.03960271774
5.21,0.009038559147,-0.03970499685
5.22,0.005404909555,-0.03948491294
5.23,0.001837532233,-0.03894809081
5.24,-0.001636234906,-0.03810261835
5.25,-0.004989884682,-0.03695898807
5.26,-0.008197963458,-0.03553001535
5.27,-0.01123628553,-0.03383073387
5.28,-0.01408213645,-0.03187826945
5.29,-0.01671446272,-0.02969169347
5.3,-0.01911404562,-0.02729185772
5.31,-0.02126365707,-0.02470121255
5.32,-0.02314819583,-0.02194361081
5.33,-0.02475480265,-0.01904409977
5.34,-0.02607295328,-0.01602870384
5.35,-0.02709452878,-0.01292420064
5.36,-0.02781386279,-0.009757893155
5.37,-0.02822776586,-0.006557380653
5.38,-0.02833552731,-0.003350330809
5.39,-0.02813889536,-0.0001642555362
5.4,-0.02764203657,0.002973707376
5.41,-0.02685147587,0.006037004827
5.42,-0.0257760186,0.008999869497
5.43,-0.02442665618,0.01183751005
5.44,-0.02281645709,0.01452628932
5.45,-0.0209604447,0.01704388963
5.46,-0.01887546382,0.01936946458
5.47,-0.01658003742,0.02148377711
5.48,-0.014094215,0.02336932341
5.49,-0.01143941405,0.02501044298
5.5,-0.008638255784,0.0263934147
5.51,-0.005714396134,0.02750653927
5.52,-0.002692353025,0.02834020828
5.53,0.0004026694131,0.02888696
5.54,0.003544959,0.02914152226
5.55,0.006708475513,0.02910084251
5.56,0.00986703206,0.02876410504
5.57,0.01299447737,0.02813273542
5.58,0.01606487854,0.02721039195
5.59,0.01905270371,0.02600294387
5.6,0.0219330041,0.02451843604
5.61,0.02468159463,0.02276703966
5.62,0.02727523231,0.02076098867
5.63,0.02969179133,0.01851450139
5.64,0.03191043371,0.01604368706
5.65,0.03391177395,0.01336643712
5.66,0.03567803649,0.01050230107
5.67,0.03719320387,0.007472346966
5.68,0.03844315416,0.00429900709
5.69,0.03941578564,0.001005909119
5.7,0.04010112684,-0.002382306089
5.71,0.04049143019,-0.005840179025
5.72,0.04058124743,-0.009341636826
5.73,0.04036748531,-0.01286020754
5.74,0.03984943993,-0.01636924128
5.75,0.03902880893,-0.01984213591
5.76,0.03790968039,-0.02325256469
5.77,0.03649849808,-0.02657470319
5.78,0.03480400309,-0.02978345261
5.79,0.03283715187,-0.03285465666
5.8,0.03061101162,-0.0357653091
5.81,0.02814063417,-0.03849374924
5.82,0.02544290962,-0.04101984279
5.83,0.022536402,-0.0433251456
5.84,0.01944116878,-0.04539304837
5.85,0.01617856706,-0.04720890039
5.86,0.01277104886,-0.04876011102
5.87,0.009241948607,-0.05003622795
5.88,0.005615265605,-0.05102899155
5.89,0.001915444536,-0.0517323653
5.9,-0.001832843111,-0.05214254248
5.91,-0.005604913866,-0.05225792985
5.92,-0.009376280749,-0.05207910928
5.93,-0.01312285295,-0.05160877876
5.94,-0.0168211246,-0.05085167437
5.95,-0.02044835079,-0.04981447511
5.96,-0.02398270929,-0.04850569256
5.97,-0.02740344687,-0.04693554763
5.98,-0.03069100921,-0.04511583641
5.99,-0.03382715402,-0.04305978745
6,-0.03679504709,-0.04078191256
