"Freq [GHz]","re(S(Tx_p1,Tx_p1)) []","im(S(Tx_p1,Tx_p1)) []"
1,0.04647359222,0.05019793434
1.01,0.05064001978,0.04647892945
1.02,0.05449873944,0.04243517209
1.03,0.05802519462,0.03808995406
1.04,0.06119626993,0.03346849258
1.05,0.06399046164,0.02859788979
1.06,0.06638805663,0.02350707383
1.07,0.06837131726,0.01822671902
1.08,0.06992466952,0.01278914345
1.09,0.07103489068,0.007228181446
1.1,0.07169129338,0.001579031048
1.11,0.07188590193,-0.004121924953
1.12,0.07161361702,-0.009837324005
1.13,0.07087236476,-0.01552905419
1.14,0.06966322586,-0.02115850868
1.15,0.06799054142,-0.02668686232
1.16,0.06586199126,-0.03207536782
1.17,0.06328864184,-0.03728566831
1.18,0.06028496064,-0.0422801225
1.19,0.05686879482,-0.04702213894
1.2,0.053061312,-0.05147651337
1.21,0.04888690253,-0.05560976603
1.22,0.04437304238,-0.05939047261
1.23,0.03955011709,-0.06278958432
1.24,0.03445120772,-0.06578073152
1.25,0.0291118408,-0.06834050599
1.26,0.02356970421,-0.0704487174
1.27,0.01786433317,-0.07208861868
1.28,0.01203676899,-0.07324709711
1.29,0.006129195909,-0.07391482724
1.3,0.0001845603956,-0.0740863829
1.31,-0.005753821679,-0.07376030613
1.32,-0.01164266448,-0.07293913175
1.33,-0.01743911262,-0.07162936683
1.34,-0.0231011368,-0.06984142543
1.35,-0.02858791911,-0.06758951945
1.36,-0.03386022252,-0.06489150758
1.37,-0.03888073956,-0.0617687046
1.38,-0.04361441544,-0.05824565448
1.39,-0.04802874154,-0.05434987082
1.4,-0.0520940158,-0.0501115491
1.41,-0.055783567,-0.04556325529
1.42,-0.05907394088,-0.04073959586
1.43,-0.06194504671,-0.03567687427
1.44,-0.0643802636,-0.03041273931
1.45,-0.06636650665,-0.02498583019
1.46,-0.0678942537,-0.01943542371
1.47,-0.06895753423,-0.01380108791
1.48,-0.06955388235,-0.008122346797
1.49,-0.06968425652,-0.002438360111
1.5,-0.06935292917,0.003212378653
1.51,-0.06856734934,0.008792322824
1.52,-0.06733798234,0.01426512965
1.53,-0.06567812999,0.01959589201
1.54,-0.0636037355,0.02475134383
1.55,-0.06113317674,0.02970003869
1.56,-0.05828705175,0.03441250159
1.57,-0.05508795992,0.03886135455
1.58,-0.05156028223,0.04302141713
1.59,-0.04772996335,0.04686978335
1.6,-0.04362429824,0.05038587668
1.61,-0.03927172542,0.05355148541
1.62,-0.03470162844,0.05635078044
1.63,-0.02994414698,0.05877031802
1.64,-0.02502999827,0.06079902967
1.65,-0.01999030926,0.06242820184
1.66,-0.0148564594,0.06365144731
1.67,-0.009659933818,0.0644646706
1.68,-0.004432185989,0.06486602915
1.69,0.0007954909467,0.0648558918
1.7,0.005992085501,0.06443679597
1.71,0.01112698311,0.06361340439
1.72,0.01617007678,0.06239246203
1.73,0.02109187467,0.06078275359
1.74,0.02586360589,0.05879506127
1.75,0.0304573261,0.05644212277
1.76,0.0348460239,0.05373858856
1.77,0.0390037292,0.05070097763
1.78,0.04290562434,0.04734763061
1.79,0.04652815847,0.04369865876
1.8,0.04984916545,0.03977588753
1.81,0.05284798531,0.03560279321
1.82,0.05550558866,0.03120443056
1.83,0.05780470368,0.02660735074
1.84,0.05972994434,0.02183950735
1.85,0.06126793883,0.01693014964
1.86,0.06240745629,0.01190970147
1.87,0.06313953029,0.006809625477
1.88,0.06345757671,0.001662271377
1.89,0.06335750396,-0.003499291539
1.9,0.06283781309,-0.008641457946
1.91,0.06189968526,-0.01373028556
1.92,0.06054705424,-0.01873170903
1.93,0.0587866614,-0.02361176747
1.94,0.05662809087,-0.02833684409
1.95,0.05408378272,-0.03287391605
1.96,0.05116902211,-0.0371908122
1.97,0.04790190284,-0.04125647612
1.98,0.04430326379,-0.04504123161
1.99,0.04039659735,-0.04851704741
2,0.03620792919,-0.05165779782
2.01,0.03176566922,-0.05443951579
2.02,0.02710043406,-0.0568406348
2.03,0.02224484187,-0.05884221605
2.04,0.01723328069,-0.06042815739
2.05,0.0121016522,-0.06158538058
2.06,0.006887093089,-0.06230399371
2.07,0.001627676692,-0.06257742575
2.08,-0.003637902008,-0.06240253081
2.09,-0.008870654507,-0.06177965968
2.1,-0.01403163633,-0.0607126969
2.11,-0.01908228992,-0.05920906225
2.12,-0.02398478877,-0.05727967557
2.13,-0.02870237834,-0.05493888496
2.14,-0.03319970956,-0.05220435845
2.15,-0.03744316048,-0.04909694025
2.16,-0.04140114208,-0.04564047273
2.17,-0.04504438406,-0.04186158647
2.18,-0.04834619704,-0.03778946048
2.19,-0.05128270774,-0.03345555581
2.2,-0.05383306428,-0.02889332577
2.21,-0.05597960894,-0.02413790647
2.22,-0.05770801655,-0.01922579172
2.23,-0.05900739691,-0.01419449637
2.24,-0.05987036037,-0.009082212772
2.25,-0.06029304631,-0.003927464011
2.26,-0.06027511451,0.001231240702
2.27,-0.05981970052,0.006355745075
2.28,-0.05893333599,0.01140857466
2.29,-0.05762583608,0.01635325192
2.3,-0.05591015597,0.02115459395
2.31,-0.05380221928,0.02577898956
2.32,-0.05132072133,0.03019465298
2.33,-0.04848691063,0.03437185203
2.34,-0.04532435194,0.03828310861
2.35,-0.04185867474,0.04190337045
2.36,-0.03811731055,0.04521015321
2.37,-0.03412922313,0.04818365239
2.38,-0.02992463486,0.05080682554
2.39,-0.02553475293,0.05306544507
2.4,-0.0209914987,0.05494812275
2.41,-0.01632724297,0.05644630748
2.42,-0.0115745504,0.05755425767
2.43,-0.006765934709,0.05826899075
2.44,-0.00193362752,0.05859021149
2.45,0.002890638052,0.05852022191
2.46,0.007675827584,0.05806381506
2.47,0.01239178841,0.05722815522
2.48,0.01700941506,0.05602264704
2.49,0.02150079688,0.05445879607
2.5,0.02583934792,0.05255006291
2.51,0.02999991962,0.05031171323
2.52,0.03395889684,0.04776066554
2.53,0.03769427821,0.04491533858
2.54,0.04118574176,0.04179549973
2.55,0.04441469709,0.0384221158
2.56,0.04736432526,0.03481720718
2.57,0.05001960769,0.03100370621
2.58,0.05236734542,0.02700532016
2.59,0.05439616985,0.02284639937
2.6,0.05609654631,0.01855181052
2.61,0.05746077137,0.01414681497
2.62,0.05848296502,0.009656952089
2.63,0.05915905849,0.005107927157
2.64,0.05948677836,0.0005255033981
2.65,0.05946562769,-0.004064602305
2.66,0.05909686439,-0.008636820579
2.67,0.05838347712,-0.01316582817
2.68,0.05733015899,-0.01762664456
2.69,0.05594327882,-0.02199472703
2.7,0.05423084996,-0.02624606482
2.71,0.05220249634,-0.03035727254
2.72,0.04986941547,-0.03430568334
2.73,0.04724433788,-0.038069442
2.74,0.04434148257,-0.04162759803
2.75,0.04117650797,-0.04496019881
2.76,0.03776645771,-0.04804838263
2.77,0.03412970086,-0.05087447142
2.78,0.03028586594,-0.05342206282
2.79,0.0262557682,-0.05567612106
2.8,0.02206132985,-0.05762306612
2.81,0.01772549266,-0.05925086053
2.82,0.01327212282,-0.06054909286
2.83,0.008725907625,-0.06150905726
2.84,0.004112244176,-0.06212382792
2.85,-0.0005428801479,-0.06238832757
2.86,-0.005213015108,-0.06229938899
2.87,-0.00987138268,-0.06185580842
2.88,-0.01449101933,-0.06105838994
2.89,-0.0190449249,-0.05990997962
2.9,-0.02350621735,-0.05841548867
2.91,-0.02784829248,-0.05658190452
2.92,-0.03204498768,-0.05441828899
2.93,-0.03607074839,-0.05193576293
2.94,-0.03990079624,-0.0491474766
2.95,-0.04351129731,-0.04606856537
2.96,-0.04687952928,-0.04271609035
2.97,-0.04998404568,-0.0391089639
2.98,-0.05280483604,-0.03526785988
2.99,-0.05532348016,-0.03121510889
3,-0.05752329494,-0.02697457896
3.01,-0.05938947244,-0.022571542
3.02,-0.06090920749,-0.0180325269
3.03,-0.06207181357,-0.01338516018
3.04,-0.06286882562,-0.008657995034
3.05,-0.06329408862,-0.003880330088
3.06,-0.06334383077,0.000917980826
3.07,-0.06301672053,0.005706726581
3.08,-0.06231390652,0.01045554278
3.09,-0.06123903981,0.01513412035
3.1,-0.05979827806,0.01971241713
3.11,-0.0580002712,0.02416087072
3.12,-0.05585612852,0.02845061103
3.13,-0.05337936716,0.03255367082
3.14,-0.05058584213,0.03644319254
3.15,-0.04749365814,0.04009362988
3.16,-0.04412306373,0.04348094252
3.17,-0.04049632815,0.04658278235
3.18,-0.03663760179,0.04937866981
3.19,-0.03257276077,0.05185015886
3.2,-0.02832923685,0.05398098921
3.21,-0.02393583339,0.05575722447
3.22,-0.01942252873,0.05716737499
3.23,-0.01482026798,0.05820250428
3.24,-0.01016074476,0.05885631778
3.25,-0.005476174103,0.05912523315
3.26,-0.0007990582175,0.05900843103
3.27,0.003838053406,0.05850788566
3.28,0.00840280778,0.05762837439
3.29,0.01286329425,0.05637746593
3.3,0.01718829059,0.05476548652
3.31,0.02134750737,0.05280546416
3.32,0.0253118285,0.05051305051
3.33,0.02905354599,0.04790642085
3.34,0.03254658684,0.04500615218
3.35,0.03576672984,0.04183508016
3.36,0.03869181032,0.03841813553
3.37,0.04130191074,0.03478216099
3.38,0.04357953509,0.03095570973
3.39,0.04550976537,0.02696882707
3.4,0.04708039817,0.02285281664
3.41,0.04828205988,0.01863999321
3.42,0.04910829902,0.01436342381
3.43,0.04955565439,0.01005665973
3.44,0.04962369813,0.005753461318
3.45,0.04931505276,0.001487518314
3.46,0.04863538169,-0.002707831853
3.47,0.047593353,-0.0067998852
3.48,0.04620057633,-0.01075684908
3.49,0.04447151329,-0.0145481142
3.5,0.0424233618,-0.01814451806
3.51,0.04007591526,-0.0215185974
3.52,0.03745139758,-0.02464482694
3.53,0.03457427538,-0.0274998422
3.54,0.03147104899,-0.03006264405
3.55,0.02817002391,-0.03231478298
3.56,0.02470106492,-0.03424052107
3.57,0.02109533478,-0.03582696996
3.58,0.01738502019,-0.03706420345
3.59,0.01360304714,-0.03794534322
3.6,0.009782788658,-0.03846661689
3.61,0.005957767486,-0.03862738742
3.62,0.002161356497,-0.03843015357
3.63,-0.001573520129,-0.03788052093
3.64,-0.005214682149,-0.03698714388
3.65,-0.008730981959,-0.03576163857
3.66,-0.01209258385,-0.03421846769
3.67,-0.01527123095,-0.032374798
3.68,-0.0182404971,-0.03025033174
3.69,-0.02097602094,-0.02786711363
3.7,-0.02345571977,-0.02524931514
3.71,-0.02565998068,-0.02242299817
3.72,-0.02757182698,-0.01941586065
3.73,-0.029177058,-0.01625696646
3.74,-0.03046436052,-0.0129764627
3.75,-0.03142539069,-0.009605287264
3.76,-0.03205482536,-0.006174869935
3.77,-0.03235038216,-0.002716830336
3.78,-0.03231280858,0.0007373238879
3.79,-0.03194583911,0.004156495174
3.8,-0.03125612236,0.007510287041
3.81,-0.03025311821,0.01076928462
3.82,-0.02894896668,0.01390532151
3.83,-0.02735833017,0.01689172978
3.84,-0.02549821137,0.01970357049
3.85,-0.02338774905,0.02231784193
3.86,-0.02104799467,0.02471366345
3.87,-0.01850167269,0.02687243296
3.88,-0.01577292788,0.02877795654
3.89,-0.01288706291,0.03041654912
3.9,-0.009870269858,0.03177710549
3.91,-0.006749358838,0.0328511414
3.92,-0.00355148759,0.03363280499
3.93,-0.0003038951837,0.03411885918
3.94,0.002966356761,0.03430863599
3.95,0.006232632282,0.03420396429
3.96,0.009468955848,0.0338090728
3.97,0.01265023113,0.03313047031
3.98,0.0157524415,0.03217680575
3.99,0.01875283033,0.03095871042
4,0.02163005962,0.02948862553
4.01,0.0243643457,0.02778061767
4.02,0.02693757134,0.02585018535
4.03,0.02933337379,0.02371405972
4.04,0.03153720889,0.02139000219
4.05,0.03353639157,0.01889660214
4.06,0.03532011349,0.01625307733
4.07,0.03687943883,0.01347907964
4.08,0.03820727979,0.01059450854
4.09,0.03929835315,0.007619334552
4.1,0.04014911997,0.00457343439
4.11,0.04075771036,0.001476439578
4.12,0.04112383545,-0.001652400258
4.13,0.04124868903,-0.004794338419
4.14,0.04113484095,-0.007931235814
4.15,0.04078612482,-0.01104564895
4.16,0.04020752227,-0.0141209012
4.17,0.03940504598,-0.01714113765
4.18,0.03838562383,-0.02009136406
4.19,0.03715698595,-0.02295747078
4.2,0.03572755668,-0.02572624271
4.21,0.0341063531,-0.02838535672
4.22,0.03230289147,-0.03092336774
4.23,0.03032710285,-0.03332968559
4.24,0.02818925879,-0.03559454392
4.25,0.02589990766,-0.03770896348
4.26,0.02346982208,-0.03966471135
4.27,0.02090995749,-0.04145425823
4.28,0.01823142158,-0.04307073559
4.29,0.01544545407,-0.04450789454
4.3,0.01256341623,-0.04576006797
4.31,0.009596788919,-0.04682213775
4.32,0.006557178095,-0.047689508
4.33,0.003456326244,-0.04835808594
4.34,0.0003061282682,-0.04882427085
4.35,-0.002881349917,-0.04908495201
4.36,-0.006093851818,-0.0491375159
4.37,-0.009318911623,-0.04897986261
4.38,-0.01254383806,-0.04861043145
4.39,-0.01575570261,-0.04802823498
4.4,-0.01894133363,-0.0472329009
4.41,-0.02208731794,-0.04622472065
4.42,-0.02518001119,-0.04500470338
4.43,-0.02820555796,-0.043574634
4.44,-0.0311499227,-0.0419371335
4.45,-0.0339989318,-0.04009571987
4.46,-0.03673832739,-0.03805486768
4.47,-0.03935383269,-0.03582006455
4.48,-0.04183122876,-0.03339786247
4.49,-0.04415644201,-0.03079592225
4.5,-0.04631564173,-0.02802304927
4.51,-0.04829534648,-0.02508921887
4.52,-0.05008253806,-0.02200559001
4.53,-0.05166478143,-0.01878450582
4.54,-0.05303034904,-0.01543948009
4.55,-0.05416834745,-0.01198516885
4.56,-0.05506884457,-0.008437326444
4.57,-0.05572299522,-0.004812746044
4.58,-0.05612316313,-0.001129184349
4.59,-0.05626303722,0.002594728997
4.6,-0.05613774024,0.006339596841
4.61,-0.05574392783,0.0100853739
4.62,-0.05507987612,0.01381149907
4.63,-0.05414555643,0.01749703927
4.64,-0.05294269536,0.02112084343
4.65,-0.05147481916,0.02466170492
4.66,-0.04974728134,0.02809853046
4.67,-0.04776727252,0.03141051383
4.68,-0.04554381218,0.03457731211
4.69,-0.04308772176,0.03757922257
4.7,-0.04041157921,0.04039735794
4.71,-0.03752965495,0.04301381815
4.72,-0.03445782985,0.04541185632
4.73,-0.03121349569,0.04757603713
4.74,-0.02781543902,0.04949238561
4.75,-0.02428370951,0.05114852453
4.76,-0.02063947396,0.05253379885
4.77,-0.01690485743,0.05363938553
4.78,-0.01310277313,0.05445838757
4.79,-0.009256742619,0.05498591096
4.8,-0.005390708271,0.05521912359
4.81,-0.001528839898,0.05515729549
4.82,0.002304662557,0.0548018196
4.83,0.006085768163,0.05415621301
4.84,0.009790813959,0.05322609826
4.85,0.01339670167,0.05201916502
4.86,0.01688109015,0.05054511226
4.87,0.02022258156,0.04881557163
4.88,0.02340089936,0.04684401257
4.89,0.02639705631,0.04464563015
4.9,0.02919351063,0.04223721684
4.91,0.03177430886,0.03963701928
4.92,0.03412521389,0.03686458175
4.93,0.03623381676,0.03394057768
4.94,0.03808963128,0.03088663113
4.95,0.03968417032,0.02772513002
4.96,0.04101100316,0.02447903289
4.97,0.04206579336,0.02117167149
4.98,0.04284631667,0.01782655098
4.99,0.04335245906,0.01446714989
5,0.04358619494,0.01111672205
5.01,0.04355154578,0.007798102346
5.02,0.04325451989,0.004533518429
5.03,0.04270303399,0.001344410273
5.04,0.04190681764,-0.001748740577
5.05,0.04087730161,-0.004726570356
5.06,0.03962749169,-0.007570979446
5.07,0.03817182924,-0.01026526434
5.08,0.03652604044,-0.01279423397
5.09,0.03470697572,-0.01514430937
5.1,0.03273244147,-0.01730360577
5.11,0.03062102597,-0.01926199664
5.12,0.02839192142,-0.02101115909
5.13,0.02606474433,-0.02254460068
5.14,0.02365935609,-0.02385766757
5.15,0.02119568596,-0.0249475343
5.16,0.01869355824,-0.0258131759
5.17,0.01617252557,-0.02645532281
5.18,0.01365171027,-0.02687639987
5.19,0.01114965506,-0.02708045025
5.2,0.008684184928,-0.02707304583
5.21,0.006272281325,-0.02686118549
5.22,0.003929969806,-0.02645318285
5.23,0.001672222052,-0.02585854528
5.24,-0.0004871270407,-0.02508784599
5.25,-0.002535446755,-0.024152591
5.26,-0.004461362203,-0.02306508305
5.27,-0.006254790246,-0.02183828421
5.28,-0.007906959946,-0.02048567908
5.29,-0.009410418027,-0.01902114056
5.3,-0.01075902005,-0.01745879968
5.31,-0.01194790823,-0.01581292124
5.32,-0.01297347701,-0.01409778668
5.33,-0.01383332761,-0.01232758548
5.34,-0.01452621308,-0.01051631616
5.35,-0.01505197535,-0.008677697741
5.36,-0.01541147585,-0.006825092381
5.37,-0.01560652155,-0.004971439563
5.38,-0.01563978797,-0.003129202005
5.39,-0.01551474101,-0.001310323222
5.4,-0.01523555914,0.0004738035678
5.41,-0.01480705765,0.00221235576
5.42,-0.01423461633,0.003895091665
5.43,-0.01352411198,0.005512351775
5.44,-0.01268185683,0.007055052159
5.45,-0.01171454387,0.008514671278
5.46,-0.01062919985,0.009883231663
5.47,-0.009433146284,0.01115327797
5.48,-0.008133968949,0.01231785297
5.49,-0.006739495621,0.01337047307
5.5,-0.00525778193,0.0143051049
5.51,-0.003697104768,0.01511614443
5.52,-0.00206596249,0.01579840008
5.53,-0.000373080942,0.01634708088
5.54,0.001372575855,0.01675779099
5.55,0.003161791704,0.01702653115
5.56,0.004985082378,0.01714970795
5.57,0.006832679487,0.01712415106
5.58,0.008694515681,0.01694713868
5.59,0.01056021282,0.01661643098
5.6,0.0124190747,0.01613031106
5.61,0.01426008592,0.01548763282
5.62,0.01607191822,0.01468787464
5.63,0.01784294561,0.01373119778
5.64,0.01956126931,0.01261850805
5.65,0.0212147534,0.01135151915
5.66,0.02279107167,0.009932815981
5.67,0.0242777661,0.008365916059
5.68,0.02566231688,0.006655327162
5.69,0.0269322238,0.004806599308
5.7,0.02807509831,0.002826369174
5.71,0.02907876556,0.0007223951681
5.72,0.02993137513,-0.001496418519
5.73,0.03062151908,-0.003820010397
5.74,0.03113835575,-0.006237163994
5.75,0.03147173745,-0.008735525089
5.76,0.03161233994,-0.01130163465
5.77,0.03155179177,-0.01392097802
5.78,0.03128280112,-0.01657805052
5.79,0.03079927797,-0.0192564394
5.8,0.03009644935,-0.02193892172
5.81,0.02917096556,-0.02460757737
5.82,0.02802099526,-0.02724391629
5.83,0.02664630748,-0.02982901848
5.84,0.02504833892,-0.0323436852
5.85,0.02323024495,-0.03476859969
5.86,0.02119693312,-0.03708449522
5.87,0.01895507816,-0.03927232843
5.88,0.01651311782,-0.04131345556
5.89,0.01388122924,-0.04318980935
5.9,0.01107128562,-0.04488407402
5.91,0.008096793784,-0.04637985621
5.92,0.004972812847,-0.04766184925
5.93,0.001715855176,-0.04871598887
5.94,-0.001656229376,-0.04952959799
5.95,-0.00512438449,-0.05009151893
5.96,-0.008668492017,-0.05039223114
5.97,-0.01226752841,-0.05042395323
5.98,-0.01589973095,-0.0501807279
5.99,-0.01954277173,-0.04965848898
6,-0.02317393712,-0.04885510999
