"Freq [GHz]","re(S(Tx_p1,Tx_p1)) []","im(S(Tx_p1,Tx_p1)) []"
1,0.08396032932,0.08747031856
1.01,0.09082688267,0.08043677207
1.02,0.09709634757,0.07287907706
1.03,0.1027286335,0.0648489038
1.04,0.107688325,0.05640105676
1.05,0.1119449326,0.04759301414
1.06,0.1154730925,0.03848444753
1.07,0.1182527134,0.0291367289
1.08,0.1202690693,0.01961243123
1.09,0.1215128417,0.009974829583
1.1,0.1219801102,0.0002874084978
1.11,0.1216722958,-0.009386618546
1.12,0.1205960591,-0.01898477294
1.13,0.1187631576,-0.02844575369
1.14,0.116190266,-0.03770985556
1.15,0.1128987638,-0.0467193604
1.16,0.1089144928,-0.05541889868
1.17,0.1042674921,-0.06375578103
1.18,0.09899171091,-0.07168029836
1.19,0.09312470491,-0.07914599054
1.2,0.08670731933,-0.08610988379
1.21,0.07978336127,-0.09253269736
1.22,0.07239926428,-0.09837902018
1.23,0.06460374752,-0.1036174583
1.24,0.05644747132,-0.1082207539
1.25,0.04798269115,-0.1121658772
1.26,0.03926291127,-0.1154340911
1.27,0.03034253962,-0.1180109904
1.28,0.02127654517,-0.119886515
1.29,0.01212011899,-0.1210549385
1.3,0.002928340771,-0.1215148316
1.31,-0.00624414835,-0.1212690015
1.32,-0.01534346447,-0.1203244074
1.33,-0.02431678969,-0.1186920517
1.34,-0.03311266892,-0.1163868489
1.35,-0.0416812929,-0.1134274727
1.36,-0.04997476514,-0.1098361807
1.37,-0.05794735108,-0.1056386217
1.38,-0.06555570735,-0.1008636231
1.39,-0.07275908943,-0.09554296428
1.4,-0.07951953637,-0.08971113648
1.41,-0.08580203135,-0.08340509193
1.42,-0.09157463745,-0.0766639858
1.43,-0.09680860843,-0.06952891377
1.44,-0.1014784748,-0.06204264804
1.45,-0.1055621058,-0.05424937504
1.46,-0.1090407489,-0.0461944375
1.47,-0.1118990484,-0.03792408332
1.48,-0.1141250449,-0.02948522353
1.49,-0.1157101586,-0.0209252009
1.5,-0.1166491592,-0.01229157035
1.51,-0.1169401244,-0.003631891798
1.52,-0.1165843904,0.005006464512
1.53,-0.1155864975,0.01357650091
1.54,-0.113954132,0.02203176438
1.55,-0.111698068,0.0303265096
1.56,-0.1088321095,0.03841585492
1.57,-0.1053730343,0.04625593372
1.58,-0.1013405411,0.05380404374
1.59,-0.09675719797,0.06101879711
1.6,-0.0916483924,0.06786027372
1.61,-0.08604228165,0.07429018033
1.62,-0.07996974022,0.0802720176
1.63,-0.07346430258,0.08577125653
1.64,-0.06656209767,0.09075552547
1.65,-0.05930177163,0.09519480785
1.66,-0.0517243954,0.09906165037
1.67,-0.04387335228,0.1023313802
1.68,-0.03579420457,0.1049823289
1.69,-0.02753453244,0.1069960613
1.7,-0.01914374482,0.1083576035
1.71,-0.01067285903,0.1090556683
1.72,-0.002174247778,0.1090828715
1.73,0.006298647126,0.1084359337
1.74,0.01469163423,0.1071158636
1.75,0.02295012376,0.1051281155
1.76,0.03101950882,0.1024827167
1.77,0.0388455732,0.09919435829
1.78,0.04637492188,0.09528244604
1.79,0.05355542932,0.09077110506
1.8,0.06033669985,0.08568913648
1.81,0.06667053401,0.08006992217
1.82,0.07251139394,0.07395127613
1.83,0.07781686083,0.06737524169
1.84,0.0825480772,0.06038783458
1.85,0.0866701667,0.05303873342
1.86,0.09015262437,0.04538091982
1.87,0.09296967073,0.03747027167
1.88,0.09510056347,0.02936511379
1.89,0.09652986111,0.02112573149
1.9,0.09724763405,0.01281385268
1.91,0.09724961894,0.004492105528
1.92,0.09653731365,-0.003776541539
1.93,0.09511801072,-0.01192934987
1.94,0.09300476866,-0.0199043832
1.95,0.09021632119,-0.02764107519
1.96,0.08677692561,-0.03508078453
1.97,0.08271615246,-0.04216733046
1.98,0.07806861958,-0.04884750206
1.99,0.07287367443,-0.05507153514
2,0.06717502909,-0.06079355136
2.01,0.0610203532,-0.06597195464
2.02,0.05446083034,-0.07056978103
2.03,0.04755068373,-0.0745549988
2.04,0.04034667738,-0.07790075627
2.05,0.03290759882,-0.08058557602
2.06,0.0252937297,-0.08259349444
2.07,0.01756631007,-0.08391414676
2.08,0.009787002429,-0.08454279805
2.09,0.002017360825,-0.08448032139
2.1,-0.005681689574,-0.08373312519
2.11,-0.01325035778,-0.08231303166
2.12,-0.0206304727,-0.08023710921
2.13,-0.0277659453,-0.0775274618
2.14,-0.03460320374,-0.07421097838
2.15,-0.04109159835,-0.07031904585
2.16,-0.04718377377,-0.06588722926
2.17,-0.05283600609,-0.06095492265
2.18,-0.05800850289,-0.05556497462
2.19,-0.06266566483,-0.04976329199
2.2,-0.06677630742,-0.04359842565
2.21,-0.07031384217,-0.03712114221
2.22,-0.07325641634,-0.03038398533
2.23,-0.07558701108,-0.02344083038
2.24,-0.07729349783,-0.01634643633
2.25,-0.07836865317,-0.009155998567
2.26,-0.07881013266,-0.00192470637
2.27,-0.07862040455,0.005292691163
2.28,-0.07780664441,0.01244230716
2.29,-0.07638059218,0.01947152336
2.3,-0.07435837358,0.02632937735
2.31,-0.07176028795,0.03296692734
2.32,-0.06861056523,0.03933759142
2.33,-0.06493709478,0.04539745827
2.34,-0.0607711296,0.051105567
2.35,-0.05614696913,0.0564241537
2.36,-0.05110162486,0.06131886307
2.37,-0.04567447238,0.06575892376
2.38,-0.0399068944,0.06971728666
2.39,-0.0338419188,0.07317072573
2.4,-0.02752385599,0.07609990189
2.41,-0.02099793991,0.07848939059
2.42,-0.01430997653,0.08032767458
2.43,-0.007506003607,0.08160710373
2.44,-0.0006319651988,0.08232382441
2.45,0.006266596134,0.08247768116
2.46,0.01314482699,0.08207209384
2.47,0.01995882862,0.08111391378
2.48,0.02666589904,0.07961326248
2.49,0.03322475071,0.07758335653
2.5,0.03959570403,0.07504032246
2.51,0.04574085668,0.0720030049
2.52,0.05162422992,0.06849277134
2.53,0.05721189338,0.06453331643
2.54,0.06247206987,0.06015046816
2.55,0.06737522264,0.05537199817
2.56,0.07189412712,0.05022743734
2.57,0.07600392986,0.04474789797
2.58,0.07968219677,0.03896590273
2.59,0.08290895321,0.03291522044
2.6,0.08566671784,0.02663070796
2.61,0.08794053209,0.02014815752
2.62,0.08971798671,0.01350414787
2.63,0.09098924621,0.006735897995
2.64,0.09174707195,-0.0001188783988
2.65,0.09198684378,-0.007022119273
2.66,0.09170657995,-0.0139355632
2.67,0.09090695431,-0.02082090231
2.68,0.08959130971,-0.02763994043
2.69,0.08776566601,-0.03435475747
2.7,0.08543872092,-0.04092788033
2.71,0.08262184162,-0.04732246064
2.72,0.07932904531,-0.05350245883
2.73,0.07557696663,-0.05943283375
2.74,0.0713848101,-0.06507973655
2.75,0.06677428599,-0.07041070712
2.76,0.06176952826,-0.07539487113
2.77,0.05639699368,-0.08000313529
2.78,0.05068534155,-0.08420837828
2.79,0.04466529392,-0.08798563479
2.8,0.03836947668,-0.09131226995
2.81,0.03183224247,-0.09416814156
2.82,0.02508947639,-0.09653574753
2.83,0.01817838652,-0.09840035653
2.84,0.0111372809,-0.09975011965
2.85,0.004005333521,-0.1005761615
2.86,-0.003177658382,-0.1008726498
2.87,-0.01037152309,-0.1006368417
2.88,-0.01753596648,-0.09986910816
2.89,-0.02463082488,-0.09857293401
2.9,-0.0316163161,-0.09675489604
2.91,-0.03845328617,-0.09442461871
2.92,-0.04510344966,-0.09159470866
2.93,-0.05152962153,-0.08828066945
2.94,-0.0576959387,-0.08450079759
2.95,-0.06356807008,-0.0802760618
2.96,-0.06911341357,-0.07562996675
2.97,-0.07430127933,-0.07058840331
2.98,-0.07910305859,-0.06517948675
2.99,-0.08349237748,-0.05943338463
3,-0.08744523571,-0.05338213595
3.01,-0.09094013007,-0.04705946292
3.02,-0.0939581627,-0.0405005768
3.03,-0.09648313448,-0.03374197894
3.04,-0.09850162367,-0.02682125818
3.05,-0.1000030502,-0.01977688544
3.06,-0.1009797259,-0.0126480065
3.07,-0.1014268909,-0.005474233547
3.08,-0.1013427372,0.001704563769
3.09,-0.1007284181,0.008848467275
3.1,-0.09958804592,0.01591771865
3.11,-0.09792867651,0.02287292685
3.12,-0.09576028137,0.02967527403
3.13,-0.09309570765,0.03628671978
3.14,-0.08995062591,0.04267020303
3.15,-0.0863434657,0.04878984138
3.16,-0.08229533912,0.05461112747
3.17,-0.07782995221,0.06010112188
3.18,-0.07297350418,0.06522864225
3.19,-0.06775457436,0.06996444802
3.2,-0.06220399675,0.07428142051
3.21,-0.05635472199,0.0781547375
3.22,-0.05024166645,0.08156204196
3.23,-0.04390154834,0.084483604
3.24,-0.03737271042,0.08690247534
3.25,-0.0306949291,0.08880463526
3.26,-0.02390920979,0.09017912693
3.27,-0.01705756803,0.09101818283
3.28,-0.01018279662,0.09131733786
3.29,-0.003328218574,0.09107552833
3.3,0.003462573756,0.09029517524
3.31,0.01014599308,0.08898224962
3.32,0.01667874423,0.0871463181
3.33,0.02301812288,0.0848005662
3.34,0.02912232459,0.08196179739
3.35,0.03495076222,0.07865040548
3.36,0.04046438961,0.07489031825
3.37,0.04562602889,0.07070891042
3.38,0.05040069818,0.06613688403
3.39,0.05475593642,0.06120811499
3.4,0.05866212129,0.05595946466
3.41,0.06209277619,0.05043055599
3.42,0.06502486177,0.04466351416
3.43,0.06743904743,0.0387026724
3.44,0.06931995825,0.03259424437
3.45,0.07065639248,0.02638596481
3.46,0.07144150539,0.02012670152
3.47,0.07167295504,0.01386604169
3.48,0.07135300618,0.007653856881
3.49,0.070488589,0.001539851175
3.5,0.06909130984,-0.004426902245
3.51,0.06717741185,-0.01019843043
3.52,0.06476768424,-0.0157283299
3.53,0.06188731965,-0.02097222952
3.54,0.05856571987,-0.02588824065
3.55,0.05483625129,-0.03043738816
3.56,0.05073595204,-0.03458401627
3.57,0.04630519375,-0.03829616299
3.58,0.04158730173,-0.041545898
3.59,0.03662813786,-0.04430961863
3.6,0.03147565143,-0.0465682998
3.61,0.02617940341,-0.048307694
3.62,0.0207900702,-0.04951847854
3.63,0.01535893343,-0.05019634794
3.64,0.009937361984,-0.05034204995
3.65,0.004576293344,-0.04996136512
3.66,-0.0006742795595,-0.04906503
3.67,-0.005765809263,-0.04766860535
3.68,-0.0106516764,-0.04579229132
3.69,-0.01528764815,-0.04346069217
3.7,-0.01963230713,-0.04070253414
3.71,-0.0236474457,-0.03755034006
3.72,-0.02729842153,-0.03404006539
3.73,-0.03055447036,-0.03021070043
3.74,-0.03338897306,-0.02610384378
3.75,-0.0357796743,-0.0217632527
3.76,-0.0377088511,-0.01723437578
3.77,-0.03916342989,-0.01256387371
3.78,-0.04013505167,-0.00779913393
3.79,-0.04062008524,-0.002987784795
3.8,-0.04061958912,0.001822785063
3.81,-0.04013922357,0.006585896742
3.82,-0.03918911442,0.01125603519
3.83,-0.03778367107,0.01578928243
3.84,-0.03594136168,0.02014372518
3.85,-0.03368444872,0.0242798326
3.86,-0.03103868887,0.02816080017
3.87,-0.02803300132,0.03175285625
3.88,-0.02469910922,0.03502552843
3.89,-0.02107115891,0.03795186706
3.9,-0.01718532229,0.04050862435
3.91,-0.01307938744,0.04267638754
3.92,-0.008792343037,0.04443966573
3.93,-0.004363961822,0.0457869304
3.94,0.0001656113375,0.04671061023
3.95,0.004756261666,0.04720704171
3.96,0.009368291973,0.0472763775
3.97,0.01396279073,0.04692245519
3.98,0.01850197646,0.04615262966
3.99,0.02294951468,0.04497757269
4,0.02727080418,0.04341104404
4.01,0.03143322988,0.04146963843
4.02,0.03540638055,0.0391725131
4.03,0.03916222992,0.036541101
4.04,0.04267528062,0.03359881448
4.05,0.04592267123,0.03037074431
4.06,0.04888424712,0.02688335888
4.07,0.05154259651,0.02316420805
4.08,0.0538830539,0.01924163558
4.09,0.05589367333,0.01514450406
4.1,0.05756517443,0.01090193532
4.11,0.05889086462,0.006543069009
4.12,0.05986654096,0.002096841236
4.13,0.06049037523,-0.002408215219
4.14,0.06076278613,-0.006944148463
4.15,0.06068630186,-0.01148374259
4.16,0.06026541675,-0.01600065069
4.17,0.05950644496,-0.02046950669
4.18,0.05841737404,-0.02486601722
4.19,0.05700772072,-0.02916703522
4.2,0.05528839098,-0.03335061708
4.21,0.05327154583,-0.03739606545
4.22,0.05097047392,-0.04128395972
4.23,0.04839947153,-0.04499617639
4.24,0.04557373023,-0.04851590117
4.25,0.04250923198,-0.05182763479
4.26,0.03922265135,-0.05491719403
4.27,0.03573126399,-0.05777170935
4.28,0.03205286067,-0.06037962012
4.29,0.02820566592,-0.06273066824
4.3,0.02420826014,-0.06481589059
4.31,0.02007950448,-0.06662761037
4.32,0.01583846755,-0.06815942744
4.33,0.01150435329,-0.06940620703
4.34,0.007096429562,-0.07036406675
4.35,0.00263395717,-0.07103036096
4.36,-0.001863880717,-0.07140366218
4.37,-0.006378048549,-0.07148373879
4.38,-0.01088972742,-0.07127152846
4.39,-0.01538038255,-0.07076910712
4.4,-0.01983182848,-0.06997965295
4.41,-0.02422629127,-0.06890740554
4.42,-0.0285464667,-0.06755762031
4.43,-0.03277557374,-0.06593651853
4.44,-0.03689740249,-0.06405123354
4.45,-0.04089635581,-0.0619097541
4.46,-0.04475748424,-0.05952086553
4.47,-0.04846651383,-0.05689409001
4.48,-0.05200986669,-0.05403962706
4.49,-0.05537467458,-0.05096829545
4.5,-0.05854878565,-0.04769147769
4.51,-0.06152076516,-0.04422106832
4.52,-0.06427989094,-0.04056942695
4.53,-0.06681614455,-0.0367493369
4.54,-0.06912019952,-0.0327739701
4.55,-0.07118340775,-0.0286568588
4.56,-0.07299778582,-0.02441187397
4.57,-0.07455600226,-0.02005321067
4.58,-0.07585136757,-0.0155953797
4.59,-0.0768778281,-0.01105320513
4.6,-0.07762996521,-0.006441826661
4.61,-0.07810300064,-0.001776705823
4.62,-0.07829280911,0.002926365339
4.63,-0.07819593876,0.007651254579
4.64,-0.07780963988,0.01238148035
4.65,-0.07713190192,0.01710020494
4.66,-0.07616149888,0.02179023161
4.67,-0.07489804233,0.02643400735
4.68,-0.07334204161,0.03101363295
4.69,-0.07149497002,0.03551088188
4.7,-0.06935933586,0.03990722936
4.71,-0.06693875673,0.0441838928
4.72,-0.06423803553,0.04832188464
4.73,-0.06126323623,0.0523020782
4.74,-0.05802175745,0.05610528715
4.75,-0.05452240184,0.05971235861
4.76,-0.05077543907,0.06310427988
4.77,-0.04679266041,0.06626229832
4.78,-0.04258742278,0.06916805368
4.79,-0.0381746802,0.07180372183
4.8,-0.03357100095,0.07415216861
4.81,-0.02879456844,0.0761971123
4.82,-0.02386516443,0.07792329277
4.83,-0.01880413314,0.07931664539
4.84,-0.0136343252,0.08036447732
4.85,-0.008380020562,0.08105564397
4.86,-0.003066829817,0.08138072279
4.87,0.002278426262,0.08133218197
4.88,0.007627858949,0.08090454112
4.89,0.01295267508,0.08009452123
4.9,0.01822336108,0.07890118107
4.91,0.0234098864,0.07732603731
4.92,0.02848192482,0.07537316576
4.93,0.03340909176,0.07304928104
4.94,0.03816119548,0.07036379253
4.95,0.04270849955,0.06732883439
4.96,0.04702199377,0.06395926782
4.97,0.05107367047,0.06027265404
4.98,0.0548368028,0.05628919682
4.99,0.05828622142,0.05203165387
5,0.06139858586,0.04752521666
5.01,0.06415264679,0.04279735884
5.02,0.06652949524,0.037877654
5.03,0.06851279499,0.03279756372
5.04,0.0700889943,0.02759019764
5.05,0.07124751347,0.02229004777
5.06,0.07198090475,0.0169326995
5.07,0.07228498161,0.01155452258
5.08,0.07215891466,0.006192345497
5.09,0.07160529192,0.0008831172548
5.1,0.07063014174,-0.004336439292
5.11,0.0692429171,-0.009430177933
5.12,0.06745644069,-0.01436287879
5.13,0.06528681075,-0.01910059239
5.14,0.0627532683,-0.02361097326
5.15,0.0598780271,-0.02786359833
5.16,0.05668606812,-0.03183026559
5.17,0.05320490117,-0.03548526864
5.18,0.04946429674,-0.03880564312
5.19,0.04549599169,-0.04177138163
5.2,0.04133337283,-0.04436561393
5.21,0.0370111429,-0.04657475011
5.22,0.03256497379,-0.04838858485
5.23,0.02803115178,-0.04980036146
5.24,0.02344622005,-0.05080679558
5.25,0.0188466235,-0.05140805836
5.26,0.01426836072,-0.05160772028
5.27,0.009746648128,-0.05141265718
5.28,0.005315600445,-0.05083292062
5.29,0.00100793184,-0.04988157535
5.3,-0.003145318829,-0.04857450736
5.31,-0.007115035518,-0.04693020587
5.32,-0.01087424281,-0.04496952367
5.33,-0.01439829215,-0.04271541978
5.34,-0.01766501531,-0.04019268897
5.35,-0.02065484455,-0.03742768256
5.36,-0.02335089942,-0.03444802481
5.37,-0.02573904103,-0.0312823291
5.38,-0.02780789492,-0.02795991792
5.39,-0.02954884417,-0.02451055014
5.4,-0.03095599508,-0.02096415891
5.41,-0.03202611768,-0.01735060301
5.42,-0.03275856403,-0.01369943373
5.43,-0.03315516709,-0.01003967944
5.44,-0.03322012326,-0.006399648884
5.45,-0.03295986162,-0.002806754179
5.46,-0.03238290288,0.0007126461156
5.47,-0.03149971079,0.004133383951
5.48,-0.03032253882,0.007431599187
5.49,-0.02886527443,0.0105848382
5.5,-0.0271432831,0.01357213473
5.51,-0.02517325401,0.01637407431
5.52,-0.02297304894,0.01897284354
5.53,-0.02056155545,0.02135226585
5.54,-0.01795854556,0.02349782528
5.55,-0.01518454025,0.02539667966
5.56,-0.0122606804,0.02703766498
5.57,-0.009208604171,0.02841129193
5.58,-0.006050330849,0.02950973623
5.59,-0.00280815087,0.03032682372
5.6,0.0004954782613,0.0308580111
5.61,0.003838030615,0.03110036333
5.62,0.00719700552,0.03105252819
5.63,0.0105500168,0.0307147086
5.64,0.01387487808,0.03008863299
5.65,0.01714968464,0.02917752414
5.66,0.02035289232,0.02798606649
5.67,0.02346339385,0.02652037206
5.68,0.02646059302,0.02478794499
5.69,0.02932447697,0.02279764469
5.7,0.03203568702,0.02055964738
5.71,0.03457558805,0.0180854061
5.72,0.03692633687,0.01538760874
5.73,0.03907094956,0.01248013425
5.74,0.04099336809,0.009378006496
5.75,0.04267852605,0.006097345805
5.76,0.04411241391,0.002655317706
5.77,0.04528214344,-0.0009299212484
5.78,0.04617601161,-0.004639280983
5.79,0.04678356361,-0.00845279903
5.8,0.04709565512,-0.01234970567
5.81,0.0471045133,-0.01630849341
5.82,0.04680379662,-0.02030699132
5.83,0.04618865273,-0.02432244439
5.84,0.04525577425,-0.02833159845
5.85,0.0440034517,-0.03231079102
5.86,0.04243162305,-0.03623604807
5.87,0.04054191901,-0.0400831873
5.88,0.03833770335,-0.04382792767
5.89,0.03582410728,-0.04744600543
5.9,0.03300805682,-0.05091329639
5.91,0.02989829239,-0.05420594407
5.92,0.02650537937,-0.05730049351
5.93,0.0228417088,-0.06017402979
5.94,0.01892148715,-0.06280432076
5.95,0.01476071438,-0.06516996289
5.96,0.01037714945,-0.06725052912
5.97,0.005790262699,-0.06902671751
5.98,0.001021174556,-0.07048049931
5.99,-0.003907419657,-0.07159526502
6,-0.008971338998,-0.07235596686
