"Freq [GHz]","re(S(Rx_p1,Tx_p1)) []","im(S(Rx_p1,Tx_p1)) []"
1,-0.0323506848,-0.1366489118
1.01,-0.07106014027,-0.1206320026
1.02,-0.1031949586,-0.09393464486
1.03,-0.1258961229,-0.0590175776
1.04,-0.1371760192,-0.01907866017
1.05,-0.136098938,0.02224469729
1.06,-0.1228624241,0.06121384066
1.07,-0.09877165353,0.09433540394
1.08,-0.06610957948,0.118682666
1.09,-0.02791592248,0.1321608613
1.1,0.01230292552,0.1336912782
1.11,0.05090431731,0.1232972495
1.12,0.08444764357,0.102085091
1.13,0.1100077676,0.07212358661
1.14,0.1254339478,0.03623561318
1.15,0.1295306605,-0.002276107556
1.16,0.1221450593,-0.03994122599
1.17,0.1041554467,-0.07344115469
1.18,0.07736499874,-0.09990518081
1.19,0.04431403841,-0.117156264
1.2,0.008031458443,-0.1238854654
1.21,-0.02824921081,-0.1197417445
1.22,-0.06138149468,-0.1053325442
1.23,-0.08857856459,-0.08213920174
1.24,-0.1076431519,-0.05235890101
1.25,-0.1171365322,-0.01869090201
1.26,-0.1164749762,0.01591131126
1.27,-0.1059492642,0.0484987351
1.28,-0.08666985898,0.07637383078
1.29,-0.06044648455,0.0973058239
1.3,-0.02961568083,0.109698448
1.31,0.003166876157,0.1126992972
1.32,0.03515096143,0.1062453706
1.33,0.06371501909,0.09104467917
1.34,0.08657114287,0.06849855263
1.35,0.101937415,0.04057323478
1.36,0.1086663899,0.00963235075
1.37,0.1063221191,-0.02175618053
1.38,0.09520188387,-0.05102419593
1.39,0.07630253096,-0.07580357921
1.4,0.05123484574,-0.09410874529
1.41,0.02209264369,-0.1044886584
1.42,-0.00871388722,-0.106137762
1.43,-0.03864869692,-0.09895782408
1.44,-0.0652505826,-0.08356585038
1.45,-0.08632942689,-0.06124679177
1.46,-0.1001431574,-0.03385363042
1.47,-0.1055414822,-0.003661361029
1.48,-0.1020643872,0.02681487624
1.49,-0.08998636925,0.0550240214
1.5,-0.070301308,0.07858979324
1.51,-0.0446475137,0.0955107235
1.52,-0.01517748323,0.1043325161
1.53,0.01561817911,0.1042773513
1.54,0.04511884334,0.09531786423
1.55,0.07079674599,0.07818792948
1.56,0.09043555927,0.05432774456
1.57,0.1023252621,0.02576654022
1.58,0.1054155117,-0.005047986161
1.59,0.09941303158,-0.03545930781
1.6,0.08481333264,-0.06283264964
1.61,0.06286293085,-0.08478609001
1.62,0.03545457304,-0.09940136009
1.63,0.004964199636,-0.1053950951
1.64,-0.02595615056,-0.1022347211
1.65,-0.05461110435,-0.09018812522
1.66,-0.07849952267,-0.07030227965
1.67,-0.0955354871,-0.04431248557
1.68,-0.1042327941,-0.01449024948
1.69,-0.1038363704,0.01655660943
1.7,-0.09438886292,0.04611371325
1.71,-0.07672654148,0.07159919254
1.72,-0.05240502831,0.09079076722
1.73,-0.02356163462,0.1020207194
1.74,0.007273312258,0.1043216048
1.75,0.0373993264,0.09751001096
1.76,0.06418306807,0.08220120702
1.77,0.08528920474,0.05975363633
1.78,0.09888461313,0.0321483446
1.79,0.1037981282,0.001814085184
1.8,0.09962198283,-0.02858647416
1.81,0.08674618838,-0.05639068728
1.82,0.06632294436,-0.07916954177
1.83,0.04016424124,-0.09494052732
1.84,0.01058162558,-0.1023411372
1.85,-0.01981785671,-0.1007477805
1.86,-0.04836166514,-0.09032961065
1.87,-0.07254751081,-0.0720324338
1.88,-0.09026404668,-0.04749399084
1.89,-0.09997693038,-0.01889796536
1.9,-0.100863653,0.01122045136
1.91,-0.09288499903,0.04020021685
1.92,-0.07678660988,0.06549119486
1.93,-0.05403038458,0.08488077912
1.94,-0.02666180144,0.09668995332
1.95,0.002874893118,0.09992104311
1.96,0.03195686904,0.09434376423
1.97,0.05801821365,0.08051180104
1.98,0.07877924699,0.05970854458
1.99,0.09244871768,0.03382717646
2,0.09788049326,0.005196374208
2.01,0.09467065308,-0.02363205952
2.02,0.08318652243,-0.05011387226
2.03,0.06452560382,-0.0719399998
2.04,0.04040893294,-0.08724030599
2.05,0.0130194657,-0.09474503569
2.06,-0.01519890769,-0.09388979564
2.07,-0.04176270256,-0.08485537557
2.08,-0.06436997137,-0.06853994963
2.09,-0.08110111392,-0.04646752875
2.1,-0.09058160301,-0.02064234241
2.11,-0.09209282833,0.006636439668
2.12,-0.08562240414,0.03298200596
2.13,-0.07185106465,0.05613011269
2.14,-0.05207910208,0.07413345604
2.15,-0.02810062751,0.08552353223
2.16,-0.002038274482,0.0894268168
2.17,0.02384603315,0.08562662836
2.18,0.04734716464,0.07456712677
2.19,0.0665027477,0.05730103406
2.2,0.07975362647,0.03538739558
2.21,0.08606622897,0.01074963123
2.22,0.08500796511,-0.01449301887
2.23,0.07677100156,-0.03820593334
2.24,0.06214412136,-0.05841637239
2.25,0.04243651863,-0.07347337003
2.26,0.01936100064,-0.08217797559
2.27,-0.005113058542,-0.08387430727
2.28,-0.02892469805,-0.07849519664
2.29,-0.05009097619,-0.06655982706
2.3,-0.06686788668,-0.0491244414
2.31,-0.07789019845,-0.02769067742
2.32,-0.08227960187,-0.004079171491
2.33,-0.07971302325,0.0197214274
2.34,-0.07044599533,0.04171811582
2.35,-0.05528935498,0.06007701095
2.36,-0.0355410713,0.07327375648
2.37,-0.01287845835,0.08021887481
2.38,0.01078083955,0.08034788624
2.39,0.03343812346,0.07366863532
2.4,0.05318040281,0.06076154549
2.41,0.06834101759,0.04273224853
2.42,0.07764071118,0.02111993253
2.43,0.08029707997,-0.002231489783
2.44,0.07609272562,-0.02532899871
2.45,0.06539574885,-0.04619996327
2.46,0.04913020119,-0.06306113296
2.47,0.02869842647,-0.07447249466
2.48,0.005861493285,-0.07946241519
2.49,-0.01741225466,-0.07761279789
2.5,-0.03911749854,-0.06909637341
2.51,-0.05738618979,-0.05466243278
2.52,-0.07065030408,-0.03557191809
2.53,-0.07777855857,-0.0134873789
2.54,-0.0781748028,0.009672559833
2.55,-0.07182921472,0.03190129695
2.56,-0.05931770284,0.05127990916
2.57,-0.0417496254,0.06614465133
2.58,-0.02066863711,0.07523136114
2.59,0.002084288807,0.07778397916
2.6,0.02453324147,0.07361772141
2.61,0.04474053662,0.06313161161
2.62,0.06097521563,0.04726969079
2.63,0.07186202479,0.02743483152
2.64,0.07649795572,0.005363263705
2.65,0.07452649444,-0.01702870794
2.66,0.06616361695,-0.03781203696
2.67,0.0521739068,-0.05521155542
2.68,0.03379955429,-0.06775743769
2.69,0.01264903668,-0.07440863982
2.7,-0.00944436829,-0.07463810099
2.71,-0.03058168537,-0.0684729603
2.72,-0.04896114072,-0.05648700005
2.73,-0.06303096466,-0.03974662412
2.74,-0.0716192994,-0.01971557224
2.75,-0.07403054671,0.00187305635
2.76,-0.07010045839,0.02316630263
2.77,-0.06020581559,0.0423495762
2.78,-0.04522836208,0.05780026316
2.79,-0.0264764445,0.06822390361
2.8,-0.005571271064,0.07276169995
2.81,0.01569243906,0.07106058174
2.82,0.03549959716,0.06330020729
2.83,0.05216878422,0.05017487474
2.84,0.06429427274,0.03283205875
2.85,0.07086414874,0.01277288793
2.86,0.07134466045,-0.008276958079
2.87,0.06572374811,-0.02851498147
2.88,0.05451013351,-0.04621570748
2.89,0.03868809103,-0.05987758093
2.9,0.01963177697,-0.06835042874
2.91,-0.001013556599,-0.07093262556
2.92,-0.02147329007,-0.06742966316
2.93,-0.03999594098,-0.05816911717
2.94,-0.05500332611,-0.04397075063
2.95,-0.06522544223,-0.02607436996
2.96,-0.06980843691,-0.006031716043
2.97,-0.06838637559,0.01442819657
2.98,-0.06111066877,0.03354856755
2.99,-0.04863472716,0.04969612036
3,-0.03205533202,0.06150109593
3.01,-0.01281598956,0.06797382359
3.02,0.007419156112,0.06858786205
3.03,0.02690974617,0.06332267929
3.04,0.04398932659,0.05266242088
3.05,0.05720811793,0.03755117484
3.06,0.0654561364,0.01930892967
3.07,0.06805618741,-0.0004841969377
3.08,0.06481897015,-0.02012520318
3.09,0.05605589208,-0.03793491722
3.1,0.04254888854,-0.05240149326
3.11,0.0254802468,-0.06230842762
3.12,0.006328823184,-0.06683630605
3.13,-0.01325816831,-0.06562986771
3.14,-0.03160665361,-0.05882502305
3.15,-0.04715835042,-0.04703392081
3.16,-0.05860248982,-0.03128972269
3.17,-0.06498558157,-0.01295611456
3.18,-0.06579015902,0.006390514653
3.19,-0.06097612597,0.02509609085
3.2,-0.05098150805,0.04156959392
3.21,-0.03668281825,0.0544176625
3.22,-0.01931860357,0.06256180599
3.23,-0.0003827773646,0.06532848004
3.24,0.0185031802,0.06250458555
3.25,0.03572834877,0.05435385349
3.26,0.04982918445,0.04159284463
3.27,0.05961351443,0.02532866214
3.28,0.06426127093,0.006963673329
3.29,0.06339346604,-0.01192469385
3.3,0.05710356269,-0.02971890425
3.31,0.04594855388,-0.0448995717
3.32,0.03090046512,-0.0561752519
3.33,0.01326236354,-0.06259267904
3.34,-0.005443993962,-0.06361797389
3.35,-0.02360927543,-0.0591817968
3.36,-0.03967519141,-0.04968449063
3.37,-0.05226865325,-0.03596070052
3.38,-0.06031984325,-0.01920647412
3.39,-0.06315392179,-0.0008751289231
3.4,-0.06054836524,0.01744907115
3.41,-0.05275092067,0.03418841287
3.42,-0.0404566186,0.04790837853
3.43,-0.02474589613,0.05744147034
3.44,-0.006989323257,0.06198737467
3.45,0.01127261844,0.0611807283
3.46,0.02846405624,0.05512063832
3.47,0.04311065716,0.04435952015
3.48,0.05396691435,0.02985244301
3.49,0.06012265458,0.01287167581
3.5,0.0610795509,-0.005105813098
3.51,0.05679115937,-0.02252780797
3.52,0.04766329165,-0.03790174382
3.53,0.03451507932,-0.04992318154
3.54,0.01850455487,-0.05758669536
3.55,0.001025652889,-0.06026970057
3.56,-0.01641404896,-0.05778225902
3.57,-0.03232398125,-0.05037898536
3.58,-0.04535819966,-0.03873254767
3.59,-0.05442899736,-0.02387160533
3.6,-0.05879695082,-0.007089056701
3.61,-0.05813004567,0.01017107879
3.62,-0.05252732347,0.02643814464
3.63,-0.04250561,0.04033992286
3.64,-0.02895105179,0.05071769111
3.65,-0.01304012768,0.05672171235
3.66,0.003862724812,0.05787944645
3.67,0.02032191657,0.05413121038
3.68,0.03495197257,0.04583082694
3.69,0.0465331066,0.03371174818
3.7,0.05411161595,0.01882197392
3.71,0.05707702389,0.002433583431
3.72,0.05520993438,-0.0140653307
3.73,0.04869704157,-0.02928723356
3.74,0.03811244953,-0.04196057891
3.75,0.02436718845,-0.0510346797
3.76,0.008631350567,-0.05576556332
3.77,-0.007764578707,-0.05577597527
3.78,-0.02344100981,-0.05108483173
3.79,-0.03708402318,-0.04210390604
3.8,-0.04755426675,-0.02960217347
3.81,-0.05398112482,-0.0146408319
3.82,-0.05583451058,0.001515636108
3.83,-0.05296844074,0.01750507022
3.84,-0.04563282256,0.03198126762
3.85,-0.03445244658,0.04372633591
3.86,-0.02037483756,0.05175252159
3.87,-0.004591162241,0.05538508241
3.88,0.01156337554,0.05431926988
3.89,0.02672148844,0.04864656469
3.9,0.03959885571,0.03884780619
3.91,0.04910267606,0.02575358208
3.92,0.05442457648,0.0104749768
3.93,0.05510994526,-0.005689707702
3.94,0.05109765589,-0.02136456283
3.95,0.04272658422,-0.03521285363
3.96,0.03070810125,-0.04605109427
3.97,0.01606661632,-0.05295066339
3.98,5.300512175E-05,-0.05531816148
3.99,-0.01596185717,-0.05294744257
4,-0.03060444255,-0.04603862061
4.01,-0.04261674352,-0.03518216189
4.02,-0.05096504685,-0.02130919016
4.03,-0.05492980184,-0.005612086646
4.04,-0.05416864309,0.01055789862
4.05,-0.0487469128,0.02580723595
4.06,-0.03913283743,0.03882080058
4.07,-0.02615760446,0.04847611412
4.08,-0.01094368175,0.05394110353
4.09,0.005192453915,0.05474673635
4.1,0.02085471761,0.05082806903
4.11,0.03468893248,0.04253001514
4.12,0.04550078181,0.03057725398
4.13,0.05235980498,0.01601087961
4.14,0.05468026444,9.734635932E-05
4.15,0.05227175406,-0.01578226717
4.16,0.04535510412,-0.03025290445
4.17,0.03454222143,-0.04206544106
4.18,0.02078170646,-0.05020529125
4.19,0.005275122578,-0.05398016823
4.2,-0.01062861825,-0.05307933151
4.21,-0.02555137551,-0.04759920869
4.22,-0.03820596023,-0.0380332792
4.23,-0.04750779868,-0.02522728034
4.24,-0.05266831519,-0.01030385565
4.25,-0.05326194445,0.005436561894
4.26,-0.04926106479,0.02062978941
4.27,-0.04103601169,0.03396676526
4.28,-0.02932042476,0.04430681577
4.29,-0.01514522432,0.05077546191
4.3,0.0002527645057,0.05283835453
4.31,0.01553935897,0.05034509588
4.32,0.02939913452,0.04353939917
4.33,0.04064894416,0.03303501269
4.34,0.04833900976,0.01975982405
4.35,0.0518329417,0.004873302833
4.36,0.05085997061,-0.01033530234
4.37,0.04553516105,-0.02455901206
4.38,0.0363461989,-0.03658562796
4.39,0.02410824985,-0.04540100291
4.4,0.009891123338,-0.05027427971
4.41,-0.005074689795,-0.05081797011
4.42,-0.01950480292,-0.04701799914
4.43,-0.03217124328,-0.03923148035
4.44,-0.0420068035,-0.02815278294
4.45,-0.04819458512,-0.0147511581
4.46,-0.05023526548,-0.0001855797999
4.47,-0.04798661787,0.01429567531
4.48,-0.04167225048,0.02746198464
4.49,-0.03185918745,0.03820470916
4.5,-0.01940656456,0.04563007833
4.51,-0.005390128632,0.04913290139
4.52,0.008990787957,0.04844510248
4.53,0.02251575795,0.04365528291
4.54,0.0340464678,0.0351980063
4.55,0.04262195553,0.0238140646
4.56,0.04753797579,0.01048539986
4.57,0.04840402439,-0.003649572248
4.58,0.04517350683,-0.01739293123
4.59,0.03814483139,-0.02958828013
4.6,0.02793365267,-0.03921736979
4.61,0.01541887948,-0.04548432813
4.62,0.001667198667,-0.04788062734
4.63,-0.01215741868,-0.04622559261
4.64,-0.02489159987,-0.04067932848
4.65,-0.03546969001,-0.03172723734
4.66,-0.04301210152,-0.02013764036
4.67,-0.04689768023,-0.006896195873
4.68,-0.04681424091,0.006877327916
4.69,-0.04278324901,0.02002297434
4.7,-0.03515675625,0.03143743836
4.71,-0.02458696422,0.04016585641
4.72,-0.01197101245,0.04548102324
4.73,0.001624408174,0.04694355886
4.74,0.01505238541,0.04443811029
4.75,0.02718169845,0.03818262534
4.76,0.03699141285,0.02870992716
4.77,0.04365634966,0.01682307648
4.78,0.04661634279,0.003528156323
4.79,0.04562349687,-0.01005001906
4.8,0.04076343526,-0.02276233462
4.81,0.03244864794,-0.03353212481
4.82,0.02138434668,-0.04144617235
4.83,0.008509525738,-0.04583229349
4.84,-0.005081975399,-0.04631689745
4.85,-0.01823388388,-0.04285752314
4.86,-0.02982565039,-0.0357474152
4.87,-0.03886805018,-0.0255915401
4.88,-0.04458805239,-0.01325586979
4.89,-0.04649560853,0.0002059299436
4.9,-0.04442648424,0.01364227952
4.91,-0.03855726391,0.02590231626
4.92,-0.02939103164,0.03593490859
4.93,-0.01771477269,0.04287946699
4.94,-0.004532023276,0.0461405996
4.95,0.009023498444,0.04544000867
4.96,0.02178582622,0.04084097464
4.97,0.03265771521,0.03274316311
4.98,0.04070579678,0.02184810351
4.99,0.04524153911,0.009098292492
5,0.04588086283,-0.004404768967
5.01,0.04257714082,-0.01749640677
5.02,0.03562467424,-0.02905002914
5.03,0.02563236688,-0.03807487724
5.04,0.01346997585,-0.04380166419
5.05,0.0001917534282,-0.04574859505
5.06,-0.01305571086,-0.04376203434
5.07,-0.02513326893,-0.03802837013
5.08,-0.03500780949,-0.029056201
5.09,-0.04184103744,-0.01763060718
5.1,-0.04506074661,-0.004743717819
5.11,-0.04440851369,0.00849216704
5.12,-0.03995987723,0.02094117735
5.13,-0.03211552074,0.03154171506
5.14,-0.02156452536,0.03939705537
5.15,-0.00922316834,0.04385096843
5.16,0.003845191181,0.04454202715
5.17,0.01652205094,0.04143219398
5.18,0.02772953406,0.03480754942
5.19,0.03652178747,0.02525143313
5.2,0.04216430693,0.01359260557
5.21,0.04419462209,0.0008331091162
5.22,0.04245944048,-0.01193785572
5.23,0.03712539164,-0.02363664364
5.24,0.02866275328,-0.03327662596
5.25,0.01780379392,-0.04005076586
5.26,0.005479447615,-0.04339850297
5.27,-0.007260217019,-0.04305151465
5.28,-0.01933499233,-0.03905471638
5.29,-0.02972553307,-0.03176093152
5.3,-0.0375587975,-0.02179983493
5.31,-0.04218086663,-0.01002388219
5.32,-0.04321115091,0.002564188376
5.33,-0.04057354508,0.0148961966
5.34,-0.03450199793,0.02592861947
5.35,-0.02552007562,0.03473043751
5.36,-0.01439624529,0.0405614037
5.37,-0.002078620034,0.04293419539
5.38,0.01038537952,0.04165523571
5.39,0.02193771699,0.03684073568
5.4,0.03159933266,0.02890657045
5.41,0.0385530778,0.01853279696
5.42,0.04221296036,0.006605763339
5.43,0.04227379871,-0.005857327867
5.44,0.03873701801,-0.01779502653
5.45,0.03191033931,-0.02819205345
5.46,0.02238133652,-0.03616581387
5.47,0.01096707929,-0.04104159385
5.48,-0.001355853681,-0.04240997503
5.49,-0.01353500006,-0.04016151839
5.5,-0.02453209451,-0.0344957209
5.51,-0.03341185023,-0.02590347177
5.52,-0.03942179348,-0.01512453105
5.53,-0.04205627888,-0.003083720401
5.54,-0.04109919183,0.009188640228
5.55,-0.03664170241,0.02064515836
5.56,-0.0290736083,0.03031101408
5.57,-0.01904909781,0.0373671012
5.58,-0.007429974685,0.04121953555
5.59,0.004788680143,0.0415496147
5.6,0.01656394698,0.03834003199
5.61,0.02689422676,0.03187521853
5.62,0.03490447165,0.02271592288
5.63,0.03992022745,0.01165034561
5.64,0.04152423867,-0.0003738675613
5.65,0.03959090077,-0.01233087108
5.66,0.03429576415,-0.02320412022
5.67,0.02609943124,-0.03207266733
5.68,0.01570735908,-0.03818895233
5.69,0.004009101412,-0.04104155701
5.7,-0.007997769293,-0.04039770444
5.71,-0.01929256648,-0.03632202058
5.72,-0.02891802615,-0.02917008728
5.73,-0.03606118269,-0.01955743539
5.74,-0.04012179912,-0.008306679003
5.75,-0.04076263489,0.00362269026
5.76,-0.03793737154,0.01521589482
5.77,-0.03189389567,0.02548895596
5.78,-0.0231527054,0.03357201469
5.79,-0.01246229143,0.03878286976
5.8,-0.0007352759525,0.040684536
5.81,0.01102928793,0.03912196717
5.82,0.02183088171,0.03423483799
5.83,0.03075255433,0.02644529684
5.84,0.03703880512,0.01642171802
5.85,0.04015969111,0.005021521333
5.86,0.03985568978,-0.006782083938
5.87,0.03615947771,-0.01798319084
5.88,0.02939275187,-0.02762902619
5.89,0.02013835697,-0.03490117598
5.9,0.009190105573,-0.03918524167
5.91,-0.002515397117,-0.04012295157
5.92,-0.01397905503,-0.03764226063
5.93,-0.02422479136,-0.03196287354
5.94,-0.03238290095,-0.02357675421
5.95,-0.03776407475,-0.01320535182
5.96,-0.0399177489,-0.001737287724
5.97,-0.03866980792,0.00984806982
5.98,-0.03413647862,0.02056451427
5.99,-0.02671332733,0.02950314693
6,-0.0170404316,0.03590953479
