"Freq [GHz]","re(S(Rx_p1,Tx_p1)) []","im(S(Rx_p1,Tx_p1)) []"
1,-0.04916887025,-0.1202406128
1.01,-0.08192944823,-0.1000011752
1.02,-0.1071641533,-0.07117838869
1.03,-0.1227379508,-0.03639603704
1.04,-0.1273880098,0.001230196083
1.05,-0.1208229786,0.03837141462
1.06,-0.1037363884,0.07177887045
1.07,-0.07773431436,0.09856647752
1.08,-0.04518471659,0.1164582854
1.09,-0.009002450642,0.1239800409
1.1,0.02761076316,0.1205789908
1.11,0.06144848784,0.106662373
1.12,0.08957924248,0.08355209178
1.13,0.1095995262,0.05336027778
1.14,0.1198384909,0.01879720841
1.15,0.1194968785,-0.01707117285
1.16,0.1087086372,-0.05109463265
1.17,0.0885204239,-0.08031501818
1.18,0.06079139556,-0.1022234103
1.19,0.02802266697,-0.1149756596
1.2,-0.006868050873,-0.1175476858
1.21,-0.04080637022,-0.1098173448
1.22,-0.07083250994,-0.09256624335
1.23,-0.09435989913,-0.06740202999
1.24,-0.1093983655,-0.03660874904
1.25,-0.1147225147,-0.002939185553
1.26,-0.1099709688,0.03063183617
1.27,-0.09566843725,0.06117095179
1.28,-0.07316956041,0.08604305835
1.29,-0.04453044202,0.1031388053
1.3,-0.01232013959,0.1110530671
1.31,0.02061045948,0.1091993193
1.32,0.05138143427,0.09785074691
1.33,0.07733577271,0.0781055326
1.34,0.09626838059,0.05178050035
1.35,0.1066124712,0.02124351072
1.36,0.1075677277,-0.01079981391
1.37,0.09915998997,-0.04154575105
1.38,0.08222835687,-0.06833729899
1.39,0.05834195181,-0.08889286635
1.4,0.02965463121,-0.1014993136
1.41,-0.001288898147,-0.1051532379
1.42,-0.0317781523,-0.09963910152
1.43,-0.05917335424,-0.08553838809
1.44,-0.08113288473,-0.06416993522
1.45,-0.09581232137,-0.03746744496
1.46,-0.1020183603,-0.007805425566
1.47,-0.09930494746,0.0222109436
1.48,-0.08800398917,0.04997364071
1.49,-0.06918863803,0.07309761506
1.5,-0.04457290334,0.08962521178
1.51,-0.01635673376,0.09819179246
1.52,0.01296967003,0.09813855421
1.53,0.04084512085,0.08956314488
1.54,0.0648611276,0.07330406641
1.55,0.08297050457,0.05086060219
1.56,0.09366277077,0.02425561204
1.57,0.09609113885,-0.004146474456
1.58,0.09014017588,-0.03185020976
1.59,0.07642848584,-0.05644946602
1.6,0.05624655804,-0.07583795894
1.61,0.03143573092,-0.08839127924
1.62,0.004219505053,-0.09310437207
1.63,-0.0229972912,-0.0896724976
1.64,-0.04784313392,-0.07850890642
1.65,-0.06818874108,-0.0606982872
1.66,-0.08233150119,-0.03789094252
1.67,-0.08913901979,-0.01214805494
1.68,-0.08813937745,0.01424720289
1.69,-0.07955079725,0.03899500763
1.7,-0.06424915382,0.05998173326
1.71,-0.04367755115,0.07546195652
1.72,-0.01970747997,0.084203598
1.73,0.005534677113,0.08558398635
1.74,0.02985919162,0.07962951109
1.75,0.05120482221,0.0669969641
1.76,0.06781373977,0.04890010372
1.77,0.07837453292,0.02698986883
1.78,0.08212179626,0.003200560103
1.79,0.07888523858,-0.02042314581
1.8,0.06908611915,-0.04190245791
1.81,0.05368362298,-0.05948862551
1.82,0.03407805715,-0.07180149754
1.83,0.01198111446,-0.07793199621
1.84,-0.01073434375,-0.07750174237
1.85,-0.03219159628,-0.07067711181
1.86,-0.05066137176,-0.05813895141
1.87,-0.06469545143,-0.04101268819
1.88,-0.07323307811,-0.02076635883
1.89,-0.07567345063,0.0009139869176
1.9,-0.0719105894,0.02226104747
1.91,-0.06232983035,0.04156459683
1.92,-0.04776791909,0.05730139418
1.93,-0.02944098429,0.06824789459
1.94,-0.008846487725,0.0735685975
1.95,0.01235344085,0.07287474117
1.96,0.03245905048,0.0662500481
1.97,0.04986178225,0.0542422584
1.98,0.06316625382,0.03782119793
1.99,0.07129721688,0.01830608154
2,0.07358405923,-0.002733383629
2.01,0.06981657978,-0.02359579928
2.02,0.06026732643,-0.04257896388
2.03,0.04567775548,-0.0581138219
2.04,0.02720781408,-0.0688916887
2.05,0.006351174823,-0.07397479774
2.06,-0.0151788856,-0.07288077046
2.07,-0.03558528957,-0.06563297347
2.08,-0.05313462556,-0.05277091681
2.09,-0.0663045371,-0.03531778427
2.1,-0.07391844815,-0.01470569251
2.11,-0.07525528242,0.007336930837
2.12,-0.07012327188,0.02892773302
2.13,-0.05888956583,0.04819120858
2.14,-0.04246099099,0.06342407773
2.15,-0.0222156808,0.07325028135
2.16,0.0001100175324,0.07675081761
2.17,0.02257041794,0.07355536797
2.18,0.04318233866,0.06388580717
2.19,0.06010434358,0.04854600977
2.2,0.07180653092,0.02885744882
2.21,0.07721442154,0.006545417952
2.22,0.07581261124,-0.01641427261
2.23,0.06769750462,-0.03797412446
2.24,0.05357329233,-0.05620249505
2.25,0.03469087606,-0.06946191765
2.26,0.01273510341,-0.07656095729
2.27,-0.01032915722,-0.07686484151
2.28,-0.03243744907,-0.07035411342
2.29,-0.05161537948,-0.05762567128
2.3,-0.06615933592,-0.03983624102
2.31,-0.07479108616,-0.01859397195
2.32,-0.07677178474,0.004191138917
2.33,-0.07196502585,0.02648341691
2.34,-0.06084366362,0.04630734677
2.35,-0.04444061686,0.06192552687
2.36,-0.02424921553,0.07199231018
2.37,-0.002083293269,0.07566939256
2.38,0.020089256,0.07269354473
2.39,0.04032366112,0.06339142173
2.4,0.05686989797,0.04864142205
2.41,0.06832350037,0.02978740478
2.42,0.07374271283,0.008513254127
2.43,0.0727226102,-0.01330954923
2.44,0.06542095587,-0.03378726503
2.45,0.05253497157,-0.05116746934
2.46,0.0352324413,-0.06398691968
2.47,0.01504430814,-0.07119163229
2.48,-0.006271134975,-0.07221987921
2.49,-0.02688039687,-0.06704221548
2.5,-0.0450303249,-0.05615635
2.51,-0.05919423752,-0.0405383689
2.52,-0.06819700929,-0.0215552298
2.53,-0.07130944251,-0.000846340748
2.54,-0.06830488141,0.01981575489
2.55,-0.05947407931,0.03867416204
2.56,-0.04559759547,0.05413391825
2.57,-0.02787825744,0.0648941388
2.58,-0.007839267003,0.07005554299
2.59,0.01280384167,0.06919479282
2.6,0.03228713709,0.06239961739
2.61,0.04894654951,0.05026171024
2.62,0.06135841252,0.03382768018
2.63,0.06846067965,0.01451168565
2.64,0.06964455958,-0.006023455754
2.65,0.06480852372,-0.02600716748
2.66,0.05436958266,-0.04371246437
2.67,0.03923020368,-0.05760503313
2.68,0.02070298829,-0.06647719663
2.69,0.0003989371355,-0.06955489504
2.7,-0.0199115328,-0.06656787622
2.71,-0.03845300934,-0.05777630098
2.72,-0.05360146637,-0.04395070515
2.73,-0.06402863687,-0.02630640629
2.74,-0.0688212001,-0.006397619759
2.75,-0.06756365388,0.01401964264
2.76,-0.06037689852,0.03314376399
2.77,-0.04790855049,0.04928870159
2.78,-0.03127546186,0.06103538548
2.79,-0.01196341705,0.06735930931
2.8,0.008306937766,0.06772239542
2.81,0.02773561965,0.06212050604
2.82,0.04460588425,0.05108213095
2.83,0.0574387445,0.03561840161
2.84,0.06512509171,0.01712920023
2.85,0.06702324067,-0.002725713108
2.86,0.0630130614,-0.02217835954
2.87,0.0535020399,-0.03951272338
2.88,0.03938320336,-0.05321852965
2.89,0.02194938891,-0.0621244785
2.9,0.002772377862,-0.06549893921
2.91,-0.01644143165,-0.06310936274
2.92,-0.03400517316,-0.0552356982
2.93,-0.04840121935,-0.04263747868
2.94,-0.05841293293,-0.02647853994
2.95,-0.06322694405,-0.008217136181
2.96,-0.0624974512,0.01052782744
2.97,-0.05636774625,0.02812186602
2.98,-0.04544817703,0.04305807649
2.99,-0.03075369398,0.05408577505
3,-0.01360761876,0.06031371324
3.01,0.004478976874,0.06127959946
3.02,0.02194109483,0.05698089801
3.03,0.03729491408,0.04786542068
3.04,0.04926258287,0.03478373673
3.05,0.05687642007,0.01890860211
3.06,0.05955436691,0.001629195416
3.07,0.0571412341,-0.01557023714
3.08,0.04991331866,-0.03123678718
3.09,0.038547053,-0.04406976262
3.1,0.02405524698,-0.05302627651
3.11,0.007696974423,-0.05740333917
3.12,-0.009130929038,-0.05689038176
3.13,-0.02501156722,-0.05158866409
3.14,-0.03862521955,-0.04199672724
3.15,-0.04885672559,-0.02896373546
3.16,-0.05488461093,-0.01361501988
3.17,-0.05624513574,0.002743782327
3.18,-0.05286651475,0.01873604228
3.19,-0.04507094587,0.03302802185
3.2,-0.0335446201,0.04443818541
3.21,-0.01927838424,0.05203323983
3.22,-0.003484010168,0.05520329728
3.23,0.01250707629,0.05371022885
3.24,0.02735438053,0.0477054087
3.25,0.03981927206,0.03771548193
3.26,0.04886725681,0.02459734431
3.27,0.05375325057,0.009466002511
3.28,0.05408285635,-0.006398806336
3.29,0.04984456724,-0.02165959714
3.3,0.0414101684,-0.03503292461
3.31,0.02950321455,-0.0453967281
3.32,0.01513810197,-0.05188429255
3.33,-0.0004652814159,-0.05395693758
3.34,-0.01598426916,-0.05144927236
3.35,-0.03010492964,-0.04458311509
3.36,-0.04163302003,-0.03394879124
3.37,-0.04959501119,-0.02045527324
3.38,-0.0533206008,-0.005253273563
3.39,-0.05249965798,0.01036227715
3.4,-0.04720868326,0.0250621485
3.41,-0.03790444391,0.03759581189
3.42,-0.02538523643,0.04689790931
3.43,-0.01072299605,0.05217909423
3.44,0.004828022656,0.05299345394
3.45,0.0199382464,0.04927670074
3.46,0.03331635189,0.04135180457
3.47,0.04381970107,0.02990151805
3.48,0.05055218357,0.0159100798
3.49,0.0529410613,0.0005790285391
3.5,0.05078618806,-0.01477570771
3.51,0.044277328,-0.02883665827
3.52,0.0339780217,-0.04039792776
3.53,0.02077731575,-0.04846886946
3.54,0.005813435299,-0.0523593811
3.55,-0.009624095455,-0.05173944119
3.56,-0.02420550383,-0.04666769637
3.57,-0.03667544428,-0.03758655853
3.58,-0.04596140479,-0.02528415064
3.59,-0.05126645261,-0.01082630676
3.6,-0.05213824569,0.004535562559
3.61,-0.04850826108,0.01947281023
3.62,-0.0406977548,0.03269472661
3.63,-0.02938985068,0.04306054038
3.64,-0.01557011053,0.04967847406
3.65,-0.0004407055865,0.05198317437
3.66,0.01468435517,0.04978470011
3.67,0.02849379117,0.0432847254
3.68,0.03979336908,0.03305849026
3.69,0.04760992419,0.02000405056
3.7,0.05127592137,0.005263276613
3.71,0.05048709999,-0.00987843755
3.72,0.0453281287,-0.02410489284
3.73,0.03626403833,-0.03618426057
3.74,0.02409824986,-0.04507652715
3.75,0.009900991493,-0.05002372131
3.76,-0.005085466182,-0.05061499236
3.77,-0.01955627772,-0.04682087681
3.78,-0.03225843408,-0.03899386488
3.79,-0.04209996617,-0.0278354016
3.8,-0.0482443152,-0.01433245292
3.81,-0.05018163586,0.0003305408736
3.82,-0.04777092122,0.01487635641
3.83,-0.04124949056,0.0280469484
3.84,-0.03120931608,0.03871275686
3.85,-0.01854260911,0.04596978454
3.86,-0.004361774263,0.04921606841
3.87,0.01009896817,0.04820109713
3.88,0.02359148419,0.0430441957
3.89,0.03496164317,0.03422067621
3.9,0.04324788942,0.02251738494
3.91,0.04776207343,0.008961908806
3.92,0.04814582519,-0.005268088824
3.93,0.04439797519,-0.01894733351
3.94,0.03687109048,-0.03090826716
3.95,0.02623786257,-0.04014021252
3.96,0.01343063138,-0.04587403315
3.97,-0.000440458086,-0.04764531864
3.98,-0.01418346626,-0.04533105079
3.99,-0.02662657031,-0.03915701015
4,-0.03671724863,-0.02967566496
4.01,-0.04361046654,-0.01771673888
4.02,-0.04673861599,-0.004314884061
4.03,-0.0458575585,0.009379282521
4.04,-0.04106515041,0.02219722281
4.05,-0.03279092452,0.03305137392
4.06,-0.02175797892,0.04102666667
4.07,-0.008920395858,0.04545709493
4.08,0.004618495257,0.04598102732
4.09,0.01770013961,0.04257071828
4.1,0.02920919094,0.0355336054
4.11,0.03816811871,0.02548530785
4.12,0.04382005102,0.01329658477
4.13,0.04569286813,1.868578428E-05
4.14,0.04363909541,-0.0132066476
4.15,0.03784814572,-0.02524494497
4.16,0.02882977348,-0.03506624146
4.17,0.01737003977,-0.04183347215
4.18,0.004463448855,-0.04497440139
4.19,-0.00877300261,-0.04423081192
4.2,-0.0211965058,-0.03968058984
4.21,-0.03173749211,-0.0317306626
4.22,-0.0394924197,-0.02108128069
4.23,-0.04380213599,-0.008664661269
4.24,-0.04430887153,0.004436695494
4.25,-0.04098677276,0.0170848613
4.26,-0.03414321534,0.02818612937
4.27,-0.02439074755,0.03678661031
4.28,-0.01259215874,0.04215525771
4.29,0.0002163977644,0.0438469221
4.3,0.0129173041,0.04173983532
4.31,0.0244101163,0.03604425333
4.32,0.03370806385,0.02728161824
4.33,0.04002376362,0.01623628933
4.34,0.04283653585,0.003884382929
4.35,0.04193544756,-0.00869368581
4.36,0.03743447983,-0.02040894344
4.37,0.02975879827,-0.0302592043
4.38,0.01960375017,-0.03741549986
4.39,0.007870664185,-0.04129201353
4.4,-0.004414442028,-0.04159357249
4.41,-0.01619171752,-0.03833689357
4.42,-0.02645967206,-0.03184422586
4.43,-0.03436055975,-0.02271053876
4.44,-0.03925162097,-0.01174773391
4.45,-0.0407563085,8.869983134E-05
4.46,-0.03879156077,0.01178378187
4.47,-0.03356940381,0.02235035134
4.48,-0.02557344879,0.03091202826
4.49,-0.01551299381,0.03677489189
4.5,-0.004259252572,0.03948215273
4.51,0.007230423366,0.03884774026
4.52,0.01799367824,0.03496664352
4.53,0.0271428012,0.02820184451
4.54,0.03393643281,0.01914960223
4.55,0.03783775747,0.008586524821
4.56,0.03855489582,-0.002596810944
4.57,0.03606076812,-0.0134700494
4.58,0.0305913898,-0.02313900322
4.59,0.0226232495,-0.03081737254
4.6,0.01283198632,-0.03588875521
4.61,0.00203592419,-0.03795434878
4.62,-0.008870939639,-0.03686292097
4.63,-0.01899121197,-0.03272100481
4.64,-0.02749606694,-0.02588275963
4.65,-0.03369140497,-0.0169204341
4.66,-0.03707318186,-0.006577779591
4.67,-0.03736768866,0.00428999373
4.68,-0.03455366272,0.01478512643
4.69,-0.02886443637,0.02403980438
4.7,-0.02076980503,0.0312866309
4.71,-0.01093882666,0.03592153742
4.72,-0.0001862487047,0.03755407039
4.73,0.0105934116,0.03604086297
4.74,0.02049903774,0.03149932282
4.75,0.02869752708,0.02430006975
4.76,0.03449376067,0.01503833696
4.77,0.03739005003,0.004486282838
4.78,0.03712988447,-0.00647019547
4.79,0.03372197196,-0.01690514531
4.8,0.02744212793,-0.02593069773
4.81,0.01881240303,-0.03277306639
4.82,0.008558801509,-0.03683981365
4.83,-0.002449146075,-0.03777238287
4.84,-0.01327200788,-0.03547904675
4.85,-0.0229810359,-0.03014504963
4.86,-0.03073871554,-0.02221869151
4.87,-0.03587214815,-0.01237424017
4.88,-0.03793265458,-0.001454665706
4.89,-0.03673613124,0.009600931987
4.9,-0.0323803637,0.01983887436
4.91,-0.02523755641,0.02837421401
4.92,-0.01592258031,0.03446835399
4.93,-0.005239658958,0.03759399151
4.94,0.005887804191,0.03748152076
4.95,0.01649800291,0.03414270198
4.96,0.0256748823,0.02786947037
4.97,0.03262814261,0.01920802122
4.98,0.03676196441,0.008910550716
4.99,0.03772638197,-0.00213095766
5,0.03544683788,-0.01296292153
5.01,0.03012944994,-0.02265331752
5.02,0.0222417202,-0.03037242956
5.03,0.01247060595,-0.03546410903
5.04,0.001661853884,-0.03750140122
5.05,-0.009253906,-0.03632185824
5.06,-0.01934173469,-0.03203971059
5.07,-0.02774258141,-0.02503413077
5.08,-0.03374621154,-0.01591490391
5.09,-0.03685071936,-0.005468739117
5.1,-0.03680373545,0.005408950807
5.11,-0.03362207889,0.01579082904
5.12,-0.02758847766,0.02479638862
5.13,-0.01922592206,0.03166604674
5.14,-0.009252064406,0.03582444589
5.15,0.001482314462,0.03692781878
5.16,0.01206550471,0.03489165959
5.17,0.02160166892,0.02989660342
5.18,0.02928588207,0.0223722119
5.19,0.03447125734,0.01296015356
5.2,0.03672269713,0.002459917002
5.21,0.03585292231,-0.008238420845
5.22,0.0319378776,-0.01822882858
5.23,0.02531027661,-0.02666523242
5.24,0.01653180928,-0.03283248091
5.25,0.006346256516,-0.03620652375
5.26,-0.004382689947,-0.03649881459
5.27,-0.01474383967,-0.0336811983
5.28,-0.02385520954,-0.02798910473
5.29,-0.03093867605,-0.01990262891
5.3,-0.03538632399,-0.01010689597
5.31,-0.03681285169,0.00056515407
5.32,-0.03508948029,0.01120291542
5.33,-0.0303563024,0.02089539821
5.34,-0.02301178331,0.02880914893
5.35,-0.01368005376,0.03426015925
5.36,-0.003158546906,0.03677352179
5.37,0.007649731003,0.03612554847
5.38,0.01781360624,0.03236450463
5.39,0.02645419658,0.02580791843
5.4,0.0328214339,0.01701644804
5.41,0.03635990701,0.006746354794
5.42,0.03675813483,-0.004115449156
5.43,0.03397677718,-0.01462821163
5.44,0.0282531151,-0.02387932081
5.45,0.02008122568,-0.03106423324
5.46,0.01016944904,-0.03555724289
5.47,-0.0006212026606,-0.0369667485
5.48,-0.01135230424,-0.0351700259
5.49,-0.02109029283,-0.03032432913
5.5,-0.02898844546,-0.02285326289
5.51,-0.03436124852,-0.01340959539
5.52,-0.03674452041,-0.002817806914
5.53,-0.03593592892,0.007998501958
5.54,-0.0320123138,0.01809785803
5.55,-0.02532231878,0.02660356757
5.56,-0.01645506058,0.0327804172
5.57,-0.006187709176,0.03609863228
5.58,0.004583272711,0.03627947838
5.59,0.01492105284,0.03331856695
5.6,0.02393047559,0.0274849424
5.61,0.03083597101,0.01929619715
5.62,0.03504849811,0.009471984877
5.63,0.03621572993,-0.001129810322
5.64,0.03425122457,-0.01158850612
5.65,0.02934022021,-0.02100095519
5.66,0.02192176697,-0.02855972589
5.67,0.01264897851,-0.03362234756
5.68,0.002331070369,-0.03576569696
5.69,-0.008137612439,-0.03482096436
5.7,-0.01785531376,-0.03088637481
5.71,-0.02599056159,-0.02431679356
5.72,-0.03185315611,-0.01569134447
5.73,-0.03495242315,-0.005762042714
5.74,-0.03503786746,0.004611967895
5.75,-0.03211891979,0.01453880692
5.76,-0.02646229062,0.02317044277
5.77,-0.01856736422,0.0297749198
5.78,-0.009121926777,0.03379811412
5.79,0.001057833177,0.03490985531
5.8,0.01109781954,0.03303062495
5.81,0.02014094606,0.02833672151
5.82,0.02742008251,0.02124362096
5.83,0.03232285518,0.01236910783
5.84,0.03444286413,0.002479449104
5.85,0.03361306786,-0.00757670747
5.86,0.02991862333,-0.01694102477
5.87,0.02368822463,-0.02481855205
5.88,0.01546480809,-0.03054498718
5.89,0.005958231998,-0.03364245773
5.9,-0.004015950709,-0.03385915858
5.91,-0.0136063549,-0.03118957812
5.92,-0.02199828776,-0.02587370809
5.93,-0.02848277068,-0.01837542174
5.94,-0.03251622551,-0.00934196952
5.95,-0.03376581679,0.0004518690015
5.96,-0.032136686,0.01017015854
5.97,-0.02777887029,0.01898702415
5.98,-0.02107343249,0.02615665095
5.99,-0.01259909191,0.03107614788
6,-0.00308228804,0.03333599621
