"Freq [GHz]","re(S(Rx_p1,Tx_p1)) []","im(S(Rx_p1,Tx_p1)) []"
1,-0.01715359058,-0.08357150526
1.01,-0.03998434191,-0.07533069933
1.02,-0.05960916395,-0.06102234724
1.03,-0.07446161024,-0.04176478507
1.04,-0.08333774992,-0.01906874209
1.05,-0.0854916221,0.005273469643
1.06,-0.08069859813,0.02932147957
1.07,-0.06928123902,0.05113430785
1.08,-0.05209449149,0.06892158629
1.09,-0.03046971871,0.081187566
1.1,-0.006119998211,0.08685676869
1.11,0.01898782982,0.0853707725
1.12,0.04278593918,0.07674712556
1.13,0.06327212776,0.06159375557
1.14,0.07867735869,0.04107540899
1.15,0.08762033987,0.01683242632
1.16,0.08923539204,-0.009143736698
1.17,0.08326125353,-0.0346697551
1.18,0.0700811266,-0.05755231324
1.19,0.05070805289,-0.07577766971
1.2,0.02671434217,-0.08769235267
1.21,0.0001088757351,-0.0921582908
1.22,-0.02682881918,-0.08866715554
1.23,-0.05174429738,-0.077401741
1.24,-0.07241682033,-0.05923663723
1.25,-0.08696197112,-0.03567589096
1.26,-0.09400912753,-0.008731293264
1.27,-0.09283633042,0.01924920533
1.28,-0.08344856885,0.04578828668
1.29,-0.06659052355,0.06850269831
1.3,-0.04369090557,0.08532258406
1.31,-0.01674210452,0.09468579968
1.32,0.01187474765,0.09568822509
1.33,0.03960365173,0.08817496104
1.34,0.06394681772,0.07276277348
1.35,0.08269501143,0.0507906906
1.36,0.09413320556,0.02420261143
1.37,0.09720172513,-0.004627558904
1.38,0.09159722766,-0.03311205812
1.39,0.07780359217,-0.05868640546
1.4,0.05704953287,-0.07904512357
1.41,0.0311968198,-0.09235373446
1.42,0.002569665875,-0.0974170137
1.43,-0.02625854157,-0.0937877346
1.44,-0.05270098135,-0.08180589741
1.45,-0.07439341792,-0.06256512703
1.46,-0.089408466,-0.03780986306
1.47,-0.09642834632,-0.009773469662
1.48,-0.09486051752,0.0190271684
1.49,-0.08488612813,0.04602113158
1.5,-0.06743764111,0.06881564734
1.51,-0.0441086078,0.0854096801
1.52,-0.01700476951,0.09436972855
1.53,0.01144912868,0.0949524517
1.54,0.03872867545,0.08716389205
1.55,0.06243514954,0.07175101588
1.56,0.08050664864,0.05012747322
1.57,0.09139645868,0.02424132126
1.58,0.09420345392,-0.003602560102
1.59,0.08874389555,-0.03094891696
1.6,0.07555937651,-0.05540882915
1.61,0.05586134491,-0.07486759409
1.62,0.03141812382,-0.08766589041
1.63,0.004395169641,-0.09273901379
1.64,-0.02283690937,-0.08970288742
1.65,-0.0479095996,-0.07888031174
1.66,-0.06866105044,-0.06126610956
1.67,-0.08332057146,-0.03843500431
1.68,-0.09065764516,-0.01240081993
1.69,-0.09008325299,0.0145604618
1.7,-0.08169546909,0.04010840309
1.71,-0.06626602579,0.06203964526
1.72,-0.04516951115,0.07847621306
1.73,-0.02026162379,0.0880247813
1.74,0.006282890607,0.08989363471
1.75,0.03215869398,0.08395765943
1.76,0.05512862776,0.07076608965
1.77,0.07321590768,0.05149254372
1.78,0.0848734231,0.02783173376
1.79,0.08911575453,0.001851727849
1.8,0.0856026625,-0.02418558608
1.81,0.07466690106,-0.04802045895
1.82,0.05728393835,-0.06759084123
1.83,0.03498613509,-0.08121070006
1.84,0.009728722267,-0.08771566315
1.85,-0.01628088331,-0.08656331614
1.86,-0.04077565109,-0.07787935814
1.87,-0.06162664654,-0.06244549889
1.88,-0.0770286032,-0.04163006025
1.89,-0.08565707387,-0.01726728174
1.9,-0.08678331935,0.00850412551
1.91,-0.08033678258,0.03342899209
1.92,-0.06690961535,0.0553336908
1.93,-0.04770286446,0.07231661986
1.94,-0.0244191219,0.08291431004
1.95,0.0008887747338,0.08622846287
1.96,0.02599947981,0.08200272473
1.97,0.04871909611,0.07064251387
1.98,0.06707389422,0.05317633281
1.99,0.07948268555,0.03116224627
2,0.08489363569,0.00654810182
2.01,0.08287357064,-0.01850183161
2.02,0.07364215572,-0.04179820735
2.03,0.05804831239,-0.06131883305
2.04,0.03749141701,-0.07538476122
2.05,0.01379472417,-0.08280480517
2.06,-0.01095736915,-0.08297601404
2.07,-0.0346035221,-0.07593168758
2.08,-0.05509468994,-0.06233325548
2.09,-0.07067174666,-0.04340734747
2.1,-0.08001607628,-0.02083418592
2.11,-0.08236030339,0.003402383182
2.12,-0.07755000252,0.02718970104
2.13,-0.06605162989,0.04847046496
2.14,-0.04890665815,0.06542019328
2.15,-0.02763654426,0.07660274801
2.16,-0.00410732204,0.08109079843
2.17,0.01963406005,0.07854131396
2.18,0.04153730385,0.0692201646
2.19,0.0597249035,0.05397432433
2.2,0.07265187662,0.03415463715
2.21,0.07923568656,0.01149624286
2.22,0.07894564056,-0.01203276406
2.23,0.07184458117,-0.0344013277
2.24,0.0585797656,-0.0536895419
2.25,0.04032410802,-0.06825214629
2.26,0.01867309505,-0.07685768966
2.27,-0.004493658571,-0.07879177791
2.28,-0.02717435494,-0.07391589119
2.29,-0.04741670007,-0.06267700261
2.3,-0.06348481228,-0.0460673525
2.31,-0.07400726496,-0.02553789735
2.32,-0.07809376964,-0.00287282331
2.33,-0.07541063219,0.01996421975
2.34,-0.06620856576,0.04099911617
2.35,-0.0513004444,0.05841714982
2.36,-0.03199080649,0.07071924724
2.37,-0.009963021783,0.0768512
2.38,0.01286632458,0.0762946987
2.39,0.03451341406,0.06911221136
2.4,0.05309929266,0.05594165248
2.41,0.06701320553,0.03794109418
2.42,0.07505293765,0.01668810348
2.43,0.07652982344,-0.005957724555
2.44,0.07132908199,-0.02801718356
2.45,0.05991998579,-0.04756468702
2.46,0.04331475207,-0.06289711877
2.47,0.02297957557,-0.07268338613
2.48,0.000705495563,-0.07608137108
2.49,-0.02154958179,-0.07281179625
2.5,-0.04183374133,-0.06318231433
2.51,-0.05837342721,-0.0480595584
2.52,-0.06972992987,-0.02879155921
2.53,-0.07492597672,-0.007087416154
2.54,-0.07353107443,0.01513501345
2.55,-0.0656979627,0.03591973099
2.56,-0.05214696257,0.05344617509
2.57,-0.03409972957,0.06619015426
2.58,-0.0131685127,0.07305769476
2.59,0.008788952305,0.07347986034
2.6,0.02983570042,0.06746018884
2.61,0.04812786917,0.05557073561
2.62,0.06207756357,0.03889740526
2.63,0.07049167908,0.01893985426
2.64,0.07267440501,-0.00252467369
2.65,0.06848453432,-0.02360103297
2.66,0.0583428869,-0.04244483377
2.67,0.04318971486,-0.05742487605
2.68,0.02439647277,-0.06726491111
2.69,0.003640386436,-0.07115233466
2.7,-0.01724652393,-0.06880456203
2.71,-0.03644019731,-0.0604877678
2.72,-0.05228446113,-0.04698701461
2.73,-0.06343403152,-0.02953114338
2.74,-0.06896823165,-0.009679757308
2.75,-0.06846589266,0.01081714547
2.76,-0.06203550697,0.03017412074
2.77,-0.05029875332,0.04672600397
2.78,-0.03432963535,0.05907081387
2.79,-0.01555530437,0.06618762855
2.8,0.004372155655,0.06751965505
2.81,0.02372137942,0.06301592995
2.82,0.04083194309,0.05312879419
2.83,0.05425616744,0.03876814588
2.84,0.06288049966,0.02121715476
2.85,0.06601645954,0.002017313932
2.86,0.06345392436,-0.01716684806
2.87,0.0554728602,-0.03469155242
2.88,0.04281319053,-0.0490737212
2.89,0.02660602302,-0.0591153159
2.9,0.008272641402,-0.06400180854
2.91,-0.01059974237,-0.0633668738
2.92,-0.02839468679,-0.05731834423
2.93,-0.04360401198,-0.04642377938
2.94,-0.05495453129,-0.03165738809
2.95,-0.06151352643,-0.0143132344
2.96,-0.06276437198,0.004107602501
2.97,-0.05864629901,0.02202617088
2.98,-0.04955533416,0.03792010024
2.99,-0.0363067089,0.05045204395
3,-0.02006223672,0.05858139232
3.01,-0.002229044846,0.0616500203
3.02,0.01566161131,0.05943506837
3.03,0.03208511866,0.05216455625
3.04,0.04565278942,0.04049476415
3.05,0.05522876952,0.02545152701
3.06,0.06002477806,0.008340608256
3.07,0.05966479305,-0.009365100937
3.08,0.05421436664,-0.02615188733
3.09,0.04417226312,-0.04059425184
3.1,0.03042531389,-0.0514757093
3.11,0.01417050331,-0.05789112252
3.12,-0.003188926656,-0.05932194748
3.13,-0.02016437423,-0.05567810573
3.14,-0.03530938007,-0.04730307233
3.15,-0.04734281013,-0.03494192625
3.16,-0.05525720964,-0.01967528359
3.17,-0.05840313505,-0.002824946597
3.18,-0.05654237611,0.01416049753
3.19,-0.04986568797,0.02983021329
3.2,-0.03897372805,0.04285505677
3.21,-0.02482306375,0.05214030111
3.22,-0.008642109291,0.05691756151
3.23,0.008175597353,0.05680818787
3.24,0.02419147269,0.05185290162
3.25,0.03804494093,0.04250539438
3.26,0.04856891182,0.02959071802
3.27,0.05488787375,0.01423230822
3.28,0.05649037054,-0.002245864389
3.29,0.05326989927,-0.01843345532
3.3,0.04553102212,-0.03295434993
3.31,0.03396048271,-0.04458339028
3.32,0.01956609835,-0.05234934235
3.33,0.003588906721,-0.05561549332
3.34,-0.01260374596,-0.05413125629
3.35,-0.02763495863,-0.04805068257
3.36,-0.04023492289,-0.03791661829
3.37,-0.04934763049,-0.02461214753
3.38,-0.05421874547,-0.009283695639
3.39,-0.05445741499,0.006757503083
3.4,-0.05006704503,0.02214712608
3.41,-0.04144270473,0.03558320367
3.42,-0.02933562538,0.04593558877
3.43,-0.0147879925,0.05234034256
3.44,0.0009563282339,0.05427124821
3.45,0.01655753549,0.05158261843
3.46,0.03069319597,0.04451997867
3.47,0.04216962121,0.03369788724
3.48,0.05002203716,0.02004687658
3.49,0.05359523071,0.004734046959
3.5,0.05259799881,-0.01093599028
3.51,0.04712690961,-0.02563151042
3.52,0.0376574335,-0.03810617606
3.53,0.02500320938,-0.04730423187
3.54,0.0102468586,-0.05244958707
3.55,-0.005351868789,-0.05311130798
3.56,-0.02046292865,-0.04923999366
3.57,-0.03379883697,-0.04117192441
3.58,-0.04422404546,-0.02960056095
3.59,-0.05085159151,-0.01551771236
3.6,-0.0531188018,-0.0001292566789
3.61,-0.05083555377,0.01524752587
3.62,-0.04420088573,0.02929634801
3.63,-0.03378641055,0.04081449897
3.64,-0.02048780735,0.0488159987
3.65,-0.00544840461,0.05261644673
3.66,0.01003871089,0.05189219956
3.67,0.02464173266,0.04670866896
3.68,0.03710480294,0.03751516302
3.69,0.04635641535,0.02510657057
3.7,0.05160213586,0.01055506884
3.71,0.05239353219,-0.00488233679
3.72,0.04866722942,-0.01987249029
3.73,0.04075058848,-0.03312156663
3.74,0.02933341105,-0.04348730131
3.75,0.01540805473,-0.05007815101
3.76,0.0001831302278,-0.05233067909
3.77,-0.01502170264,-0.05005834831
3.78,-0.02889063539,-0.04346740673
3.79,-0.04022622709,-0.03313844991
3.8,-0.04805347568,-0.01997527545
3.81,-0.05170430093,-0.005125540191
3.82,-0.05087503024,0.01011977307
3.83,-0.04565187521,0.02443920211
3.84,-0.03650222982,0.03659601109
3.85,-0.02423265337,0.04554561603
3.86,-0.00991734807,0.05052581133
3.87,0.005196462209,0.05112193687
3.88,0.01979783256,0.04730137892
3.89,0.03262640598,0.0394145377
3.9,0.04258167694,0.02816237263
3.91,0.04881766981,0.0145335822
3.92,0.05081484876,-0.0002828741611
3.93,0.04842314455,-0.01500208436
3.94,0.04187257261,-0.02835508637
3.95,0.03175078882,-0.03919855235
3.96,0.01894982602,-0.04661273312
3.97,0.004586918918,-0.04997926649
3.98,-0.01009347424,-0.04903229766
3.99,-0.02382779358,-0.04387875179
4,-0.03544220706,-0.03498631909
4.01,-0.04395276463,-0.02314051924
4.02,-0.04864835717,-0.009374858558
4.03,-0.04914954422,0.005119645062
4.04,-0.04543846957,0.01909760592
4.05,-0.03785761482,0.03136613786
4.06,-0.02707782454,0.04088629571
4.07,-0.0140386427,0.04686051724
4.08,0.0001336907802,0.04879878431
4.09,0.0142234106,0.04655810925
4.1,0.0270291967,0.04035226569
4.11,0.03746610085,0.03073122153
4.12,0.04465685392,0.01853228148
4.13,0.0480049573,0.004807295842
4.14,0.04724356062,-0.009267748856
4.15,0.04245620502,-0.0224930288
4.16,0.03406789087,-0.03374658412
4.17,0.0228074131,-0.0420788845
4.18,0.00964429203,-0.04679237558
4.19,-0.004294279469,-0.04749942125
4.2,-0.01781941971,-0.0441538899
4.21,-0.02978137688,-0.03705384684
4.22,-0.03916671584,-0.02681522878
4.23,-0.04518373395,-0.01431879208
4.24,-0.04732896589,-0.0006348484886
4.25,-0.04542922508,0.01306785232
4.26,-0.03965567649,0.02562141439
4.27,-0.03050877508,0.03595789894
4.28,-0.01877534461,0.04319988789
4.29,-0.005461411423,0.04673486206
4.3,0.008293546183,0.04626709692
4.31,0.02131369327,0.04184265908
4.32,0.03248706078,0.03384534743
4.33,0.04086038796,0.02296387628
4.34,0.04572050539,0.01013303882
4.35,0.04665529537,-0.00354618758
4.36,0.04358898119,-0.01690081939
4.37,0.03678866974,-0.02878630704
4.38,0.02684152147,-0.03818464871
4.39,0.0146044388,-0.04429175582
4.4,0.001130534336,-0.0465865403
4.41,-0.0124213451,-0.04487574075
4.42,-0.02488627839,-0.03931057637
4.43,-0.03519353541,-0.03037373979
4.44,-0.04245879071,-0.01883780202
4.45,-0.04606030344,-0.005698582781
4.46,-0.04569245319,0.00791078048
4.47,-0.04139197459,0.02081764387
4.48,-0.03353459865,0.03191108346
4.49,-0.02280237934,0.04023776399
4.5,-0.01012453478,0.04508413617
4.51,0.003403061301,0.04603783514
4.52,0.016612744,0.04302296327
4.53,0.0283660366,0.03630621595
4.54,0.0376519785,0.02647334908
4.55,0.0436742766,0.01437806854
4.56,0.04591974049,0.001067817072
4.57,0.04420210313,-0.01230706616
4.58,0.03867748081,-0.02459290792
4.59,0.02983019734,-0.03473234282
4.6,0.01843027189,-0.04185540994
4.61,0.00546632171,-0.04535424563
4.62,-0.007940252677,-0.04493496016
4.63,-0.02063233305,-0.04064228067
4.64,-0.03151698699,-0.03285491161
4.65,-0.03965958157,-0.02225209866
4.66,-0.04436400956,-0.009754363525
4.67,-0.04523215564,0.003556408813
4.68,-0.0421975408,0.01653058977
4.69,-0.03553032032,0.02805003839
4.7,-0.0258132809,0.03712439269
4.71,-0.01389097319,0.04297614815
4.72,-0.0007964149208,0.04510723548
4.73,0.0123382883,0.04334141503
4.74,0.02437969292,0.03783889073
4.75,0.03429072412,0.02908193436
4.76,0.04121994198,0.01783279715
4.77,0.0445747036,0.00506755935
4.78,0.04407194446,-0.00810837167
4.79,0.03976222498,-0.02055583274
4.8,0.03202498283,-0.03120031408
4.81,0.02153540421,-0.03912472834
4.82,0.009205767935,-0.04364854065
4.83,-0.003893683879,-0.04438642653
4.84,-0.01662752311,-0.04128137981
4.85,-0.02789354648,-0.0346093891
4.86,-0.03671830298,-0.02495525394
4.87,-0.04234145242,-0.01316160931
4.88,-0.04428161912,-0.0002555558914
4.89,-0.04237799446,0.01264074977
4.9,-0.03680403886,0.02440777851
4.91,-0.02805205755,0.03402607693
4.92,-0.01688996694,0.04066497111
4.93,-0.004294006691,0.04375476068
4.94,0.008636728637,0.04303606817
4.95,0.02077645344,0.03858200255
4.96,0.03107110964,0.03079118171
4.97,0.03863038647,0.02035222559
4.98,0.04280524239,0.008182853153
4.99,0.04324410607,-0.00465103316
5,0.03992282002,-0.01702911667
5.01,0.03314572135,-0.0278749902
5.02,0.02351781964,-0.03625033616
5.03,0.01189060321,-0.04143664427
5.04,-0.0007136528387,-0.04299727309
5.05,-0.01319230055,-0.04081443112
5.06,-0.02445938863,-0.03509790604
5.07,-0.03354076045,-0.02636490249
5.08,-0.0396587697,-0.01539292792
5.09,-0.04229917584,-0.003150058827
5.1,-0.04125441677,0.009291091428
5.11,-0.0366396029,0.02084797464
5.12,-0.02888003522,0.0305228496
5.13,-0.01867159389,0.03748929516
5.14,-0.006917742791,0.04116293796
5.15,0.00535106821,0.04125031801
5.16,0.01706832592,0.03777182164
5.17,0.02722459787,0.03105695471
5.18,0.03495470171,0.02171269429
5.19,0.03961134108,0.01056801946
5.2,0.04081894691,-0.00140022743
5.21,0.03850329242,-0.01315343693
5.22,0.03289463813,-0.02368163218
5.23,0.02450450837,-0.0320902661
5.24,0.01407849189,-0.03767595462
5.25,0.00252949695,-0.03998477107
5.26,-0.009142497641,-0.0388483449
5.27,-0.01993709873,-0.03439500368
5.28,-0.02893904369,-0.02703538802
5.29,-0.03539534722,-0.017424162
5.3,-0.03877761158,-0.006401447853
5.31,-0.03882443822,0.005080731888
5.32,-0.03556065298,0.01604054977
5.33,-0.02929206887,0.02554994763
5.34,-0.02057658646,0.03281263114
5.35,-0.01017439746,0.03723001394
5.36,0.001018246812,0.03844975366
5.37,0.01204594583,0.03639305444
5.38,0.02197518656,0.03125872976
5.39,0.02997270803,0.02350396939
5.4,0.03537470893,0.01380367633
5.41,0.0377412503,0.002991979948
5.42,0.03689148798,-0.00800904621
5.43,0.03291699041,-0.01826743718
5.44,0.02617222068,-0.02691963755
5.45,0.01724314214,-0.03324256372
5.46,0.006896693167,-0.03671349961
5.47,-0.00398457098,-0.03705293312
5.48,-0.01447717603,-0.03424686623
5.49,-0.02369452727,-0.02854683253
5.5,-0.03086133344,-0.02044769691
5.51,-0.03537847205,-0.01064514411
5.52,-0.0368729086,2.356010649E-05
5.53,-0.03522852234,0.0106505661
5.54,-0.03059527492,0.02033424721
5.55,-0.02337595954,0.02825537633
5.56,-0.01419164023,0.03374627294
5.57,-0.00382867936,0.03634709575
5.58,0.006828192622,0.03584452055
5.59,0.016871121,0.03228951379
5.6,0.02544631812,0.02599266961
5.61,0.03182664965,0.01749747591
5.62,0.0354734325,0.007533753584
5.63,0.03608216046,-0.003044788165
5.64,0.03360823055,-0.01333356705
5.65,0.02827044568,-0.02245447757
5.66,0.02053197121,-0.0296309505
5.67,0.01106036317,-0.03425427767
5.68,0.0006700927673,-0.03593549767
5.69,-0.009747490937,-0.03453837539
5.7,-0.0193007269,-0.03019063759
5.71,-0.02717413419,-0.02327250633
5.72,-0.03269823341,-0.01438353853
5.73,-0.03540668119,-0.004290659082
5.74,-0.03507580713,0.006138097016
5.75,-0.03174317541,0.01600838596
5.76,-0.0257036189,0.02447642312
5.77,-0.01748314982,0.03082127851
5.78,-0.007793066597,0.03450637704
5.79,0.002531717442,0.03522493773
5.8,0.01260474902,0.03292549652
5.81,0.02156426414,0.02781539576
5.82,0.02864699381,0.02034203562
5.83,0.03325321158,0.0111536011
5.84,0.03499747734,0.001042735907
5.85,0.03374079316,-0.009121919098
5.86,0.02960150872,-0.01847039264
5.87,0.02294415117,-0.02620582885
5.88,0.01434724938,-0.03167234447
5.89,0.004553010766,-0.03441053224
5.9,-0.005596759835,-0.03419593501
5.91,-0.01523296385,-0.03105729439
5.92,-0.02353353278,-0.02527311806
5.93,-0.02979343321,-0.01734696102
5.94,-0.03348441505,-0.007963621031
5.95,-0.03429946576,0.002069943281
5.96,-0.03217825324,0.0118938871
5.97,-0.02731146719,0.02066902053
5.98,-0.02012376341,0.02764835238
5.99,-0.01123682829,0.03224056389
6,-0.001415758768,0.03406004126
