"Freq [GHz]","re(S(Rx_p1,Tx_p1)) []","im(S(Rx_p1,Tx_p1)) []"
1,-0.02914850121,0.01304789693
1.01,-0.02359452237,0.02135106972
1.02,-0.01576029976,0.02750081541
1.03,-0.006434407458,0.03089967215
1.04,0.003448321372,0.03122794477
1.05,0.01290193478,0.0284755635
1.06,0.02098978535,0.02294202288
1.07,0.02691969058,0.01520432105
1.08,0.0301237917,0.006056264613
1.09,0.03031469496,-0.003574392345
1.1,0.02751204758,-0.0127221043
1.11,0.02203692546,-0.02048269503
1.12,0.01447492544,-0.02610496436
1.13,0.0056122538,-0.02906509635
1.14,-0.003648005894,-0.02911621244
1.15,-0.01238021149,-0.02630823558
1.16,-0.01973084924,-0.02097655312
1.17,-0.02500355159,-0.01370139276
1.18,-0.02772570944,-0.005242958996
1.19,-0.02769018547,0.003540139232
1.2,-0.02496853304,0.01178007386
1.21,-0.01989532147,0.01868700292
1.22,-0.01302628248,0.02362528982
1.23,-0.005075670228,0.02617128765
1.24,0.003159817167,0.02614754121
1.25,0.01088215845,0.02363100282
1.26,0.01736970087,0.01893570577
1.27,0.02204379434,0.01257296255
1.28,0.02451834331,0.005194275015
1.29,0.02462837793,-0.002476438007
1.3,0.02243611778,-0.009714072529
1.31,0.01821533725,-0.01585998709
1.32,0.01241689088,-0.02037990396
1.33,0.005619832446,-0.02290731813
1.34,-0.001526452024,-0.02326941211
1.35,-0.008363310242,-0.0214943276
1.36,-0.01428151299,-0.01780040592
1.37,-0.01877268186,-0.01256951894
1.38,-0.02146960541,-0.006307763757
1.39,-0.02217282641,0.0004024614837
1.4,-0.02086217535,0.006954643229
1.41,-0.0176931642,0.01277026607
1.42,-0.01297925872,0.017346841
1.43,-0.00716197038,0.02029837969
1.44,-0.0007714309391,0.02138554609
1.45,0.005619366807,0.0205335168
1.46,0.01144315182,0.01783644286
1.47,0.01618613247,0.01354830028
1.48,0.01943133083,0.008060822881
1.49,0.02089414415,0.001870104346
1.5,0.02044724198,-0.004465698959
1.51,0.01813258396,-0.01037438633
1.52,0.014159229,-0.01531968942
1.53,0.00888667416,-0.01884909236
1.54,0.002794649008,-0.02063532962
1.55,-0.003558487848,-0.02050769785
1.56,-0.009585463978,-0.01846999637
1.57,-0.01472370025,-0.01470294733
1.58,-0.01848798528,-0.009550278271
1.59,-0.02051721764,-0.003489167271
1.6,-0.02061053305,0.002912690088
1.61,-0.01874895324,0.009049700177
1.62,-0.01509996467,0.0143358471
1.63,-0.01000405164,0.01826149911
1.64,-0.003944010332,0.02044387353
1.65,0.002500331981,0.02066593832
1.66,0.008707777882,0.01889955605
1.67,0.01407638926,0.01531019036
1.68,0.01808302036,0.01024234594
1.69,0.02033567035,0.004186903697
1.7,0.02061320599,-0.002266573704
1.71,0.01888823798,-0.008487871138
1.72,0.0153306402,-0.01386864755
1.73,0.01029119747,-0.01788309089
1.74,0.004266938159,-0.02014047671
1.75,-0.002148373318,-0.02042421514
1.76,-0.008323551773,-0.01871335825
1.77,-0.01365305602,-0.01518435763
1.78,-0.01761735881,-0.01019291002
1.79,-0.01983447081,-0.004237789863
1.8,-0.02009740391,0.002089581422
1.81,-0.01839383368,0.00816463094
1.82,-0.01490607298,0.01339209976
1.83,-0.009991499096,0.01726512643
1.84,-0.004145572025,0.0194149975
1.85,0.002048665583,0.01964662257
1.86,0.007979382751,0.01795629337
1.87,0.01306704145,0.01453012195
1.88,0.01682159619,0.009723527012
1.89,0.01889011052,0.004024048363
1.9,0.01909012777,-0.001998577583
1.91,0.0174256294,-0.007749915196
1.92,0.01408420934,-0.01267004053
1.93,0.009416001113,-0.01628851355
1.94,0.00389672197,-0.01826966875
1.95,-0.00192123835,-0.01844383211
1.96,-0.007464611999,-0.01682155138
1.97,-0.01219624177,-0.01358967931
1.98,-0.01566754308,-0.009089992832
1.99,-0.01756126503,-0.003782779385
2,-0.01772043951,0.001800704057
2.01,-0.01616087104,0.007111938679
2.02,-0.01306622924,0.01163952458
2.03,-0.008766580935,0.01495877685
2.04,-0.003702856512,0.01677167181
2.05,0.001618884381,0.01693335682
2.06,0.006678576731,0.01546288162
2.07,0.01099342078,0.01253746198
2.08,0.01416417379,0.008471270845
2.09,0.01591197859,0.003681291367
2.1,0.01610232946,-0.001355997588
2.11,0.01475417862,-0.006152521402
2.12,0.01203374949,-0.01025619859
2.13,0.00823417746,-0.01329352157
2.14,0.003743479881,-0.01500310639
2.15,-0.0009955715539,-0.01525724744
2.16,-0.00552944296,-0.0140698298
2.17,-0.009437261538,-0.0115903761
2.18,-0.01236949512,-0.008085381705
2.19,-0.01407837819,-0.00390928257
2.2,-0.01443755383,0.0005317106434
2.21,-0.01344957379,0.004819160676
2.22,-0.01124113264,0.008561465904
2.23,-0.008047076799,0.01142883483
2.24,-0.004185215298,0.01318116449
2.25,-2.468163075E-05,0.01368664962
2.26,0.004048989623,0.01292992383
2.27,0.007668814763,0.01100954231
2.28,0.01051828907,0.008125559993
2.29,0.01235769158,0.004558760776
2.3,0.01304280203,0.000643697527
2.31,0.01253480896,-0.003261920536
2.32,0.01090096685,-0.006808810764
2.33,0.008306311662,-0.009686058296
2.34,0.004997417158,-0.0116470601
2.35,0.001279732001,-0.01252952164
2.36,-0.002509541229,-0.01226807027
2.37,-0.00603079295,-0.01089863372
2.38,-0.008971229134,-0.00855435194
2.39,-0.01107165392,-0.005453413014
2.4,-0.01214868025,-0.001879798796
2.41,-0.01211056243,0.001841536136
2.42,-0.01096530103,0.005373080407
2.43,-0.008820241251,0.008394477825
2.44,-0.005873041804,0.01063106338
2.45,-0.002394595764,0.01187875959
2.46,0.001294813132,0.01202307815
2.47,0.004854194216,0.01105038593
2.48,0.00795293298,0.009050198923
2.49,0.01030150304,0.006208027059
2.5,0.01167894413,0.00278914934
2.51,0.0119544206,-0.0008854249462
2.52,0.01110062789,-0.0044687443
2.53,0.009197519468,-0.007620737641
2.54,0.006425726765,-0.01004094692
2.55,0.003050057952,-0.01149793708
2.56,-0.000605517122,-0.01185237606
2.57,-0.004189070335,-0.01107133098
2.58,-0.007355074579,-0.00923216384
2.59,-0.009798479863,-0.006515451385
2.6,-0.01128501923,-0.003187489828
2.61,-0.0116745866,0.0004259482528
2.62,-0.01093520973,0.003971986559
2.63,-0.009146105846,0.007105845836
2.64,-0.006489453172,0.009525239111
2.65,-0.003231709501,0.01100039023
2.66,0.0003035742786,0.01139655943
2.67,0.003768591304,0.01068675854
2.68,0.006826318565,0.008953391487
2.69,0.00918409847,0.006378744179
2.7,0.01062229075,0.003225435473
2.71,0.01101509065,-0.0001910054358
2.72,0.01034148561,-0.003534467969
2.73,0.008685404056,-0.00648206363
2.74,0.006225271352,-0.008755890131
2.75,0.003214297265,-0.01014954262
2.76,-4.624515575E-05,-0.01054679684
2.77,-0.003237825835,-0.009930783877
2.78,-0.006056297565,-0.00838301967
2.79,-0.008241148132,-0.006072723698
2.8,-0.009599512675,-0.00323784283
2.81,-0.01002274684,-0.000159984988
2.82,-0.009494212214,0.002864011459
2.83,-0.008087872724,0.005550934364
2.84,-0.005958237767,0.007657643281
2.85,-0.003323016881,0.009002650453
2.86,-0.0004404921119,0.009480992083
2.87,0.002415985012,0.009071298189
2.88,0.004983827915,0.00783478052
2.89,0.007034956672,0.005906640417
2.9,0.008395366449,0.003481076724
2.91,0.008958956665,0.0007915903248
2.92,0.008694675289,-0.001911398453
2.93,0.007646690616,-0.00438349224
2.94,0.005927933859,-0.006407778943
2.95,0.003707905993,-0.007813032214
2.96,0.001196071683,-0.008487256998
2.97,-0.001377551706,-0.008385659613
2.98,-0.003782869008,-0.007532630888
2.99,-0.005809518274,-0.006017832726
3,-0.007284433331,-0.003986936489
3.01,-0.008085823063,-0.001627947921
3.02,-0.008152562154,0.0008456511542
3.03,-0.007488369578,0.003213520195
3.04,-0.006160558009,0.005267323901
3.05,-0.004293544777,0.006828346613
3.06,-0.002057700373,0.007762476642
3.07,0.000345546911,0.007991386758
3.08,0.002701150984,0.007499023318
3.09,0.004799032184,0.006332867496
3.1,0.006452298875,0.004599828778
3.11,0.007513599862,0.002457050184
3.12,0.007888215138,9.831906322E-05
3.13,0.007542720213,-0.002262843984
3.14,0.006508392125,-0.004412034675
3.15,0.00487894461,-0.006153157681
3.16,0.002802657218,-0.007326279937
3.17,0.0004694610357,-0.007822518165
3.18,-0.001905981702,-0.007594539473
3.19,-0.004103761708,-0.006661600748
3.2,-0.005919036365,-0.005108518399
3.21,-0.007181297268,-0.003078507517
3.22,-0.007770748051,-0.0007604100212
3.23,-0.007630162902,0.001628611647
3.24,-0.006770980724,0.003863363151
3.25,-0.00527291489,0.005731996399
3.26,-0.003276976761,0.007056420649
3.27,-0.0009724625218,0.007709728848
3.28,0.001420929552,0.007628867405
3.29,0.00367416696,0.006821213193
3.3,0.005571092956,0.005364307431
3.31,0.006929579138,0.003398675069
3.32,0.007619489468,0.001114360741
3.33,0.007575616365,-0.001267536217
3.34,0.006804238867,-0.003516515557
3.35,0.005382591394,-0.005415358148
3.36,0.003451253426,-0.006781548973
3.37,0.001200199278,-0.007485265722
3.38,-0.00115009515,-0.007462099021
3.39,-0.003370576507,-0.00671920681
3.4,-0.005246340338,-0.005334280553
3.41,-0.006597848075,-0.003447443145
3.42,-0.007298483049,-0.001246927979
3.43,-0.007286679666,0.001049972365
3.44,-0.006571429399,0.00321871919
3.45,-0.005230658894,0.005049863035
3.46,-0.003402714539,0.006369627693
3.47,-0.001271895245,0.00705667344
3.48,0.0009504240334,0.007053387977
3.49,0.003047103586,0.006370638357
3.5,0.004816790802,0.005085604237
3.51,0.006093530373,0.003333027951
3.52,0.006762488876,0.001290884137
3.53,0.006770284669,-0.0008379780909
3.54,0.006128995677,-0.002846289548
3.55,0.004913581728,-0.004542810855
3.56,0.003253133237,-0.005770727016
3.57,0.001316973644,-0.00642219558
3.58,-0.0007028633327,-0.006447693608
3.59,-0.002610936399,-0.005859371337
3.6,-0.004227508003,-0.004728247321
3.61,-0.005405571544,-0.003175704303
3.62,-0.006044170372,-0.001360302774
3.63,-0.006096809014,0.000538634961
3.64,-0.005574288449,0.00233894382
3.65,-0.004541877111,0.00387322263
3.66,-0.003111296436,0.005004410541
3.67,-0.001428496707,0.005637882219
3.68,0.0003414223145,0.005729013118
3.69,0.00203056459,0.005285656995
3.7,0.003484225065,0.004365503337
3.71,0.004574979634,0.003068787485
3.72,0.005213602869,0.001527260325
3.73,0.005355909603,-0.00010935315
3.74,0.005005058583,-0.001687993589
3.75,0.004209320695,-0.003066559055
3.76,0.003055752404,-0.004126514246
3.77,0.001660583945,-0.004782719486
3.78,0.0001573983235,-0.004989712084
3.79,-0.001315678925,-0.004744056709
3.8,-0.002628544133,-0.004082776583
3.81,-0.003670304453,-0.003078242885
3.82,-0.004358167923,-0.001830201243
3.83,-0.004643388664,-0.0004558267813
3.84,-0.004513936158,0.0009211903395
3.85,-0.003993874888,0.002181519682
3.86,-0.003139729077,0.003220102332
3.87,-0.002034342016,0.003954336822
3.88,-0.0007789044309,0.004329986702
3.89,0.0005160847722,0.004324491416
3.9,0.001740146773,0.003947595076
3.91,0.002791709722,0.003239418907
3.92,0.003585920922,0.002266277998
3.93,0.004060880092,0.001114674099
3.94,0.004181934625,-0.0001160178116
3.95,0.003943825791,-0.001321606733
3.96,0.003370616728,-0.002401314089
3.97,0.002513464094,-0.003265618055
3.98,0.00144641423,-0.003843196749
3.99,0.000260512478,-0.004086509108
4,-0.0009433880364,-0.003975625057
4.01,-0.002062644928,-0.003520007732
4.02,-0.00300112634,-0.002758062725
4.03,-0.003677193989,-0.001754404002
4.04,-0.004030749666,-0.0005949417687
4.05,-0.004028744247,0.0006199318645
4.06,-0.003668617011,0.001783609592
4.07,-0.002979257055,0.002792377086
4.08,-0.002019257141,0.003554623395
4.09,-0.0008724546382,0.003999339279
4.1,0.0003589925722,0.004083085424
4.11,0.001563489743,0.003794691927
4.12,0.00263011015,0.003157115971
4.13,0.003459005609,0.002226128075
4.14,0.003971112679,0.001085799047
4.15,0.004116153457,-0.0001589099626
4.16,0.003878050554,-0.001391829902
4.17,0.00327710359,-0.002496640039
4.18,0.002368590024,-0.003368209288
4.19,0.001237824252,-0.003923057003
4.2,-7.90581406E-06,-0.004107819701
4.21,-0.00124975194,-0.00390479175
4.22,-0.002369018134,-0.003333902884
4.23,-0.003258956857,-0.002450872219
4.24,-0.003835403665,-0.001341694011
4.25,-0.004045118188,-0.0001140156781
4.26,-0.003870944136,0.00111368572
4.27,-0.00333324931,0.002223978579
4.28,-0.002487517142,0.003112141465
4.29,-0.001418384642,0.003696388834
4.3,-0.0002308068865,0.003925602622
4.31,0.000960670323,0.003783805866
4.32,0.00204336467,0.003290986423
4.33,0.00291742722,0.002500285161
4.34,0.003505208915,0.001491954289
4.35,0.003758118889,0.0003648221208
4.36,0.003660375685,-0.0007737659747
4.37,0.003229409359,-0.00181844668
4.38,0.002513035653,-0.002675706196
4.39,0.001583850366,-0.003272172822
4.4,0.0005315475141,-0.003560613018
4.41,-0.0005459746728,-0.003523191135
4.42,-0.001551800317,-0.00317185762
4.43,-0.002398600709,-0.002546021261
4.44,-0.003015913341,-0.001707907007
4.45,-0.00335554199,-0.0007361801445
4.46,-0.00339474749,0.000281480612
4.47,-0.003137125306,0.001256154206
4.48,-0.002611271909,0.002105129094
4.49,-0.001867509801,0.002758467749
4.5,-0.0009730616942,0.003164243641
4.51,-6.136250315E-06,0.003292152406
4.52,0.0009505840581,0.003135339015
4.53,0.001816569113,0.002710410551
4.54,0.002519728978,0.002055714277
4.55,0.003001958261,0.001228052647
4.56,0.003223588791,0.0002980833154
4.57,0.003166466584,-0.0006552832784
4.58,0.002835441139,-0.001551120956
4.59,0.002258137989,-0.002312945724
4.6,0.001482981639,-0.002874947391
4.61,0.0005755466307,-0.003187533127
4.62,-0.0003865633522,-0.003221733402
4.63,-0.00131998181,-0.002972067531
4.64,-0.002142544955,-0.002457552585
4.65,-0.00278041202,-0.00172066643
4.66,-0.003174734675,-0.0008242376849
4.67,-0.00328725949,0.0001535792274
4.68,-0.003104297292,0.001125894577
4.69,-0.002638606344,0.002004714192
4.7,-0.001928907339,0.002708947432
4.71,-0.001036963655,0.00317204875
4.72,-4.239955766E-05,0.003348541778
4.73,0.0009643337361,0.003218746934
4.74,0.001890226401,0.002791182688
4.75,0.002648442279,0.002102324579
4.76,0.003166667387,0.00121366388
4.77,0.003394237298,0.0002062822309
4.78,0.003307306243,-0.0008265806324
4.79,0.002911502236,-0.001788271385
4.8,0.002241757304,-0.002587935996
4.81,0.001359284134,-0.00314929407
4.82,0.0003459599509,-0.003418098741
4.83,-0.0007033559755,-0.003367528902
4.84,-0.001689831601,-0.003000962043
4.85,-0.002520120387,-0.002351835197
4.86,-0.003115341857,-0.001480591016
4.87,-0.003418702557,-0.0004689957897
4.88,-0.003401008895,0.0005876233804
4.89,-0.003063530827,0.001589470179
4.9,-0.002437935398,0.002441817783
4.91,-0.001583295464,0.003064070814
4.92,-0.0005804630016,0.003397474816
4.93,0.0004756490275,0.003410730385
4.94,0.001485131726,0.003102972924
4.95,0.002352619437,0.002503833665
4.96,0.002996386176,0.001670578602
4.97,0.003356126067,0.0006826025332
4.98,0.003398671467,-0.000366190867
4.99,0.003121100711,-0.001376389115
5,0.002550938266,-0.002252584262
5.01,0.001743430084,-0.002912482565
5.02,0.0007761595504,-0.003294731486
5.03,-0.000258472445,-0.00336470822
5.04,-0.001262171243,-0.003117711264
5.05,-0.002140205904,-0.002579249554
5.06,-0.002810477327,-0.001802408183
5.07,-0.003211312093,-0.000862557732
5.08,-0.003307223815,0.0001500630496
5.09,-0.003092087155,0.001139151117
5.1,-0.002589429623,0.002011653476
5.11,-0.001849836371,0.002686669033
5.12,-0.0009457533668,0.003103062664
5.13,3.576596588E-05,0.003225053792
5.14,0.001001623935,0.003045254734
5.15,0.001861682659,0.002584899488
5.16,0.002537309979,0.001891292669
5.17,0.002968632361,0.001032789532
5.18,0.003119810205,9.186104554E-05
5.19,0.002981869271,-0.0008430228584
5.2,0.002572882782,-0.001685861488
5.21,0.001935572428,-0.002361105422
5.22,0.001132652646,-0.002810395227
5.23,0.0002404538674,-0.002997455455
5.24,-0.0006584939856,-0.002910752924
5.25,-0.001483168867,-0.002563767546
5.26,-0.002161318935,-0.001992964284
5.27,-0.002635630469,-0.001253770234
5.28,-0.002868297168,-0.0004150301464
5.29,-0.002843669897,0.0004474771448
5.3,-0.002568864467,0.001257835637
5.31,-0.002072396445,0.001946496797
5.32,-0.001401077708,0.002455960384
5.33,-0.0006155361031,0.002745213576
5.34,0.000215199582,0.002792646997
5.35,0.001019572498,0.002597309145
5.36,0.001729358318,0.002178496119
5.37,0.002285082991,0.001573791297
5.38,0.002640629697,0.0008357644881
5.39,0.002766743181,2.761059038E-05
5.4,0.002653221887,-0.0007819440013
5.41,0.00230967204,-0.00152410977
5.42,0.001764781115,-0.002135505978
5.43,0.001064151124,-0.00256326449
5.44,0.0002668156708,-0.002769406954
5.45,-0.0005593510849,-0.002734165454
5.46,-0.001343042474,-0.002457964409
5.47,-0.002015376285,-0.001961851921
5.48,-0.002515768999,-0.001286263677
5.49,-0.002797355116,-0.000488120972
5.5,-0.002831471976,0.0003635992279
5.51,-0.00261076487,0.001193539938
5.52,-0.002150548489,0.001926465197
5.53,-0.001488188605,0.002494051075
5.54,-0.000680435538,0.002841356143
5.55,0.0002011650479,0.002932340709
5.56,0.001076457208,0.002753848492
5.57,0.001863943154,0.002317576083
5.58,0.002488475986,0.001659728628
5.59,0.002888631342,0.0008382802225
5.6,0.003023001949,-7.199727287E-05
5.61,0.002874731297,-0.0009863299514
5.62,0.002453754976,-0.001817942329
5.63,0.001796437613,-0.002486487515
5.64,0.000962557777,-0.002926055558
5.65,2.987388068E-05,-0.003091923286
5.66,-0.0009132309696,-0.002965317226
5.67,-0.001776309263,-0.002555653316
5.68,-0.002475754072,-0.001899973608
5.69,-0.002943135457,-0.001059592761
5.7,-0.003132101544,-0.0001142633165
5.71,-0.003023119369,0.000845565184
5.72,-0.00262555253,0.001727612493
5.73,-0.001976850131,0.002446856517
5.74,-0.001138923452,0.002933917039
5.75,-0.0001920797414,0.003141881154
5.76,0.0007728656279,0.003050882302
5.77,0.001663493555,0.002669981043
5.78,0.002394800151,0.00203617668
5.79,0.002897426803,0.001210673385
5.8,0.003124290141,0.0002728011202
5.81,0.003054974459,-0.0006877784142
5.82,0.002697483987,-0.001579789896
5.83,0.002087222374,-0.002319118852
5.84,0.00128334294,-0.002836786876
5.85,0.0003628676822,-0.003085368769
5.86,-0.0005868190741,-0.003043261458
5.87,-0.001476353907,-0.002716435779
5.88,-0.002222840019,-0.002137552252
5.89,-0.002757555237,-0.001362575628
5.9,-0.003032211707,-0.000465255756
5.91,-0.003023210308,0.00046996687
5.92,-0.002733533415,0.001355939832
5.93,-0.002192146934,0.002110906041
5.94,-0.00145101454,0.002665990418
5.95,-0.0005800427642,0.002971391447
5.96,0.000339543857,0.003000736319
5.97,0.001222767681,0.002753236488
5.98,0.001988702012,0.00225348605
5.99,0.002567806433,0.001548959699
6,0.002908141173,0.0007054710223
