"Freq [GHz]","re(S(Rx_p1,Tx_p1)) []","im(S(Rx_p1,Tx_p1)) []"
1,-0.04600410866,-0.002760533683
1.01,-0.04436712864,0.01115939936
1.02,-0.03864388094,0.02383810426
1.03,-0.02942998416,0.0341147771
1.04,-0.01763819332,0.04107239587
1.05,-0.004406664252,0.04411997443
1.06,0.009012469661,0.043042102
1.07,0.02137299092,0.03801172737
1.08,0.03155121788,0.02956586977
1.09,0.03864827832,0.01854756771
1.1,0.04206871131,0.006020543656
1.11,0.04156866915,-0.00683453664
1.12,0.03727013281,-0.01883189755
1.13,0.02964090081,-0.02888989268
1.14,0.01944332168,-0.0361276222
1.15,0.007657516258,-0.03994046975
1.16,-0.004613059676,-0.04004837399
1.17,-0.01624457933,-0.03651337213
1.18,-0.02619480527,-0.02972584818
1.19,-0.03359498237,-0.02036171933
1.2,-0.03782383208,-0.009315262497
1.21,-0.03855766494,0.002385768285
1.22,-0.03579290019,0.01367478487
1.23,-0.0298397707,0.02354224169
1.24,-0.02128848769,0.03112437049
1.25,-0.01095144662,0.0357772336
1.26,0.0002129984436,0.03712998649
1.27,0.01118822031,0.0351131351
1.28,0.02099064818,0.02995977626
1.29,0.0287567394,0.02218014269
1.3,0.03381807107,0.01251205408
1.31,0.03575813422,0.001851918519
1.32,0.03444605606,-0.008827430101
1.33,0.03004452192,-0.01856467489
1.34,0.02299145019,-0.02649589529
1.35,0.01395729491,-0.03193076677
1.36,0.003782008552,-0.03441236609
1.37,-0.006602503046,-0.03375537077
1.38,-0.01625732831,-0.03005941579
1.39,-0.02432116943,-0.02369663852
1.4,-0.03008698749,-0.01527479502
1.41,-0.03306381645,-0.005579546406
1.42,-0.03301830829,0.004498616781
1.43,-0.02999248476,0.01404599723
1.44,-0.02429639084,0.02220834626
1.45,-0.01647665882,0.028267045
1.46,-0.007264175944,0.03170200774
1.47,0.002494099634,0.03223582421
1.48,0.01191277929,0.02985545644
1.49,0.02014800904,0.02480990326
1.5,0.02647255654,0.01758443843
1.51,0.03033939777,0.008854112647
1.52,0.03142833828,-0.0005790005713
1.53,0.02967181537,-0.009858988323
1.54,0.02525793326,-0.0181530848
1.55,0.0186108094,-0.02472562999
1.56,0.01035027825,-0.02900255754
1.57,0.001234747058,-0.0306208951
1.58,-0.007907610931,-0.02945913244
1.59,-0.01625320866,-0.02564600561
1.6,-0.02305641762,-0.0195471168
1.61,-0.02771557202,-0.01173070663
1.62,-0.02982588084,-0.002915670162
1.63,-0.02921466049,0.006093580263
1.64,-0.02595581989,0.01447967147
1.65,-0.02036231326,0.02148585422
1.66,-0.01295718539,0.02648410229
1.67,-0.004425713911,0.02903164266
1.68,0.004447151689,0.02891079757
1.69,0.012848496,0.02614844934
1.7,0.02001183585,0.02101322789
1.71,0.02528742542,0.01399052125
1.72,0.02820196282,0.005737448572
1.73,0.02850208263,-0.002978174641
1.74,0.02617745829,-0.01134929318
1.75,0.02146120837,-0.01860484304
1.76,0.01480743529,-0.02408166457
1.77,0.006847919507,-0.02728624216
1.78,-0.001667969463,-0.0279403294
1.79,-0.009944415497,-0.0260060373
1.8,-0.01721450077,-0.02168794538
1.81,-0.02281245744,-0.0154120456
1.82,-0.02623581855,-0.007783618435
1.83,-0.02719146221,0.0004717701892
1.84,-0.02562115893,0.008578293831
1.85,-0.02170429623,0.01578398614
1.86,-0.01583774864,0.02143167436
1.87,-0.008595142746,0.02501983565
1.88,-0.0006697944805,0.02624758032
1.89,0.007192843235,0.02503963985
1.9,0.01426644657,0.02154930342
1.91,0.01991179866,0.01613948146
1.92,0.02363496934,0.009344237002
1.93,0.02513032622,0.001814992559
1.94,0.02430465427,-0.005742995408
1.95,0.02128062717,-0.0126375268
1.96,0.01637994366,-0.01825323528
1.97,0.01008839739,-0.02210631305
1.98,0.003006796413,-0.02388534384
1.99,-0.00420716287,-0.02347492881
2,-0.01090032758,-0.02096056044
2.01,-0.01648303484,-0.01661502739
2.02,-0.02048028384,-0.01086833502
2.03,-0.02257081466,-0.00426454551
2.04,-0.02261108922,0.002590038047
2.05,-0.02064267906,0.009082365985
2.06,-0.01688311521,0.01464676641
2.07,-0.01170170252,0.0188130337
2.08,-0.00558302416,0.02124458039
2.09,0.0009182280533,0.02176380195
2.1,0.007226916507,0.0203630269
2.11,0.01279726832,0.01720070384
2.12,0.01715868607,0.01258370461
2.13,0.01995392716,0.006937705884
2.14,0.02096679018,0.0007684790195
2.15,0.02013739318,-0.005382479078
2.16,0.01756417309,-0.01098422713
2.17,0.01349279569,-0.01556080456
2.18,0.008293170387,-0.01873028832
2.19,0.002426646537,-0.02023547189
2.2,-0.00359382362,-0.01996386311
2.21,-0.009247278714,-0.01795555433
2.22,-0.01404857439,-0.01439846726
2.23,-0.01758892822,-0.009611450983
2.24,-0.01956993775,-0.004016650864
2.25,-0.01982833515,0.001896597564
2.26,-0.0183494604,0.007613421074
2.27,-0.0152683165,0.01263721863
2.28,-0.01085805373,0.01653203364
2.29,-0.005506746164,0.01895996528
2.3,0.0003157065174,0.01971044982
2.31,0.00609787196,0.01871886252
2.32,0.01133094389,0.01607273621
2.33,0.01555304714,0.01200490424
2.34,0.01838988118,0.006873974703
2.35,0.01958812885,0.001133640349
2.36,0.01903860672,-0.004706670772
2.37,0.01678696411,-0.01012648696
2.38,0.01303078633,-0.01464046534
2.39,0.008103139472,-0.0178419668
2.4,0.002443806761,-0.01944009695
2.41,-0.003439398067,-0.01928677903
2.42,-0.009015905434,-0.01739125301
2.43,-0.01378024685,-0.0139204854
2.44,-0.0172981692,-0.009185233458
2.45,-0.01924675499,-0.003612822704
2.46,-0.01944476839,0.002291053503
2.47,-0.01787028447,0.007988139907
2.48,-0.01466379188,0.01295688744
2.49,-0.01011628956,0.01674064362
2.5,-0.004643301266,0.01899025154
2.51,0.001252924201,0.01949700047
2.52,0.007029606533,0.01821272463
2.53,0.01215375528,0.01525502321
2.54,0.01615190436,0.01089696604
2.55,0.01865454432,0.005542124391
2.56,0.01943099276,-0.0003128188081
2.57,0.01841131927,-0.006124409512
2.58,0.01569315636,-0.01135335201
2.59,0.01153266852,-0.01551518858
2.6,0.006320476701,-0.01822588227
2.61,0.0005447956426,-0.01923792182
2.62,-0.005254709751,-0.01846346665
2.63,-0.0105379309,-0.0159822956
2.64,-0.01481528573,-0.0120337947
2.65,-0.01769375275,-0.006993769601
2.66,-0.01891355164,-0.001338344477
2.67,-0.01837197056,0.00440153821
2.68,-0.01613210227,0.009690597672
2.69,-0.01241573018,0.0140397893
2.7,-0.007581152901,0.01705210639
2.71,-0.002088197074,0.01845924014
2.72,0.003546103908,0.0181456545
2.73,0.008796812935,0.0161578896
2.74,0.01318058539,0.01269836705
2.75,0.01630061036,0.008104483924
2.76,0.01788275549,0.002815197689
2.77,0.01779959042,-0.002671517418
2.78,0.01608018991,-0.007846136268
2.79,0.01290502788,-0.01223536518
2.8,0.008586721479,-0.01544569398
2.81,0.003538727322,-0.01719867198
2.82,-0.001764801512,-0.01735474424
2.83,-0.006834021419,-0.01592365151
2.84,-0.01120892801,-0.01306072473
2.85,-0.0145011357,-0.009049759424
2.86,-0.01642810581,-0.004274402089
2.87,-0.01683684164,0.0008189964349
2.88,-0.01571514387,0.005763398328
2.89,-0.0131897358,0.01011396742
2.9,-0.009511803817,0.01348788002
2.91,-0.005031635317,0.01559752488
2.92,-0.0001649720717,0.01627428418
2.93,0.00464564577,0.01548104042
2.94,0.008970938326,0.01331263307
2.95,0.01243274755,0.00998459171
2.96,0.01473642887,0.005811495553
2.97,0.01569509988,0.001177168059
2.98,0.01524387772,-0.003500457421
2.99,0.0134431649,-0.007806609571
3,0.01047100953,-0.01136582816
3.01,0.006605486321,-0.01387393627
3.02,0.002198848505,-0.01512323099
3.03,-0.002354171573,-0.01501893066
3.04,-0.006651122372,-0.01358569208
3.05,-0.010316686,-0.01096385304
3.06,-0.01303471805,-0.007395897701
3.07,-0.01457485417,-0.00320442239
3.08,-0.01481154505,0.001236457152
3.09,-0.01373401831,0.005533813713
3.1,-0.01144641094,0.009309980139
3.11,-0.008158113222,0.01223513839
3.12,-0.004165157999,0.01405570586
3.13,0.0001757791682,0.01461613683
3.14,0.00447858956,0.01387228601
3.15,0.008361521875,0.01189516447
3.16,0.01148068105,0.008864709303
3.17,0.01356034915,0.005054026488
3.18,0.0144174693,0.0008053869711
3.19,0.01397809295,-0.003500010385
3.2,0.01228425203,-0.007475914952
3.21,0.009490533548,-0.01076557531
3.22,0.005850538471,-0.0130738832
3.23,0.001694320939,-0.01419418555
3.24,-0.002601254751,-0.01402726798
3.25,-0.006646616451,-0.01259068481
3.26,-0.01007496363,-0.01001747026
3.27,-0.01257586166,-0.006544238174
3.28,-0.01392381439,-0.002489672581
3.29,-0.01399910735,0.001774668375
3.3,-0.01279891219,0.005858559756
3.31,-0.01043754776,0.009389146569
3.32,-0.007135818881,0.01204542386
3.33,-0.003200400052,0.01358789808
3.34,0.001004807564,0.01388061226
3.35,0.005092637841,0.01290344196
3.36,0.008688715374,0.01075350236
3.37,0.01146617911,0.00763555621
3.38,0.01317578341,0.003842372773
3.39,0.01366854439,-0.0002730481117
3.4,0.01290883284,-0.00433070116
3.41,0.01097674917,-0.007959060888
3.42,0.008059654208,-0.01082945091
3.43,0.004433768885,-0.01268606493
3.44,0.0004376920966,-0.01336886242
3.45,-0.003559570857,-0.01282727888
3.46,-0.007192996011,-0.01112359339
3.47,-0.01013509425,-0.008425792813
3.48,-0.01212551664,-0.004990763849
3.49,-0.01299402663,-0.00113953564
3.5,-0.01267482691,0.002772996235
3.51,-0.01121107436,0.006390970231
3.52,-0.008749349826,0.00939000842
3.53,-0.005524781165,0.01150624876
3.54,-0.001838360205,0.01255937379
3.55,0.001971327082,0.01246765703
3.56,0.005559280294,0.01125382062
3.57,0.00860529545,0.009041358431
3.58,0.01084239216,0.006041848044
3.59,0.01207995778,0.002534573215
3.6,0.01221964043,-0.001159562766
3.61,0.01126271508,-0.004707387954
3.62,0.009308435045,-0.00779339681
3.63,0.006543691801,-0.01014759759
3.64,0.003225067836,-0.01156884394
3.65,-0.000344985415,-0.0119416737
3.66,-0.003845632798,-0.01124529145
3.67,-0.00696631734,-0.009554049441
3.68,-0.009434060836,-0.007029538433
3.69,-0.0110370355,-0.003905130453
3.7,-0.01164241087,-0.0004644554264
3.71,-0.0112070161,0.002984208421
3.72,-0.009780007786,0.006135334379
3.73,-0.00749743891,0.008712929341
3.74,-0.004569323809,0.01049438681
3.75,-0.001260428222,0.01132939134
3.76,0.002133469923,0.01115231243
3.77,0.005311744422,0.009987106764
3.78,0.00799523018,0.007944400225
3.79,0.009950418557,0.005211089745
3.8,0.01100948732,0.002033433896
3.81,0.01108448959,-0.001304859936
3.82,0.01017453554,-0.004507637559
3.83,0.00836540048,-0.0072922313
3.84,0.005821633544,-0.00941410317
3.85,0.002771871211,-0.01068809583
3.86,-0.0005113709182,-0.01100448072
3.87,-0.003735690939,-0.01033843222
3.88,-0.006614519467,-0.008752109574
3.89,-0.008892352819,-0.006389150637
3.9,-0.01036731775,-0.003462025154
3.91,-0.01090909588,-0.000233307752
3.92,-0.01047061511,0.003007536988
3.93,-0.009092434981,0.005969859098
3.94,-0.006899374499,0.008387776144
3.95,-0.004089603641,0.01004407842
3.96,-0.0009170893983,0.01078993446
3.97,0.002331105962,0.01055858239
3.98,0.005360687639,0.009371700569
3.99,0.007896842697,0.007337790378
4,0.009709376374,0.004642621236
4.01,0.01063394121,0.001532520087
4.02,0.01058735059,-0.001708034214
4.03,0.009575486286,-0.004782492925
4.04,0.007692982671,-0.007409597247
4.05,0.00511463667,-0.009349458697
4.06,0.002079281581,-0.01042588795
4.07,-0.001132405006,-0.01054282781
4.08,-0.004224087326,-0.009693289868
4.09,-0.006911473034,-0.007959904398
4.1,-0.008948884994,-0.005507001428
4.11,-0.01015215256,-0.00256496552
4.12,-0.01041562156,0.0005916349858
4.13,-0.00972165424,0.003670031507
4.14,-0.00814172753,0.006386836519
4.15,-0.005829064857,0.008494557589
4.16,-0.003003567711,0.009804497068
4.17,6.943679182E-05,0.01020386331
4.18,0.003104524573,0.009665507225
4.19,0.005823097581,0.008249438249
4.2,0.007979298254,0.006096088467
4.21,0.009382453006,0.00341209784
4.22,0.009913964534,0.0004501055064
4.23,0.009537152329,-0.002515418312
4.24,0.00829925399,-0.005213929526
4.25,0.006325570973,-0.007403691641
4.26,0.003806492512,-0.008893464862
4.27,0.0009787867998,-0.00955905398
4.28,-0.001896951703,-0.009353308842
4.29,-0.004560508205,-0.008308828682
4.3,-0.006775633039,-0.006533325251
4.31,-0.008350866492,-0.004198280142
4.32,-0.009155790115,-0.001522125396
4.33,-0.009131372386,0.001250367814
4.34,-0.008293658505,0.003870525321
4.35,-0.006730678523,0.006107971556
4.36,-0.00459305638,0.007770633521
4.37,-0.002079341093,0.008720850039
4.38,0.0005824932958,0.008886292465
4.39,0.003155651434,0.008264901057
4.4,0.005415376283,0.006923586242
4.41,0.007168259413,0.004990987308
4.42,0.008268390066,0.002645077105
4.43,0.008629051753,9.681146634E-05
4.44,0.008229090785,-0.00242868353
4.45,0.007113553611,-0.004711733021
4.46,0.005388678627,-0.006556871242
4.47,0.00321179337,-0.007809181611
4.48,0.0007770737799,-0.008366905239
4.49,-0.0017015615,-0.008189343395
4.5,-0.004008943819,-0.007299487516
4.51,-0.005946974991,-0.005781253129
4.52,-0.007351261582,-0.003771635852
4.53,-0.008104713752,-0.001448514217
4.54,-0.008147027782,0.0009848352512
4.55,-0.00747932034,0.003317195174
4.56,-0.006163583433,0.00534737904
4.57,-0.004317050209,0.006901234499
4.58,-0.00210197075,0.007846286654
4.59,0.0002883371222,0.00810282932
4.6,0.002646001371,0.007650563647
4.61,0.004766309391,0.006530244012
4.62,0.006465160802,0.004840193306
4.63,0.007594815813,0.002727963509
4.64,0.008056626065,0.0003778116453
4.65,0.007809669726,-0.002004993707
4.66,0.00687453551,-0.004211751148
4.67,0.005331888257,-0.006048334818
4.68,0.003315873761,-0.007352118644
4.69,0.00100285065,-0.008006365516
4.7,-0.00140366126,-0.007950813371
4.71,-0.003690586683,-0.007187483251
4.72,-0.005653977213,-0.005781118502
4.73,-0.007117161465,-0.003854111772
4.74,-0.00794675641,-0.001576252643
4.75,-0.008065075674,0.0008499058993
4.76,-0.007457748023,0.003206851013
4.77,-0.006175754259,0.00528155143
4.78,-0.004331573464,0.006884810121
4.79,-0.002089660117,0.007868758022
4.8,0.0003479955922,0.008140838389
4.81,0.002759991464,0.007672911126
4.82,0.004925707199,0.006504527172
4.83,0.006645715136,0.004739950134
4.84,0.007760486389,0.002539088453
4.85,0.008165588502,0.0001030903254
4.86,0.007821869307,-0.002344113798
4.87,0.006759577601,-0.004576616232
4.88,0.005075943104,-0.006387718724
4.89,0.002926370775,-0.00760946459
4.9,0.0005100342989,-0.008128612879
4.91,-0.001948784801,-0.007897477811
4.92,-0.004221832022,-0.006938547358
4.93,-0.006098449187,-0.005342401174
4.94,-0.007405483695,-0.003259108458
4.95,-0.008023599956,-0.0008839326664
4.96,-0.00789840883,0.001561265129
4.97,-0.007045345081,0.003849107862
4.98,-0.005547844223,0.005768212552
4.99,-0.003549034061,0.007143040735
5,-0.001237793672,0.007850179989
5.01,0.001169421633,0.007829516194
5.02,0.003449191727,0.007089274681
5.03,0.005392167712,0.005704521463
5.04,0.006822510163,0.003809358966
5.05,0.007613896699,0.001583658575
5.06,0.007700631892,-0.0007643155205
5.07,0.007082893583,-0.003017669026
5.08,0.005825732263,-0.004971113713
5.09,0.004052044256,-0.006449763405
5.1,0.001930305164,-0.007324759566
5.11,-0.0003416762582,-0.007524339563
5.12,-0.002555384367,-0.007039424941
5.13,-0.004510825976,-0.005923343171
5.14,-0.006034580427,-0.004285850776
5.15,-0.006995048388,-0.002282145498
5.16,-0.007313581712,-9.799343516E-05
5.17,-0.006970590779,0.002067583394
5.18,-0.006006206965,0.004020436669
5.19,-0.004515579808,0.00558859197
5.2,-0.002639365081,0.006637196838
5.21,-0.0005503700243,0.007079848524
5.22,0.001562367756,0.006885390473
5.23,0.003510603588,0.006079690841
5.24,0.005123493171,0.00474236806
5.25,0.006262344916,0.002998867898
5.26,0.006832277451,0.001008686594
5.27,0.006789841229,-0.001049155335
5.28,0.00614603215,-0.002992077111
5.29,0.004964531302,-0.004649937536
5.3,0.00335541353,-0.005879698043
5.31,0.001464944998,-0.006577519186
5.32,-0.0005375933673,-0.006687301948
5.33,-0.002474887658,-0.006205002425
5.34,-0.004177078025,-0.005178414053
5.35,-0.005496429053,-0.003702495286
5.36,-0.006319948012,-0.001910691446
5.37,-0.006578901573,3.697169155E-05
5.38,-0.00625445097,0.001967983686
5.39,-0.005378955886,0.003712421569
5.4,-0.004032862011,0.005117711469
5.41,-0.002337457125,0.006061824523
5.42,-0.0004441263181,0.006463786365
5.43,0.001478968979,0.006290606188
5.44,0.003261644917,0.005560032613
5.45,0.004746614175,0.004338895671
5.46,0.005803282243,0.002737169007
5.47,0.006339221776,0.000898253631
5.48,0.00630831689,-0.001013686581
5.49,0.005714848989,-0.002828245083
5.5,0.004613142361,-0.00438388394
5.51,0.00310277306,-0.005542306678
5.52,0.00131973601,-0.006200813687
5.53,-0.0005756713691,-0.006301525626
5.54,-0.002413188494,-0.00583662699
5.55,-0.004027881104,-0.004849129722
5.56,-0.005275007264,-0.003429055939
5.57,-0.006043109138,-0.001705354198
5.58,-0.006264127121,0.0001657428415
5.59,-0.005919594027,0.002014877276
5.6,-0.005042319714,0.00367495703
5.61,-0.003713389273,0.00499636943
5.62,-0.002054732461,0.005860613179
5.63,-0.0002179370741,0.006191082896
5.64,0.001629665858,0.005959999973
5.65,0.003320356862,0.005190840735
5.66,0.004701395511,0.003956034287
5.67,0.005648969868,0.002370147335
5.68,0.006079430477,0.0005791986469
5.69,0.005956769139,-0.00125288997
5.7,0.005295659552,-0.0029594318
5.71,0.004159798224,-0.004386283255
5.72,0.002655728438,-0.005405894169
5.73,0.0009227542951,-0.005928800695
5.74,-0.0008800852137,-0.005911512094
5.75,-0.00258874489,-0.005360091115
5.76,-0.004049220842,-0.004329138821
5.77,-0.005131519091,-0.002916328107
5.78,-0.005741265984,-0.001253044005
5.79,-0.005827918349,0.0005079561328
5.8,-0.005388862506,0.002206685912
5.81,-0.004469083278,0.003690551187
5.82,-0.003156498695,0.004828101361
5.83,-0.001573453833,0.005520665922
5.84,0.0001347886877,0.005710847842
5.85,0.00181346434,0.00538715228
5.86,0.00331237799,0.004584395598
5.87,0.004499345032,0.003379930824
5.88,0.00527179935,0.001886104629
5.89,0.005565555462,0.000239693461
5.9,0.005359989895,-0.001410676531
5.91,0.004679244344,-0.002917961058
5.92,0.003589418298,-0.004149764605
5.93,0.002192077837,-0.004999885599
5.94,0.0006147282028,-0.005397343709
5.95,-0.001000847226,-0.005312138807
5.96,-0.002511310575,-0.004757297049
5.97,-0.003784415441,-0.003787096745
5.98,-0.004710467839,-0.00249170441
5.99,-0.005211623809,-0.0009887597833
6,-0.005248256177,0.0005872983392
