"Freq [GHz]","re(S(Rx_p1,Tx_p1)) []","im(S(Rx_p1,Tx_p1)) []"
1,-0.03883903234,-0.06586605886
1.01,-0.05622300739,-0.0512545624
1.02,-0.06847908077,-0.0322659404
1.03,-0.07457294737,-0.01061285516
1.04,-0.07402067309,0.01176986637
1.05,-0.06692887011,0.0328966645
1.06,-0.05398276506,0.05090720188
1.07,-0.0363828166,0.06423125446
1.08,-0.01573518688,0.07172765171
1.09,0.006094310397,0.07278448823
1.1,0.02714961797,0.06737121662
1.11,0.04556165619,0.0560376217
1.12,0.05971690084,0.03985966197
1.13,0.06840155794,0.02033724984
1.14,0.07090785673,-0.0007463024953
1.15,0.06709264062,-0.02148972172
1.16,0.05738310459,-0.04004826588
1.17,0.0427297156,-0.0548006665
1.18,0.02451150621,-0.06449283402
1.19,0.004403498843,-0.06834514248
1.2,-0.01578048117,-0.06611390752
1.21,-0.034254265,-0.05810233626
1.22,-0.04941925653,-0.04512123959
1.23,-0.06000311427,-0.02840461557
1.24,-0.06516505184,-0.009489337921
1.25,-0.06455924308,0.009928781177
1.26,-0.05835210593,0.02814859587
1.27,-0.04719370602,0.04361268985
1.28,-0.0321477042,0.05503880491
1.29,-0.01458777719,0.06152281417
1.3,0.003929018641,0.062605534
1.31,0.02180005391,0.05829925634
1.32,0.03751395099,0.04907356496
1.33,0.04977507034,0.03580343588
1.34,0.05760597952,0.01968553689
1.35,0.06042054848,0.002130848585
1.36,0.05806302696,-0.01535686862
1.37,0.05081131067,-0.03130665579
1.38,0.03934537721,-0.0444000678
1.39,0.02468439511,-0.05357596402
1.4,0.008098149993,-0.05811274612
1.41,-0.008999896621,-0.05768226362
1.42,-0.02516945784,-0.05237176333
1.43,-0.039061144,-0.04267259701
1.44,-0.04952602488,-0.0294368007
1.45,-0.05570859357,-0.01380499524
1.46,-0.05711586435,0.002888799923
1.47,-0.05365704467,0.01922803923
1.48,-0.04565038965,0.0338314747
1.49,-0.03379635886,0.0454684667
1.5,-0.0191188846,0.05316229852
1.51,-0.002879225431,0.05627276216
1.52,0.01353071196,0.05455079881
1.53,0.02870677787,0.04816018253
1.54,0.04135268368,0.03766397316
1.55,0.05039141041,0.02397650957
1.56,0.0550580988,0.008284791028
1.57,0.05496609654,-0.008054096516
1.58,0.05014015116,-0.02363059916
1.59,0.04101365966,-0.03710499218
1.6,0.02839014044,-0.04732349393
1.61,0.01337235806,-0.05341786519
1.62,-0.00273451968,-0.05487967421
1.63,-0.01853701423,-0.05160274914
1.64,-0.03267446072,-0.0438902729
1.65,-0.0439364217,-0.03242620362
1.66,-0.05136612783,-0.01821390436
1.67,-0.05434109472,-0.002487731776
1.68,-0.05262424157,0.01339439726
1.69,-0.04638154381,0.02806795551
1.7,-0.03616521733,0.04027816378
1.71,-0.02286437747,0.04898593877
1.72,-0.00762778666,0.05345471653
1.73,0.008234506072,0.0533112182
1.74,0.02336227242,0.04857549402
1.75,0.03645975047,0.03965813316
1.76,0.04640450514,0.02732515306
1.77,0.05234176224,0.01263359353
1.78,0.05375668098,-0.0031569279
1.79,0.05051875626,-0.01868962283
1.8,0.04289466726,-0.03262451971
1.81,0.03152827865,-0.04375193348
1.82,0.01738901358,-0.05109623699
1.83,0.001692299274,-0.05400132882
1.84,-0.01420192,-0.05219041647
1.85,-0.02890466968,-0.04579456355
1.86,-0.04111807736,-0.03534680046
1.87,-0.04975004531,-0.02174133546
1.88,-0.05401339517,-0.006160345343
1.89,-0.05350031616,0.01002625798
1.9,-0.04822471259,0.0253800544
1.91,-0.03862759639,0.03852222513
1.92,-0.02554383674,0.04825915514
1.93,-0.01013210607,0.05369386039
1.94,0.006226573688,0.05431240483
1.95,0.0220530414,0.05003642198
1.96,0.03590576897,0.04123580031
1.97,0.04651545453,0.0286992882
1.98,0.05290538334,0.01356487344
1.99,0.05448552945,-0.002784127077
2,0.05111069088,-0.01884771573
2.01,0.04309636952,-0.03315031618
2.02,0.03119028685,-0.04438053159
2.03,0.01650193192,-0.05151567698
2.04,0.0003968742008,-0.05391859644
2.05,-0.01563374535,-0.05139702262
2.06,-0.03011552954,-0.04421955214
2.07,-0.04173070935,-0.03308678014
2.08,-0.04944166309,-0.01906076398
2.09,-0.05258592918,-0.003460252168
2.1,-0.05093364481,0.01226745433
2.11,-0.0447023403,0.02668491821
2.12,-0.0345284787,0.03849938099
2.13,-0.02139954823,0.04668080059
2.14,-0.006554402758,0.05055200649
2.15,0.00863750549,0.04984303511
2.16,0.02280563383,0.04470558042
2.17,0.03470386404,0.03568761819
2.18,0.04332025066,0.02367217771
2.19,0.04796133547,0.009787533755
2.2,0.04830431603,-0.004701537293
2.21,0.04441378825,-0.01851053411
2.22,0.03672329818,-0.0304490343
2.23,0.02598516783,-0.03952148692
2.24,0.01319470429,-0.04500679578
2.25,-0.0005032437292,-0.04651094039
2.26,-0.01391644895,-0.04398962945
2.27,-0.02590716101,-0.0377407373
2.28,-0.03548531091,-0.02836878513
2.29,-0.04188602025,-0.01672580569
2.3,-0.04462609335,-0.003834458021
2.31,-0.04353611815,0.009199804885
2.32,-0.03876680017,0.02128034941
2.33,-0.03077005929,0.03140773925
2.34,-0.02025713382,0.03875844101
2.35,-0.008137394374,0.04274834201
2.36,0.004557262162,0.04307674886
2.37,0.01675671244,0.0397479151
2.38,0.02743934536,0.0330686657
2.39,0.03571480338,0.0236222943
2.4,0.04089647967,0.01222054719
2.41,0.04255810904,-0.0001628960301
2.42,0.04056978247,-0.01247257491
2.43,0.0351101032,-0.02365895074
2.44,0.026652938,-0.03276673305
2.45,0.01592920773,-0.03901654783
2.46,0.003866265273,-0.04187289083
2.47,-0.008490551508,-0.04109216503
2.48,-0.02006783304,-0.03674607699
2.49,-0.02985781793,-0.02921767882
2.5,-0.03700760494,-0.01916973724
2.51,-0.0408956551,-0.007487671559
2.52,-0.0411883051,0.004798226319
2.53,-0.03787070307,0.01660446391
2.54,-0.03124889403,0.02689157635
2.55,-0.02192250712,0.03475785954
2.56,-0.01073035098,0.0395207435
2.57,0.001326097738,0.04077803882
2.58,0.01317411858,0.03844319924
2.59,0.02376739845,0.03275127387
2.6,0.03218061783,0.02423510387
2.61,0.03769202801,0.01367424172
2.62,0.03984633542,0.002021719377
2.63,0.03849223745,-0.009684115316
2.64,0.03379152007,-0.02041415259
2.65,0.02619944615,-0.0292404939
2.66,0.01641892912,-0.03541735603
2.67,0.005333411547,-0.03844372877
2.68,-0.006074786165,-0.03810257736
2.69,-0.01681277597,-0.0344737713
2.7,-0.02596390794,-0.02792046828
2.71,-0.03276540722,-0.01905111835
2.72,-0.0366703662,-0.008661346951
2.73,-0.03738932594,0.002338453148
2.74,-0.03490870817,0.01300304975
2.75,-0.02948548613,0.02243276907
2.76,-0.02161950706,0.02984766193
2.77,-0.01200663367,0.03464961877
2.78,-0.001477234124,0.0364679002
2.79,0.009074546537,0.03518509104
2.8,0.01876487583,0.03094213528
2.81,0.02679185703,0.02412273472
2.82,0.03249929194,0.01531888764
2.83,0.03542795523,0.00528062661
2.84,0.03535077468,-0.005145967833
2.85,0.03228951669,-0.01508767865
2.86,0.02651189347,-0.02371478208
2.87,0.01850937264,-0.03030810187
2.88,0.008957319606,-0.03431743035
2.89,-0.001339628696,-0.03540681487
2.9,-0.01151294023,-0.03348307094
2.91,-0.02070140113,-0.02870502666
2.92,-0.02812265722,-0.02147237943
2.93,-0.03313935088,-0.01239458514
2.94,-0.03531432272,-0.002241802295
2.95,-0.03445000571,0.008118540009
2.96,-0.03060824487,0.01779462909
2.97,-0.02410827727,0.02594666848
2.98,-0.01550240421,0.03186028494
2.99,-0.005530838135,0.03501042449
3,0.004940863225,0.03510980505
3.01,0.01499664607,0.03213716583
3.02,0.02375064356,0.02634223804
3.03,0.03042647948,0.01822642029
3.04,0.03442788051,0.008500389317
3.05,0.03539389629,-0.001977908744
3.06,0.03323331674,-0.01227948732
3.07,0.02813473991,-0.02148788771
3.08,0.02055100859,-0.02878236589
3.09,0.01115917764,-0.03351288453
3.1,0.0007995477738,-0.03525977882
3.11,-0.009600640238,-0.03387236688
3.12,-0.0191117322,-0.02948276289
3.13,-0.02688646015,-0.02249352568
3.14,-0.03223702309,-0.01354029585
3.15,-0.03469720413,-0.003432982704
3.16,-0.03406374022,0.006918886888
3.17,-0.03041318273,0.01658955868
3.18,-0.02409286098,0.02472130303
3.19,-0.01568704301,0.03060165134
3.2,-0.005961728428,0.03372650574
3.21,0.004206522252,0.03384345078
3.22,0.01391090617,0.03097155503
3.23,0.02229629946,0.02539622078
3.24,0.02863524131,0.01763999428
3.25,0.03239115681,0.008412455835
3.26,0.03326333117,-0.001455837714
3.27,0.03120995471,-0.01108904956
3.28,0.02644764895,-0.01964437758
3.29,0.019428053,-0.02638592016
3.3,0.01079409239,-0.03074762366
3.31,0.001320289004,-0.03238000125
3.32,-0.008157243916,-0.03117690554
3.33,-0.01681473737,-0.02728050177
3.34,-0.02391209623,-0.02106454739
3.35,-0.0288555073,-0.01309796279
3.36,-0.03124614337,-0.004092316735
3.37,-0.03091112326,0.005161879103
3.38,-0.02791450844,0.01386436195
3.39,-0.02254786671,0.02127378838
3.4,-0.01530166511,0.02677008442
3.41,-0.006820323297,0.02990535832
3.42,0.002154952494,0.03043934083
3.43,0.01085052211,0.02835669763
3.44,0.01852633936,0.02386511628
3.45,0.02453812433,0.01737467572
3.46,0.02839057661,0.009460532965
3.47,0.02977735429,0.000812290787
3.48,0.02860469915,-0.007825557536
3.49,0.02499697338,-0.0157170485
3.5,0.0192838757,-0.02219673052
3.51,0.01197060523,-0.02672508818
3.52,0.00369362262,-0.0289328811
3.53,-0.004834187576,-0.02865082166
3.54,-0.0128843109,-0.02592224714
3.55,-0.01977425348,-0.02099785692
3.56,-0.02492490777,-0.01431306762
3.57,-0.02790887001,-0.006449972937
3.58,-0.02848571279,0.001912837163
3.59,-0.0266213107,0.01005834367
3.6,-0.0224896514,0.01729214852
3.61,-0.01645703092,0.02300136045
3.62,-0.009050008922,0.02670635445
3.63,-0.0009098664996,0.02810104223
3.64,0.007262551107,0.0270782598
3.65,0.01476690737,0.02373813599
3.66,0.02096324179,0.01837874942
3.67,0.0253265225,0.01146988998
3.68,0.02749122346,0.003612185288
3.69,0.02728211488,-0.004514890609
3.7,0.02472863645,-0.01221165018
3.71,0.02006163438,-0.01881841467
3.72,0.01369276557,-0.02377213282
3.73,0.006178371914,-0.02665451299
3.74,-0.001829025287,-0.02722752117
3.75,-0.009637386905,-0.02545319639
3.76,-0.01657504306,-0.0214961019
3.77,-0.02204860078,-0.01570824561
3.78,-0.02559384936,-0.008597832743
3.79,-0.02691526406,-0.0007846221525
3.8,-0.0259107182,0.007054180019
3.81,-0.0226793189,0.01424274283
3.82,-0.01751176664,0.02016501041
3.83,-0.01086416939,0.02431760281
3.84,-0.003317683532,0.0263526505
3.85,0.00447242297,0.02610690333
3.86,0.01183379115,0.02361467821
3.87,0.01813508466,0.01910363787
3.88,0.02284015156,0.01297389641
3.89,0.02555357734,0.005762393413
3.9,0.02605376321,-0.001904261265
3.91,0.02431078253,-0.009364302067
3.92,0.02048761284,-0.01597791887
3.93,0.01492478959,-0.02118202871
3.94,0.008109953646,-0.02453802798
3.95,0.0006350439945,-0.02576850013
3.96,-0.006855087337,-0.02477984483
3.97,-0.01371817291,-0.02166903083
3.98,-0.01936937636,-0.01671404558
3.99,-0.02333083356,-0.0103490023
4,-0.02527173457,-0.003126151749
4.01,-0.02503563501,0.004331874314
4.02,-0.0226527933,0.01138547398
4.03,-0.01833660774,0.01743259243
4.04,-0.01246456552,0.02195974633
4.05,-0.005545405988,0.02458528623
4.06,0.001824663919,0.02509130581
4.07,0.009012971249,0.02344157533
4.08,0.01540428497,0.01978405187
4.09,0.02045309678,0.01443780686
4.1,0.02372989031,0.007865505806
4.11,0.02495752207,0.000633773492
4.12,0.02403466208,-0.006635216361
4.13,0.02104431753,-0.01331685524
4.14,0.01624670336,-0.01883744635
4.15,0.01005702964,-0.02272327894
4.16,0.003010042122,-0.02464126488
4.17,-0.004285724281,-0.02442765895
4.18,-0.011200133,-0.02210236755
4.19,-0.01713565461,-0.01786755197
4.2,-0.02157896947,-0.01209055706
4.21,-0.02414551808,-0.005272534215
4.22,-0.02461311489,0.001994633131
4.23,-0.02294164432,0.009079459498
4.24,-0.01927703035,0.0153656663
4.25,-0.01393901796,0.02030592625
4.26,-0.007393713185,0.0234698412
4.27,-0.0002131748063,0.02458190556
4.28,0.006974483818,0.02354604319
4.29,0.01354014833,0.02045445694
4.3,0.01890907512,0.01557989939
4.31,0.02261166757,0.009351942741
4.32,0.0243251077,0.002319262669
4.33,0.02390207526,-0.004898774738
4.34,0.02138391845,-0.01166694378
4.35,0.01699702624,-0.01739051633
4.36,0.01113266607,-0.02156808378
4.37,0.004312054791,-0.02383607426
4.38,-0.002860216618,-0.02400092966
4.39,-0.00975020946,-0.02205601781
4.4,-0.01575122777,-0.01818174317
4.41,-0.02033784371,-0.01272885524
4.42,-0.02311246227,-0.006186493892
4.43,-0.02384021865,0.000862089894
4.44,-0.02246908197,0.007792074183
4.45,-0.01913340839,0.01399305868
4.46,-0.01414071577,0.01892340683
4.47,-0.007942994063,0.02215801717
4.48,-0.001095276012,0.02342524334
4.49,0.005794663066,0.02262971552
4.5,0.01212083365,0.01985914054
4.51,0.01733281291,0.01537464685
4.52,0.02098393489,0.00958574868
4.53,0.02276962624,0.003012390881
4.54,0.02255258621,-0.003762328034
4.55,0.02037275979,-0.01014437294
4.56,0.01644146471,-0.01558118148
4.57,0.01112047364,-0.01960959417
4.58,0.004888186272,-0.02189513295
4.59,-0.001703867747,-0.02225932188
4.6,-0.008080168872,-0.02069288347
4.61,-0.01369156332,-0.01735394721
4.62,-0.01806241137,-0.01255174787
4.63,-0.02083050132,-0.006717548232
4.64,-0.02177643953,-0.0003655859779
4.65,-0.02084022577,0.005952370368
4.66,-0.01812388707,0.01169482262
4.67,-0.01388026235,0.01637657938
4.68,-0.008489199182,0.01960917077
4.69,-0.002423445981,0.02113236378
4.7,0.00379268124,0.02083433183
4.71,0.009628262727,0.01875903617
4.72,0.01459056929,0.01510046368
4.73,0.01826599385,0.01018444604
4.74,0.02035382499,0.004439774876
4.75,0.02069021381,-0.001638847508
4.76,0.01926052189,-0.007532876382
4.77,0.01619919592,-0.01274351973
4.78,0.01177731913,-0.01683329697
4.79,0.00637896604,-0.01946220204
4.8,0.0004683653814,-0.02041556989
4.81,-0.005449406403,-0.01962142257
4.82,-0.01087097303,-0.01715591571
4.83,-0.01533696217,-0.01323645744
4.84,-0.01847059185,-0.008203060337
4.85,-0.02000934962,-0.002489439979
4.86,-0.01982711376,0.003413781972
4.87,-0.01794482482,0.009000743032
4.88,-0.0145287413,0.0137934107
4.89,-0.009876336773,0.01738243514
4.9,-0.004390937065,0.01946229701
4.91,0.001452831019,0.01985769751
4.92,0.007149888553,0.01853884264
4.93,0.01220837061,0.01562419896
4.94,0.0161923304,0.01137037018
4.95,0.01875973111,0.006149872811
4.96,0.01969234015,0.0004186734392
4.97,0.01891482007,-0.005323710198
4.98,0.0165012498,-0.01057803986
4.99,0.01266842889,-0.01488922227
5,0.007756514022,-0.01788627461
5.01,0.002198698564,-0.01931478417
5.02,-0.003517340361,-0.0190589259
5.03,-0.00889273705,-0.01715105405
5.04,-0.0134615443,-0.01376802829
5.05,-0.01683165308,-0.009214661159
5.06,-0.01871883571,-0.003895863025
5.07,-0.01897088296,0.001719904491
5.08,-0.0175797475,0.00714247621
5.09,-0.01468073626,0.01190329147
5.1,-0.01053899985,0.01559624157
5.11,-0.005524727752,0.0179124264
5.12,-7.946333359E-05,0.01866581629
5.13,0.005323292936,0.01780770683
5.14,0.01021958365,0.01542891857
5.15,0.01419489682,0.01174982118
5.16,0.0169190178,0.007099343595
5.17,0.01817293091,0.001885068501
5.18,0.01786566052,-0.003442780272
5.19,0.01603988425,-0.008430217119
5.2,0.01286615203,-0.01265787165
5.21,0.008626512113,-0.01577566045
5.22,0.003689196361,-0.01753097896
5.23,-0.00152331142,-0.01778827427
5.24,-0.006570052718,-0.01653863525
5.25,-0.01102823981,-0.01389887954
5.26,-0.01452782709,-0.01010045707
5.27,-0.01678132013,-0.005469264714
5.28,-0.01760657447,-0.0003981258211
5.29,-0.01694091868,0.004685805155
5.3,-0.01484561514,0.009356122669
5.31,-0.01150039872,0.0132220013
5.32,-0.007188564423,0.01596008977
5.33,-0.002273765327,0.01734100476
5.34,0.002829705093,0.0172483521
5.35,0.007690874601,0.01568873824
5.36,0.01189767501,0.01279188616
5.37,0.01509134699,0.008800702269
5.38,0.01699688715,0.00405191175
5.39,0.01744698519,-0.001051361715
5.4,0.01639733392,-0.006073004978
5.41,0.01393182162,-0.01058068249
5.42,0.01025690034,-0.01418294958
5.43,0.005685313251,-0.01656355044
5.44,0.0006102904292,-0.01750985363
5.45,-0.004527795203,-0.01693276924
5.46,-0.009279567432,-0.01487614504
5.47,-0.01322629599,-0.01151451362
5.48,-0.0160175078,-0.007139088626
5.49,-0.01740307503,-0.002132995827
5.5,-0.01725669638,0.003062232443
5.51,-0.01558840706,0.007985980083
5.52,-0.01254473389,0.0122001295
5.53,-0.008396264374,0.01532903718
5.54,-0.00351361166,0.01709410428
5.55,0.001666094938,0.01733959565
5.56,0.006679103956,0.01604716043
5.57,0.01107756404,0.01333758165
5.58,0.01447062314,0.009459522191
5.59,0.01656016703,0.004766313211
5.6,0.0171677758,-0.0003169877003
5.61,0.01625034311,-0.005333082969
5.62,0.01390292978,-0.009834647573
5.63,0.01034868933,-0.0134252081
5.64,0.005916975036,-0.01579480258
5.65,0.001011880238,-0.01674710113
5.66,-0.003925640711,-0.0162155589
5.67,-0.008458364472,-0.01426729067
5.68,-0.01219222381,-0.01109457669
5.69,-0.01481090468,-0.006995103575
5.7,-0.01610252872,-0.002343088311
5.71,-0.01597619159,0.002445772569
5.72,-0.0144671667,0.006952113282
5.73,-0.01173069135,0.01078993196
5.74,-0.008025312423,0.01363953394
5.75,-0.003687680383,0.01527359848
5.76,0.0008986371876,0.01557433875
5.77,0.005337347481,0.01454062321
5.78,0.009253546785,0.01228486997
5.79,0.01232484878,0.009020422121
5.8,0.01430703499,0.005040884356
5.81,0.01505233532,0.0006934902917
5.82,0.01451915967,-0.003651057393
5.83,0.01277285704,-0.007629685879
5.84,0.009977809936,-0.0109164717
5.85,0.006381825393,-0.01324831957
5.86,0.002294317998,-0.01444494552
5.87,-0.001939829024,-0.0144218202
5.88,-0.005968604397,-0.01319529979
5.89,-0.009461212053,-0.01087976243
5.9,-0.01213428717,-0.007677141907
5.91,-0.01377405793,-0.003859776794
5.92,-0.01425284537,0.0002520531662
5.93,-0.01353870934,0.004316171518
5.94,-0.0116975394,0.007996150386
5.95,-0.008887428877,0.01098845501
5.96,-0.005345731169,0.01304700232
5.97,-0.001369745658,0.01400320855
5.98,0.002707519101,0.01377990419
5.99,0.006544643862,0.01239792959
6,0.009820008099,0.009974769597
