"Freq [GHz]","re(S(Rx_p1,Tx_p1)) []","im(S(Rx_p1,Tx_p1)) []"
1,-0.0970172469,-0.0922796378
1.01,-0.11921526,-0.05888258586
1.02,-0.1304057174,-0.02066382433
1.03,-0.1297342935,0.0188753796
1.04,-0.1174261983,0.05616203298
1.05,-0.09475188405,0.08787482619
1.06,-0.06389852162,0.111240852
1.07,-0.02775994479,0.1242789348
1.08,0.01033488888,0.1259679879
1.09,0.04692941707,0.1163258991
1.1,0.07875441089,0.09639281667
1.11,0.103021394,0.06812159475
1.12,0.1176679289,0.03418669953
1.13,0.1215329477,-0.002269713246
1.14,0.1144470871,-0.03793027266
1.15,0.09723109753,-0.06960592372
1.16,0.0716040414,-0.09452243441
1.17,0.04001134523,-0.1105638643
1.18,0.005390022831,-0.1164514607
1.19,-0.02910612682,-0.1118428716
1.2,-0.0603953209,-0.0973442701
1.21,-0.08574386191,-0.07443621984
1.22,-0.1030045646,-0.04532205481
1.23,-0.1107967339,-0.01271446836
1.24,-0.1086128187,0.02041873711
1.25,-0.09684399961,0.05112563631
1.26,-0.07672459785,0.07673298087
1.27,-0.05020257251,0.09507739661
1.28,-0.01974983049,0.1046851639
1.29,0.01186895678,0.1048860436
1.3,0.04184724922,0.09585300387
1.31,0.06758445989,0.07856658264
1.32,0.08690898545,0.05470932863
1.33,0.09825767796,0.02650172231
1.34,0.1007974656,-0.00350432189
1.35,0.09448035972,-0.03265516682
1.36,0.08002913768,-0.05842785949
1.37,0.0588570142,-0.0786452106
1.38,0.03293010977,-0.09165569321
1.39,0.004586049056,-0.09646388285
1.4,-0.02367473742,-0.09280177926
1.41,-0.04940668642,-0.08113658351
1.42,-0.07042723767,-0.06261590537
1.43,-0.08499823468,-0.0389565102
1.44,-0.09196604892,-0.01228719128
1.45,-0.09084962437,0.01504014903
1.46,-0.08187014014,0.04065484297
1.47,-0.06592088316,0.06236993109
1.48,-0.04448083105,0.0783659334
1.49,-0.01947999162,0.08734087753
1.5,0.006871610416,0.08861450863
1.51,0.03227655577,0.08217850536
1.52,0.05454787126,0.06868905477
1.53,0.07179538564,0.04940294104
1.54,0.08258494734,0.02606300151
1.55,0.08605718889,0.0007430204459
1.56,0.0819959699,-0.02433447971
1.57,0.07084091601,-0.04699181592
1.58,0.05364324837,-0.06528440418
1.59,0.0319689685,-0.07766747942
1.6,0.00775801193,-0.08312691877
1.61,-0.01684818974,-0.08126293309
1.62,-0.03969553988,-0.07231951446
1.63,-0.05880587037,-0.05715729788
1.64,-0.0725487053,-0.03717249436
1.65,-0.07978112255,-0.01416933102
1.66,-0.07994351893,0.00980244535
1.67,-0.07310306435,0.03263036239
1.68,-0.05994135323,0.05232592084
1.69,-0.0416877912,0.06719854349
1.7,-0.02000512676,0.07600137697
1.71,0.003162202021,0.07803620485
1.72,0.02576297969,0.07320853163
1.73,0.04582150495,0.06202848216
1.74,0.0616108993,0.04555809654
1.75,0.07180208931,0.02531042206
1.76,0.07557552203,0.003110066289
1.77,0.07268621742,-0.01907180831
1.78,0.06347709863,-0.03929298666
1.79,0.04884025511,-0.05581045962
1.8,0.03013044557,-0.06723045295
1.81,0.009039313469,-0.07262532609
1.82,-0.01255789683,-0.07160763316
1.83,-0.03276914726,-0.06435562211
1.84,-0.04985106391,-0.05158884178
1.85,-0.06235860853,-0.03449692977
1.86,-0.06926621812,-0.01462867592
1.87,-0.07005042489,0.006248242707
1.88,-0.06472752285,0.02630414379
1.89,-0.05384386515,0.04380696618
1.9,-0.03842049972,0.05727082573
1.91,-0.01985772853,0.06558091917
1.92,0.0001915137378,0.0680844673
1.93,0.0199680815,0.06464047953
1.94,0.03775998803,0.05562475437
1.95,0.05204950635,0.04189038821
1.96,0.06164153238,0.02468782851
1.97,0.06576251852,0.005551867377
1.98,0.06412192642,-0.0138343375
1.99,0.05693142363,-0.03178631655
2,0.04488068268,-0.04676372319
2.01,0.02907233136,-0.05750173122
2.02,0.01092204669,-0.06311728926
2.03,-0.007967302182,-0.06318136369
2.04,-0.02594641322,-0.05775127312
2.05,-0.04146296773,-0.04736067336
2.06,-0.05319530905,-0.03296840229
2.07,-0.06016490063,-0.01587092887
2.08,-0.06181797704,0.002413730441
2.09,-0.05806952177,0.02028033202
2.1,-0.04930601858,0.03617713187
2.11,-0.03634703938,0.04874068915
2.12,-0.02036933613,0.05691299972
2.13,-0.00280037806,0.0600308288
2.14,0.01480907404,0.05787961989
2.15,0.03092197377,0.05070753286
2.16,0.04414942303,0.03919872361
2.17,0.05337070165,0.02440859791
2.18,0.05782843703,0.007667126551
2.19,0.05719076354,-0.009540907017
2.2,0.05157533908,-0.02570789058
2.21,0.04153353682,-0.03943579086
2.22,0.02799669497,-0.04955727727
2.23,0.01218965979,-0.0552350055
2.24,-0.004480304717,-0.05603058886
2.25,-0.02054909517,-0.05193759937
2.26,-0.03462455846,-0.04337621727
2.27,-0.04550711207,-0.03115058114
2.28,-0.05229172647,-0.0163731697
2.29,-0.05444262594,-0.0003633770119
2.3,-0.05183461843,0.01547041622
2.31,-0.0447580039,0.0297546973
2.32,-0.03388725212,0.04126970526
2.33,-0.02021679543,0.0490530888
2.34,-0.00497007483,0.05247960411
2.35,0.0105098246,0.05131036271
2.36,0.02487818337,0.04570789365
2.37,0.03690497905,0.03621629842
2.38,0.04557955322,0.02370878676
2.39,0.05019480894,0.009307632603
2.4,0.0504040378,-0.005716144554
2.41,0.04624592621,-0.02005446355
2.42,0.03813607068,-0.0324754994
2.43,0.02682620444,-0.04192891491
2.44,0.01333506216,-0.04763411366
2.45,-0.001142835203,-0.04914418447
2.46,-0.01534239752,-0.04638036408
2.47,-0.02803801033,-0.03963441063
2.48,-0.0381489202,-0.02953903948
2.49,-0.04483096315,-0.01700929348
2.5,-0.04754688521,-0.003160177792
2.51,-0.04610940101,0.01079212128
2.52,-0.04069352118,0.02363675814
2.53,-0.03181735155,0.03427320791
2.54,-0.02029329813,0.0418056149
2.55,-0.007154167879,0.04561839813
2.56,0.006439185274,0.04542668253
2.57,0.01930044604,0.0412973632
2.58,0.03032158411,0.03363921117
2.59,0.03856864517,0.02316316408
2.6,0.04336123454,0.01081657099
2.61,0.04432884617,-0.002302559491
2.62,0.04143930168,-0.01504352967
2.63,0.03499708948,-0.0263043431
2.64,0.02561210259,-0.03512749533
2.65,0.01414191638,-0.04078174243
2.66,0.001613080847,-0.04282277948
2.67,-0.01087128666,-0.04112774395
2.68,-0.02222919615,-0.03590087987
2.69,-0.03149401067,-0.02765032841
2.7,-0.03789690518,-0.01713860239
2.71,-0.04093046732,-0.005311615197
2.72,-0.04038817694,0.006787039978
2.73,-0.03637676901,0.01810868668
2.74,-0.02930097129,0.02769072696
2.75,-0.01982257854,0.03473838345
2.76,-0.008798052541,0.03869007345
2.77,0.002799375603,0.03926109749
2.78,0.01396592558,0.03646238107
2.79,0.02375411241,0.03059328857
2.8,0.03135269294,0.0222098184
2.81,0.03615302166,0.01207158348
2.82,0.03779650621,0.001072703144
2.83,0.03619964381,-0.009837053802
2.84,0.03155514398,-0.01973391158
2.85,0.02430971475,-0.02779754618
2.86,0.01512103167,-0.03337797216
2.87,0.004798062729,-0.03604656186
2.88,-0.00576983355,-0.03562738778
2.89,-0.01568886877,-0.03220682093
2.9,-0.02413545367,-0.02612115971
2.91,-0.03042340558,-0.01792385677
2.92,-0.0340584191,-0.008335514828
2.93,-0.03477565428,0.001818878368
2.94,-0.03255775422,0.01168009873
2.95,-0.02763222943,0.02042637963
2.96,-0.02044881135,0.02734081683
2.97,-0.01163895716,0.03186910655
2.98,-0.001961066417,0.03366310123
2.99,0.007763949953,0.03260686432
3,0.01672140293,0.02882334222
3.01,0.0241702334,0.02266133852
3.02,0.02950362718,0.01466405443
3.03,0.03229795701,0.005521929747
3.04,0.03234614385,-0.003986231512
3.05,0.02967281136,-0.01305893605
3.06,0.02453010175,-0.02093902547
3.07,0.01737460898,-0.02697650264
3.08,0.008827441533,-0.03068197029
3.09,-0.0003791778886,-0.03176627824
3.1,-0.009464250593,-0.03016313084
3.11,-0.01766400966,-0.0260328379
3.12,-0.02429602765,-0.0197469829
3.13,-0.02881602537,-0.01185539585
3.14,-0.03086261493,-0.003038317687
3.15,-0.03028625282,0.005952104018
3.16,-0.0271600417,0.01435595268
3.17,-0.02177158579,0.02146981911
3.18,-0.01459673441,0.02670574186
3.19,-0.006257599142,0.02963983186
3.2,0.002531437211,0.03004652755
3.21,0.01102500227,0.02791569872
3.22,0.01851001,0.02345131883
3.23,0.02436552268,0.01705202266
3.24,0.0281141497,0.009275414764
3.25,0.02946072528,0.0007893595169
3.26,0.02831515333,-0.007685451677
3.27,0.02479770205,-0.0154366832
3.28,0.01922654665,-0.02182007642
3.29,0.01208886168,-0.02631270751
3.3,0.003998127202,-0.02855540957
3.31,-0.004358578465,-0.02838097155
3.32,-0.0122787575,-0.02582597347
3.33,-0.01910322733,-0.02112551517
3.34,-0.02427053702,-0.01469152402
3.35,-0.02736263135,-0.007076667518
3.36,-0.02813812231,0.001072957581
3.37,-0.02655059931,0.009072323031
3.38,-0.02275066731,0.01625459601
3.39,-0.01707174091,0.02202619133
3.4,-0.01000093564,0.02591527748
3.41,-0.002137582941,0.02760984938
3.42,0.005857136625,0.02698236467
3.43,0.01331526793,0.02409905091
3.44,0.01961734715,0.01921323965
3.45,0.02424335939,0.0127433716
3.46,0.02681526113,0.005237546642
3.47,0.02712763797,-0.002672432182
3.48,0.02516403616,-0.01032373301
3.49,0.02109766917,-0.01707756362
3.5,0.01527646893,-0.02237211856
3.51,0.008193724349,-0.02576906045
3.52,0.0004467279879,-0.02698971296
3.53,-0.007313161409,-0.02593797777
3.54,-0.01443491786,-0.02270807085
3.55,-0.02032220463,-0.01757641947
3.56,-0.02448317181,-0.01097837045
3.57,-0.02657153974,-0.003471624052
3.58,-0.02641552323,0.004310578119
3.59,-0.02403215419,0.01171261464
3.6,-0.01962577483,0.01811155147
3.61,-0.01357079919,0.02296949506
3.62,-0.006380165789,0.02587882437
3.63,0.0013378848,0.02659648246
3.64,0.008931080324,0.02506442225
3.65,0.01575811953,0.02141446513
3.66,0.02124276778,0.01595714744
3.67,0.02492247669,0.009155484237
3.68,0.02648741784,0.001585858103
3.69,0.02580662976,-0.006110668537
3.7,0.02293906671,-0.01328250766
3.71,0.01812861446,-0.01932259469
3.72,0.01178349288,-0.02371968614
3.73,0.004441782442,-0.0261015781
3.74,-0.003274019192,-0.0262666011
3.75,-0.01070958277,-0.02420073564
3.76,-0.01723404804,-0.02007890287
3.77,-0.0222933854,-0.01425031429
3.78,-0.02545732726,-0.007209101607
3.79,-0.02645591469,0.0004473179522
3.8,-0.02520257159,0.00806865672
3.81,-0.02180174162,0.01500672829
3.82,-0.01654041104,0.02067036293
3.83,-0.009864186504,0.02457564662
3.84,-0.002339891445,0.02638723984
3.85,0.005392219066,0.02594726214
3.86,0.01267264069,0.02328925355
3.87,0.01887865647,0.01863596201
3.88,0.02347750079,0.01238105726
3.89,0.02607213228,0.005056224963
3.9,0.02643568615,-0.002713660657
3.91,0.02453160083,-0.0102635567
3.92,0.02051760146,-0.01694500727
3.93,0.01473307808,-0.02218181807
3.94,0.007670808333,-0.02551987756
3.95,-6.467686939E-05,-0.02666680368
3.96,-0.007808614737,-0.02551792274
3.97,-0.01489306062,-0.02216622628
3.98,-0.02070458276,-0.01689531035
3.99,-0.02473760872,-0.0101557658
4,-0.02663875439,-0.002526932314
4.01,-0.02623820321,0.005332774253
4.02,-0.02356529492,0.01274271851
4.03,-0.01884683958,0.01905917075
4.04,-0.01248817754,0.02373153825
4.05,-0.005038526756,0.02635074764
4.06,0.002856439513,0.02668547417
4.07,0.01051068808,0.02470295428
4.08,0.01725769829,0.02057246058
4.09,0.02250884748,0.01465104436
4.1,0.02580514592,0.007452724793
4.11,0.02685772199,-0.0003962178771
4.12,0.02557343916,-0.0082119382
4.13,0.02206333678,-0.01531289981
4.14,0.01663310973,-0.02107964165
4.15,0.009756439982,-0.02500914765
4.16,0.002033521025,-0.0267590041
4.17,-0.005861564115,-0.02617743439
4.18,-0.01323995946,-0.02331655651
4.19,-0.01945842121,-0.01842770145
4.2,-0.02397563973,-0.01193922412
4.21,-0.02639953678,-0.004418790109
4.22,-0.02652138805,0.003476509265
4.23,-0.02433379735,0.01105779479
4.24,-0.02003098508,0.01766470217
4.25,-0.01399141717,0.02272304648
4.26,-0.006744354485,0.02579479906
4.27,0.001076692595,0.02661602486
4.28,0.008789485626,0.02511950413
4.29,0.01572267116,0.02144011769
4.3,0.0212742674,0.01590259039
4.31,0.02496393018,0.008992727383
4.32,0.02647447042,0.001314709613
4.33,0.02567905102,-0.006461785515
4.34,0.02265175078,-0.01366000641
4.35,0.01766063513,-0.01965500056
4.36,0.01114399204,-0.02392782877
4.37,0.003671845271,-0.02611043342
4.38,-0.004103877236,-0.02601729791
4.39,-0.01150617271,-0.02366118843
4.4,-0.01789185098,-0.0192516511
4.41,-0.02270737436,-0.01317643021
4.42,-0.02553681765,-0.005967447735
4.43,-0.02613780371,0.001745684661
4.44,-0.02446231419,0.009290575656
4.45,-0.02066058476,0.01601061577
4.46,-0.0150677587,0.02132210516
4.47,-0.008174466306,0.02476498667
4.48,-0.0005838915152,0.02604277579
4.49,0.007040937558,0.025048214
4.5,0.01403504448,0.02187241025
4.51,0.01978954002,0.01679666981
4.52,0.0238047318,0.01026771849
4.53,0.0257336654,0.002858481085
4.54,0.02541228388,-0.004782160288
4.55,0.02287355898,-0.0119862316
4.56,0.01834434962,-0.01812517172
4.57,0.01222525908,-0.02266484098
4.58,0.005055259201,-0.02521219831
4.59,-0.002535805774,-0.02554954084
4.6,-0.009882649936,-0.02365329288
4.61,-0.01634302133,-0.01969569515
4.62,-0.02135406114,-0.01402925681
4.63,-0.02448157211,-0.007155360046
4.64,-0.02545785206,0.0003201887263
4.65,-0.02420476585,0.007740710136
4.66,-0.02084004374,0.01445655113
4.67,-0.0156662877,0.01988219861
4.68,-0.009143705321,0.023547554
4.69,-0.001849035467,0.0251388475
4.7,0.005575649564,0.02452560549
4.71,0.01247969317,0.02177133779
4.72,0.01826110748,0.01712706876
4.73,0.02241926095,0.01100836534
4.74,0.02459836272,0.003957978654
4.75,0.02461794909,-0.003402518063
4.76,0.02248775432,-0.01042775619
4.77,0.01840575019,-0.01650536114
4.78,0.01273963913,-0.02110948072
4.79,0.005993548191,-0.0238463546
4.8,-0.001237033266,-0.024487968
4.81,-0.00831801621,-0.02299091792
4.82,-0.01463247429,-0.01949894948
4.83,-0.01963448306,-0.0143290728
4.84,-0.02289632799,-0.007942616195
4.85,-0.02414500039,-0.0009038822711
4.86,-0.02328488009,0.006169864876
4.87,-0.02040474448,0.0126626306
4.88,-0.01576863319,0.01801336385
4.89,-0.00979151297,0.02176439694
4.9,-0.003002002849,0.02360047758
4.91,0.004004476142,0.02337508242
4.92,0.01061796453,0.02112184131
4.93,0.01626705142,0.01705021713
4.94,0.02046817039,0.01152596052
4.95,0.02286686491,0.005038172905
4.96,0.02326752087,-0.001844048177
4.97,0.02164909569,-0.008521535353
4.98,0.01816560688,-0.01441717298
4.99,0.01313147024,-0.01902568918
5,0.006993084221,-0.02195683636
5.01,0.0002892299981,-0.02296828712
5.02,-0.006396201722,-0.02198549098
5.03,-0.0124850155,-0.01910688456
5.04,-0.01745463633,-0.01459412294
5.05,-0.02088285588,-0.008848292541
5.06,-0.02248358108,-0.002374265573
5.07,-0.02213057099,0.004263639786
5.08,-0.01986720567,0.01049080473
5.09,-0.01590154865,0.01577198745
5.1,-0.01058723714,0.01965724585
5.11,-0.004391951282,0.02182017318
5.12,0.002143728679,0.02208520588
5.13,0.008453460252,0.02044172829
5.14,0.01399416427,0.01704385367
5.15,0.01829269791,0.01219600414
5.16,0.02098616915,0.006325635662
5.17,0.02185246415,-5.444772747E-05
5.18,0.02082842891,-0.006390866784
5.19,0.01801422966,-0.01213761795
5.2,0.01366361868,-0.01680304937
5.21,0.008161048597,-0.01999182536
5.22,0.001987702517,-0.02143830622
5.23,-0.004320555285,-0.02102853702
5.24,-0.01021963324,-0.01880904147
5.25,-0.01520404766,-0.01498176473
5.26,-0.01885011635,-0.009885703609
5.27,-0.02085183296,-0.003966899091
5.28,-0.02104640187,0.002260550406
5.29,-0.01942732246,0.008259050548
5.3,-0.01614399275,0.01351379388
5.31,-0.01148796138,0.0175767942
5.32,-0.005867094258,0.0201049254
5.33,0.0002300583077,0.02088875656
5.34,0.006276590785,0.0198697814
5.35,0.01175261719,0.017144643
5.36,0.01618980586,0.01295606857
5.37,0.01921128342,0.007671358031
5.38,0.02056353125,0.001750321636
5.39,0.0201375932,-0.004294553671
5.4,0.017977832,-0.009942282635
5.41,0.01427753356,-0.0147081234
5.42,0.009361776549,-0.01818506538
5.43,0.003659063922,-0.02007853212
5.44,-0.002335835066,-0.02023135102
5.45,-0.008104639643,-0.01863687319
5.46,-0.01315024177,-0.01543913712
5.47,-0.01703948813,-0.01092007505
5.48,-0.01944038854,-0.005474868277
5.49,-0.0201505532,0.0004224263364
5.5,-0.01911440882,0.006260017955
5.51,-0.01642770514,0.01153274259
5.52,-0.01232891624,0.01578580867
5.53,-0.007178274034,0.0186541364
5.54,-0.001426246437,0.01989387223
5.55,0.004425804133,0.01940333126
5.56,0.009869356319,0.01723153512
5.57,0.01443304055,0.01357359374
5.58,0.01772364617,0.008753331656
5.59,0.01946022873,0.003194682254
5.6,0.01949832286,-0.002615633204
5.61,0.01784213734,-0.008170851739
5.62,0.01464367114,-0.01298856673
5.63,0.01018885003,-0.01665285758
5.64,0.004871936675,-0.01885043444
5.65,-0.0008394906119,-0.01939761878
5.66,-0.006445859861,-0.01825580393
5.67,-0.01145954488,-0.01553407387
5.68,-0.01544751938,-0.01147880942
5.69,-0.01806895643,-0.006451272993
5.7,-0.01910447608,-0.0008952301411
5.71,-0.01847451134,0.004702458798
5.72,-0.01624525137,0.009854739627
5.73,-0.01262174016,0.01411693957
5.74,-0.007928855153,0.01712526403
5.75,-0.00258195829,0.01862786297
5.76,0.002950093267,0.01850581106
5.77,0.008186246603,0.0167822694
5.78,0.01267519554,0.01361916076
5.79,0.01603429209,0.009301797098
5.8,0.01798207056,0.004212947897
5.81,0.01836163536,-0.00120126142
5.82,0.01715300076,-0.006470556686
5.83,0.01447345883,-0.01114136767
5.84,0.01056610152,-0.01481577821
5.85,0.005777640988,-0.01718524545
5.86,0.0005275729349,-0.01805626128
5.87,-0.004728563896,-0.01736586202
5.88,-0.009538617754,-0.01518578967
5.89,-0.01349254858,-0.01171508976
5.9,-0.01625716077,-0.007261913
5.91,-0.01760393952,-0.002216189542
5.92,-0.01742770467,0.002984408416
5.93,-0.01575459555,0.007892264246
5.94,-0.01273881241,0.01208814065
5.95,-0.008648488664,0.0152167838
5.96,-0.003841975697,0.01701681912
5.97,0.001263384726,0.01734245224
5.98,0.00622730944,0.01617519226
5.99,0.01062436411,0.0136246622
6,0.01408028235,0.00991848317
