"Freq [GHz]","re(S(Rx_p1,Tx_p1)) []","im(S(Rx_p1,Tx_p1)) []"
1,-0.01951118708,-0.1884675277
1.01,-0.07367945745,-0.174903207
1.02,-0.1216779521,-0.1460626293
1.03,-0.1592761815,-0.1043547952
1.04,-0.1831110329,-0.0533403309
1.05,-0.1909954831,0.002565452953
1.06,-0.1821289908,0.05847126703
1.07,-0.1571880444,0.1094384464
1.08,-0.1182855583,0.1509218985
1.09,-0.06879955444,0.1791834326
1.1,-0.0130837746,0.1916387931
1.11,0.04391563768,0.1871047762
1.12,0.09710365734,0.1659213134
1.13,0.1416997358,0.1299346685
1.14,0.1736777514,0.08234088103
1.15,0.1901406173,0.02740204268
1.16,0.189593124,-0.02993944612
1.17,0.1720858656,-0.08451315563
1.18,0.1392152775,-0.1313969635
1.19,0.09397869159,-0.1663721231
1.2,0.0404974973,-0.1863134089
1.21,-0.01636549856,-0.1894767679
1.22,-0.07145794987,-0.1756568194
1.23,-0.1198157006,-0.1461992775
1.24,-0.1571205199,-0.1038676228
1.25,-0.1800941611,-0.05257761975
1.26,-0.1867915994,0.002973890679
1.27,-0.1767665113,0.05774943837
1.28,-0.1510948336,0.1068378355
1.29,-0.1122562347,0.145902853
1.3,-0.06388708414,0.171571518
1.31,-0.01043062076,0.1817265584
1.32,0.04328069809,0.1756775309
1.33,0.09247008285,0.154197393
1.34,0.1328464811,0.1194244318
1.35,0.1609804302,0.07464217998
1.36,0.1745926429,0.02396099617
1.37,0.1727315364,-0.02806665715
1.38,0.1558270471,-0.07686023041
1.39,0.125619902,-0.118216108
1.4,0.08497687982,-0.1486676815
1.41,0.03761243368,-0.1657700541
1.42,-0.01225546423,-0.1682869779
1.43,-0.06028280213,-0.1562672351
1.44,-0.1023764131,-0.1310079074
1.45,-0.1350379276,-0.0949118614
1.46,-0.1556467388,-0.05125548374
1.47,-0.1626603484,-0.003889541462
1.48,-0.1557183223,0.04309940587
1.49,-0.135644641,0.08573758193
1.5,-0.104351731,0.1204935537
1.51,-0.06465724258,0.1445625113
1.52,-0.02003115694,0.1560836554
1.53,0.02570435542,0.154275167
1.54,0.06869698601,0.1394782273
1.55,0.1053820141,0.1131088919
1.56,0.13277056,0.0775237804
1.57,0.148686123,0.0358120268
1.58,0.1519316246,-0.008468671096
1.59,0.1423748391,-0.05159009609
1.6,0.1209465614,-0.08996154556
1.61,0.08955266242,-0.1204232595
1.62,0.0509078594,-0.1405019918
1.63,0.008305092094,-0.1486085647
1.64,-0.03466058453,-0.144161873
1.65,-0.07439109977,-0.1276296544
1.66,-0.1075831184,-0.1004829824
1.67,-0.1315001661,-0.06506838386
1.68,-0.1441968624,-0.0244081847
1.69,-0.1446768389,0.01805440554
1.7,-0.1329713183,0.05874433823
1.71,-0.1101318699,0.0942538597
1.72,-0.07813800365,0.1216267723
1.73,-0.03972741568,0.1386040409
1.74,0.001836761182,0.1438101791
1.75,0.04304200448,0.1368648401
1.76,0.08042237663,0.11841039
1.77,0.1108493939,0.0900533952
1.78,0.131793256,0.05422528956
1.79,0.1415325208,0.01397434201
1.8,0.1392948043,-0.02729317073
1.81,0.1253170545,-0.06610048559
1.82,0.1008208474,-0.09919220219
1.83,0.06790536587,-0.1238059369
1.84,0.02936762533,-0.1379011905
1.85,-0.01153449567,-0.1403266537
1.86,-0.0513562613,-0.1309125087
1.87,-0.08675411527,-0.1104806544
1.88,-0.1147638447,-0.08077262824
1.89,-0.1330460398,-0.04430175018
1.9,-0.1400789273,-0.004142118698
1.91,-0.1352831121,0.0363279162
1.92,-0.1190683927,0.073706664
1.93,-0.09279913148,0.1048514511
1.94,-0.05868119122,0.1271395038
1.95,-0.01957967761,0.1386862349
1.96,0.02121779592,0.1385032274
1.97,0.06027327478,0.1265829812
1.98,0.09428414678,0.1039032514
1.99,0.1203592282,0.07235014635
2,0.1362627054,0.03456561361
2.01,0.1406057027,-0.00626895857
2.02,0.1329691722,-0.04669600464
2.03,0.1139470884,-0.08327082931
2.04,0.08510520961,-0.1128528703
2.05,0.04885749936,-0.1328749419
2.06,0.008269159214,-0.1415675037
2.07,-0.03319843074,-0.1381182094
2.08,-0.07198028848,-0.1227519479
2.09,-0.1047136197,-0.09672297284
2.1,-0.1285307352,-0.06221804487
2.11,-0.1413134264,-0.02217719806
2.12,-0.141885808,0.0199538746
2.13,-0.1301274589,0.06051941516
2.14,-0.1069953025,0.09597197363
2.15,-0.07445055631,0.1231856801
2.16,-0.03529555681,0.1397363179
2.17,0.007066438648,0.1441224651
2.18,0.04892805106,0.13590679
2.19,0.08660514621,0.1157634944
2.2,0.116765429,0.08542628846
2.21,0.1367283142,0.04754039504
2.22,0.1447083358,0.005431048195
2.23,0.1399792474,-0.03719110807
2.24,0.1229431076,-0.07656119396
2.25,0.0950973818,-0.109197649
2.26,0.05890257945,-0.1322151586
2.27,0.01756227053,-0.1435840867
2.28,-0.02526443627,-0.1423124613
2.29,-0.06579153302,-0.128533781
2.3,-0.1004456314,-0.1034927208
2.31,-0.1261851971,-0.06943036466
2.32,-0.1407703782,-0.02937993524
2.33,-0.1429590922,0.01310777631
2.34,-0.1326120747,0.0542837398
2.35,-0.110698169,0.09053537731
2.36,-0.07920040761,0.1187061703
2.37,-0.0409324961,0.1363715409
2.38,0.0007166845204,0.1420467887
2.39,0.04208672826,0.1353094224
2.4,0.07956977863,0.1168262491
2.41,0.10992601,0.08828429092
2.42,0.1305628524,0.05223315811
2.43,0.1397540811,0.01185416397
2.44,0.1367806827,-0.02932244691
2.45,0.1219826148,-0.06772674465
2.46,0.0967185195,-0.1000577026
2.47,0.06323840429,-0.1235646577
2.48,0.02448160772,-0.1362780645
2.49,-0.0161815863,-0.1371707536
2.5,-0.05524196749,-0.1262371314
2.51,-0.08935197441,-0.104484845
2.52,-0.1156094983,-0.07384079887
2.53,-0.1318013975,-0.03698044106
2.54,-0.136586867,0.002904593885
2.55,-0.1296059941,0.0423805527
2.56,-0.1115050981,0.0780642262
2.57,-0.08387731444,0.1069097826
2.58,-0.04912379581,0.1264659865
2.59,-0.01024735418,0.1350825398
2.6,0.02940414352,0.1320484832
2.61,0.06642319761,0.1176511628
2.62,0.09763307635,0.09315077328
2.63,0.1203588507,0.06067243854
2.64,0.1326561877,0.02302464874
2.65,0.1334783888,-0.01654091763
2.66,0.1227671784,-0.05460810568
2.67,0.1014590551,-0.0878899982
2.68,0.07140611739,-0.1135125766
2.69,0.03521758918,-0.1292638576
2.7,-0.003964822648,-0.1337867299
2.71,-0.04273871136,-0.1266983505
2.72,-0.07773653642,-0.1086251699
2.73,-0.105919265,-0.0811499442
2.74,-0.124842277,-0.04667481774
2.75,-0.1328699242,-0.00821204303
2.76,-0.129319488,0.03087954142
2.77,-0.1145214378,0.06718915784
2.78,-0.08979030569,0.09755378419
2.79,-0.0573085018,0.1193362113
2.8,-0.0199332577,0.1306566019
2.81,0.01905613513,0.1305568078
2.82,0.05624818856,0.1190827439
2.83,0.08840020722,0.09727752824
2.84,0.1127234422,0.06708618419
2.85,0.1271269432,0.03118071049
2.86,0.130398475,-0.00727850492
2.87,0.1223066656,-0.04492327593
2.88,0.1036157648,-0.07847491449
2.89,0.07601233216,-0.1050316251
2.9,0.04195109634,-0.122320524
2.91,0.004434393994,-0.1288922436
2.92,-0.03325463141,-0.1242414652
2.93,-0.06784102745,-0.108843527
2.94,-0.09634353713,-0.08410483398
2.95,-0.1163315957,-0.05223244283
2.96,-0.1261316889,-0.01603523001
2.97,-0.1249657221,0.02132515007
2.98,-0.1130102581,0.05661121972
2.99,-0.09137253336,0.08679018854
3,-0.0619864212,0.1092937547
3.01,-0.02743834865,0.1222351114
3.02,0.009260989593,0.1245650979
3.03,0.04493890449,0.1161549109
3.04,0.07653418131,0.09779922859
3.05,0.1013583416,0.07114042427
3.06,0.1173226551,0.03852119973
3.07,0.1231120307,0.002778889697
3.08,0.1182916045,-0.03300057379
3.09,0.1033376406,-0.06574787083
3.1,0.07959077691,-0.09267211799
3.11,0.04913616132,-0.1114972318
3.12,0.01462109844,-0.1206530546
3.13,-0.0209740112,-0.1194053789
3.14,-0.05459183343,-0.1079142083
3.15,-0.08335956754,-0.08721565769
3.16,-0.1048335475,-0.05912932781
3.17,-0.1172062788,-0.02609926338
3.18,-0.1194584178,0.009017796979
3.19,-0.1114428793,0.04319871671
3.2,-0.09389403425,0.07351370829
3.21,-0.06836134388,0.09737728683
3.22,-0.03707324842,0.1127689295
3.23,-0.002743116923,0.1184045311
3.24,0.03166593529,0.1138439753
3.25,0.06319699663,0.09952566049
3.26,0.08915391168,0.07672514748
3.27,0.1073324031,0.04744169561
3.28,0.1162077943,0.01422272795
3.29,0.1150631863,-0.0200583305
3.3,0.1040471885,-0.0524513619
3.31,0.084156505,-0.08018422065
3.32,0.05714528239,-0.1009005882
3.33,0.02536952931,-0.1128604412
3.34,-0.008419442534,-0.1150859627
3.35,-0.04131424832,-0.1074406302
3.36,-0.07050231988,-0.09063516231
3.37,-0.09350662681,-0.06616045431
3.38,-0.1083955185,-0.03615399498
3.39,-0.1139439021,-0.00321196261
3.4,-0.1097324145,0.02983624566
3.41,-0.09617678134,0.06017127977
3.42,-0.07448567881,0.08522387876
3.43,-0.04655156098,0.1028912626
3.44,-0.01478456721,0.1117117854
3.45,0.01809571156,0.1109835956
3.46,0.04929251295,0.1008180098
3.47,0.07616841664,0.08212394475
3.48,0.09646625278,0.05652556586
3.49,0.1084961857,0.02622082258
3.5,0.1112738349,-0.006206703158
3.51,0.1045985436,-0.03800656407
3.52,0.08906594956,-0.06649248935
3.53,0.06601442507,-0.08926660449
3.54,0.03741030916,-0.1044185105
3.55,0.005681732929,-0.1106831174
3.56,-0.02648511642,-0.107544577
3.57,-0.05637053157,-0.09527806049
3.58,-0.08144827377,-0.07492613627
3.59,-0.09959651583,-0.04821173458
3.6,-0.1092755281,-0.01739475779
3.61,-0.1096575228,0.01491608204
3.62,-0.1006978473,0.04598097309
3.63,-0.08314136995,0.07315855837
3.64,-0.05846308402,0.09412852104
3.65,-0.02874729398,0.1070887523
3.66,0.003485182405,0.1109104986
3.67,0.03548795215,0.1052381051
3.68,0.06452090811,0.09052434623
3.69,0.08808375938,0.06799755329
3.7,0.1041314909,0.03956240346
3.71,0.111253169,0.007641882991
3.72,0.1087982723,-0.02502690887
3.73,0.09693891422,-0.05562623728
3.74,0.0766616337,-0.08150074861
3.75,0.04968842424,-0.1003890635
3.76,0.01833286024,-0.1106235727
3.77,-0.01469699857,-0.1112804703
3.78,-0.04653231652,-0.1022661294
3.79,-0.07439364508,-0.08433133861
3.8,-0.0958355668,-0.05901121992
3.81,-0.1089639914,-0.02849528004
3.82,-0.1126064108,0.004561594867
3.83,-0.1064193974,0.03727090709
3.84,-0.0909231174,0.06676470574
3.85,-0.0674591378,0.0904494995
3.86,-0.03807474943,0.1062370829
3.87,-0.005343745494,0.1127313383
3.88,0.02786053558,0.1093539372
3.89,0.0586196447,0.09639733265
3.9,0.08422907369,0.07500001848
3.91,0.1024385654,0.04704610513
3.92,0.1116519852,0.0149981672
3.93,0.1110687261,-0.01832159278
3.94,0.1007539467,-0.04998212413
3.95,0.08163143601,-0.07720363972
3.96,0.05539993109,-0.09760366454
3.97,0.02438064811,-0.10940699
3.98,-0.008690038076,-0.1116008717
3.99,-0.04090396425,-0.1040218543
4,-0.06943868191,-0.0873668435
4.01,-0.09180607051,-0.06312789766
4.02,-0.1060700201,-0.03345703365
4.03,-0.1110140921,-0.0009735307536
4.04,-0.1062446887,0.03146878714
4.05,-0.09222111908,0.06103342996
4.06,-0.07021049325,0.08514993141
4.07,-0.04217202254,0.1017375075
4.08,-0.01058146181,0.109384262
4.09,0.02178843485,0.107466611
4.1,0.05211188771,0.09619897755
4.11,0.07775700047,0.0766099906
4.12,0.09651406334,0.05044785018
4.13,0.1067855265,0.02002365313
4.14,0.1077214209,-0.01199322818
4.15,0.0992888684,-0.04280958811
4.16,0.08227011476,-0.06975209231
4.17,0.05818974594,-0.09049904127
4.18,0.02917785926,-0.1032801726
4.19,-0.002218545555,-0.107027376
4.2,-0.03325929125,-0.1014635446
4.21,-0.06125025673,-0.08712220618
4.22,-0.0837772732,-0.06529661153
4.23,-0.09891440061,-0.03792307244
4.24,-0.1053886174,-0.007409024679
4.25,-0.10268682,0.02357895295
4.26,-0.09109610652,0.05234851204
4.27,-0.07167416628,0.07641586139
4.28,-0.04615271284,0.09372060724
4.29,-0.01678273465,0.1028024554
4.3,0.01386460402,0.1029245421
4.31,0.04312375483,0.0941329106
4.32,0.06846735602,0.07724730658
4.33,0.08772517799,0.0537845298
4.34,0.09927035815,0.02582150719
4.35,0.1021568429,-0.004189485402
4.36,0.09619636757,-0.03363689558
4.37,0.08196872685,-0.05997807413
4.38,0.06076502109,-0.08095947146
4.39,0.03446947599,-0.0948096512
4.4,0.005390785674,-0.1003885116
4.41,-0.02394174851,-0.09728014229
4.42,-0.05099909897,-0.08582184926
4.43,-0.07347096742,-0.0670675767
4.44,-0.08946284801,-0.04268972676
4.45,-0.09765487634,-0.01482870171
4.46,-0.09740923167,0.01409609311
4.47,-0.08881754349,0.04159692046
4.48,-0.07268509389,0.06533159878
4.49,-0.05045411655,0.08330219418
4.5,-0.0240736862,0.09402174422
4.51,0.004171876608,0.09663528757
4.52,0.03186085193,0.09098562619
4.53,0.05664105063,0.07761911622
4.54,0.07642822534,0.05773193396
4.55,0.08957941247,0.03306225222
4.56,0.09502706375,0.005738176522
4.57,0.09236334816,-0.02190521622
4.58,0.08186831699,-0.04752408036
4.59,0.06448035416,-0.06896260684
4.6,0.04171208792,-0.08443218075
4.61,0.01551933962,-0.09265832987
4.62,-0.01186560466,-0.09298372678
4.63,-0.03812236782,-0.08541921542
4.64,-0.06103687707,-0.07063912252
4.65,-0.07868582011,-0.04992164181
4.66,-0.08959612539,-0.02503949611
4.67,-0.09286652863,0.001889945574
4.68,-0.08824139291,0.02858269124
4.69,-0.07613081916,0.05277964192
4.7,-0.05757542385,0.07243586678
4.71,-0.03415863957,0.08589205963
4.72,-0.00787366838,0.09201399494
4.73,0.01904404594,0.09028834143
4.74,0.04430506357,0.08086669273
4.75,0.06575933309,0.06455387593
4.76,0.08157856814,0.04274117852
4.77,0.09041222266,0.01728972836
4.78,0.09150371376,-0.00962650525
4.79,0.08475673565,-0.03570510841
4.8,0.07074561495,-0.05871155729
4.81,0.05066835293,-0.07667082127
4.82,0.0262458957,-0.08803776257
4.83,-0.0004241487103,-0.09183148309
4.84,-0.02704708268,-0.08772171041
4.85,-0.05132867473,-0.07605934767
4.86,-0.07117364881,-0.05784810306
4.87,-0.08486779321,-0.03465925164
4.88,-0.0912276464,-0.008496610545
4.89,-0.08970443592,0.01837672898
4.9,-0.08043289072,0.04363488741
4.91,-0.06422037545,0.06509170649
4.92,-0.04247707706,0.08089144755
4.93,-0.01709323012,0.08967080737
4.94,0.009725885225,0.09067787374
4.95,0.03565264004,0.08383744764
4.96,0.05844042036,0.06975693202
4.97,0.07611967058,0.04967229157
4.98,0.08716929665,0.02533893679
4.99,0.09064833874,-0.001122711548
5,0.08627640766,-0.02741321386
5.01,0.0744559827,-0.05125514373
5.02,0.05623486606,-0.07059139302
5.03,0.03321240174,-0.08376333048
5.04,0.007398013854,-0.08965329508
5.05,-0.01896524163,-0.08777916941
5.06,-0.04359644755,-0.07833309553
5.07,-0.06437470165,-0.06216136518
5.08,-0.07952186187,-0.04068768707
5.09,-0.0877544154,-0.01578694567
5.1,-0.08839157106,0.01037920755
5.11,-0.0814105998,0.03555040538
5.12,-0.06744509621,0.05756284874
5.13,-0.04772678842,0.0745349666
5.14,-0.0239763571,0.08502759833
5.15,0.001746974165,0.08816518668
5.16,0.02722389828,0.08370792752
5.17,0.05026609709,0.0720690881
5.18,0.06890355958,0.05427640787
5.19,0.08155223449,0.0318812379
5.2,0.08714789043,0.006823462361
5.21,0.08523500652,-0.01873607918
5.22,0.07600337685,-0.04260128268
5.23,0.06026955614,-0.06272874772
5.24,0.03940493409,-0.07740206588
5.25,0.01521671687,-0.0853776821
5.26,-0.01020795147,-0.08599001945
5.27,-0.03468140292,-0.07920701944
5.28,-0.05610309501,-0.06563145128
5.29,-0.07263950401,-0.04644793717
5.3,-0.08288092317,-0.0233202462
5.31,-0.08596177645,0.001752357574
5.32,-0.08163414884,0.02660742492
5.33,-0.07028821254,0.04910552901
5.34,-0.05291776387,0.06731438791
5.35,-0.03103379666,0.07967505907
5.36,-0.006533520643,0.08513586652
5.37,0.01846389941,0.08324247068
5.38,0.04180069901,0.07417625814
5.39,0.06146708778,0.05873769532
5.4,0.07577485246,0.03827606927
5.41,0.08350290123,0.01457171462
5.42,0.08400209075,-0.01031901764
5.43,0.07725022679,-0.03424252536
5.44,0.06385249003,-0.05513484721
5.45,0.0449873245,-0.07120036495
5.46,0.02230261189,-0.08106673192
5.47,-0.00222868757,-0.08390255518
5.48,-0.02648070739,-0.0794876593
5.49,-0.04835953455,-0.06822995406
5.5,-0.06598457183,-0.05112763794
5.51,-0.07785059506,-0.02968027159
5.52,-0.08295646945,-0.005756720077
5.53,-0.08088948898,0.01856830528
5.54,-0.07185825385,0.0411947027
5.55,-0.05667154377,0.06017864631
5.56,-0.03666537084,0.07389968809
5.57,-0.01358488665,0.08119891316
5.58,0.01056831896,0.08147639905
5.59,0.03371008447,0.07473985705
5.6,0.0538535579,0.06160062423
5.61,0.06927956236,0.04321774839
5.62,0.07868287812,0.0211953632
5.63,0.08128207353,-0.002557490656
5.64,0.07688374962,-0.02599231463
5.65,0.06589603599,-0.04709754122
5.66,0.04929054253,-0.0640707261
5.67,0.02851635822,-0.0754718897
5.68,0.005373727962,-0.0803450698
5.69,-0.01814160398,-0.07829793386
5.7,-0.0400099881,-0.06953291576
5.71,-0.05836074153,-0.05482747708
5.72,-0.07163160836,-0.03546540101
5.73,-0.07870131942,-0.01312515118
5.74,-0.07898408453,0.01026507187
5.75,-0.07247809844,0.03269316137
5.76,-0.05976404547,0.05223566965
5.77,-0.04195382346,0.0672224071
5.78,-0.02059392486,0.07637905886
5.79,0.00246823902,0.07893566942
5.8,0.02524362773,0.07469174044
5.81,0.04577283531,0.06403237427
5.82,0.0622946412,0.04789406977
5.83,0.07339736295,0.0276830885
5.84,0.07813996787,0.005153392013
5.85,0.07613247222,-0.0177453459
5.86,0.06756864657,-0.03903653267
5.87,0.05320816071,-0.05688764304
5.88,0.03430968966,-0.06976855513
5.89,0.01252078089,-0.07658345899
5.9,-0.01026592453,-0.07676484038
5.91,-0.03207755896,-0.07032134462
5.92,-0.05103255638,-0.05783536538
5.93,-0.06550381827,-0.04041062465
5.94,-0.07425922923,-0.01957441973
5.95,-0.07656724423,0.002856787065
5.96,-0.07225837507,0.02493653101
5.97,-0.0617373279,0.04475819194
5.98,-0.04594493132,0.06062055578
5.99,-0.026273446,0.07117456255
6,-0.004442959384,0.07553845383
