"Freq [GHz]","re(S(Rx_p1,Tx_p1)) []","im(S(Rx_p1,Tx_p1)) []"
1,-0.06285084673,-0.01314509867
1.01,-0.06364071843,0.006433723441
1.02,-0.05845955253,0.02528504133
1.03,-0.04781684044,0.04161609747
1.04,-0.03275558353,0.05387562962
1.05,-0.01475177715,0.0609125023
1.06,0.004433600804,0.06209460067
1.07,0.02293457277,0.05737361257
1.08,0.03897222294,0.04728745598
1.09,0.05103704901,0.03289954156
1.1,0.05804075048,0.01568177282
1.11,0.05942029449,-0.002644910567
1.12,0.05518306424,-0.02029353855
1.13,0.04588928759,-0.03559617991
1.14,0.03257570916,-0.04716988033
1.15,0.01663150523,-0.05404534067
1.16,-0.0003572249313,-0.05574553965
1.17,-0.01677511386,-0.05230826786
1.18,-0.03113780091,-0.04425370957
1.19,-0.04222763001,-0.03250474768
1.2,-0.04919197602,-0.01827268667
1.21,-0.05159709331,-0.002923988963
1.22,-0.04943642193,0.01215583002
1.23,-0.04309776758,0.02568664959
1.24,-0.03329794914,0.03659539204
1.25,-0.02099591788,0.04408808013
1.26,-0.007295873464,0.04769005601
1.27,0.00664925877,0.04725610708
1.28,0.01972599222,0.04295513182
1.29,0.030935032,0.03523547529
1.3,0.03945043202,0.02477718624
1.31,0.04466321778,0.01243647999
1.32,0.04621081935,-0.0008138923632
1.33,0.04399389781,-0.01394631695
1.34,0.03818152063,-0.02594119552
1.35,0.02920452801,-0.03585062444
1.36,0.01773582516,-0.04286200204
1.37,0.00465571798,-0.0463594548
1.38,-0.00899935118,-0.04597931613
1.39,-0.0221050561,-0.04165430669
1.4,-0.03353263552,-0.03364007665
1.41,-0.04224297278,-0.02251782138
1.42,-0.04738389277,-0.009168028435
1.43,-0.0483809437,0.005286940006
1.44,-0.045010714,0.01957004801
1.45,-0.03744604353,0.03236098838
1.46,-0.02626450352,0.04242214637
1.47,-0.0124151318,0.04872627611
1.48,0.002856784924,0.05057130857
1.49,0.01812173082,0.04766787881
1.5,0.03190449644,0.04018737247
1.51,0.04283482404,0.02876236758
1.52,0.04979332484,0.01443680412
1.53,0.05203552859,-0.001430667501
1.54,0.04927888704,-0.01730077212
1.55,0.0417415763,-0.0316108296
1.56,0.03012752001,-0.04293762299
1.57,0.01555844653,-0.0501474328
1.58,-0.0005398586399,-0.0525160964
1.59,-0.01658448519,-0.04980544913
1.6,-0.03099903716,-0.04228767497
1.61,-0.04237571844,-0.03071523988
1.62,-0.04961807499,-0.01624038334
1.63,-0.05204919654,-0.0002937994608
1.64,-0.0494744844,0.01556353673
1.65,-0.04219349542,0.02979892126
1.66,-0.03096115505,0.04105986683
1.67,-0.01690407783,0.04830389789
1.68,-0.001402222022,0.05089373618
1.69,0.01405080986,0.04864966192
1.7,0.02799406332,0.04185566236
1.71,0.03913755085,0.03122079852
1.72,0.0464796898,0.0178015156
1.73,0.04939374273,0.002893999223
1.74,0.04767666296,-0.01209209813
1.75,0.04155756752,-0.02576624681
1.76,0.03166679594,-0.03688381604
1.77,0.01896985205,-0.04445610222
1.78,0.004673249459,-0.04783466212
1.79,-0.009888740464,-0.0467635396
1.8,-0.02337625983,-0.04139582747
1.81,-0.03456439411,-0.03227396892
1.82,-0.04245188131,-0.02027609602
1.83,-0.04634891177,-0.006533370427
1.84,-0.045936661,0.007674411533
1.85,-0.04129348321,0.02103589998
1.86,-0.03288541337,0.03232776827
1.87,-0.02152162353,0.04052622212
1.88,-0.008278548327,0.04490036576
1.89,0.005600715431,0.04507873467
1.9,0.0188226939,0.04108254507
1.91,0.03016475872,0.03332216941
1.92,0.03858979584,0.02255678854
1.93,0.04334320306,0.009820773799
1.94,0.0440226287,-0.00367626288
1.95,0.04061345253,-0.0166660326
1.96,0.03348642253,-0.0279432014
1.97,0.02335774127,-0.03647992099
1.98,0.01121581038,-0.04152178386
1.99,-0.00177766908,-0.04265569454
2,-0.01440189647,-0.03984317485
2.01,-0.02549464622,-0.03341635516
2.02,-0.03406144982,-0.02403789958
2.03,-0.03936551598,-0.01262988946
2.04,-0.04098998887,-0.0002797996749
2.05,-0.03886736481,0.01186620706
2.06,-0.03327454074,0.02271158065
2.07,-0.02479559605,0.03130860021
2.08,-0.01425758209,0.0369393827
2.09,-0.002646967598,0.0391719946
2.1,0.008984251491,0.03788793313
2.11,0.01961348541,0.03328032447
2.12,0.02833494475,0.02582502073
2.13,0.03443241252,0.01622906918
2.14,0.03743232125,0.005362591831
2.15,0.03713427632,-0.005819111264
2.16,0.03361830757,-0.01635637876
2.17,0.02722998236,-0.02536261623
2.18,0.01854595285,-0.03209297115
2.19,0.008323504933,-0.0360000329
2.2,-0.002561726228,-0.03677351221
2.21,-0.01318541297,-0.03436195841
2.22,-0.02264699823,-0.02897556612
2.23,-0.03014039722,-0.02107003088
2.24,-0.03501842827,-0.01131229482
2.25,-0.03684659839,-0.0005299489669
2.26,-0.03544214719,0.01035293157
2.27,-0.03089477414,0.02038965969
2.28,-0.02356633657,0.02868957399
2.29,-0.01406807224,0.03449555878
2.3,-0.003215567984,0.03725394154
2.31,0.008036325676,0.03667014728
2.32,0.01867432078,0.03274403583
2.33,0.027716947,0.02578013604
2.34,0.03430632486,0.01636999953
2.35,0.03779262672,0.005346486335
2.36,0.03780237522,-0.006287285951
2.37,0.03428272914,-0.01744868351
2.38,0.02751591259,-0.02707780971
2.39,0.01810079911,-0.03424130262
2.4,0.006902075172,-0.03822695351
2.41,-0.005029011091,-0.03861887447
2.42,-0.01655500009,-0.03534461896
2.43,-0.02656374265,-0.02868841674
2.44,-0.0340796069,-0.01926822886
2.45,-0.03836260563,-0.007978252178
2.46,-0.0389847523,0.004097662289
2.47,-0.03587527369,0.01579293318
2.48,-0.02932961317,0.02597444676
2.49,-0.0199810617,0.03365587581
2.5,-0.008737895399,0.03809624725
2.51,0.003307395102,0.0388734931
2.52,0.01498725147,0.03592545056
2.53,0.02517517477,0.02955430115
2.54,0.03289684385,0.02039434059
2.55,0.03742494479,0.009346804999
2.56,0.03834832421,-0.002511175661
2.57,0.03560890879,-0.0140339139
2.58,0.02950326133,-0.02411976686
2.59,0.02064928385,-0.03181771673
2.6,0.009922045167,-0.036417531
2.61,-0.001634341626,-0.03751500259
2.62,-0.01290970536,-0.03504644033
2.63,-0.02283538256,-0.0292897238
2.64,-0.03048591201,-0.02083252831
2.65,-0.03516524075,-0.010511448
2.66,-0.03646953579,0.0006715852509
2.67,-0.03432109272,0.01164719744
2.68,-0.02897067277,0.02138123346
2.69,-0.02096861539,0.02897238339
2.7,-0.01110799131,0.03373562932
2.71,-0.0003456247241,0.03526385063
2.72,0.01029119805,0.03346209174
2.73,0.01980327543,0.02855164356
2.74,0.02731384825,0.02104397803
2.75,0.0321498264,0.01168743914
2.76,0.03390229085,0.001392168144
2.77,0.03246074716,-0.008859220033
2.78,0.02801820617,-0.01810638701
2.79,0.02104704466,-0.0255021901
2.8,0.01224847003,-0.03039099615
2.81,0.002480986816,-0.0323669764
2.82,-0.007324728644,-0.03130707056
2.83,-0.01625590654,-0.02737593335
2.84,-0.02350374989,-0.02100304531
2.85,-0.02843713438,-0.01283497343
2.86,-0.03065705912,-0.003668201296
2.87,-0.03002712372,0.005630246994
2.88,-0.02667789958,0.0142061769
2.89,-0.02098578944,0.02129729026
2.9,-0.01352952008,0.02630044923
2.91,-0.005029510033,0.02882119081
2.92,0.00372321685,0.02870164303
2.93,0.0119412617,0.02602536731
2.94,0.01891108523,0.02110001552
2.95,0.02405300528,0.01442077891
2.96,0.02696617883,0.006619209305
2.97,0.02745559723,-0.001597021562
2.98,0.02554003619,-0.009507530615
2.99,0.0214416964,-0.01644019034
3,0.01555976685,-0.02182482268
3.01,0.008431228689,-0.02523589882
3.02,0.0006828514171,-0.02642178955
3.03,-0.007021456387,-0.02531936966
3.04,-0.01403391533,-0.02205391032
3.05,-0.01977311137,-0.01692512357
3.06,-0.02376805776,-0.01038093684
3.07,-0.02569349702,-0.002981098732
3.08,-0.02539441186,0.004646896199
3.09,-0.02289825899,0.01185677133
3.1,-0.01841400012,0.01803426605
3.11,-0.01231762708,0.02264648866
3.12,-0.005124604595,0.0252863893
3.13,0.002549494596,0.02570889941
3.14,0.01003793221,0.02385548494
3.15,0.01667810424,0.01986436254
3.16,0.02186906703,0.01406448108
3.17,0.02512647073,0.006952575797
3.18,0.02612976801,-0.000845904716
3.19,0.02475675249,-0.008629548794
3.2,0.02110124345,-0.01568333842
3.21,0.01547106798,-0.0213451667
3.22,0.008365311097,-0.02507015768
3.23,0.0004319342201,-0.02648615837
3.24,-0.00759093665,-0.02543424998
3.25,-0.01494475749,-0.02198936423
3.26,-0.02092453656,-0.01645799738
3.27,-0.02494941084,-0.009352396115
3.28,-0.02662225936,-0.0013431724
3.29,-0.02577172775,0.006805226257
3.3,-0.0224717962,0.01430972416
3.31,-0.01703640534,0.02044669378
3.32,-0.009989380163,0.02462463431
3.33,-0.002012632757,0.02644368382
3.34,0.006121957457,0.02573559958
3.35,0.01362978563,0.02257998149
3.36,0.01979171588,0.01729512951
3.37,0.02402502792,0.01040469869
3.38,0.02593981053,0.002583913013
3.39,0.02537518902,-0.005408779076
3.4,0.02241204154,-0.01280731108
3.41,0.01736142094,-0.01891300037
3.42,0.01073045014,-0.02316138061
3.43,0.003169715613,-0.02517439516
3.44,-0.004592085715,-0.02479320602
3.45,-0.01181944171,-0.02208900185
3.46,-0.01784015441,-0.01735146876
3.47,-0.02210761645,-0.01105677292
3.48,-0.02424959436,-0.00381878203
3.49,-0.0240993996,0.003671337252
3.5,-0.02170713995,0.01071116017
3.51,-0.01733065602,0.0166524419
3.52,-0.01140758474,0.02096002167
3.53,-0.004511603605,0.0232590659
3.54,0.002702815092,0.0233667184
3.55,0.00956194888,0.0213056929
3.56,0.01543506785,0.01729895724
3.57,0.01979182763,0.01174629565
3.58,0.02224976169,0.005185079588
3.59,0.02260772217,-0.001761082009
3.6,0.02086235773,-0.008441100896
3.61,0.01720620877,-0.01423720781
3.62,0.01200763699,-0.01862221334
3.63,0.005774459145,-0.02120792962
3.64,-0.0008953178348,-0.02178021208
3.65,-0.007371006974,-0.02031728578
3.66,-0.01304949335,-0.01698958071
3.67,-0.01741238878,-0.01214108253
3.68,-0.02007449081,-0.006254038332
3.69,-0.02081877035,9.944964833E-05
3.7,-0.01961445514,0.006314046538
3.71,-0.01661651137,0.01181026022
3.72,-0.01214677086,0.0160899506
3.73,-0.006658887818,0.01878265648
3.74,-0.0006910110188,0.0196781527
3.75,0.005188681169,0.01874219134
3.76,0.01043776769,0.01611425487
3.77,0.01459088452,0.01208812662
3.78,0.01730140133,0.007077925462
3.79,0.01836958489,0.001573731132
3.8,0.01775500842,-0.003908128342
3.81,0.01557279889,-0.008874744419
3.82,0.01207509409,-0.01290120216
3.83,0.007620584399,-0.01566591364
3.84,0.00263606953,-0.01697388292
3.85,-0.002425534853,-0.01676661122
3.86,-0.007126368707,-0.0151188888
3.87,-0.01108017164,-0.01222405793
3.88,-0.01398133227,-0.008370317635
3.89,-0.01562471428,-0.00391118801
3.9,-0.01591568579,0.0007666490933
3.91,-0.01487078851,0.005275206346
3.92,-0.01261023155,0.009254381366
3.93,-0.009343826562,0.01239681446
3.94,-0.005352107998,0.01446743275
3.95,-0.0009642708169,0.01531726191
3.96,0.003465688354,0.01489145828
3.97,0.007583507221,0.01323168662
3.98,0.01105894021,0.01047298565
3.99,0.01360890638,0.00683520957
4,0.01501852459,0.002609110516
4.01,0.0151588567,-0.001862775338
4.02,0.01399996366,-0.006209996085
4.03,0.01161775797,-0.01006189854
4.04,0.008193217434,-0.01307767596
4.05,0.004002886136,-0.01497659519
4.06,-0.0005997455383,-0.01556570793
4.07,-0.005211459287,-0.0147620512
4.08,-0.009413512089,-0.0126064072
4.09,-0.01281011553,-0.009266192374
4.1,-0.01506756679,-0.005025981642
4.11,-0.01594984872,-0.0002654685642
4.12,-0.01534645628,0.004573834346
4.13,-0.01328871793,0.009030342279
4.14,-0.009951950165,0.01266849028
4.15,-0.005642309185,0.01512421239
4.16,-0.0007690017248,0.01614458456
4.17,0.004195649724,0.01561681695
4.18,0.008764181931,0.01358284679
4.19,0.01248475082,0.01023738992
4.2,0.01498891043,0.00590925676
4.21,0.01603086581,0.001027768861
4.22,0.01551359355,-0.003922050275
4.23,0.01349876557,-0.008450444442
4.24,0.01019935175,-0.0121142342
4.25,0.005955856578,-0.01456263096
4.26,0.001199083788,-0.01557243972
4.27,-0.003596132382,-0.01506888236
4.28,-0.007960835671,-0.01313005857
4.29,-0.01147984416,-0.009975034888
4.3,-0.01383242793,-0.005937451987
4.31,-0.01482162056,-0.00142812162
4.32,-0.01438952044,0.003108837269
4.33,-0.01261766623,0.007241305906
4.34,-0.009713288289,0.01059105761
4.35,-0.005983730366,0.01286809021
4.36,-0.001802436086,0.01389438744
4.37,0.002429493411,0.01361546705
4.38,0.006322062479,0.01209948577
4.39,0.009531714938,0.009524951739
4.4,0.01179020422,0.006159109249
4.41,0.0129249004,0.002329729291
4.42,0.01286944884,-0.001606657094
4.43,0.01166466133,-0.005297075818
4.44,0.009450346257,-0.008422265038
4.45,0.006449415525,-0.01072242852
4.46,0.002946031989,-0.0120169091
4.47,-0.0007402013137,-0.01221668567
4.48,-0.004281921263,-0.01132915157
4.49,-0.007371488148,-0.009455139463
4.5,-0.009746308291,-0.006778617965
4.51,-0.01121019713,-0.003549910882
4.52,-0.01164921645,-6.368887963E-05
4.53,-0.01104073389,0.003366644317
4.54,-0.009454867386,0.006436224803
4.55,-0.007048000816,0.008875475185
4.56,-0.004048678725,0.01047403642
4.57,-0.0007368702827,0.01109967869
4.58,0.00258172814,0.01071029078
4.59,0.005604090404,0.009357586508
4.6,0.008058282747,0.007181913674
4.61,0.00972908104,0.004398441661
4.62,0.01047811376,0.001275939514
4.63,0.01025634979,-0.001889782386
4.64,0.009107532105,-0.004805030014
4.65,0.0071621508,-0.007206884423
4.66,0.004622629085,-0.008888272665
4.67,0.001741420796,-0.00971675918
4.68,-0.001205456216,-0.009645109868
4.69,-0.003946418473,-0.008712677075
4.7,-0.006240699331,-0.00703776637
4.71,-0.007900261707,-0.004802219441
4.72,-0.008805045191,-0.002230331003
4.73,-0.00891027283,0.0004352105539
4.74,-0.008245587484,0.002957481155
4.75,-0.006906799612,0.005126907672
4.76,-0.005041861363,0.006778165711
4.77,-0.002833223399,0.007801065218
4.78,-0.0004789205163,0.008144999254
4.79,0.001825430138,0.007817387688
4.8,0.00390199005,0.006877230903
4.81,0.005602335774,0.005425306315
4.82,0.006814990643,0.00359265322
4.83,0.007469103942,0.001528817585
4.84,0.007534984163,-0.0006090618785
4.85,0.007022405684,-0.002665745364
4.86,0.005977568801,-0.004495870667
4.87,0.004479344424,-0.005970699055
4.88,0.002635063007,-0.006984082715
4.89,0.0005757221395,-0.007458056976
4.9,-0.001549800784,-0.007348207845
4.91,-0.003582048308,-0.006648583638
4.92,-0.005360187678,-0.005395513666
4.93,-0.006733167955,-0.003669382867
4.94,-0.00757237257,-0.001593291063
4.95,-0.007784751164,0.0006723356575
4.96,-0.007324926458,0.002939702936
4.97,-0.00620447883,0.005008059322
4.98,-0.004496608898,0.006681678342
4.99,-0.002334712851,0.007789769609
5,9.593904707E-05,0.008206071784
5.01,0.002573332417,0.007865561702
5.02,0.004859550023,0.006775773613
5.03,0.006725270478,0.005020691035
5.04,0.007975132645,0.002756011463
5.05,0.008470795484,0.000195684734
5.06,0.008148592768,-0.002409169255
5.07,0.007029218331,-0.004796733348
5.08,0.005217822889,-0.006723263577
5.09,0.002894131141,-0.007990609499
5.1,0.000293520949,-0.008468975695
5.11,-0.002318754219,-0.008111958245
5.12,-0.00467706138,-0.00696186637
5.13,-0.006544937504,-0.005144610761
5.14,-0.007741012212,-0.002854820029
5.15,-0.008158123492,-0.0003331315331
5.16,-0.007773384412,0.002161395925
5.17,-0.006648192058,0.004380225427
5.18,-0.00491851191,0.006112046536
5.19,-0.002777022867,0.007204072652
5.2,-0.0004496907439,0.007575608267
5.21,0.001830080576,0.007222687661
5.22,0.003846456014,0.006213811966
5.23,0.005422411313,0.004677953323
5.24,0.006435005814,0.002786891267
5.25,0.006823444243,0.00073448354
5.26,0.006589730518,-0.001284398985
5.27,0.005792680746,-0.003092808014
5.28,0.004536809292,-0.00454663698
5.29,0.002958041307,-0.005544406439
5.3,0.001208305911,-0.006031619412
5.31,-0.0005591459497,-0.006000126899
5.32,-0.002202298979,-0.005483489815
5.33,-0.003599975976,-0.004549618073
5.34,-0.004658232467,-0.003292001213
5.35,-0.005313772369,-0.001820657601
5.36,-0.005534926683,-0.0002535970819
5.37,-0.005320852487,0.001290789991
5.38,-0.0046995417,0.002700343432
5.39,-0.003725031346,0.003874893565
5.4,-0.002473955513,0.004731392308
5.41,-0.001041356153,0.005208556485
5.42,0.0004644558821,0.00527097411
5.43,0.001928185152,0.004912388396
5.44,0.003235020206,0.0041576701
5.45,0.004279057082,0.003062886528
5.46,0.004972130144,0.001712922543
5.47,0.005252212351,0.0002163186837
5.48,0.005090361597,-0.001302659995
5.49,0.004495168439,-0.002714281091
5.5,0.003513831561,-0.003895053949
5.51,0.002229340631,-0.004739671092
5.52,0.0007537341508,-0.00517177757
5.53,-0.0007820547177,-0.005152188509
5.54,-0.002240741145,-0.004683421065
5.55,-0.003492212466,-0.003809845077
5.56,-0.004426436724,-0.002613322025
5.57,-0.004964206144,-0.001204804599
5.58,-0.005064443768,0.0002870889188
5.59,-0.004727267987,0.001729118666
5.6,-0.003992588424,0.002996498437
5.61,-0.002934602709,0.00398447235
5.62,-0.001653080638,0.004617142501
5.63,-0.0002626797566,0.0048527446
5.64,0.001118315547,0.004685102791
5.65,0.002378511859,0.004141522566
5.66,0.003422126546,0.003277814481
5.67,0.004175249881,0.002171415288
5.68,0.004589433869,0.0009136548908
5.69,0.004642799442,-0.0003978870055
5.7,0.004339151783,-0.001666240015
5.71,0.003705736652,-0.002800750127
5.72,0.002790248324,-0.003721592081
5.73,0.001657537641,-0.004363294743
5.74,0.0003862220519,-0.004677609572
5.75,-0.0009348590755,-0.0046360256
5.76,-0.002210597167,-0.004232073099
5.77,-0.003344304349,-0.003483309744
5.78,-0.004243394214,-0.002432617523
5.79,-0.004826085734,-0.001148233593
5.8,-0.005028836711,0.0002781380388
5.81,-0.004813852952,0.001735691346
5.82,-0.004175709887,0.003101641655
5.83,-0.003145947637,0.004250966923
5.84,-0.001794521332,0.005068124495
5.85,-0.000227234443,0.005459612294
5.86,0.001421260294,0.005365867859
5.87,0.002998697506,0.004770824273
5.88,0.004349807145,0.003707527174
5.89,0.005332807705,0.00225857724
5.9,0.005835843167,0.0005507646326
5.91,0.005791223658,-0.001255972742
5.92,0.005185443067,-0.002984319462
5.93,0.004063376704,-0.004458395956
5.94,0.002525760447,-0.005523392968
5.95,0.0007199250014,-0.006063565198
5.96,-0.00117532263,-0.006016230226
5.97,-0.002968952804,-0.005379871717
5.98,-0.004478780132,-0.004215185173
5.99,-0.005551735012,-0.00263882501
6,-0.00608080935,-0.0008105784084
