"Freq [GHz]","re(S(Rx_p1,Tx_p1)) []","im(S(Rx_p1,Tx_p1)) []"
1,0.003250969265,0.003090014509
1.01,0.004065479937,0.00189423498
1.02,0.004457996059,0.0004966097613
1.03,0.004382572779,-0.000958187432
1.04,0.003841963684,-0.002316330541
1.05,0.002889015814,-0.003431119438
1.06,0.001622585687,-0.004179320489
1.07,0.0001780399512,-0.004475680198
1.08,-0.001286915651,-0.004283758376
1.09,-0.002609669987,-0.003621522428
1.1,-0.003641449009,-0.002560691966
1.11,-0.004265089257,-0.001219570313
1.12,-0.004409537665,0.0002500474128
1.13,-0.004059076333,0.001680464135
1.14,-0.00325588513,0.002908056641
1.15,-0.00209540675,0.003793106123
1.16,-0.0007149497118,0.004236881403
1.17,0.0007230898364,0.004193678513
1.18,0.002051233962,0.003676170082
1.19,0.003117527004,0.002753321685
1.2,0.003804008275,0.001541156583
1.21,0.004040619219,0.0001876401077
1.22,0.00381275843,-0.001146240394
1.23,0.003161598195,-0.002306625616
1.24,0.002177291008,-0.003165469364
1.25,0.0009861694208,-0.003635332434
1.26,-0.000266166735,-0.003678467595
1.27,-0.001433487212,-0.003309225607
1.28,-0.002386767771,-0.00258976493
1.29,-0.003028929294,-0.001619961019
1.3,-0.00330472356,-0.0005231528558
1.31,-0.003204768591,0.0005701648665
1.32,-0.002763590658,0.00153844889
1.33,-0.002052349719,0.002282938064
1.34,-0.001167593818,0.002737589684
1.35,-0.000217819226,0.002874154866
1.36,0.0006902382067,0.002702162665
1.37,0.001463789172,0.00226429094
1.38,0.002033238248,0.001628181444
1.39,0.002357617651,0.0008761334302
1.4,0.002425946683,9.424597441E-05
1.41,0.002254845509,-0.0006375244599
1.42,0.001883210476,-0.001253230693
1.43,0.001365063794,-0.001706007881
1.44,0.0007617926473,-0.001970132878
1.45,0.0001348960503,-0.002040318793
1.46,-0.0004599020056,-0.001928861196
1.47,-0.0009766770491,-0.001661468475
1.48,-0.001381362541,-0.001272652741
1.49,-0.001652088026,-0.0008014405229
1.5,-0.00177829003,-0.000287923185
1.51,-0.00175919706,0.0002291353349
1.52,-0.001602251935,0.0007137141932
1.53,-0.00132187192,0.00113328713
1.54,-0.0009387058718,0.001459341517
1.55,-0.0004792885967,0.001668083189
1.56,2.422111538E-05,0.001741607725
1.57,0.0005346485843,0.001669593231
1.58,0.001011175804,0.001451311735
1.59,0.001411755595,0.001097529798
1.6,0.001696600983,0.0006317324844
1.61,0.001832489231,9.009863562E-05
1.62,0.001797340566,-0.0004802072148
1.63,0.001584332705,-0.001024597946
1.64,0.001204746034,-0.001486311203
1.65,0.0006888274927,-0.001812814378
1.66,8.420920954E-05,-0.001962544029
1.67,-0.000548216436,-0.001910984009
1.68,-0.001140642583,-0.001655081242
1.69,-0.001626191883,-0.001215172388
1.7,-0.001947232807,-0.0006339266306
1.71,-0.002062995421,2.775292439E-05
1.72,-0.001955355571,0.0006974578885
1.73,-0.001631885061,0.001299802178
1.74,-0.001125645661,0.001765619654
1.75,-0.0004916740198,0.002040578294
1.76,0.0001994146019,0.002092026555
1.77,0.0008698618148,0.001913137411
1.78,0.001444116436,0.001523802511
1.79,0.001857865062,0.0009681881234
1.8,0.002065580448,0.0003093221575
1.81,0.002045659851,-0.0003785318035
1.82,0.001802577977,-0.001018695239
1.83,0.001365889795,-0.001540963612
1.84,0.0007863242869,-0.001889485679
1.85,0.0001295550226,-0.002028740446
1.86,-0.0005315229283,-0.001947001756
1.87,-0.0011250587,-0.001657013493
1.88,-0.00158810414,-0.001193933848
1.89,-0.001873223766,-0.0006109047043
1.9,-0.001953204023,2.716669266E-05
1.91,-0.001823448704,0.0006508775304
1.92,-0.001501906114,0.001193850752
1.93,-0.001026626241,0.001599724553
1.94,-0.000451273016,0.001827912872
1.95,0.0001608968679,0.001857582601
1.96,0.0007439416205,0.001689479359
1.97,0.001236305044,0.001345448891
1.98,0.001587315247,0.0008657302757
1.99,0.001762433491,0.0003043226835
2,0.001746700467,-0.0002770706215
2.01,0.001546013839,-0.0008158603806
2.02,0.001186104084,-0.001255399539
2.03,0.0007093328246,-0.001551059711
2.04,0.0001696893505,-0.001674873295
2.05,-0.0003734253277,-0.001618222939
2.06,-0.0008618922983,-0.001392292515
2.07,-0.001245257611,-0.001026266062
2.08,-0.001486062548,-0.000563536714
2.09,-0.001563523498,-5.642790567E-05
2.1,-0.001475184067,0.0004399001211
2.11,-0.001236426931,0.0008736081449
2.12,-0.0008780031268,0.001201674669
2.13,-0.0004419729485,0.001394125909
2.14,2.337694435E-05,0.001436586174
2.15,0.0004689912687,0.001330968884
2.16,0.0008502367049,0.001094365549
2.17,0.001131271778,0.0007563971036
2.18,0.001288190974,0.0003554433883
2.19,0.001310718291,-6.575141943E-05
2.2,0.001202408415,-0.0004645879685
2.21,0.0009794746547,-0.0008027745599
2.22,0.0006684853271,-0.001049773961
2.23,0.0003032473706,-0.001185278399
2.24,-7.87705976E-05,-0.001200575068
2.25,-0.0004401260672,-0.001098773429
2.26,-0.0007468797506,-0.00089395809
2.27,-0.0009715849516,-0.0006094053983
2.28,-0.001095566328,-0.0002750597116
2.29,-0.001110326347,7.549067125E-05
2.3,-0.001017985686,0.0004082667709
2.31,-0.0008307390599,0.0006920934765
2.32,-0.0005693894795,0.0009014492359
2.33,-0.0002611072201,0.001018709936
2.34,6.336310816E-05,0.001035578076
2.35,0.0003727640379,0.000953566702
2.36,0.0006383401102,0.0007835063623
2.37,0.0008364958274,0.0005441510655
2.38,0.0009508308447,0.0002600606974
2.39,0.0009733664094,-4.098361624E-05
2.4,0.000904880923,-0.000330731446
2.41,0.0007543837025,-0.0005830823316
2.42,0.0005378559448,-0.000776314399
2.43,0.0002764601138,-0.0008947392749
2.44,-5.547026346E-06,-0.0009296925104
2.45,-0.0002829688191,-0.0008798596969
2.46,-0.0005317015534,-0.0007510109973
2.47,-0.0007305164166,-0.0005552592988
2.48,-0.0008625234545,-0.0003099662812
2.49,-0.0009162988917,-3.64019572E-05
2.5,-0.0008866809919,0.0002417704845
2.51,-0.0007752361985,0.0005001450049
2.52,-0.0005903730967,0.0007153342134
2.53,-0.0003470506192,0.0008668071348
2.54,-6.600637856E-05,0.0009387301134
2.55,0.0002275628992,0.0009216810682
2.56,0.0005058943642,0.0008140491337
2.57,0.0007410722409,0.000622892917
2.58,0.0009078042576,0.0003640306553
2.59,0.000986296261,6.118696861E-05
2.6,0.00096487354,-0.0002558749668
2.61,0.0008419578897,-0.0005541617622
2.62,0.0006270352492,-0.000800961547
2.63,0.0003403461763,-0.0009676718804
2.64,1.119203852E-05,-0.001033451634
2.65,-0.0003250490949,-0.0009881710951
2.66,-0.0006308945737,-0.0008341869781
2.67,-0.0008712371644,-0.0005866061165
2.68,-0.001017739944,-0.0002719056096
2.69,-0.001052529607,7.498358977E-05
2.7,-0.000970646433,0.0004147879162
2.71,-0.0007808733355,0.0007086657175
2.72,-0.0005047949193,0.0009230020268
2.73,-0.0001741932971,0.001033567367
2.74,0.0001728713599,0.001028472368
2.75,0.000496760165,0.0009095244888
2.76,0.000761095213,0.0006918248768
2.77,0.0009370937561,0.000401694251
2.78,0.001006840227,7.324655485E-05
2.79,0.0009651063802,-0.000255896754
2.8,0.000819544747,-0.0005491643315
2.81,0.0005893080465,-0.0007752714732
2.82,0.00030235236,-0.0009116204813
2.83,-8.163752804E-06,-0.0009464932101
2.84,-0.0003078862583,-0.0008798463318
2.85,-0.0005651692603,-0.0007227111159
2.86,-0.0007544220078,-0.0004953720483
2.87,-0.0008585547143,-0.0002246309086
2.88,-0.0008703184827,5.945780919E-05
2.89,-0.000792483308,0.0003269713678
2.9,-0.000636935442,0.0005512429226
2.91,-0.0004228860898,0.0007114139651
2.92,-0.0001744583543,0.0007941985461
2.93,8.204435648E-05,0.0007947486008
2.94,0.0003208853656,0.0007166132238
2.95,0.0005193847563,0.0005708755421
2.96,0.0006599332253,0.000374621951
2.97,0.0007313780287,0.0001489462603
2.98,0.0007297027776,-8.328515782E-05
2.99,0.0006579952267,-0.0002996805966
3,0.0005257624929,-0.0004803757405
3.01,0.0003477066139,-0.0006097211523
3.02,0.0001421116075,-0.0006774816169
3.03,-7.098575102E-05,-0.000679478675
3.04,-0.0002716657046,-0.0006176627958
3.05,-0.0004418728177,-0.0004996523232
3.06,-0.0005669037428,-0.0003378181053
3.07,-0.0006365333891,-0.0001480224411
3.08,-0.000645716595,5.186263053E-05
3.09,-0.0005948409883,0.000243529024
3.1,-0.0004895409207,0.0004097763958
3.11,-0.0003401099345,0.0005359180581
3.12,-0.000160569692,0.0006109585833
3.13,3.253221657E-05,0.0006284710204
3.14,0.000221512621,0.000587119371
3.15,0.0003890396331,0.0004907892369
3.16,0.000519616352,0.0003483078213
3.17,0.0006009546965,0.0001727558532
3.18,0.0006251286115,-1.959983875E-05
3.19,0.0005893981934,-0.0002106931477
3.2,0.0004966086642,-0.0003822705054
3.21,0.0003550934911,-0.0005175996856
3.22,0.0001780502234,-0.0006031206392
3.23,-1.759120915E-05,-0.0006298695448
3.24,-0.0002127299873,-0.0005945120675
3.25,-0.0003879508076,-0.0004998485302
3.26,-0.0005254931241,-0.000354702018
3.27,-0.000611122608,-0.0001731661037
3.28,-0.0006356909166,2.673603835E-05
3.29,-0.0005961947749,0.0002248552441
3.3,-0.0004961969156,0.0004009947699
3.31,-0.0003455435449,0.0005370353891
3.32,-0.0001593960533,0.0006188674184
3.33,4.332293466E-05,0.000637909093
3.34,0.0002418989437,0.0005920382081
3.35,0.0004159918847,0.0004858329637
3.36,0.0005477600087,0.0003300986648
3.37,0.0006237113144,0.0001407382644
3.38,0.0006360877904,-6.290375732E-05
3.39,0.0005836441221,-0.000260041231
3.4,0.0004717510372,-0.0004305764757
3.41,0.0003118253929,-0.0005571414479
3.42,0.0001201563512,-0.0006268471517
3.43,-8.374673034E-05,-0.0006325738215
3.44,-0.0002791177406,-0.000573682856
3.45,-0.0004460171199,-0.0004560876858
3.46,-0.0005673360251,-0.0002916797089
3.47,-0.0006305309401,-9.716296668E-05
3.48,-0.000628921728,0.0001075960585
3.49,-0.0005624228219,0.0003015522691
3.5,-0.0004376255242,0.0004646140523
3.51,-0.0002672068913,0.0005797180505
3.52,-6.870409013E-05,0.0006346376019
3.53,0.0001372422635,0.0006233317857
3.54,0.0003290125193,0.0005466784412
3.55,0.0004862889982,0.0004124905044
3.56,0.0005922534646,0.000234786854
3.57,0.0006354567981,3.2370035E-05
3.58,0.0006111407464,-0.0001731552698
3.59,0.0005218440016,-0.000359717698
3.6,0.0003772012672,-0.0005072121824
3.61,0.0001929363605,-0.0005997517614
3.62,-1.085250968E-05,-0.0006274711731
3.63,-0.0002119280995,-0.0005876612258
3.64,-0.0003884144046,-0.0004850889469
3.65,-0.0005212682428,-0.0003314554564
3.66,-0.0005964274324,-0.000144048976
3.67,-0.0006063775808,5.624964244E-05
3.68,-0.0005509497944,0.0002473705404
3.69,-0.0004372563974,0.0004085784057
3.7,-0.0002787785083,0.000522812782
3.71,-9.372389378E-05,0.0005785667418
3.72,9.71378265E-05,0.0005710855084
3.73,0.0002728942537,0.000502753557
3.74,0.0004148687957,0.0003826409065
3.75,0.0005086752997,0.0002252832463
3.76,0.0005457120089,4.886277313E-05
3.77,0.000523933492,-0.0001269744182
3.78,0.0004478328128,-0.0002833911213
3.79,0.0003276656021,-0.0004044468016
3.8,0.0001780399381,-0.0004787580756
3.81,1.606935834E-05,-0.0005005520506
3.82,-0.0001406680648,-0.0004700157687
3.83,-0.0002761089509,-0.0003929372402
3.84,-0.0003773873734,-0.0002797224923
3.85,-0.0004360369163,-0.0001439469376
3.86,-0.0004486001029,-6.487310994E-07
3.87,-0.0004166166202,0.0001354092394
3.88,-0.0003460440356,0.000251294894
3.89,-0.0002462342244,0.0003371075451
3.9,-0.0001286360216,0.0003867135039
3.91,-5.413841463E-06,0.0003979798362
3.92,0.0001118380594,0.0003725414222
3.93,0.0002131418654,0.0003151961966
3.94,0.0002908532212,0.0002330621089
3.95,0.0003400208867,0.0001346421946
3.96,0.000358419039,2.89311647E-05
3.97,0.0003463266261,-7.533719512E-05
3.98,0.0003061518391,-0.0001702493387
3.99,0.0002420000555,-0.0002490745193
4,0.0001592627611,-0.000306467901
4.01,6.426954264E-05,-0.0003385758133
4.02,-3.599524779E-05,-0.000343108183
4.03,-0.0001341447329,-0.0003194262273
4.04,-0.0002226651026,-0.0002686613135
4.05,-0.0002942699486,-0.0001938422586
4.06,-0.0003423688242,-9.997373093E-05
4.07,-0.0003616488523,6.012316284E-06
4.08,-0.0003487231488,0.0001155101281
4.09,-0.0003027572452,0.0002187531006
4.1,-0.000225955674,0.0003055969855
4.11,-0.0001237842397,0.000366527807
4.12,-4.823749412E-06,0.0003937913684
4.13,0.0001198028759,0.0003824948962
4.14,0.0002374227611,0.0003315074114
4.15,0.000335143546,0.0002439911883
4.16,0.000401372988,0.0001274340606
4.17,0.0004273291068,-6.882840851E-06
4.18,0.0004083222817,-0.0001449647794
4.19,0.0003446057895,-0.0002716266347
4.2,0.0002416409245,-0.0003722797038
4.21,0.0001097003587,-0.0004347503124
4.22,-3.717302607E-05,-0.0004508805791
4.23,-0.0001827397797,-0.0004176817474
4.24,-0.0003104771095,-0.0003378662495
4.25,-0.0004055849547,-0.00021966783
4.26,-0.0004568199088,-7.595696798E-05
4.27,-0.0004579121192,7.724346684E-05
4.28,-0.0004083755702,0.0002226545658
4.29,-0.0003136039505,0.0003438060904
4.3,-0.0001842402346,0.0004270045355
4.31,-3.490409424E-05,0.0004629549223
4.32,0.0001175561977,0.000447835551
4.33,0.0002560625549,0.0003836993178
4.34,0.0003653049471,0.0002781639982
4.35,0.0004334935326,0.0001434445749
4.36,0.0004536581752,-5.138771159E-06
4.37,0.0004243511056,-0.0001509829575
4.38,0.0003496865607,-0.000278126913
4.39,0.0002387340965,-0.0003730474588
4.4,0.0001043593447,-0.0004261191056
4.41,-3.83319024E-05,-0.0004325793284
4.42,-0.0001737500256,-0.0003929062935
4.43,-0.0002875671851,-0.0003125894149
4.44,-0.0003682520862,-0.0002013452359
4.45,-0.0004082280658,-7.189336468E-05
4.46,-0.000404540832,6.15474279E-05
4.47,-0.0003589850304,0.0001848588816
4.48,-0.0002777041357,0.0002855338339
4.49,-0.0001703379087,0.0003539340303
4.5,-4.8838832E-05,0.0003841707163
4.51,7.389147896E-05,0.0003745349253
4.52,0.0001853853567,0.0003274606448
4.53,0.0002748613378,0.0002490578482
4.54,0.0003342223312,0.0001482971528
4.55,0.0003587153669,3.595881199E-05
4.56,0.0003472132638,-7.652663665E-05
4.57,0.0003021226477,-0.0001782204219
4.58,0.0002289607622,-0.0002596902766
4.59,0.0001356715652,-0.0003138134236
4.6,3.176785106E-05,-0.0003363140249
4.61,-7.260916322E-05,-0.0003260123141
4.62,-0.000167626255,-0.0002847901674
4.63,-0.0002446156006,-0.0002172996109
4.64,-0.0002967930822,-0.0001304559912
4.65,-0.0003197930782,-3.276694832E-05
4.66,-0.0003119900758,6.644653501E-05
4.67,-0.0002745908732,0.0001578781649
4.68,-0.0002114937956,0.0002330533836
4.69,-0.0001289243109,0.0002850751762
4.7,-3.487061918E-05,0.0003092399328
4.71,6.164160715E-05,0.0003034694095
4.72,0.0001513800651,0.0002685144222
4.73,0.0002257724527,0.0002079015005
4.74,0.0002777289645,0.0001276153494
4.75,0.0003023379301,3.55361627E-05
4.76,0.0002973586532,-5.932136606E-05
4.77,0.0002634527115,-0.0001476950955
4.78,0.0002041215115,-0.0002209976748
4.79,0.0001253507933,-0.0002721749278
4.8,3.499749644E-05,-0.0002964058763
4.81,-5.801430221E-05,-0.0002915672367
4.82,-0.0001445987302,-0.0002584132201
4.83,-0.0002164141786,-0.0002004559873
4.84,-0.0002666721829,-0.0001235678641
4.85,-0.00029076669,-3.535794465E-05
4.86,-0.0002866665069,5.560152308E-05
4.87,-0.0002550442058,0.0001406123046
4.88,-0.0001991453924,0.0002116649614
4.89,-0.0001244284674,0.0002621563402
4.9,-3.80236757E-05,0.0002874528771
4.91,5.192987203E-05,0.0002852637437
4.92,0.0001370086501,0.0002558078706
4.93,0.0002092339932,0.0002017752942
4.94,0.0002617562821,0.0001280950076
4.95,0.000289450993,4.152919845E-05
4.96,0.0002893889072,-4.988075286E-05
4.97,0.0002611464808,-0.0001374855558
4.98,0.0002069257958,-0.0002127781236
4.99,0.0001314590413,-0.0002681741053
5,4.168264481E-05,-0.0002977630981
5.01,-5.381729039E-05,-0.0002979608301
5.02,-0.000145563608,-0.000267987702
5.03,-0.0002240987576,-0.0002101030141
5.04,-0.0002809676939,-0.0001295396562
5.05,-0.0003096704443,-3.411164131E-05
5.06,-0.0003064696243,6.649542865E-05
5.07,-0.0002709412139,0.0001616977068
5.08,-0.0002061774172,0.0002411550355
5.09,-0.0001185876014,0.000295952984
5.1,-1.729303574E-05,0.0003196787574
5.11,8.683348733E-05,0.0003092472598
5.12,0.000182379688,0.0002653578555
5.13,0.0002587133952,0.0001925061288
5.14,0.0003072439836,9.853238381E-05
5.15,0.0003224616865,-6.248709284E-06
5.16,0.0003026165181,-0.0001102346473
5.17,0.0002499447739,-0.000201890417
5.18,0.0001704110313,-0.0002711010501
5.19,7.299820471E-05,-0.0003103499353
5.2,-3.136215569E-05,-0.0003155755188
5.21,-0.0001310811933,-0.0002866031711
5.22,-0.0002152616033,-0.0002271062175
5.23,-0.0002749369076,-0.0001441117737
5.24,-0.000304053353,-4.712421706E-05
5.25,-0.0003000844405,5.301578434E-05
5.26,-0.0002642181173,0.0001453911556
5.27,-0.0002011114624,0.0002202340243
5.28,-0.0001182597946,0.0002699756795
5.29,-2.507017391E-05,0.0002900077454
5.3,6.824130453E-05,0.0002790812629
5.31,0.0001517955441,0.0002393160216
5.32,0.0002171095822,0.0001758381472
5.33,0.0002579556835,9.61044893E-05
5.34,0.0002709356961,9.003752403E-06
5.35,0.0002557218595,-7.615604431E-05
5.36,0.000214954309,-0.0001506575353
5.37,0.0001538235231,-0.0002072713544
5.38,7.939906445E-05,-0.000240948561
5.39,-2.090548252E-07,-0.0002492428408
5.4,-7.675557721E-05,-0.0002324302779
5.41,-0.0001427283328,-0.000193329972
5.42,-0.0001920855722,-0.0001368626108
5.43,-0.0002207881984,-6.941236194E-05
5.44,-0.0002270809856,1.923248936E-06
5.45,-0.0002115095577,7.0102797E-05
5.46,-0.0001766926909,0.0001288412391
5.47,-0.0001268979075,0.0001731679928
5.48,-6.748843206E-05,0.0001997940765
5.49,-4.318730454E-06,0.0002072687282
5.5,5.684681394E-05,0.0001959352281
5.51,0.0001108308833,0.0001677204444
5.52,0.0001534157107,0.0001258090974
5.53,0.0001815753591,7.425974193E-05
5.54,0.0001935751452,1.761490729E-05
5.55,0.0001889629283,-3.945529898E-05
5.56,0.0001684857327,-9.245483022E-05
5.57,0.0001339643675,-0.0001373056145
5.58,8.814964099E-05,-0.0001705449614
5.59,3.456963833E-05,-0.000189494409
5.6,-2.263726124E-05,-0.0001924158221
5.61,-7.891983094E-05,-0.0001786604355
5.62,-0.0001295614482,-0.0001488014289
5.63,-0.0001699910959,-0.0001047250154
5.64,-0.0001961567217,-4.964382827E-05
5.65,-0.0002049392493,1.200618893E-05
5.66,-0.0001945640073,7.48157754E-05
5.67,-0.0001649493697,0.0001328103074
5.68,-0.0001179250825,0.0001799993758
5.69,-5.7258533E-05,0.0002110211242
5.7,1.15530487E-05,0.0002218071481
5.71,8.173488474E-05,0.0002101758716
5.72,0.0001459032739,0.0001762588023
5.73,0.0001968834935,0.0001226773062
5.74,0.0002285780994,5.441681316E-05
5.75,0.0002367684882,-2.161328311E-05
5.76,0.000219732257,-9.729879431E-05
5.77,0.0001785777445,-0.0001642390309
5.78,0.0001172329772,-0.0002147496527
5.79,4.207376599E-05,-0.0002428172592
5.8,-3.877259701E-05,-0.0002448745978
5.81,-0.0001163640579,-0.0002202870837
5.82,-0.0001820012718,-0.0001714800075
5.83,-0.0002282680257,-0.0001036852798
5.84,-0.0002499189286,-2.433902983E-05
5.85,-0.000244500391,5.779127943E-05
5.86,-0.0002126284276,0.00013363637
5.87,-0.0001578939736,0.0001948792631
5.88,-8.641584952E-05,0.0002349026657
5.89,-6.105969418E-06,0.0002495168207
5.9,7.425514831E-05,0.0002373875646
5.91,0.0001460159085,0.0002001253751
5.92,0.000201605142,0.0001420394089
5.93,0.0002353311508,6.959995155E-05
5.94,0.0002439463678,-9.316418972E-06
5.95,0.000226927673,-8.63052825E-05
5.96,0.000186457047,-0.0001533358879
5.97,0.0001271201421,-0.000203579991
5.98,5.536807435E-05,-0.0002320866628
5.99,-2.119188912E-05,-0.0002362427639
6,-9.459898258E-05,-0.0002159834689
