"Freq [GHz]","re(S(Rx_p1,Tx_p1)) []","im(S(Rx_p1,Tx_p1)) []"
1,-0.004471933783,0.0117674446
1.01,-0.0006449202704,0.01247435999
1.02,0.00319040924,0.01198208436
1.03,0.006671206503,0.01034988117
1.04,0.009469843778,0.00774313781
1.05,0.0113239626,0.004418375134
1.06,0.01206112373,0.0006999699987
1.07,0.01161578655,-0.00304971567
1.08,0.0100367925,-0.006464452591
1.09,0.007484190859,-0.009209591518
1.1,0.004215126927,-0.01101552501
1.11,0.0005595718626,-0.01170572386
1.12,-0.003112185705,-0.01121614781
1.13,-0.006427282784,-0.009603483507
1.14,-0.009049398791,-0.007040719925
1.15,-0.01071491756,-0.003799947328
1.16,-0.011261857,-0.0002238038955
1.17,-0.01064791667,0.003311514501
1.18,-0.008955167562,0.00643755084
1.19,-0.006380501157,0.008834329412
1.2,-0.003212759027,0.01026558674
1.21,0.0002007820079,0.0106041236
1.22,0.003494457594,0.009844132547
1.23,0.006325796096,0.008099046039
1.24,0.008413438234,0.005585366273
1.25,0.009566744825,0.002594789604
1.26,0.009703637791,-0.0005415534365
1.27,0.008854883857,-0.003491984691
1.28,0.007154901285,-0.005961299522
1.29,0.004820957501,-0.007721415139
1.3,0.002124060837,-0.008632241037
1.31,-0.0006442687769,-0.00865088892
1.32,-0.003204939906,-0.007829025721
1.33,-0.005319950759,-0.006299754161
1.34,-0.006813733067,-0.004256646812
1.35,-0.007585428994,-0.001928300678
1.36,-0.007611744199,0.0004480447696
1.37,-0.006941288497,0.002650637047
1.38,-0.005682275523,0.004492661406
1.39,-0.003985993593,0.005835582009
1.4,-0.002028556698,0.006595975348
1.41,6.846043142E-06,0.006746352255
1.42,0.001945544475,0.006311095472
1.43,0.003633847288,0.005358948539
1.44,0.004948042037,0.003993491213
1.45,0.005800115973,0.002342798288
1.46,0.006140672059,0.0005491103471
1.47,0.005959586693,-0.001241036383
1.48,0.005284849727,-0.002886069034
1.49,0.004179823047,-0.004258021011
1.5,0.002738944329,-0.005250538654
1.51,0.001081771249,-0.005786085431
1.52,-0.000654737318,-0.005821966338
1.53,-0.002325658078,-0.005354600573
1.54,-0.003788944458,-0.004421369269
1.55,-0.004917029954,-0.003099410882
1.56,-0.005608241848,-0.00150094848
1.57,-0.005796861385,0.0002349094069
1.58,-0.005460613654,0.001953503565
1.59,-0.004624508359,0.003498239339
1.6,-0.003360276454,0.004725230428
1.61,-0.001781117706,0.005517463623
1.62,-3.202414331E-05,0.005796912177
1.63,0.001723506561,0.005533170401
1.64,0.003319085702,0.004747521486
1.65,0.00460177403,0.003511839838
1.66,0.005447417448,0.001942302975
1.67,0.005773325526,0.000188471298
1.68,0.005546912372,-0.001581186092
1.69,0.004789348035,-0.003195845923
1.7,0.003573799825,-0.004499263293
1.71,0.002018414359,-0.005365338358
1.72,0.0002747397853,-0.00571071733
1.73,-0.001487242994,-0.005503136973
1.74,-0.003095966666,-0.004764659704
1.75,-0.004395299418,-0.003569467023
1.76,-0.005260023712,-0.002036430114
1.77,-0.005608208504,-0.0003172045054
1.78,-0.005409223437,0.001418950297
1.79,-0.004686582768,0.003002090051
1.8,-0.003515331481,0.004278525879
1.81,-0.002014244836,0.005126059672
1.82,-0.000333648733,0.005465960576
1.83,0.001359875207,0.005270464391
1.84,0.002900309911,0.004565046024
1.85,0.004138801354,0.003425266884
1.86,0.004958320227,0.001968573995
1.87,0.005284891399,0.000341960598
1.88,0.005094278914,-0.001293172302
1.89,0.004413516104,-0.002777337225
1.9,0.003317231228,-0.003968755098
1.91,0.001919272365,-0.004757012802
1.92,0.0003606164574,-0.005073245402
1.93,-0.001205096782,-0.004895914747
1.94,-0.002626870578,-0.004251748746
1.95,-0.0037709403,-0.003211920488
1.96,-0.004533234771,-0.001884023895
1.97,-0.004848579966,-0.0004007929118
1.98,-0.004695892178,0.001093220365
1.99,-0.004099031443,0.00245566338
2,-0.003123409444,0.003559759166
2.01,-0.001868828767,0.004305832996
2.02,-0.0004593423919,0.004630008362
2.03,0.000968854603,0.004509384133
2.04,0.002280362512,0.003963334734
2.05,0.003353174363,0.003050915014
2.06,0.004089823338,0.001864678319
2.07,0.004426111535,0.0005215112258
2.08,0.004336663818,-0.0008486652211
2.09,0.003836822461,-0.002115295331
2.1,0.002980714569,-0.003159553114
2.11,0.00185566532,-0.003885521987
2.12,0.0005734704908,-0.004229128586
2.13,-0.0007406488008,-0.004163960082
2.14,-0.001960341033,-0.003703379362
2.15,-0.002970451882,-0.002898711441
2.16,-0.003678140074,-0.001833674254
2.17,-0.004021644323,-0.0006156247897
2.18,-0.003975802869,0.0006354606608
2.19,-0.003553775398,0.00179910137
2.2,-0.002804836367,0.002766231475
2.21,-0.001808547415,0.003449665142
2.22,-0.0006660180084,0.003792032111
2.23,0.0005107253592,0.003770419516
2.24,0.001610061193,0.003397353353
2.25,0.002531558967,0.002718182107
2.26,0.003195126421,0.001805326918
2.27,0.003547668157,0.0007501843004
2.28,0.003566744092,-0.0003463300172
2.29,0.00326108828,-0.001383542727
2.3,0.00266820005,-0.00227010588
2.31,0.00184950428,-0.002931596025
2.32,0.0008837650953,-0.003316074672
2.33,-0.0001404840882,-0.003397331045
2.34,-0.001132753504,-0.003175786438
2.35,-0.002008011763,-0.002677246967
2.36,-0.002693204789,-0.001949830187
2.37,-0.00313253492,-0.001059459382
2.38,-0.003291291345,-8.433071419E-05
2.39,-0.003158123458,0.0008912645456
2.4,-0.002745711766,0.001783412395
2.41,-0.002089827038,0.002515012896
2.42,-0.001246796485,0.003021848623
2.43,-0.0002894372168,0.003257928592
2.44,0.0006984110555,0.003199721364
2.45,0.001628513251,0.002848876478
2.46,0.002415645899,0.002233059256
2.47,0.002985253576,0.00140461029
2.48,0.003280693433,0.0004368967413
2.49,0.003269328136,-0.0005815580546
2.5,0.002946732004,-0.00155481929
2.51,0.002338381792,-0.00238854525
2.52,0.001498415292,-0.002999407388
2.53,0.0005053417417,-0.003323932021
2.54,-0.0005450559978,-0.003325735613
2.55,-0.001549023792,-0.003000226428
2.56,-0.002405421264,-0.002376080386
2.57,-0.00302644589,-0.001513145858
2.58,-0.003347266496,-0.0004968495699
2.59,-0.003333407054,0.0005703912458
2.6,-0.002984947425,0.001579856529
2.61,-0.002336963955,0.002428128344
2.62,-0.001456075373,0.003028284985
2.63,-0.0004334305179,0.003319377184
2.64,0.000625088697,0.003273067428
2.65,0.001610331493,0.002896645383
2.66,0.00242168643,0.002232065557
2.67,0.002977870367,0.001351130865
2.68,0.003225464698,0.0003474056809
2.69,0.003144246526,-0.0006741749511
2.7,0.002748756745,-0.001608774604
2.71,0.002086002201,-0.002362874384
2.72,0.001229646277,-0.002863973438
2.73,0.0002714437837,-0.003067716189
2.74,-0.0006890264199,-0.002961725407
2.75,-0.001555117726,-0.002565829221
2.76,-0.002243139731,-0.001928800293
2.77,-0.002690567254,-0.001122122554
2.78,-0.0028616131,-0.0002316173454
2.79,-0.002749688581,0.0006520384399
2.8,-0.002376657907,0.001442803092
2.81,-0.001789162042,0.002067738475
2.82,-0.001052599459,0.002473610188
2.83,-0.0002435709183,0.002631045197
2.84,0.0005582974292,0.002535990224
2.85,0.001278247811,0.002208534484
2.86,0.001853211068,0.001689443188
2.87,0.002236957886,0.001034961804
2.88,0.002403227856,0.0003105759052
2.89,0.002346736789,-0.0004155577446
2.9,0.002082194078,-0.001078848433
2.91,0.001641644589,-0.001623638528
2.92,0.001070567894,-0.002007324351
2.93,0.0004232174631,-0.002203030062
2.94,-0.0002423293795,-0.002200796047
2.95,-0.0008689980966,-0.002007374083
2.96,-0.001405092534,-0.001644811098
2.97,-0.001807983764,-0.001148051181
2.98,-0.002046959365,-0.0005617992083
2.99,-0.002105144546,6.311850972E-05
3,-0.001980450133,0.0006736768063
3.01,-0.00168553017,0.001218649616
3.02,-0.001246753439,0.00165247702
3.03,-0.0007022193568,0.00193878647
3.04,-9.888857768E-05,0.002053340823
3.05,0.0005110438009,0.001986180293
3.06,0.001074331792,0.001742739143
3.07,0.001541139394,0.001343761032
3.08,0.001869428802,0.0008239145089
3.09,0.00202888002,0.0002291200053
3.1,0.002003939658,-0.0003872682224
3.11,0.001795639922,-0.0009691439635
3.12,0.001421924022,-0.001462790648
3.13,0.0009163545113,-0.00182199144
3.14,0.0003252514693,-0.002012582319
3.15,-0.000296513826,-0.002015951268
3.16,-0.0008906813353,-0.001831078936
3.17,-0.001401209094,-0.001474863095
3.18,-0.00177974711,-0.0009806530679
3.19,-0.001990403279,-0.0003951178695
3.2,-0.002013297013,0.0002262427354
3.21,-0.001846526392,0.0008244851549
3.22,-0.001506347013,0.001342951882
3.23,-0.001025553349,0.001732757847
3.24,-0.000450242418,0.001957480992
3.25,0.0001646967188,0.001996598081
3.26,0.0007609029187,0.001847345185
3.27,0.001282139516,0.001524847957
3.28,0.001679623031,0.001060540439
3.29,0.001916581514,0.0004990546062
3.3,0.001971627292,-0.0001060988084
3.31,0.001840649956,-0.0006976350796
3.32,0.001537077271,-0.001219902169
3.33,0.00109050125,-0.001624089054
3.34,0.0005438117515,-0.001872761628
3.35,-5.088991794E-05,-0.001943317052
3.36,-0.0006372189824,-0.001830045547
3.37,-0.001159823984,-0.001544612229
3.38,-0.001569602833,-0.001114912113
3.39,-0.001828333261,-0.0005823981836
3.4,-0.00191228039,1.875956417E-06
3.41,-0.001814432907,0.0005821336443
3.42,-0.001545143544,0.00110321404
3.43,-0.001131099686,0.001515860877
3.44,-0.0006127123096,0.001781445791
3.45,-4.017005349E-05,0.001875659122
3.46,0.0005314572418,0.001790798729
3.47,0.001047580699,0.001536425973
3.48,0.001459384509,0.001138323614
3.49,0.001728517965,0.0006358648836
3.5,0.00183072014,7.806682495E-05
3.51,0.001758022933,-0.0004812647435
3.52,0.00151932853,-0.000988801867
3.53,0.00113932738,-0.001396840986
3.54,0.0006558929921,-0.001667820085
3.55,0.0001162411407,-0.001777772761
3.56,-0.000427742483,-0.001718403817
3.57,-0.0009245316129,-0.00149761731
3.58,-0.001327851451,-0.001138485165
3.59,-0.001600969232,-0.000676795712
3.6,-0.0017199927,-0.0001574519874
3.61,-0.001675892783,0.0003699117672
3.62,-0.00147509457,0.0008556672217
3.63,-0.001138616591,0.001254836053
3.64,-0.0006998701356,0.001531216072
3.65,-0.0002013474667,0.001660621989
3.66,0.0003094782463,0.001632960453
3.67,0.0007846539956,0.001452967752
3.68,0.001180230967,0.001139560162
3.69,0.001460318681,0.0007238721489
3.7,0.001600337417,0.0002461763826
3.71,0.001589171529,-0.0002480178058
3.72,0.001430028834,-0.0007123140433
3.73,0.001139933807,-0.001103809977
3.74,0.0007479141291,-0.001387089537
3.75,0.0002920681801,-0.001537444246
3.76,-0.0001841880767,-0.001543018982
3.77,-0.0006363155392,-0.001405687719
3.78,-0.001022867582,-0.001140595984
3.79,-0.001309311266,-0.0007744444569
3.8,-0.001471088497,-0.0003427160956
3.81,-0.001495640708,0.0001138478021
3.82,-0.00138323767,0.0005531512095
3.83,-0.001146580864,0.0009356333214
3.84,-0.0008092777566,0.001227774314
3.85,-0.0004033901438,0.001404908416
3.86,3.366437772E-05,0.001453126274
3.87,0.0004625401379,0.001370153577
3.88,0.0008454015717,0.0011651976
3.89,0.001149084327,0.0008578450441
3.9,0.001347745865,0.0004761642801
3.91,0.001424837822,5.420908946E-05
3.92,0.001374299024,-0.0003708594786
3.93,0.001200927672,-0.0007618161939
3.94,0.0009199398668,-0.001084374263
3.95,0.0005557596965,-0.001309958295
3.96,0.0001401173044,-0.001418074454
3.97,-0.0002904390124,-0.001398119203
3.98,-0.0006974778009,-0.001250483618
3.99,-0.001043889627,-0.0009868324818
4,-0.001297144261,-0.0006294728116
4.01,-0.001432343661,-0.0002097804775
4.02,-0.001434789377,0.0002342720298
4.03,-0.001301781947,0.0006613524866
4.04,-0.001043402236,0.001030537615
4.05,-0.0006820960427,0.001305288706
4.06,-0.0002509920943,0.001457240846
4.07,0.0002089791084,0.001469383622
4.08,0.0006529483045,0.001338234316
4.09,0.001036594065,0.001074684604
4.1,0.001320785275,0.0007033345036
4.11,0.001475854527,0.0002602990971
4.12,0.001484986337,-0.0002103373597
4.13,0.0013462837,-0.0006610655785
4.14,0.001073220416,-0.001045996078
4.15,0.0006933775485,-0.001325823878
4.16,0.0002455749597,-0.001472123833
4.17,-0.0002242869904,-0.001470458031
4.18,-0.0006681942878,-0.001321918185
4.19,-0.001041209488,-0.001042919394
4.2,-0.001306273722,-0.0006632796869
4.21,-0.001438063312,-0.0002228317551
4.22,-0.001425470414,0.0002330105657
4.23,-0.00127245651,0.0006581917373
4.24,-0.0009972333759,0.001010877457
4.25,-0.0006299288969,0.001257691985
4.26,-0.0002090674852,0.001376882022
4.27,0.0002226846292,0.001360110643
4.28,0.0006230026491,0.001212762426
4.29,0.0009541185289,0.0009528191006
4.3,0.001186340951,0.000608520426
4.31,0.001300565486,0.0002151398252
4.32,0.00128959778,-0.0001887314113
4.33,0.001158253924,-0.0005649853878
4.34,0.0009223294307,-0.0008795124351
4.35,0.0006066283616,-0.001105126564
4.36,0.0002423099396,-0.001223688294
4.37,-0.0001361593729,-0.001227307932
4.38,-0.0004941609503,-0.001118603439
4.39,-0.0007999233476,-0.0009100647741
4.4,-0.001027143105,-0.0006226369797
4.41,-0.001157052245,-0.0002836771811
4.42,-0.00117980811,7.553177118E-05
4.43,-0.001095130937,0.0004225127367
4.44,-0.0009121628427,0.0007263661246
4.45,-0.0006485693449,0.000960378744
4.46,-0.0003289519158,0.001104275447
4.47,1.731271E-05,0.001145938063
4.48,0.0003586454538,0.001082446579
4.49,0.0006640493561,0.0009203413471
4.5,0.000905875973,0.000675062182
4.51,0.001062331531,0.000369588084
4.52,0.001119489318,3.237470465E-05
4.53,0.001072607452,-0.000305241894
4.54,0.0009266075478,-0.0006119459428
4.55,0.000695646121,-0.0008593765934
4.56,0.0004017994933,-0.00102481109
4.57,7.297485196E-05,-0.001093326756
4.58,-0.0002597562076,-0.001059218388
4.59,-0.0005651404209,-0.0009265206514
4.6,-0.0008147431971,-0.0007085768844
4.61,-0.0009856631964,-0.0004266958369
4.62,-0.00106268696,-0.0001080343432
4.63,-0.001039669229,0.0002170747954
4.64,-0.0009200078527,0.0005180739259
4.65,-0.0007161788891,0.0007671095026
4.66,-0.0004483960346,0.0009416458541
4.67,-0.000142547579,0.001026510472
4.68,0.0001723662642,0.00101518327
4.69,0.0004670295353,0.0009102254645
4.7,0.0007145607667,0.0007228342846
4.71,0.0008929542291,0.0004715971887
4.72,0.0009869916046,0.0001805944206
4.73,0.0009894656917,-0.0001229456817
4.74,0.0009016316024,-0.0004112025179
4.75,0.0007328778198,-0.0006582875919
4.76,0.0004996813858,-0.0008425118832
4.77,0.0002239717479,-0.0009482073596
4.78,-6.892816947E-05,-0.0009669644347
4.79,-0.0003525895732,-0.0008982055478
4.8,-0.0006017930445,-0.0007490749639
4.81,-0.0007946802336,-0.0005336810386
4.82,-0.0009145744534,-0.0002717755545
4.83,-0.0009513363599,1.300721388E-05
4.84,-0.0009021610396,0.0002952024399
4.85,-0.0007717661014,0.0005496932553
4.86,-0.0005719641768,0.0007538470044
4.87,-0.0003206556887,0.0008894458526
4.88,-4.031746963E-05,0.0009442627717
4.89,0.0002439013718,0.000913156705
4.9,0.0005063343205,0.0007985914786
4.91,0.0007230373143,0.000610521347
4.92,0.0008739331582,0.0003656311371
4.93,0.0009446768779,8.596915079E-05
4.94,0.0009280691332,-0.00020293645
4.95,0.0008248712061,-0.0004743361427
4.96,0.0006439176036,-0.0007027066221
4.97,0.0004014795483,-0.0008661699026
4.98,0.0001199009329,-0.0009486525486
4.99,-0.0001743982011,-0.0009415620432
5,-0.0004533846434,-0.0008447902102
5.01,-0.0006901157103,-0.0006669103434
5.02,-0.0008614179468,-0.0004245113339
5.03,-0.0009502619418,-0.0001407014217
5.04,-0.0009475722174,0.0001570935367
5.05,-0.0008532605351,0.0004398284337
5.06,-0.0006763481255,0.0006797605822
5.07,-0.0004341394579,0.0008532858197
5.08,-0.0001505161002,0.0009433797591
5.09,0.0001464790292,0.0009413714337
5.1,0.0004275122559,0.0008478469291
5.11,0.0006649739879,0.0006725769273
5.12,0.0008358077851,0.0004334727772
5.13,0.0009238437524,0.0001546869059
5.14,0.0009213837637,-0.0001359290181
5.15,0.0008298735115,-0.000409723183
5.16,0.0006596026659,-0.0006401783116
5.17,0.0004284858479,-0.0008055625838
5.18,0.0001600795562,-0.0008910176892
5.19,-0.0001189289079,-0.0008898768582
5.2,-0.0003814743844,-0.0008040992834
5.21,-0.0006028080647,-0.0006438099608
5.22,-0.0007628534355,-0.0004260325609
5.23,-0.0008479962969,-0.000172785693
5.24,-0.0008521554922,9.122907644E-05
5.25,-0.0007770670589,0.0003410908966
5.26,-0.0006318011574,0.0005540208506
5.27,-0.0004316081309,0.0007114164206
5.28,-0.0001962495035,0.0008003858955
5.29,5.199315949E-05,0.0008146733718
5.3,0.0002904252267,0.0007549331772
5.31,0.0004979641791,0.0006283769197
5.32,0.0006569119689,0.0004478706203
5.33,0.0007543425515,0.0002305994686
5.34,0.0007830180172,-3.557977549E-06
5.35,0.0007417931194,-0.0002337953255
5.36,0.0006355109311,-0.0004401369353
5.37,0.0004744289683,-0.0006050571342
5.38,0.0002732439993,-0.0007148487196
5.39,4.980472334E-05,-0.0007606544128
5.4,-0.0001763847859,-0.0007391016103
5.41,-0.0003857605252,-0.0006525077175
5.42,-0.0005602804193,-0.0005086498287
5.43,-0.0006848827085,-0.00032011827
5.44,-0.0007487181608,-0.0001032984061
5.45,-0.0007460653971,0.0001229512021
5.46,-0.0006768558525,0.0003388344669
5.47,-0.0005467576621,0.0005252589218
5.48,-0.0003667959425,0.0006654603959
5.49,-0.000152519732,0.0007464825454
5.5,7.723836624E-05,0.0007603846618
5.51,0.0003019275195,0.000705063558
5.52,0.0005010530655,0.000584598738
5.53,0.0006560167887,0.000409064103
5.54,0.0007518625755,0.0001937924925
5.55,0.000778762842,-4.187159534E-05
5.56,0.0007330924809,-0.0002762449012
5.57,0.0006179647821,-0.0004872701541
5.58,0.0004431469604,-0.0006546001299
5.59,0.0002243287581,-0.0007616037853
5.6,-1.82186104E-05,-0.0007970909833
5.61,-0.0002614904285,-0.0007565672735
5.62,-0.0004819407337,-0.0006428668644
5.63,-0.0006578094175,-0.0004660682719
5.64,-0.0007713476877,-0.0002426684311
5.65,-0.000810703116,5.929783925E-06
5.66,-0.0007712502782,0.0002554834814
5.67,-0.000656203976,0.0004813282252
5.68,-0.0004764248731,0.0006608999051
5.69,-0.0002494145666,0.0007760892626
5.7,2.411274537E-06,0.0008151676746
5.71,0.0002539982353,0.000774063551
5.72,0.0004802363203,0.0006568372149
5.73,0.0006585700424,0.0004752908932
5.74,0.000771347035,0.0002477489165
5.75,0.0008076439495,-2.860828213E-06
5.76,0.0007643673921,-0.0002514119452
5.77,0.0006465113778,-0.0004732028954
5.78,0.0004665506668,-0.0006465070651
5.79,0.0002430489066,-0.0007547698905
5.8,-1.350976827E-06,-0.0007882188767
5.81,-0.0002423202744,-0.000744724946
5.82,-0.0004563515294,-0.0006298433394
5.83,-0.0006231058287,-0.0004560573012
5.84,-0.000727356569,-0.0002413357968
5.85,-0.0007603424687,-7.186853904E-06
5.86,-0.0007204174635,0.0002235669048
5.87,-0.0006129676957,0.0004290481037
5.88,-0.000449645328,0.000590390191
5.89,-0.0002470359787,0.0006934163068
5.9,-2.492449499E-05,0.0007297935577
5.91,0.0001956508282,0.000697588214
5.92,0.000394362518,0.0006012110924
5.93,0.0005534000709,0.0004507992541
5.94,0.0006589722066,0.0002611251082
5.95,0.0007023988018,5.015461669E-05
5.96,0.0006807283544,-0.000162607469
5.97,0.0005968576051,-0.0003578437065
5.98,0.0004591664567,-0.0005180857615
5.99,0.0002807124638,-0.000629189054
6,7.805507231E-05,-0.0006815146688
