"Freq [GHz]","re(S(Antenna1_1_1,Antenna1_1_1)) []","im(S(Antenna1_1_1,Antenna1_1_1)) []"
3,-0.185173643281393,-0.173881068152326
3.0175,-0.201654653116113,-0.157347151230694
3.035,-0.208994750350577,-0.140347849801135
3.0525,-0.213974297920528,-0.122260662367154
3.07,-0.219118429853973,-0.106696368292774
3.0875,-0.219995944490216,-0.0886972718753111
3.105,-0.218507740105493,-0.0735421929686729
3.1225,-0.217753250774642,-0.0646316041749398
3.14,-0.222854928863517,-0.0526706571018418
3.1575,-0.228531179716542,-0.03623711896333
3.175,-0.227220159545947,-0.0137598376273757
3.1925,-0.221645569318567,0.003325518403697
3.21,-0.215970551092643,0.0202995541198935
3.2275,-0.202946359532798,0.037969633583907
3.245,-0.193097457533988,0.0427607064015647
3.2625,-0.187116003179122,0.0573538246404738
3.28,-0.175045250513695,0.0619308612284707
3.2975,-0.174904390438446,0.0691477285000073
3.315,-0.171061238121238,0.0870253777197836
3.3325,-0.157193649603174,0.105250178538347
3.35,-0.13717780408653,0.116283089726248
3.3675,-0.120523559052088,0.122032516827012
3.385,-0.0991593222435257,0.127667762362613
3.4025,-0.0800015888316052,0.119909298066757
3.42,-0.0760433739671445,0.112848243062361
3.4375,-0.0706727892520872,0.118458258745451
3.455,-0.0627464349520284,0.122759283852013
3.4725,-0.051321432719579,0.136277134985226
3.49,-0.0231808151397215,0.145304129669546
3.5075,0.0069224063895487,0.135486568016848
3.525,0.0266816566310739,0.118376359628772
3.5425,0.0343056207847629,0.0959599375771344
3.56,0.0330145960332276,0.0850740196386442
3.5775,0.0305038082979105,0.0822184946872556
3.595,0.0379749387789724,0.0861103328565434
3.6125,0.050375840642613,0.0952248815305833
3.63,0.0905644084612797,0.086848904070455
3.6475,0.105867608116457,0.0529914309421825
3.665,0.10882356564952,0.0248397627772499
3.6825,0.101985632804876,0.00206897172627588
3.7,0.0890900259159312,-0.0134855334376657
3.7175,0.0794860907160535,-0.0106990783923002
3.735,0.0895819010957256,-0.00674852084919859
3.7525,0.107272008333902,-0.0194468199574919
3.77,0.11983786099263,-0.0418480715809587
3.7875,0.120314165738125,-0.0774264290605199
3.805,0.101499799796069,-0.103417723280246
3.8225,0.0798055958310634,-0.112980699766711
3.84,0.0714979210803762,-0.116493672925784
3.8575,0.0639279516881956,-0.123174471585082
3.875,0.0576611188653063,-0.13342836208563
3.8925,0.0514407387270333,-0.1350159222383
3.91,0.0565997623462703,-0.155926175727577
3.9275,0.0359456697207426,-0.180217522065269
3.945,0.0107095345323108,-0.190174563988373
3.9625,-0.0106397863100443,-0.189359351921447
3.98,-0.021357184616502,-0.18869315910805
3.9975,-0.0346878738845682,-0.196729700502147
4.015,-0.0551751824991807,-0.199052101259408
4.0325,-0.070853459601359,-0.195122547592456
4.05,-0.0824824100725466,-0.193927072127086
4.0675,-0.0918548602051226,-0.194246066357049
4.085,-0.110768269688618,-0.205406334760608
4.1025,-0.140043455154241,-0.196657573035202
4.12,-0.153231681865759,-0.179847172659821
4.1375,-0.155405042470726,-0.177157564260431
4.155,-0.178622267272065,-0.180115919455412
4.1725,-0.201375860845562,-0.161847030560485
4.19,-0.204008074234005,-0.14259902447446
4.2075,-0.212651771053315,-0.141724499050789
4.225,-0.225276495543167,-0.128750741283547
4.2425,-0.23837281990638,-0.119135887164886
4.26,-0.24725271617887,-0.10224022541355
4.2775,-0.253502857635481,-0.088394384850592
4.295,-0.258018461139024,-0.0804820450810935
4.3125,-0.275541987656881,-0.0698801385200176
4.33,-0.288886873108705,-0.0419931977503655
4.3475,-0.280578466185056,-0.012310031258722
4.365,-0.267730868183581,-0.00125109493505219
4.3825,-0.26569378048443,0.00175149672200819
4.4,-0.270764318150727,0.0148829253006782
4.4175,-0.267438201746044,0.0245662448696563
4.435,-0.276706920888116,0.0330388582593901
4.4525,-0.285908919210435,0.0586577990799779
4.47,-0.276291843327239,0.0881051377436535
4.4875,-0.259503702378216,0.109887832765866
4.505,-0.234315115479207,0.117848437522163
4.5225,-0.221784944867515,0.112663380823054
4.54,-0.224048826523458,0.107422702456831
4.5575,-0.234546603362841,0.120889075004871
4.575,-0.232030023660566,0.14251871595168
4.5925,-0.221986677392067,0.163112280046228
4.61,-0.205786229689411,0.183837803767137
4.6275,-0.173949834471317,0.197255028594902
4.645,-0.147427804969872,0.183527107796599
4.6625,-0.145456035681147,0.170794985254165
4.68,-0.150524648217064,0.170844832580152
4.6975,-0.151689860046744,0.184757545882509
4.715,-0.143644554513839,0.200403971959153
4.7325,-0.122709712246118,0.219723298066432
4.75,-0.093265343911468,0.218899396666609
4.7675,-0.0765998777064555,0.211233845394773
4.785,-0.063994276624277,0.202478068186492
4.8025,-0.0587203002311192,0.192802722995443
4.82,-0.0585764190722895,0.189770568650483
4.8375,-0.0588724817355009,0.19561085951525
4.855,-0.0453399029620797,0.207075521888508
4.8725,-0.0250915102251133,0.206474447781945
4.89,-0.0114879838581593,0.197275263585687
4.9075,-0.00273559422774051,0.19454931463014
4.925,0.0113650466840934,0.186826385540167
4.9425,0.0190760483456301,0.176351730987452
4.96,0.0214986140152632,0.168055736123209
4.9775,0.0262760948831577,0.165293908895144
4.995,0.0302348899298626,0.162780496673487
5.0125,0.0410678774691308,0.162263544759735
5.03,0.0522040456062055,0.156084274375859
5.0475,0.0627551805423529,0.146692610759657
5.065,0.0705826572765996,0.136779707372011
5.0825,0.0771919053167459,0.123276071972224
5.1,0.0778859467256856,0.109387139636745
5.1175,0.0716621581491929,0.102395048502713
5.135,0.0756539103031779,0.104280610411038
5.1525,0.0844886955653382,0.0979896297848158
5.17,0.0919583506023881,0.0879527637366518
5.1875,0.0962896897904432,0.0761992773118456
5.205,0.0997315463705545,0.062479346984402
5.2225,0.0968448676354245,0.0487565229145642
5.24,0.0930468910094786,0.0387571776221276
5.2575,0.0867100578632319,0.032757153150098
5.275,0.0875032028315632,0.0321638998759234
5.2925,0.0951767114505072,0.0251111369812887
5.31,0.0993589894078538,0.00695206191186511
5.3275,0.0889340342675827,-0.00941354957737303
5.345,0.0791636102354455,-0.0136023599094889
5.3625,0.0769178244114344,-0.0164970517380674
5.38,0.0781010857140566,-0.0251371513753153
5.3975,0.071010350467197,-0.03770036487298
5.415,0.0643792239087697,-0.0401325982567799
5.4325,0.0655382634675566,-0.0488458335171256
5.45,0.0600459195979112,-0.0646236356084465
5.4675,0.0409239204758184,-0.0752515194541215
5.485,0.0288404944069024,-0.0702527484826569
5.5025,0.0256421290660373,-0.0684280626850727
5.52,0.0292193166762837,-0.0717289517342703
5.5375,0.0264521161566005,-0.0883465418133017
5.555,0.00928567488045612,-0.100556638170856
5.5725,-0.00641739666049108,-0.100397879747936
5.59,-0.0156026414153677,-0.0996409504437783
5.6075,-0.0247648921426019,-0.104970929731661
5.625,-0.043114469155742,-0.101812212635896
5.6425,-0.0458961367656086,-0.0929728818502515
5.66,-0.0461667015828226,-0.0969881973750479
5.6775,-0.0551253681647964,-0.108066005319808
5.695,-0.0716993403856867,-0.111218024267483
5.7125,-0.0887567580158132,-0.112848922910782
5.73,-0.107334273638,-0.103194923588091
5.7475,-0.113418845161565,-0.0951594800288344
5.765,-0.123755731444691,-0.0911249096892316
5.7825,-0.132492744252145,-0.0837517556323394
5.8,-0.138103221042322,-0.0762583119063716
5.8175,-0.141114785465006,-0.0774184024268683
5.835,-0.156344661458793,-0.0786488729656766
5.8525,-0.173947085322472,-0.0717898037372676
5.87,-0.187498975858807,-0.0565302866849935
5.8875,-0.195339977642814,-0.0442431425588878
5.905,-0.202524688791153,-0.0277388568857854
5.9225,-0.202945093675443,-0.0136201691923432
5.94,-0.199315750373436,-0.00472854963512643
5.9575,-0.20219345111202,-0.00567460757467296
5.975,-0.214669199635146,-0.000983965664551854
5.9925,-0.229992969085806,0.00982671112795216
6.01,-0.242619265145265,0.03354346195953
6.0275,-0.239849164484147,0.0584169757957622
6.045,-0.232449184648859,0.0759420764030283
6.0625,-0.224773773364567,0.0860674697061774
6.08,-0.219228461914794,0.0959609658377963
6.0975,-0.215203223980116,0.097737711678055
6.115,-0.224150273024495,0.103522832123457
6.1325,-0.235191634497825,0.120751917518443
6.15,-0.235667091263508,0.151655010807846
6.1675,-0.21896655645848,0.176055956437836
6.185,-0.199370950992381,0.188921842688477
6.2025,-0.183673091972651,0.192006063342513
6.22,-0.1775936848734,0.193937879779835
6.2375,-0.174735693540203,0.201833909594541
6.255,-0.170548925506575,0.212906774502906
6.2725,-0.165274036254957,0.225600197193342
6.29,-0.158615897255736,0.245746099473913
6.3075,-0.135341146992128,0.266067132535655
6.325,-0.108717245755799,0.270297922303327
6.3425,-0.0884722313157473,0.265711737501787
6.36,-0.0807059193263586,0.260872874837556
6.3775,-0.0742890617842109,0.266515191186889
6.395,-0.0619038679363478,0.273960651401489
6.4125,-0.0466605264419966,0.278185081002555
6.43,-0.0342788705788665,0.283452997123866
6.4475,-0.0133667270457178,0.291279559592856
6.465,0.0105362784403582,0.290380354325836
6.4825,0.0345226593016387,0.281571338140461
6.5,0.0457576047307054,0.267350843615988
6.5175,0.0541780854250139,0.262698246610494
6.535,0.0670366388231921,0.258730496324715
6.5525,0.0822135422478551,0.252331447075096
6.57,0.0928069983065904,0.242631677144472
6.5875,0.104114875716648,0.240199531247847
6.605,0.124673593731225,0.233576998373186
6.6225,0.143658964523068,0.21522564815292
6.64,0.148818381520412,0.19430299916225
6.6575,0.152621269522874,0.184261176769874
6.675,0.162288002983175,0.173546115715489
6.6925,0.172384342706379,0.157340406108162
6.71,0.175540569493827,0.139009963550003
6.7275,0.175065562126092,0.126109525385239
6.745,0.179884626589845,0.1183278371247
6.7625,0.191081668779058,0.102221276959197
6.78,0.191910079222852,0.0778229992563089
6.7975,0.182864855861342,0.0643514381495611
6.815,0.186621085957619,0.0584206223898632
6.8325,0.195295183538557,0.0376602194695727
6.85,0.189483717728892,0.00900994111098739
6.8675,0.169963603022962,-0.00840865481075338
6.885,0.155663573357863,-0.0105081252142305
6.9025,0.156106155932284,-0.0114791723113602
6.92,0.159737610889951,-0.0278194121058151
6.9375,0.148990918641896,-0.0448258478118646
6.955,0.142369868839566,-0.0516392707374855
6.9725,0.1405325131904,-0.0675669078265988
6.99,0.126057092574978,-0.090172986086422
7.0075,0.0978349748327243,-0.102165133028259
7.025,0.0731145609608601,-0.0945595391234677
7.0425,0.0673066446352222,-0.0814107800870991
7.06,0.0742065343140219,-0.0818518327011834
7.0775,0.0735039740292321,-0.0990651929762555
7.095,0.0571066037260477,-0.114390197795119
7.1125,0.0388930423641339,-0.120164449962934
7.13,0.0196543042962505,-0.125565876283607
7.1475,-0.00530469058286265,-0.121586157341721
7.165,-0.0194873335341072,-0.106133462873977
7.1825,-0.0211105240430789,-0.0950549610380912
7.2,-0.0196302501423512,-0.0941942133788337
7.2175,-0.0222125667793441,-0.101373178971105
7.235,-0.0360359278244095,-0.112538554432165
7.2525,-0.0605433033288132,-0.11253687523259
7.27,-0.0792800261266158,-0.09997088917751
7.2875,-0.089245904644152,-0.0869856627314793
7.305,-0.0968094954011235,-0.073347802387451
7.3225,-0.0958778795852059,-0.0612334666886166
7.34,-0.0934266742337853,-0.059139295682509
7.3575,-0.0986034973182244,-0.0626769855282372
7.375,-0.112035236361135,-0.0607284892141326
7.3925,-0.123900671895409,-0.0531445354996223
7.41,-0.13302116352789,-0.0432358686177168
7.4275,-0.139535708210028,-0.0329028727878337
7.445,-0.145128438605904,-0.0205394326653081
7.4625,-0.145533810977268,-0.00866376214674777
7.48,-0.143674951744991,0.00124024402688596
7.4975,-0.138503140916468,0.00360685002119351
7.515,-0.144974952955697,0.00154485646961879
7.5325,-0.155256877928218,0.00944996438382449
7.55,-0.15917906685984,0.0215655915436137
7.5675,-0.160857590286679,0.0300451282466073
7.585,-0.165379082566726,0.0402282387684763
7.6025,-0.166962300209736,0.0546125460790889
7.62,-0.160451474240827,0.069653631143796
7.6375,-0.148635258225596,0.0738902356109339
7.655,-0.147136749162672,0.0696371362276468
7.6725,-0.154737282415761,0.0713837283498262
7.69,-0.163118864303832,0.0824589727901602
7.7075,-0.162397007237688,0.0997134334885824
7.725,-0.155144033086449,0.109963965193303
7.7425,-0.151784805311015,0.11655389856044
7.76,-0.148762841329011,0.128008161252573
7.7775,-0.137199865099475,0.138141672631005
7.795,-0.125080715363067,0.135188713614515
7.8125,-0.130056410045972,0.129344501828179
7.83,-0.137739961692024,0.141668054210131
7.8475,-0.133898397438767,0.157334749472705
7.865,-0.124827633391722,0.167886802508318
7.8825,-0.116464157038619,0.175201429000682
7.9,-0.108098810600017,0.182117533229729
7.9175,-0.0977655537735164,0.187951716205263
7.935,-0.0866857524187891,0.18916999413096
7.9525,-0.0809420154734035,0.186326754588395
7.97,-0.0824499656156506,0.188109035061411
7.9875,-0.0814870779396356,0.199824303575742
8.005,-0.0682715236830984,0.211032862552593
8.0225,-0.0566000986319963,0.211896534284101
8.04,-0.0485228751638569,0.217837945711256
8.0575,-0.031351817644325,0.221573741790127
8.075,-0.0172494464430794,0.214199262046081
8.0925,-0.0136696434581349,0.207073327678187
8.11,-0.0139054702203889,0.208758571401258
8.1275,-0.00670207455254529,0.216409800337494
8.145,0.00757311457191091,0.220546219983409
8.1625,0.0226238676238925,0.216237107058173
8.18,0.029586152863997,0.210967983763539
8.1975,0.0391291327881831,0.210914999352219
8.215,0.0528775820697723,0.206891730684569
8.2325,0.0642266036005329,0.194770723616672
8.25,0.0629004504625975,0.183752435070957
8.2675,0.062831650860122,0.187175931855193
8.285,0.078859322106197,0.189109712626677
8.3025,0.0935197728158252,0.17487639485133
8.32,0.0933690844328101,0.1601830809127
8.3375,0.0940949267157186,0.159676847603882
8.355,0.106310937639335,0.154127903136257
8.3725,0.11431666006292,0.140855312432812
8.39,0.117583851012987,0.125787061030229
8.4075,0.113416877427831,0.112885951852694
8.425,0.11020006813963,0.10958663811056
8.4425,0.116347132737399,0.105175835557709
8.46,0.12089362399431,0.090178340841438
8.4775,0.113966645350534,0.0793473471032222
8.495,0.114972054969076,0.0767714021360666
8.5125,0.120262797243389,0.0642022301400646
8.53,0.116368206512922,0.0475704582217402
8.5475,0.107562032187163,0.0362948112922136
8.565,0.0982218167503961,0.0286815451660779
8.5825,0.0904970269084908,0.0258182624191863
8.6,0.0887931250891182,0.0218507409030525
8.6175,0.0846251083968371,0.0125115121100484
8.635,0.0775608846632602,0.00614777701394631
8.6525,0.0726174730378316,-0.00103303489457229
8.67,0.0648678254544071,-0.010696148490697
8.6875,0.0518729918496478,-0.0183189046913241
8.705,0.0386278999830111,-0.0206578724357742
8.7225,0.0246794575819694,-0.0203906159526067
8.74,0.0156180335729035,-0.0156101445774644
8.7575,0.00987785325165332,-0.015123478265287
8.775,0.000636834752458822,-0.0151863553452467
8.7925,-0.00435591924547011,-0.0131154222112832
8.81,-0.012203985171514,-0.0196190538135973
8.8275,-0.0295230271257873,-0.0204659187745614
8.845,-0.0449760145974032,-0.0127454744931655
8.8625,-0.0541443652401449,-0.00382058349180947
8.88,-0.0641881896409567,0.00524877566611938
8.8975,-0.068170975853229,0.017793145455442
8.915,-0.0686538363541093,0.022547375419068
8.9325,-0.0751602485006565,0.0271837366432138
8.95,-0.0773447832212445,0.0326296927676354
8.9675,-0.0871026402712438,0.0306313005148563
8.985,-0.106145726890909,0.0416011529484962
9.0025,-0.114046289964063,0.0651155570468538
9.02,-0.10827466468556,0.0827167901346579
9.0375,-0.10512780230613,0.0918970024226258
9.055,-0.101116550080875,0.101702259597629
9.0725,-0.0990703611484466,0.105755769563882
9.09,-0.101553069752105,0.113575233451121
9.1075,-0.101314893227284,0.120415309085692
9.125,-0.109331232695482,0.128419072616632
9.1425,-0.113392032917345,0.149656381736345
9.16,-0.103495501114809,0.172202458770844
9.1775,-0.0850602604809476,0.183177184649752
9.195,-0.0730526318606929,0.184283441791963
9.2125,-0.067642308873597,0.185667754025453
9.23,-0.0662955511504098,0.191902598611595
9.2475,-0.0584697005984908,0.201515755824431
9.265,-0.0528830561198223,0.204794889701119
9.2825,-0.0513965611947482,0.216468542793372
9.3,-0.0388252952666911,0.232681772281817
9.3175,-0.0178710205006704,0.238572186753499
9.335,-0.00393686615340401,0.236176612555522
9.3525,0.00608790538340372,0.235204766503461
9.37,0.0137266112419011,0.235242669340573
9.3875,0.0222337958095427,0.238322015712342
9.405,0.0342366198327782,0.239851572772011
9.4225,0.0423139533077726,0.238199048219597
9.44,0.0498406867545613,0.244325049189697
9.4575,0.0698311748248741,0.248660330677729
9.475,0.0873261174201599,0.238412421893014
9.4925,0.0936322900454206,0.230578599653171
9.51,0.102125184547513,0.227680171159766
9.5275,0.112610291625099,0.223443291115259
9.545,0.122150802423481,0.216482506298008
9.5625,0.128920461614016,0.210361230287611
9.58,0.135896064308188,0.206562312267994
9.5975,0.146465617455003,0.20378571208014
9.615,0.161016809732562,0.192975996282498
9.6325,0.164457373886873,0.177059298172844
9.65,0.164871556452937,0.170734602346966
9.6675,0.171567720647214,0.165366264731389
9.685,0.178302779461082,0.155555418873686
9.7025,0.183244998278211,0.143888960324316
9.72,0.18322198010727,0.132784149957475
9.7375,0.184974249479401,0.126862318655267
9.755,0.191854123863508,0.117765832254863
9.7725,0.193719947733076,0.10023518208135
9.79,0.185022878361484,0.0910406436102009
9.8075,0.187819036103181,0.0899983782611244
9.825,0.194213800200853,0.0753386816819727
9.8425,0.189335114461953,0.0606238440382821
9.86,0.184340090312278,0.0496929066529164
9.8775,0.176766219029753,0.0403759440459625
9.895,0.170347205481397,0.0358648950580346
9.9125,0.169755725905748,0.0302011384052217
9.93,0.166028944047159,0.0183965294356966
9.9475,0.156996948608583,0.0112342235143116
9.965,0.155657061297842,0.00567569554629543
9.9825,0.148558393308553,-0.0117516868622786
10,0.129153702240836,-0.0188714701350527
