"Freq [GHz]","re(S(Antenna1_1_1,Antenna1_1_1)) []","im(S(Antenna1_1_1,Antenna1_1_1)) []"
3,-0.174780068411393,-0.170303943168326
3.0175,-0.188974273103113,-0.162435027820694
3.035,-0.198625101731577,-0.154429046388135
3.0525,-0.226720759648528,-0.144655648497154
3.07,-0.237989985427973,-0.102245045036774
3.0875,-0.228007322766646,-0.0807609986095111
3.105,-0.223837245654493,-0.0613981532986729
3.1225,-0.210824614644642,-0.0480231652966398
3.14,-0.205150304702517,-0.0502565663118418
3.1575,-0.214941948379542,-0.04501969332333
3.175,-0.225576754321947,-0.0306587522273757
3.1925,-0.229859460168567,-0.006448613526303
3.21,-0.227607205402643,0.0147651973668935
3.2275,-0.221161526829898,0.042058061081907
3.245,-0.196676606726488,0.0664701940775647
3.2625,-0.172149618119122,0.0635018251444738
3.28,-0.168696112245695,0.0646879542784707
3.2975,-0.161299400003546,0.0660965439500073
3.315,-0.165361242361238,0.0734025876697836
3.3325,-0.163505961913174,0.0930570583183471
3.35,-0.14671600960653,0.112057645741248
3.3675,-0.130927823782088,0.121594241666012
3.385,-0.113575673035526,0.134980897170613
3.4025,-0.0817330670446052,0.142636504524757
3.42,-0.0573891988601445,0.124436229917361
3.4375,-0.0550737267480872,0.114071164194451
3.455,-0.0519015554520284,0.114070404879013
3.4725,-0.044910964349579,0.117392217532226
3.49,-0.0384613485797215,0.125352094466546
3.5075,-0.0152555715564513,0.134900859956848
3.525,0.00619998773207387,0.129957400388772
3.5425,0.0273161906661429,0.125347643774134
3.56,0.0521283647102276,0.113446115149644
3.5775,0.0712733693179105,0.0843740399652556
3.595,0.0612670969339724,0.0556738838065434
3.6125,0.048235679742613,0.0567996322415833
3.63,0.0560713048712797,0.062379483280455
3.6475,0.0679744754964567,0.0621851753321825
3.665,0.0876591447575196,0.0563937317072499
3.6825,0.108206978994876,0.0394399936402759
3.7,0.120685239191931,0.0109173917349543
3.7175,0.124048813896053,-0.0167468911223002
3.735,0.114606175987726,-0.0483205633581986
3.7525,0.0925143551979017,-0.0672455452074919
3.77,0.0675343990326299,-0.0589155273309587
3.7875,0.0843000884071248,-0.0478371509695199
3.805,0.0931560356660687,-0.0651352083922459
3.8225,0.103428758861063,-0.077650752202711
3.84,0.110097360900376,-0.112682293141784
3.8575,0.0874310050881956,-0.141540236960082
3.875,0.0752660601953063,-0.15772922211463
3.8925,0.0424562991470333,-0.1802616380783
3.91,0.0109298696822703,-0.170718418603277
3.9275,0.000836529065742567,-0.154743424929269
3.945,0.0084361734023108,-0.152834488348373
3.9625,0.0113365233899557,-0.165211291899447
3.98,0.00568471694349797,-0.18819882087805
3.9975,-0.0152211450645682,-0.209827724652147
4.015,-0.0480614413461807,-0.220880857189408
4.0325,-0.077423874783359,-0.217687695252456
4.05,-0.105868690971547,-0.209275952487086
4.0675,-0.126188986615123,-0.186932041967049
4.085,-0.123785609472618,-0.166312902985608
4.1025,-0.114788634694241,-0.167491613562202
4.12,-0.119050507435759,-0.184305813639821
4.1375,-0.144892993944726,-0.198105114960431
4.155,-0.176566290542065,-0.196462195345412
4.1725,-0.209079203955562,-0.182147607720485
4.19,-0.232306653144005,-0.15229152231446
4.2075,-0.232707947643315,-0.121386347858789
4.225,-0.229184688753167,-0.107127458993547
4.2425,-0.22179786536638,-0.0942428536348865
4.26,-0.21667901824587,-0.10286618975855
4.2775,-0.236386223949481,-0.115842226971592
4.295,-0.274585802559024,-0.101577810914093
4.3125,-0.289687408626881,-0.0677218783350176
4.33,-0.292105798098705,-0.0397534635043655
4.3475,-0.291343435995056,-0.012337422138722
4.365,-0.270574002513581,0.0127366107449478
4.3825,-0.26087483019343,0.00732134423200819
4.4,-0.264330468159727,0.0207675424206782
4.4175,-0.256701895657044,0.0223127207366563
4.435,-0.275124425468116,0.0248482080073901
4.4525,-0.284652210320435,0.0569190989799779
4.47,-0.274755728147239,0.0799323193536535
4.4875,-0.264945739251216,0.0994648600458658
4.505,-0.253054131560207,0.115371639872163
4.5225,-0.235915716021515,0.128650786643054
4.54,-0.219807094233458,0.133068113887831
4.5575,-0.209232128812841,0.130289117372871
4.575,-0.209169054122566,0.13199152684068
4.5925,-0.214015690553067,0.136415176716228
4.61,-0.219601736935411,0.161942112567137
4.6275,-0.199841417909917,0.187898580994902
4.645,-0.176407712499872,0.197768016346599
4.6625,-0.154831492671147,0.206510181523165
4.68,-0.125745827377064,0.203055348492152
4.6975,-0.110033879092744,0.185758111799509
4.715,-0.115573975965839,0.168819675512153
4.7325,-0.126912136454118,0.177808441976432
4.75,-0.128692784893468,0.191028794526609
4.7675,-0.120511424782455,0.221617627962773
4.785,-0.081864299664277,0.239888287951492
4.8025,-0.0452381826011192,0.224183246525443
4.82,-0.0347422874822895,0.206014462267483
4.8375,-0.0236447430805009,0.19177794716525
4.855,-0.0268288603770797,0.175526100969508
4.8725,-0.0374840298011133,0.174123756001945
4.89,-0.0384529217531593,0.188682605425687
4.9075,-0.0261494355677405,0.19991658308514
4.925,-0.0047433457011066,0.211182133454167
4.9425,0.0297806267456301,0.204097454570452
4.96,0.0470487870222632,0.173202433993209
4.9775,0.0391823546360577,0.156655277705144
4.995,0.0422340258078626,0.150158468353487
5.0125,0.0365562516141308,0.141323506519735
5.03,0.0364010832682055,0.147491715215859
5.0475,0.0469447987693529,0.149673273021657
5.065,0.0592140134225996,0.148335117138011
5.0825,0.0768456092407459,0.142061477980224
5.1,0.0922638689296856,0.123102982684745
5.1175,0.0934936925741929,0.0996443543827127
5.135,0.0843850734331779,0.0850438685190376
5.1525,0.0763487474853382,0.0837993203628158
5.17,0.0815275045023881,0.0832266596269518
5.1875,0.0838821287504432,0.0766892930028456
5.205,0.0899658476095545,0.072302358727402
5.2225,0.0962665343254245,0.0636851319235642
5.24,0.104009058672479,0.0512215482711276
5.2575,0.106806729930232,0.033045539775798
5.275,0.0996312110125632,0.0129904767909234
5.2925,0.0851727192805072,0.00526127933128873
5.31,0.0790987888368538,0.00679159562286511
5.3275,0.0829908555275827,0.00214184857562697
5.345,0.0787088137854454,-0.00694518548748892
5.3625,0.0793765312514344,-0.00893058494806742
5.38,0.0833223409110566,-0.0202695527853153
5.3975,0.081892567707197,-0.03446772643298
5.415,0.0770807923857697,-0.0506727336867799
5.4325,0.0624772067395566,-0.0670176842901256
5.45,0.0414389413899112,-0.0705962517464465
5.4675,0.0313053623008184,-0.0625917617601214
5.485,0.0318935853839024,-0.0630047357026569
5.5025,0.0278562730091373,-0.0659703186150727
5.52,0.0283180809562837,-0.0680212181342703
5.5375,0.0328907226366005,-0.0797933827433017
5.555,0.0235987084604561,-0.100672224208856
5.5725,0.00625732990950892,-0.115644135557936
5.59,-0.0250031521113677,-0.123752123493778
5.6075,-0.0503106483126019,-0.105472067147661
5.625,-0.052762589308742,-0.086444099675896
5.6425,-0.0467316295756086,-0.0809386680102515
5.66,-0.0414380090028226,-0.0857946862250479
5.6775,-0.0423439406047964,-0.0985260522248084
5.695,-0.0521878304156867,-0.116756389804482
5.7125,-0.0806427737258132,-0.130925347699782
5.73,-0.114354108724,-0.123665640880091
5.7475,-0.135132817373565,-0.102918790084834
5.765,-0.145158119578691,-0.0797152778702316
5.7825,-0.134519495842146,-0.0581895130673394
5.8,-0.120989373842322,-0.0647897579673716
5.8175,-0.127434135995006,-0.0783508653468683
5.835,-0.145133508758793,-0.0858686631656766
5.8525,-0.168233092864472,-0.0861642717972676
5.87,-0.196678665411807,-0.0733601215749935
5.8875,-0.212910272531814,-0.0447111173788878
5.905,-0.212485275039953,-0.0192553572487854
5.9225,-0.206692855824443,-0.000706311376343177
5.94,-0.191648530543436,0.00773205750737357
5.9575,-0.18870446727202,-0.00507514916467296
5.975,-0.209468976030146,-0.00760094477455186
5.9925,-0.226047995035806,0.00652969625795216
6.01,-0.239269491745265,0.02325674705953
6.0275,-0.247975588684147,0.0485169784157622
6.045,-0.244627766288859,0.0746021930210283
6.0625,-0.233886997032567,0.0929225313611774
6.08,-0.224473877888794,0.105432549555796
6.0975,-0.211880519577516,0.113816008657055
6.115,-0.208149242357695,0.109674433313457
6.1325,-0.221017810797825,0.115445965158443
6.15,-0.226724641673508,0.137742843423846
6.1675,-0.22221784095848,0.156857143030836
6.185,-0.218088232022381,0.177735886360377
6.2025,-0.205328632612651,0.198131930837513
6.22,-0.1891123553034,0.215184937662835
6.2375,-0.166544431684203,0.225526342288541
6.255,-0.147169893133675,0.223566448045906
6.2725,-0.140510592946957,0.216824957304342
6.29,-0.146850365765736,0.219284356703913
6.3075,-0.149219035402128,0.240200454727655
6.325,-0.133967244516799,0.263100997863327
6.3425,-0.113350946437867,0.276035746451787
6.36,-0.0912790641473586,0.289382121637556
6.3775,-0.059211802345211,0.292227371926889
6.395,-0.0354496844363478,0.282024590111489
6.4125,-0.0200591771119966,0.267134897012555
6.43,-0.0207797314128665,0.252724274491866
6.4475,-0.0321974266307178,0.258949468212856
6.465,-0.0237180767936418,0.286723291295836
6.4825,0.0108723656206387,0.301981841520461
6.5,0.0436024233307054,0.295110866035988
6.5175,0.0686523669550139,0.283985378870494
6.535,0.0934561995731922,0.264102129814715
6.5525,0.102655281397855,0.237530888243096
6.57,0.0996009285465904,0.220404195659472
6.5875,0.0937275090176483,0.214264559707847
6.605,0.0924433212272246,0.224268090543186
6.6225,0.116352095168068,0.23857278140292
6.64,0.155172411360412,0.22860504323065
6.6575,0.178777436862874,0.194769339178874
6.675,0.181686417343175,0.164938066295489
6.6925,0.180933273346379,0.141419622288162
6.71,0.172499502503827,0.121715171480003
6.7275,0.162303194922092,0.115555116645239
6.745,0.162817151467845,0.1152264400707
6.7625,0.169508485345058,0.115586898991197
6.78,0.192465959702852,0.110786518166309
6.7975,0.215269311761342,0.0790743500705611
6.815,0.211738512607619,0.0369562259198632
6.8325,0.189106884318557,0.0121383502495727
6.85,0.172821159609892,0.00354518951098739
6.8675,0.160930110499962,-0.00446055683075337
6.885,0.151184394254863,-0.00625142066423048
6.9025,0.151334058578284,-0.00761741446136018
6.92,0.155391475550951,-0.0162678616958151
6.9375,0.160721333227896,-0.0295596419018646
6.955,0.164327485464566,-0.0577970258574855
6.9725,0.1407080115824,-0.0889412458165988
6.99,0.110052052030978,-0.094941328576422
7.0075,0.0925211671227242,-0.0916518036882591
7.025,0.0813958545908601,-0.0905691758434676
7.0425,0.0713021515252222,-0.0905678275200991
7.06,0.0629579495940219,-0.0896822341431834
7.0775,0.0594371784672321,-0.0887144990302555
7.095,0.0628872613690477,-0.0960123539901194
7.1125,0.0548769689351339,-0.118628618042934
7.13,0.0269919192662505,-0.132660475963607
7.1475,-0.00154263156286265,-0.128336114252721
7.165,-0.0185895283741072,-0.117061769923277
7.1825,-0.0305509322030789,-0.106708331438091
7.2,-0.0378823122523512,-0.0955338259488337
7.2175,-0.0387646574543441,-0.0856430810711046
7.235,-0.0333228618494095,-0.0845187332671652
7.2525,-0.0323201495318132,-0.0973465807395898
7.27,-0.0497276613356158,-0.11611553740151
7.2875,-0.086486425814152,-0.118699369792479
7.305,-0.116596809701124,-0.092231411517451
7.3225,-0.119282836523206,-0.0613017236686166
7.34,-0.111764954441785,-0.046175293952509
7.3575,-0.104762510804224,-0.0369560766682372
7.375,-0.095280260272135,-0.0377096331341326
7.3925,-0.0954855237794094,-0.0487521944496223
7.41,-0.10922453668089,-0.0621779212527168
7.4275,-0.139257332363028,-0.0649503332388337
7.445,-0.171103397878904,-0.0394176011363081
7.4625,-0.172845490497268,0.00158567655325223
7.48,-0.149099113844991,0.023189585496886
7.4975,-0.132408169876468,0.0173705031911935
7.515,-0.132937143445697,0.0117052814106188
7.5325,-0.136876678958218,0.00783822500982449
7.55,-0.14940678860984,0.00566790670261367
7.5675,-0.165193224756679,0.0151690125786073
7.585,-0.176832098425726,0.0305655197644763
7.6025,-0.184007373848736,0.0577549605910889
7.62,-0.166880743490827,0.084007195762796
7.6375,-0.143052246665596,0.0849842975119339
7.655,-0.138843729792672,0.0723842297776468
7.6725,-0.148603025105761,0.0714320404398262
7.69,-0.155512219933832,0.0796537650901602
7.7075,-0.157873700077688,0.0901764771685824
7.725,-0.159825754511449,0.0993272626633027
7.7425,-0.162099697289015,0.11292968507044
7.76,-0.159027794304011,0.131224238832573
7.7775,-0.142774098124475,0.147816596431005
7.795,-0.123707525783067,0.146810890514515
7.8125,-0.119135486806972,0.137503736098179
7.83,-0.126467486191024,0.139015897790131
7.8475,-0.125498278008767,0.150399225302705
7.865,-0.122031531094722,0.153896647788318
7.8825,-0.126925910758619,0.163319331800682
7.9,-0.122754948940017,0.180951442739729
7.9175,-0.111645265441516,0.196398125187263
7.935,-0.0911062550097891,0.20903840707006
7.9525,-0.0650953100464035,0.203365864303395
7.97,-0.0606262905716506,0.184610570501411
7.9875,-0.0713162693996356,0.183224479835742
8.005,-0.0730136143730984,0.194958629678593
8.0225,-0.0670952376319963,0.203320228279101
8.04,-0.063675891633857,0.215415784096456
8.0575,-0.045839096874325,0.231680727959127
8.075,-0.0220941305130794,0.233203294507281
8.0925,-0.00126932485313494,0.228385176642187
8.11,0.0165978478860111,0.210596564025558
8.1275,0.0101752372974547,0.189341038162494
8.145,-0.00572788127808909,0.196072756762409
8.1625,0.00156134893389252,0.212762855368173
8.18,0.015300169753997,0.219717232743539
8.1975,0.0330973554081831,0.224686518342219
8.215,0.0565207795637723,0.221599599244569
8.2325,0.0755529306965329,0.204859835476672
8.25,0.0827309010805975,0.187095829860957
8.2675,0.083677866122122,0.167843732600193
8.285,0.070121046306197,0.157427832564577
8.3025,0.0618910479618252,0.16836205198133
8.32,0.0771565805332101,0.1822302405427
8.3375,0.100682412826719,0.175556440153882
8.355,0.114477518919335,0.160781430786257
8.3725,0.12407126997292,0.142835383732812
8.39,0.127411291452987,0.122730316050229
8.4075,0.120971268497831,0.102594331484094
8.425,0.10799333477863,0.0947151508589597
8.4425,0.100935294818499,0.0949640977327089
8.46,0.10142615576931,0.100227557441438
8.4775,0.115901472500534,0.0992854056562222
8.495,0.127915009409076,0.0811761487860666
8.5125,0.125148082143389,0.0606311129250646
8.53,0.119985470932922,0.0479736024127402
8.5475,0.113601216327163,0.0319824993572136
8.565,0.100051535780396,0.0201359428270779
8.5825,0.0848213922584908,0.0163834538191863
8.6,0.0761550980471182,0.0195995914720525
8.6175,0.0741599541668371,0.0225631073440484
8.635,0.0809069656332602,0.0193815286829463
8.6525,0.0813739342478316,0.00175052492542771
8.67,0.0682003710244071,-0.010694072360697
8.6875,0.0598089268096478,-0.0162125099213241
8.705,0.0483452657680111,-0.0294432796857742
8.7225,0.0229898621209694,-0.0342790538326067
8.74,0.00364024812090345,-0.0242583599774644
8.7575,-0.00589000768134668,-0.011480771175287
8.775,-0.00500527534154118,-0.000367525397246658
8.7925,0.00178472397052989,-0.00182048954628319
8.81,-0.00235725222951401,-0.0155177627835973
8.8275,-0.0205777520147873,-0.0220295904945614
8.845,-0.0361311552254032,-0.0193364030731655
8.8625,-0.0529634575301449,-0.0176771973318095
8.88,-0.0741995642809567,-0.00506785944388062
8.8975,-0.083284571663229,0.017382440214442
8.915,-0.0800030427041093,0.035146331000068
8.9325,-0.0716047191206565,0.0434998475512138
8.95,-0.0651259346042445,0.0391956968996354
8.9675,-0.0747573024592438,0.0283369500048563
8.985,-0.0989791816809091,0.0324206449384962
9.0025,-0.113237171934063,0.0544143772130538
9.02,-0.11497590131556,0.0711459541066579
9.0375,-0.12124563158613,0.0892358904276258
9.055,-0.112739304580875,0.113521601367629
9.0725,-0.0982206901884466,0.120590181816882
9.09,-0.0914438157081052,0.123818397576121
9.1075,-0.0861983783258837,0.121026039635692
9.125,-0.0984762100154824,0.116557277676632
9.1425,-0.116144977427345,0.135817525094345
9.16,-0.111920063524809,0.166131654030844
9.1775,-0.0937343124399476,0.182123668379752
9.195,-0.0826792231116929,0.188341907901963
9.2125,-0.071564578820597,0.198289003865453
9.23,-0.0577413658094098,0.200864957571595
9.2475,-0.0507225370441708,0.202587216344431
9.265,-0.0420028743269223,0.203119793721119
9.2825,-0.0456814025534482,0.202083448473372
9.3,-0.0492483019866911,0.221552536131817
9.3175,-0.0293025287323704,0.241443366523499
9.335,-0.00741166665340401,0.241857376465522
9.3525,0.00416643161340372,0.240734018673461
9.37,0.0158188432719011,0.242524724350573
9.3875,0.0297619827895427,0.241767533502342
9.405,0.0406884445727782,0.238067412440011
9.4225,0.0499123947677726,0.233068823850617
9.44,0.0504200010845613,0.229360642689697
9.4575,0.053454428417874,0.240710222940729
9.475,0.0745195844801599,0.249726060391014
9.4925,0.0961426577454206,0.242341838043171
9.51,0.107568685227513,0.232801317581766
9.5275,0.119344344385099,0.226047988232259
9.545,0.131097349063481,0.215153762292008
9.5625,0.135745238234016,0.200954756187611
9.58,0.133626305468188,0.194409668447994
9.5975,0.134474660153003,0.19440933568014
9.615,0.141975100627562,0.198971960801498
9.6325,0.161598229256873,0.198873996419244
9.65,0.180978585670937,0.181096571455966
9.6675,0.183865759294214,0.160100930251389
9.685,0.183259424448082,0.147586534303686
9.7025,0.184010538341211,0.134834143704316
9.72,0.17771523288527,0.123472250107475
9.7375,0.172657351990401,0.123512439925267
9.755,0.178741158569508,0.125037433192863
9.7725,0.190079772613076,0.11880100872035
9.79,0.201390967833484,0.105956976027201
9.8075,0.208701690366181,0.0820856061511244
9.825,0.196806163188853,0.0573552606819727
9.8425,0.180983839171953,0.0510527114582821
9.86,0.175036547292278,0.0468941637129164
9.8775,0.166778180209753,0.0425892495459625
9.895,0.163882855131397,0.0450470145150346
9.9125,0.170495468435748,0.0417315490566217
9.93,0.175085999197159,0.0292395820696966
9.9475,0.176181207021583,0.0107032327543116
9.965,0.164743212375842,-0.0131084497067046
9.9825,0.138929110478553,-0.0270074331552786
10,0.114762510170836,-0.0206040751518527
