"Freq [GHz]","re(S(Antenna1_1_1,Antenna1_1_1)) []","im(S(Antenna1_1_1,Antenna1_1_1)) []"
3,-0.196646485021393,-0.166197226456326
3.0175,-0.205462544636113,-0.148094070025693
3.035,-0.207645811111577,-0.133561106999135
3.0525,-0.214802163981528,-0.122173156390154
3.07,-0.222840017798973,-0.106294183370774
3.0875,-0.227535465582416,-0.0856863730333111
3.105,-0.223673549830493,-0.0690561109986729
3.1225,-0.226231836763642,-0.0580333163539398
3.14,-0.228703195165117,-0.0393188071098418
3.1575,-0.225137753530442,-0.02156229252333
3.175,-0.220551612201647,-0.0075108425993757
3.1925,-0.218995820444567,0.008246036293697
3.21,-0.209026629085743,0.0262476580808935
3.2275,-0.200513936371898,0.033173089434907
3.245,-0.199952732095488,0.0465046368715647
3.2625,-0.191185835840122,0.0654714456394738
3.28,-0.175216975207695,0.0777932383704707
3.2975,-0.165046313010446,0.0832028053110073
3.315,-0.156447598279238,0.0956076852677836
3.3325,-0.140808557386174,0.104662364220347
3.35,-0.12879481639753,0.109645040399248
3.3675,-0.117701395452088,0.118146971409012
3.385,-0.0987168204235257,0.126970245039613
3.4025,-0.0799466294246052,0.122312198866757
3.42,-0.0752434688971445,0.121962596350361
3.4375,-0.0608989797920872,0.131913189478451
3.455,-0.0386827728590284,0.131124761914013
3.4725,-0.024714558867579,0.123161790672226
3.49,-0.0148503903497215,0.122787199311546
3.5075,0.0047905124495487,0.119210544600848
3.525,0.0148129594570739,0.107308583066772
3.5425,0.0238504497391429,0.106361066770134
3.56,0.0426711935842276,0.0999541649896442
3.5775,0.0558614018789105,0.0834240430112556
3.595,0.0578975538309724,0.0708267405245434
3.6125,0.066616847355613,0.0680278077505833
3.63,0.0817043017052797,0.054018835020455
3.6475,0.0861290168934567,0.0361674742821825
3.665,0.0878211080115196,0.0245722280962499
3.6825,0.0952745712538762,0.0133986965002759
3.7,0.0985706513949312,-0.00620820930304572
3.7175,0.0952949028080535,-0.0176366474623002
3.735,0.100699822183726,-0.0303818338391986
3.7525,0.0991092927819017,-0.0502284836024919
3.77,0.09169809667463,-0.0636973765469587
3.7875,0.0898456737651248,-0.0726492526175199
3.805,0.0898491206360687,-0.0910453327042459
3.8225,0.0770578042680634,-0.108010282399111
3.84,0.0672951481373762,-0.115290703338784
3.8575,0.0621127242281956,-0.125036841332082
3.875,0.0550830711553063,-0.13955598940623
3.8925,0.0401054132570333,-0.1513895865223
3.91,0.0285850492862703,-0.158720885209277
3.9275,0.0142424224827426,-0.168179596385269
3.945,-1.14909706892003E-05,-0.171884557891373
3.9625,-0.0111936227020443,-0.176495481687447
3.98,-0.022449913886502,-0.18404937871005
3.9975,-0.0421666708335682,-0.191966788202147
4.015,-0.0608916464673807,-0.187891456674408
4.0325,-0.071408025802359,-0.186456426923456
4.05,-0.0842048110955466,-0.188070650291086
4.0675,-0.100111948856123,-0.189650812537049
4.085,-0.118037721069618,-0.186269329780608
4.1025,-0.133438723235241,-0.180171321515202
4.12,-0.145930273103759,-0.172324891189821
4.1375,-0.156743945781726,-0.167621466765431
4.155,-0.169739441660065,-0.162069362255412
4.1725,-0.183738528388562,-0.156820742480485
4.19,-0.199836078394005,-0.14552296883546
4.2075,-0.209654771633315,-0.132287533026789
4.225,-0.217350141270167,-0.120080656839547
4.2425,-0.22384405323338,-0.112436642766886
4.26,-0.23695322717887,-0.10216991764655
4.2775,-0.245388958385481,-0.086966084482592
4.295,-0.252269975459024,-0.0716616911990934
4.3125,-0.254214079596881,-0.0575487115610176
4.33,-0.258747689938705,-0.0462501060773655
4.3475,-0.261654428005056,-0.033174683250722
4.365,-0.267549622883581,-0.0205735057400522
4.3825,-0.27026984669843,-0.00171677033999181
4.4,-0.266805192972727,0.0147633429806782
4.4175,-0.262431575769044,0.0252975552786563
4.435,-0.265711020166116,0.0361125783233901
4.4525,-0.263624350984435,0.0552600462099779
4.47,-0.256436436171239,0.0674088725536535
4.4875,-0.252895988012216,0.0786452897558658
4.505,-0.249527103204207,0.0917426881821633
4.5225,-0.241479491984015,0.106104353273054
4.54,-0.234317349497458,0.113976319455831
4.5575,-0.229806162400641,0.127477755582871
4.575,-0.218621397800566,0.13835692191168
4.5925,-0.210651695508067,0.146523804614228
4.61,-0.203177697344411,0.155798650152137
4.6275,-0.192988670613317,0.168846384714902
4.645,-0.176169152399872,0.173868910254599
4.6625,-0.170069747381147,0.175508352666165
4.68,-0.162327537338064,0.185668484205152
4.6975,-0.148496881732744,0.194237011016509
4.715,-0.133353932395839,0.196382497418153
4.7325,-0.124402885616118,0.198311969866932
4.75,-0.111423415751468,0.202374495724109
4.7675,-0.102128115826455,0.202366178642773
4.785,-0.093057587349277,0.207752288811492
4.8025,-0.0779487027311192,0.212272915952443
4.82,-0.0606939885122895,0.208766713252483
4.8375,-0.0537394461105009,0.20178272193525
4.855,-0.0473471099610797,0.204698396215508
4.8725,-0.0340757930911133,0.205891335755945
4.89,-0.0205232878611593,0.202992144477687
4.9075,-0.00997678604374051,0.19752903512814
4.925,0.000155486630093402,0.194146689335167
4.9425,0.00992348833763012,0.187396806717452
4.96,0.0163207748508632,0.184126840067209
4.9775,0.0279818022105577,0.181661963752144
4.995,0.0404524078678626,0.173806045827487
5.0125,0.0478010944611308,0.162742123359735
5.03,0.0518631310122055,0.156718077912859
5.0475,0.0602793134823529,0.151230093921657
5.065,0.0680656359405996,0.143191183136011
5.0825,0.0753390055447459,0.134187828072224
5.1,0.0812751424996856,0.124512342771745
5.1175,0.0859966217031929,0.113710339362713
5.135,0.0880121118431779,0.104957499874038
5.1525,0.0931615144143382,0.0973142633968158
5.17,0.0978027274823881,0.0863229847589518
5.1875,0.100043756764443,0.0746413677948456
5.205,0.100084297934554,0.064616572738402
5.2225,0.102153799736425,0.0553657599785642
5.24,0.102501075775479,0.0438235122356276
5.2575,0.101676674446232,0.033887109989098
5.275,0.100696468300563,0.0237860962899234
5.2925,0.0997228511685072,0.0135737626932887
5.31,0.0967001801688538,0.00259121875386511
5.3275,0.0936334668555827,-0.00646305299637303
5.345,0.0899883274964454,-0.0171221699154889
5.3625,0.0845689887814344,-0.0259651343250674
5.38,0.0797617534940566,-0.0343132772683152
5.3975,0.075281312084197,-0.04270420690298
5.415,0.0691918552817697,-0.0529083497857799
5.4325,0.0606383699895566,-0.0606191547701256
5.45,0.0528825068539112,-0.0669623779054465
5.4675,0.0460779037751184,-0.0724032667601214
5.485,0.0394956701399024,-0.0802689472546569
5.5025,0.0297051648951373,-0.0873901544120727
5.52,0.0191545740362837,-0.0931873925622703
5.5375,0.0077579295626005,-0.0957666886553017
5.555,-0.000309575421543878,-0.0978447458018556
5.5725,-0.00888622744249108,-0.101300454909936
5.59,-0.0178512201653677,-0.105952580987778
5.6075,-0.0310355115066019,-0.109602312710661
5.625,-0.043480480929742,-0.108908353072896
5.6425,-0.0541672949026086,-0.107036050145251
5.66,-0.0618175700228226,-0.106918209600048
5.6775,-0.0734429771247964,-0.109295742981508
5.695,-0.0865360785656867,-0.107833876634282
5.7125,-0.0997345044638132,-0.104579268131782
5.73,-0.110404648649,-0.0983909467924912
5.7475,-0.119622906381565,-0.0938619842778344
5.765,-0.128048052104691,-0.0889798338832316
5.7825,-0.138220716852145,-0.0869891943483394
5.8,-0.151713778654322,-0.0801958480923716
5.8175,-0.161522807011006,-0.0707127392048683
5.835,-0.168890854396793,-0.0612023152046766
5.8525,-0.175463315970472,-0.0545953193092676
5.87,-0.185113266629807,-0.0466930464749935
5.8875,-0.193462113675814,-0.0365756800588878
5.905,-0.201219616530953,-0.0250844020057854
5.9225,-0.206622002666443,-0.0125005727843432
5.94,-0.209681432653436,-0.000574983103126432
5.9575,-0.21301259329102,0.00830418972532704
5.975,-0.219579314658146,0.0195738607954481
5.9925,-0.223147790229806,0.0337954330979522
6.01,-0.224302967567265,0.04751611345053
6.0275,-0.224584067400147,0.0593300092957622
6.045,-0.226217629670859,0.0725585124930283
6.0625,-0.224466251984567,0.0860149665521774
6.08,-0.224126232110794,0.0985038204587963
6.0975,-0.221709547786116,0.113538160987055
6.115,-0.217224941977495,0.126755771254457
6.1325,-0.212243599838825,0.139301396717443
6.15,-0.207583543953508,0.151433478229846
6.1675,-0.20095759234848,0.164829966200836
6.185,-0.192969889273381,0.175308624410477
6.2025,-0.186930580782651,0.186060166048513
6.22,-0.1794440938834,0.198955298442835
6.2375,-0.167997388030203,0.211363429338541
6.255,-0.155679656537575,0.219583739759906
6.2725,-0.145272192542957,0.227227543063342
6.29,-0.134656483464736,0.235230148487913
6.3075,-0.123028763971128,0.243649794380655
6.325,-0.109973373062799,0.251308563928327
6.3425,-0.0945359311968673,0.258045959241787
6.36,-0.0790517320763586,0.259404533856556
6.3775,-0.068740256135211,0.261503658098889
6.395,-0.0563200785383478,0.267178287201489
6.4125,-0.0401623399869966,0.272002251072555
6.43,-0.0215677057008665,0.271995347203866
6.4475,-0.00687352474871783,0.268383524922856
6.465,0.00601907414035817,0.265848103745836
6.4825,0.0179724546597387,0.264223770920461
6.5,0.0325565300067054,0.264196871855988
6.5175,0.0499682019640139,0.260208979530494
6.535,0.0662657055931922,0.251485030244715
6.5525,0.0770181504978551,0.241123291957096
6.57,0.0863048840115904,0.235223413208472
6.5875,0.0992154908926483,0.229827180134847
6.605,0.113966697471225,0.220496363192186
6.6225,0.125464506873068,0.20753758484192
6.64,0.134335415340412,0.19497956302865
6.6575,0.140888483362874,0.182878281557074
6.675,0.148239496663175,0.173570146031489
6.6925,0.157946792106379,0.161701403897662
6.71,0.166032009763827,0.146848690514003
6.7275,0.170221127286092,0.130333789735239
6.745,0.171691452379845,0.1172383338167
6.7625,0.175314620267058,0.104746305494197
6.78,0.178444534152852,0.0906736313573089
6.7975,0.180319318021342,0.0752156445795611
6.815,0.179441483306619,0.0598977824798632
6.8325,0.177625347853557,0.0455626503995727
6.85,0.174689424681892,0.0320695516509874
6.8675,0.172245594032962,0.0189046147292466
6.885,0.168263874335863,0.00463919234576952
6.9025,0.162656051016584,-0.00848815067136018
6.92,0.156611846976251,-0.0208281991058151
6.9375,0.150392007697896,-0.0334432293718646
6.955,0.141467279420566,-0.0457305857574855
6.9725,0.1315079213224,-0.0550073608965988
6.99,0.122343142315978,-0.063306581996422
7.0075,0.114013103238724,-0.0712206668472591
7.025,0.10487037012386,-0.0809383620234676
7.0425,0.0928334635152222,-0.089503097650099
7.06,0.0796138251640219,-0.0955500703721834
7.0775,0.0676966520872321,-0.0983476116762555
7.095,0.0585720984260477,-0.102004033994119
7.1125,0.0485407886841339,-0.107870447666934
7.13,0.0348246190962505,-0.113802009959607
7.1475,0.0191572552671374,-0.114910313949721
7.165,0.0064958037358928,-0.112860116722977
7.1825,-0.00281455447307885,-0.111130265515091
7.2,-0.0120622172153512,-0.113114752842834
7.2175,-0.0256603718843441,-0.114531563863105
7.235,-0.0402187216344095,-0.112095922773165
7.2525,-0.0527566163588132,-0.10580803027959
7.27,-0.0606016287806158,-0.10015842395751
7.2875,-0.068863671955152,-0.0977299819614793
7.305,-0.0794853270121235,-0.095705514937451
7.3225,-0.0929040088632059,-0.0908342056486166
7.34,-0.104116664071785,-0.081057281272509
7.3575,-0.110251466822224,-0.0709874173982372
7.375,-0.114391844007135,-0.0653234200541326
7.3925,-0.122965807894409,-0.0616735844696223
7.41,-0.13283157731189,-0.0544716651377168
7.4275,-0.141410192502028,-0.0441199998778337
7.445,-0.145561490357904,-0.0331024107853081
7.4625,-0.148686876106268,-0.0250868465367478
7.48,-0.152657359554991,-0.018279042401114
7.4975,-0.159384200076468,-0.0109037181508065
7.515,-0.164906157200697,0.00076164709361879
7.5325,-0.166793863168218,0.0119779580268245
7.55,-0.16752838355984,0.0215124026226137
7.5675,-0.169353120246679,0.0295624524096073
7.585,-0.171832796216726,0.0396226390762763
7.6025,-0.172201730099736,0.0499838412474789
7.62,-0.172133407910827,0.059645542317796
7.6375,-0.171825597375596,0.0694942161539338
7.655,-0.170216758472672,0.0794884708956468
7.6725,-0.168513262945761,0.0883010234948262
7.69,-0.166390491743832,0.0982221879011602
7.7075,-0.162801292967688,0.106415633892582
7.725,-0.161036828922449,0.114543445083303
7.7425,-0.158493395692015,0.12461602272044
7.76,-0.152948035551011,0.135240482663573
7.7775,-0.145296799396475,0.142026417571005
7.795,-0.140952448983067,0.146902115074515
7.8125,-0.138048077704472,0.153986490308179
7.83,-0.133325810673024,0.164107203920131
7.8475,-0.124428329906767,0.172563796822705
7.865,-0.116041027908722,0.177886832748318
7.8825,-0.108318240173619,0.181772438980682
7.9,-0.103714460616017,0.185606000259729
7.9175,-0.0984287574115164,0.193537274325263
7.935,-0.0884654426437891,0.20170167395296
7.9525,-0.0754729103244035,0.204886630223395
7.97,-0.0673113924506506,0.203619400411411
7.9875,-0.0624042232396356,0.206519452020742
8.005,-0.0545640146830984,0.211476399494593
8.0225,-0.0442027800519963,0.215438657474101
8.04,-0.0324066702438569,0.216714723165656
8.0575,-0.021589313394325,0.214739627642127
8.075,-0.0147995135430794,0.212306941275281
8.0925,-0.00830806470813494,0.213638517342587
8.11,0.00136642239961111,0.215563716024258
8.1275,0.0142153068574547,0.214727353155494
8.145,0.0244625474629109,0.208363849727409
8.1625,0.0303339640138925,0.204501762153173
8.18,0.037960807343997,0.201891450870539
8.1975,0.0458901376481831,0.199299573212219
8.215,0.0555661427997723,0.195130631034569
8.2325,0.0639606557565329,0.188976472016672
8.25,0.0712522271145975,0.181317921180957
8.2675,0.075206925001122,0.174337256125193
8.285,0.081013633406197,0.170014608236677
8.3025,0.0886516742553252,0.16318681080133
8.32,0.0944027105352101,0.1538460583727
8.3375,0.0975840949617186,0.145332466103882
8.355,0.101356934547335,0.137546672506257
8.3725,0.10454037565992,0.128835055292812
8.39,0.106808774550987,0.119723753198229
8.4075,0.107715170425831,0.111372341490694
8.425,0.10980734496663,0.10298802497956
8.4425,0.110008945662399,0.0929098773577089
8.46,0.10921309920531,0.084184430558438
8.4775,0.107793775380534,0.0748313091262222
8.495,0.105033812979076,0.0665483285500666
8.5125,0.102173661263389,0.0591389656940646
8.53,0.100620011202922,0.0521248373997402
8.5475,0.098316115727163,0.0416938436048136
8.565,0.0911614093803961,0.0324530245550779
8.5825,0.0839637683654908,0.0270738468731863
8.6,0.0791749097691182,0.0228687823680525
8.6175,0.0751706478268371,0.0158378485600484
8.635,0.0676227708732602,0.00880806742594631
8.6525,0.0597866397898316,0.00357967006042771
8.67,0.0507007025324071,-0.000813625360696971
8.6875,0.0417230017746478,-0.00269629808432415
8.705,0.0349832756890111,-0.00307638433577421
8.7225,0.0295465407899694,-0.00716950926260672
8.74,0.0182008034139035,-0.0117929389874644
8.7575,0.00599712066005332,-0.010441542315287
8.775,-0.00255129648154118,-0.00705439238524666
8.7925,-0.00923811128419011,-0.00567927455128319
8.81,-0.017935175175514,-0.00457173390359727
8.8275,-0.0261362386477873,-0.00226727021456142
8.845,-0.0357803940724032,2.82163968344934E-05
8.8625,-0.0457527868131449,0.00575751852319053
8.88,-0.0526016534539567,0.0134829259201194
8.8975,-0.056457540278229,0.018735732456442
8.915,-0.0638000252471093,0.021506400260068
8.9325,-0.0731815794706565,0.0290058391502138
8.95,-0.0787056882542445,0.0387728156936354
8.9675,-0.0826209985912438,0.0468928189548563
8.985,-0.0871612390509091,0.0554022626364962
9.0025,-0.0897990340000628,0.0647905084225538
9.02,-0.0923071286005603,0.0721019200076579
9.0375,-0.09706716868613,0.0815042597912258
9.055,-0.0984912226508753,0.0939847885186286
9.0725,-0.0966193752144466,0.103992461843882
9.09,-0.0965569865361052,0.111808865335121
9.1075,-0.0974436885472837,0.122625378199692
9.125,-0.0943025872294824,0.133911843975632
9.1425,-0.0911123088663455,0.142125071799345
9.16,-0.0890592777278088,0.151766858395844
9.1775,-0.0845368417129476,0.163022945809752
9.195,-0.0770574245586929,0.171703659491963
9.2125,-0.071879589389597,0.178162509646453
9.23,-0.0667188987354098,0.187058311481595
9.2475,-0.0592129017345708,0.195251895964431
9.265,-0.0516645098376223,0.202279937031119
9.2825,-0.0437208122227482,0.209934832643372
9.3,-0.0327715399956911,0.216379246261817
9.3175,-0.0234005046406704,0.218836837653499
9.335,-0.016598179133404,0.223590839982522
9.3525,-0.00697249719359628,0.230033574613461
9.37,0.00561677515290107,0.234274101847573
9.3875,0.0171384178595427,0.234809820323342
9.405,0.0269494814517782,0.235996038921011
9.4225,0.0373330640987726,0.236485335654597
9.44,0.0468887877895613,0.237297212599697
9.4575,0.058064478650874,0.238518086353729
9.475,0.0714610267101599,0.237859147506014
9.4925,0.0836756824654206,0.232436473952171
9.51,0.0911250534575132,0.227929226172766
9.5275,0.0997401061740993,0.226490660887259
9.545,0.111406041242481,0.224361793688008
9.5625,0.123548402874016,0.217912871115611
9.58,0.132054776738188,0.210716999535994
9.5975,0.140321859914003,0.20349230849814
9.615,0.146877815823562,0.196587504238498
9.6325,0.154422025883873,0.190320072495844
9.65,0.162371921807937,0.183351937248966
9.6675,0.171177007930214,0.173672647225389
9.685,0.175664906596082,0.162196106953686
9.7025,0.179076691400211,0.153531172174316
9.72,0.18330829246027,0.145287398336475
9.7375,0.188883990308901,0.135727660698267
9.755,0.191926657184508,0.123939857634863
9.7725,0.194029389591076,0.11357854273735
9.79,0.195315293385484,0.101966862185201
9.8075,0.195086053669181,0.0912940525541244
9.825,0.194166589128853,0.0809868837949727
9.8425,0.194084205209953,0.0715852585532821
9.86,0.193413757804278,0.0592150719299164
9.8775,0.189312519521753,0.0477844310599625
9.895,0.184761917861397,0.0377019948680346
9.9125,0.180207585835748,0.0283176630866217
9.93,0.174284311517159,0.0180110640476966
9.9475,0.167343713148583,0.0106811581773116
9.965,0.162733170958842,0.00156082268629543
9.9825,0.153713340038553,-0.0093238467273786
10,0.141509879720836,-0.0165107310138527
