"Freq [GHz]","re(S(Antenna1_1_p1,Antenna1_1_p1)) []","im(S(Antenna1_1_p1,Antenna1_1_p1)) []"
3,0.0877559255030872,-0.094547398500587
3.002,0.0868393166188999,-0.0955984232641278
3.004,0.0859132888577465,-0.096635006011213
3.006,0.0849713969756475,-0.0976612423708325
3.008,0.0840157648127517,-0.0986810532260777
3.01,0.0830510739450145,-0.0996834058668913
3.012,0.0820715849149965,-0.100680645786245
3.014,0.0810800199442069,-0.10166299503184
3.016,0.0800780480443895,-0.102634067656087
3.018,0.0790656231909424,-0.103591533929679
3.02,0.0780398070282935,-0.104537997388505
3.022,0.0769989851938598,-0.105475736558112
3.024,0.0759523363284809,-0.106396954826568
3.026,0.0748913156946175,-0.107307616759792
3.028,0.0738170844476956,-0.108209189896353
3.03,0.0727342183869071,-0.109093423503811
3.032,0.0716393909436373,-0.109968318130385
3.034,0.0705358355773112,-0.11082576662096
3.036,0.0694199872178525,-0.111674964481179
3.038,0.0682931520824368,-0.112508867120575
3.04,0.0671558955971017,-0.113329192318468
3.042,0.066010516367707,-0.114133875430676
3.044,0.06485366889534,-0.114926755925439
3.046,0.0636881614303701,-0.115708238320136
3.048,0.062515628577686,-0.116472971945016
3.05,0.0613323388631692,-0.117222915358454
3.052,0.060134589327658,-0.117958926276905
3.054,0.05893271939095,-0.118680570482739
3.056,0.0577206105117328,-0.119390929904082
3.058,0.0565008635342504,-0.120082397450012
3.06,0.0552740044467762,-0.12076050295534
3.062,0.0540384809215629,-0.121422392155213
3.064,0.0527959358352852,-0.122071095342263
3.066,0.0515454935204716,-0.122702082391894
3.068,0.0502884431810752,-0.123318778688856
3.07,0.0490250975119626,-0.1239216444754
3.072,0.0477555531754154,-0.124506636799382
3.074,0.0464835786027382,-0.125075987183531
3.076,0.0452022299230651,-0.125635281396702
3.078,0.0439098075743133,-0.126172204507342
3.08,0.0426168218332896,-0.126696204677273
3.082,0.0413207412680308,-0.12720453763899
3.084,0.040018749411247,-0.127697311919339
3.086,0.0387117391449667,-0.128174541211467
3.088,0.0374040053714046,-0.128636802718551
3.09,0.0360867026709499,-0.129082477201379
3.092,0.034766854228368,-0.129513273221325
3.094,0.0334474107072107,-0.129927184449158
3.096,0.0321265412314003,-0.130331025195194
3.098,0.0307972576889856,-0.130715839612397
3.1,0.0294626544991464,-0.131085178630416
3.102,0.0281346362593232,-0.13144231868878
3.104,0.0267971022878112,-0.131781411650192
3.106,0.025460172047891,-0.132107346887669
3.108,0.0241267993180803,-0.132420487591213
3.11,0.0227808663659295,-0.132714537393659
3.112,0.0214421627572531,-0.132998309727483
3.114,0.0200948299035584,-0.133264618487164
3.116,0.0187542793297158,-0.133518417265607
3.118,0.0174113766391076,-0.13376282115937
3.12,0.0160625752711886,-0.133987027111144
3.122,0.0147139463495488,-0.134198338147956
3.124,0.0133641205802793,-0.134395009573903
3.126,0.0120158931709858,-0.134580085684957
3.128,0.0106712546588227,-0.134757034010773
3.13,0.0093186303337671,-0.134915290568722
3.132,0.00796724883682008,-0.135055236552102
3.134,0.006615208348784,-0.135193712420731
3.136,0.00526665173412099,-0.135308673799617
3.138,0.00391214112117483,-0.135413304528332
3.14,0.0025611540373765,-0.135512208714134
3.142,0.00121156270544423,-0.13558600849681
3.144,-0.000140518681097784,-0.135653286749205
3.146,-0.00149396360665118,-0.135714349951471
3.148,-0.00284814563913422,-0.135750839133098
3.15,-0.00420085854741211,-0.135780673966622
3.152,-0.00555286364086302,-0.135796347012115
3.154,-0.00690630623780304,-0.13580072154637
3.156,-0.0082602032897732,-0.135791078702885
3.158,-0.00961428468612567,-0.135769514437539
3.16,-0.0109709086807068,-0.135734905507072
3.162,-0.012322807655504,-0.135688659890263
3.164,-0.0136780809874148,-0.13563126172996
3.166,-0.0150314407815991,-0.13555548825877
3.168,-0.0163851321741878,-0.135469820423574
3.17,-0.0177414455085379,-0.135373855652821
3.172,-0.019093645085765,-0.135259176521584
3.174,-0.020451462757402,-0.135135327701355
3.176,-0.0218004922641904,-0.134996956351713
3.178,-0.0231584350275646,-0.134845483075705
3.18,-0.0245061461166719,-0.134680662548031
3.182,-0.0258597939368407,-0.134501388086046
3.184,-0.0272124947002394,-0.134310324975555
3.186,-0.0285621523664488,-0.134105631489073
3.188,-0.0299129157818233,-0.13388567957715
3.19,-0.0312649540489359,-0.133652706263657
3.192,-0.0326135790603117,-0.133406651472912
3.194,-0.0339557418349576,-0.133154766667198
3.196,-0.0353064911740375,-0.132870721188125
3.198,-0.0366474916732961,-0.132583438569317
3.2,-0.0379898406389762,-0.132281246979668
3.202,-0.0393306114793491,-0.131959472350432
3.204,-0.040670049343184,-0.131636159596245
3.206,-0.0420062579723099,-0.131288464683938
3.208,-0.0433352775264999,-0.130931242351886
3.21,-0.0446649010310784,-0.13055965894359
3.212,-0.0459979192812741,-0.130168683830109
3.214,-0.0473183301062763,-0.129768557750142
3.216,-0.0486382752830783,-0.129354591959567
3.218,-0.0499589692639802,-0.128922038709224
3.22,-0.0512714397298896,-0.128480466703405
3.222,-0.0525818155573105,-0.128022639619515
3.224,-0.0538915716451017,-0.127546628463718
3.226,-0.0551940115899182,-0.1270602592918
3.228,-0.0564887810614161,-0.126562761605484
3.23,-0.0577845457422065,-0.126044963500597
3.232,-0.0590689226214913,-0.125522149552815
3.234,-0.0603554309854804,-0.124975942723803
3.236,-0.061634786030483,-0.124418332451759
3.238,-0.0629087001128185,-0.123847113330169
3.24,-0.0641770177383694,-0.123263050000458
3.242,-0.0654405982629061,-0.122661852424793
3.244,-0.0666994319851684,-0.122049049898181
3.246,-0.067950105137613,-0.121428096049628
3.248,-0.0691935335859803,-0.120789196745437
3.25,-0.0704360076594992,-0.120132770571381
3.252,-0.0716655988759234,-0.119474488228133
3.254,-0.0728913553972231,-0.118788801009838
3.256,-0.0741110219820309,-0.118094047626683
3.258,-0.0753238886508637,-0.117388677651605
3.26,-0.076530101045113,-0.116668811653494
3.262,-0.0777286659023309,-0.115935847791253
3.264,-0.0789211926057025,-0.115188857056867
3.266,-0.0801069359733733,-0.114431762338583
3.268,-0.0812812335800425,-0.113659277579569
3.27,-0.0824515256391247,-0.112874619110785
3.272,-0.08361301436963,-0.112076793137056
3.274,-0.0847703294285963,-0.111265854831965
3.276,-0.0859109777751412,-0.110440152895829
3.278,-0.0870488795105944,-0.109607308819619
3.28,-0.0881767561243796,-0.108754825699684
3.282,-0.0892981209577739,-0.107896497191279
3.284,-0.0904084454059423,-0.107017296248745
3.286,-0.0915153195162687,-0.106135156040387
3.288,-0.0926111531365109,-0.105236556984274
3.29,-0.0936970192531762,-0.104325308243023
3.292,-0.0947724204258712,-0.103401393079529
3.294,-0.0958412670127589,-0.102466484685683
3.296,-0.096897996204402,-0.101516840207055
3.298,-0.0979461186339166,-0.100557359361541
3.3,-0.0989845201757852,-0.099583186135977
3.302,-0.100008370256381,-0.0985964242577829
3.304,-0.101029190879041,-0.0976014479214987
3.306,-0.102036029307246,-0.0965919964113946
3.308,-0.103031432280031,-0.0955714324840116
3.31,-0.104018334127283,-0.094538498102678
3.312,-0.104991831037538,-0.0934938122051005
3.314,-0.105952085316702,-0.0924370652808205
3.316,-0.106908223953456,-0.0913704469107823
3.318,-0.107848225842356,-0.0902911340918324
3.32,-0.108775695040418,-0.0891989619122342
3.322,-0.109687287979544,-0.0881005066421902
3.324,-0.110596028494161,-0.0869860000713709
3.326,-0.111486998595844,-0.0858629193934426
3.328,-0.112364939702234,-0.0847282575425907
3.33,-0.113229064189114,-0.0835823730541052
3.332,-0.114080990193303,-0.0824278585418989
3.334,-0.114920563498751,-0.0812619146001291
3.336,-0.115745552718704,-0.0800855066997856
3.338,-0.116554766490147,-0.0789028185722834
3.34,-0.117349416883402,-0.0777061760786442
3.342,-0.118136304029026,-0.0765008121002365
3.344,-0.118904404023499,-0.0752870876878825
3.346,-0.119655948227659,-0.0740632463898703
3.348,-0.120386761671631,-0.0728315965249129
3.35,-0.121116160737474,-0.071594616783955
3.352,-0.121825094019631,-0.0703435729047617
3.354,-0.122518900584032,-0.0690878577908176
3.356,-0.123197158888974,-0.0678236034335962
3.358,-0.123856015906741,-0.0665537566269293
3.36,-0.124504703866048,-0.0652726694768887
3.362,-0.125131247922194,-0.0639888366870171
3.364,-0.125745118974034,-0.0626939489997198
3.366,-0.126345951631697,-0.0613966369833916
3.368,-0.126926916217099,-0.0600925711883128
3.37,-0.127490902393204,-0.0587809217328807
3.372,-0.128041264165098,-0.0574683500122162
3.374,-0.128570087916788,-0.0561498847843404
3.376,-0.129088759911842,-0.0548240497817654
3.378,-0.129585309716772,-0.0534948102835688
3.38,-0.13006792613118,-0.0521624891794595
3.382,-0.130534442995734,-0.0508267834700676
3.384,-0.130984632684887,-0.0494880270788444
3.386,-0.131416466663414,-0.048148114128435
3.388,-0.131834268056689,-0.0467999832551745
3.39,-0.132234162749798,-0.0454509863596831
3.392,-0.132618112744399,-0.0441011845505763
3.394,-0.132985525656402,-0.0427490006517839
3.396,-0.133335951130427,-0.0413954824772036
3.398,-0.133670911304031,-0.0400400665356993
3.4,-0.133989829064788,-0.0386896115408265
3.402,-0.134291347456073,-0.0373328285463012
3.404,-0.134575277952757,-0.0359748377701835
3.406,-0.134850252310559,-0.0346177536159242
3.408,-0.135104180106136,-0.03325949547105
3.41,-0.135343597898874,-0.0318998476778889
3.412,-0.135567742604813,-0.0305425640182155
3.414,-0.135776345026388,-0.0291867633520991
3.416,-0.13596896073725,-0.0278312561169436
3.418,-0.136146898756892,-0.0264776742196081
3.42,-0.136310329841708,-0.0251254184304765
3.422,-0.136460774326625,-0.0237773010807805
3.424,-0.136594183825767,-0.022428364172063
3.426,-0.136711394963608,-0.0210758199937225
3.428,-0.136815978692679,-0.0197322011996846
3.43,-0.136905606911331,-0.0183886959061962
3.432,-0.136982052502848,-0.0170477330206924
3.434,-0.137044118699269,-0.0157090786448036
3.436,-0.137092764509043,-0.0143731850534868
3.438,-0.137126586366947,-0.0130399638552454
3.44,-0.137150806199415,-0.0117121134885102
3.442,-0.137157325206355,-0.0103850106530755
3.444,-0.137148375629052,-0.0090585569107369
3.446,-0.137128685839674,-0.00773678545698661
3.448,-0.137096738565494,-0.0064202679908652
3.45,-0.137051854139051,-0.00510602528694775
3.452,-0.136997578823694,-0.00379694394442222
3.454,-0.136923584724679,-0.00248815357034643
3.456,-0.136839719187962,-0.00118503667898083
3.458,-0.136744711338186,0.00011416262967506
3.46,-0.136636476199275,0.00141009033430837
3.462,-0.13651613367454,0.00270127472947019
3.464,-0.136384846293315,0.00398880215971692
3.466,-0.13623857755834,0.00527196882554004
3.468,-0.136084941005409,0.00654956106920474
3.47,-0.13591550480082,0.0078253094594226
3.472,-0.135735533370017,0.00909473522787292
3.474,-0.13554415333023,0.0103614216646166
3.476,-0.135349790147726,0.0116182566232116
3.478,-0.135127416978346,0.0128794583163468
3.48,-0.134902553699348,0.0141321154964556
3.482,-0.134666053614777,0.0153791968983513
3.484,-0.134417687806991,0.0166226969613373
3.486,-0.134159726914362,0.0178607411543406
3.488,-0.133889877997227,0.0190937319082411
3.49,-0.133610127171493,0.0203217693848574
3.492,-0.133317860238232,0.0215467572870897
3.494,-0.133020148533395,0.0227657896127793
3.496,-0.132705730241865,0.023976395283463
3.498,-0.132384881843101,0.0251872028070831
3.5,-0.132051972469696,0.0263905999067316
3.502,-0.131707291728824,0.0275847112517651
3.504,-0.131354323317503,0.0287766894220738
3.506,-0.130988976622821,0.0299637538399141
3.508,-0.130619665620933,0.0311482673766342
3.51,-0.130235951702048,0.0323233053140722
3.512,-0.129843279083218,0.0334941727754368
3.514,-0.129437190606046,0.0346541413668
3.516,-0.129028070897291,0.0358171129184418
3.518,-0.128603536137324,0.0369670249452631
3.52,-0.128179080794516,0.0381179289454274
3.522,-0.127732568052488,0.0392561958903914
3.524,-0.12728378785027,0.0403920697713149
3.526,-0.126826060642351,0.0415224121972455
3.528,-0.126360911707635,0.0426519472052167
3.53,-0.125881989609279,0.0437659919900345
3.532,-0.125395413243472,0.0448791472896362
3.534,-0.124904236710063,0.0459906846667984
3.536,-0.124400429600135,0.0470881250058535
3.538,-0.123886934161494,0.048182830278804
3.54,-0.12336567367802,0.0492724445812222
3.542,-0.122837940136001,0.0503563606230213
3.544,-0.12230172338931,0.0514356442402127
3.546,-0.12175422420755,0.0525060591087896
3.548,-0.121199792444099,0.0535778566934344
3.55,-0.120636642717867,0.0546317816681438
3.552,-0.120065497976099,0.0556860504019516
3.554,-0.119486271843278,0.0567353377036826
3.556,-0.118898775292074,0.0577780431419487
3.558,-0.118302158803516,0.0588144028314887
3.56,-0.117694704344494,0.0598640486960024
3.562,-0.117085355132787,0.0608698210707256
3.564,-0.116465071092137,0.0618881642267101
3.566,-0.115836113568882,0.0629013309456854
3.568,-0.11519856126027,0.0639078968832709
3.57,-0.114553600554769,0.0649085373812099
3.572,-0.113900362820801,0.0659030781153531
3.574,-0.113238900949228,0.0668917272785179
3.576,-0.112568400816673,0.0678735607361303
3.578,-0.111887698646198,0.068856040779669
3.58,-0.111205165971555,0.0698205572809463
3.582,-0.110507535124355,0.0707910529601691
3.584,-0.109807771121327,0.071740360898838
3.586,-0.109093342219517,0.0726956512244247
3.588,-0.108375019204913,0.0736408349948896
3.59,-0.107647681429879,0.0745792136199944
3.592,-0.106911460333091,0.0755094432874159
3.594,-0.106168295694882,0.0764331098576786
3.596,-0.105414916853121,0.0773557860928876
3.598,-0.104655446481076,0.0782644974683024
3.6,-0.103886361179898,0.0791679558436428
3.602,-0.103108745861216,0.080069480534311
3.604,-0.102324507677354,0.0809571365853087
3.606,-0.101531136781902,0.0818394181950682
3.608,-0.100729284854751,0.0827165156770054
3.61,-0.0999189246092481,0.0835850643799266
3.612,-0.0990991769561813,0.0844469305222414
3.614,-0.09827207583283,0.0853007471699679
3.616,-0.0974371975754138,0.0861467393945591
3.618,-0.0965959461818556,0.086981331408439
3.62,-0.0957425399310832,0.0878127731120458
3.622,-0.0948827556266115,0.0886347421377597
3.624,-0.0940169951213408,0.0894447160329854
3.626,-0.0931411812935196,0.0902483984100147
3.628,-0.0922579541158849,0.0910418533029085
3.63,-0.0913662685949032,0.0918296409436693
3.632,-0.0904652297963401,0.0926095774664583
3.634,-0.0895577535827142,0.0933774219796071
3.636,-0.0886428298050088,0.0941360594913139
3.638,-0.087719683604026,0.0948863118520041
3.64,-0.0867888423148427,0.0956265105395675
3.642,-0.0858483522071157,0.0963565868457043
3.644,-0.0849025388556463,0.0970774103825958
3.646,-0.0839519581680528,0.0977889441662065
3.648,-0.0829935191664769,0.0984882712201645
3.65,-0.0820259908443152,0.0991793801239599
3.652,-0.0810524800729752,0.099858024331108
3.654,-0.0800717056336551,0.100527473542648
3.656,-0.0790846997211943,0.101186619550021
3.658,-0.0780895809189053,0.101833431532778
3.66,-0.0770896340154804,0.102470663886767
3.662,-0.0760834984089445,0.10309712238054
3.664,-0.0750712768236043,0.103711535920047
3.666,-0.0740514500220947,0.104314662781891
3.668,-0.0730290730664271,0.104906029891592
3.67,-0.0719988938741147,0.105487185790407
3.672,-0.0709635957733519,0.106055543874768
3.674,-0.0699214109331932,0.106612241024469
3.676,-0.0688780896028499,0.107157848875703
3.678,-0.0678277534550144,0.107691481437989
3.68,-0.0667724238542285,0.108212999280018
3.682,-0.0657133376592316,0.108722150116047
3.684,-0.0646494162068687,0.109220152485262
3.686,-0.0635820537641483,0.109704993484465
3.688,-0.062509356767782,0.110178205525655
3.69,-0.0614289289005625,0.110638546522786
3.692,-0.0603541677715549,0.111088480311721
3.694,-0.059272359728015,0.111525302618841
3.696,-0.0581860460337013,0.111948633067746
3.698,-0.0570925780748635,0.112358331147944
3.7,-0.056005238435304,0.11276041764173
3.702,-0.0549100434033052,0.113146253031323
3.704,-0.0538130953206483,0.113520404486224
3.706,-0.0527138892503189,0.113880316466818
3.708,-0.0516119890042834,0.114230515448136
3.71,-0.0505089973996514,0.1145685919792
3.712,-0.0494039937822272,0.114893136998076
3.714,-0.048296923961579,0.115203236459918
3.716,-0.0471883230656147,0.115503377078281
3.718,-0.0460785108724621,0.115789779812769
3.72,-0.0449682764690527,0.116064055588834
3.722,-0.0438562590761388,0.116324247091907
3.724,-0.042745010564809,0.116575086994697
3.726,-0.0416328142616882,0.116811067445429
3.728,-0.0405166912501552,0.117037205654823
3.73,-0.0394061690828279,0.117247073419062
3.732,-0.0382896103941063,0.117446485705342
3.734,-0.0371796902051025,0.117634289602959
3.736,-0.0360644896803123,0.117809156285801
3.738,-0.0349548730685759,0.117970480643592
3.74,-0.0338431666983667,0.118119377397037
3.742,-0.0327325677174766,0.11825614100579
3.744,-0.031623144581005,0.1183834067821
3.746,-0.0305143083730577,0.118495010272193
3.748,-0.0294054853106832,0.11859694212477
3.75,-0.028301993358517,0.118686388591633
3.752,-0.0271971877051924,0.118761738851267
3.754,-0.0260958149690863,0.118827525705828
3.756,-0.0249949132691003,0.118879200579686
3.758,-0.0238984420664503,0.118921170126418
3.76,-0.0228036796696652,0.118951416170321
3.762,-0.0217090931418571,0.118965910173426
3.764,-0.0206193941562565,0.118971741866289
3.766,-0.0195324280627317,0.118968162587277
3.768,-0.0184476428046991,0.118948654802551
3.77,-0.0173676163545739,0.118921789960164
3.772,-0.0162880421243708,0.118879082372922
3.774,-0.0152147835541069,0.118827389895795
3.776,-0.0141441528150638,0.118764542784483
3.778,-0.0130779581442697,0.118691529989611
3.78,-0.0120139750400254,0.118605368747547
3.782,-0.0109566924379656,0.118509305805685
3.784,-0.0099005127810603,0.118401746962162
3.786,-0.00884998335044622,0.11828417802901
3.788,-0.00780494354441815,0.118157622259973
3.79,-0.00676220563184551,0.118015289038065
3.792,-0.00572813461404067,0.117869651628654
3.794,-0.00469587832666233,0.117707826384147
3.796,-0.00367158643518129,0.117541245416183
3.798,-0.00264882930226688,0.117357850947206
3.8,-0.00163502814274677,0.117172350049477
3.802,-0.00062562042519079,0.116974385432491
3.804,0.000380975928735967,0.116761514112954
3.806,0.00137737515607551,0.116548660255785
3.808,0.00237038463985254,0.116320342579484
3.81,0.00335647531894977,0.116085934716063
3.812,0.00433821877038295,0.11583994147469
3.814,0.00531313086229017,0.115585850809732
3.816,0.00628297806297176,0.115319528775037
3.818,0.00724517160048423,0.115052434720796
3.82,0.00820104047267112,0.114773126783297
3.822,0.00915112809955717,0.114481519949444
3.824,0.0100939372103409,0.114187644642741
3.826,0.0110328797777711,0.113887807417083
3.828,0.0119634575777591,0.113572700058835
3.83,0.0128868600674134,0.113253636535872
3.832,0.0138038928343344,0.11292778974153
3.834,0.014715874145921,0.112594327449142
3.836,0.0156197290978614,0.112257871230843
3.838,0.0165173697361229,0.111906264574397
3.84,0.0174090584073799,0.111555714486122
3.842,0.0182930147943272,0.111194530875349
3.844,0.0191706343045687,0.110828767350906
3.846,0.020041574074973,0.110453641685742
3.848,0.020904395808673,0.110069712701713
3.85,0.0217622564161855,0.109684378280536
3.852,0.022613365075759,0.10929204116917
3.854,0.0234622114810963,0.108891881707713
3.856,0.0242955988625614,0.108490501176351
3.858,0.0251291831724444,0.108084378381937
3.86,0.025953577662577,0.107668459629843
3.862,0.0267703330710504,0.10724603305866
3.864,0.0275848235845784,0.106816671906921
3.866,0.0283856945425071,0.106388829726913
3.868,0.0291883666303446,0.105949213363243
3.87,0.0299788541381121,0.105513962437322
3.872,0.0307660284844653,0.105061666673582
3.874,0.0315450886084071,0.104615585996494
3.876,0.0323159535338539,0.104158755081667
3.878,0.0330861708320417,0.10370049695973
3.88,0.0338485280270052,0.103235706021495
3.882,0.0346020019414498,0.102765687918216
3.884,0.0353472679880119,0.102289555534139
3.886,0.0360926702293843,0.101811979781321
3.888,0.0368239850865074,0.101326966868179
3.89,0.0375560328960879,0.100834215699116
3.892,0.0382775508456088,0.100346749554854
3.894,0.0390005715768607,0.099850224000431
3.896,0.0397073266610541,0.09934897340718
3.898,0.0404174663179694,0.0988442421213227
3.9,0.0411128477961106,0.098333339798921
3.902,0.0418064778050812,0.0978213934367452
