"Freq [GHz]","re(S(Antenna1_1_p1,Antenna1_1_p1)) []","im(S(Antenna1_1_p1,Antenna1_1_p1)) []"
3,0.0961999576343872,-0.099300231999587
3.002,0.0950889152929999,-0.100704435392128
3.004,0.0939519251089265,-0.102082070385213
3.006,0.0927999583615175,-0.103443624240833
3.008,0.0915961533640517,-0.104789981429078
3.01,0.0903934568812745,-0.106110527783891
3.012,0.0891420401699965,-0.107411972487245
3.014,0.0878711149547069,-0.10869030701684
3.016,0.0865772850621895,-0.109941581306087
3.018,0.0852589523942424,-0.111165669141679
3.02,0.0839274685553935,-0.112377311817505
3.022,0.0825436252656598,-0.113545036404112
3.024,0.0811674960253809,-0.114698734184568
3.026,0.0797675640551175,-0.115826969693792
3.028,0.0783333526075956,-0.116925359824353
3.03,0.0768968219987071,-0.117989242881811
3.032,0.0754345297286373,-0.119032744601385
3.034,0.0739562852560112,-0.12004609963926
3.036,0.0724494519071525,-0.121027630964279
3.038,0.0709452816214368,-0.121981642125175
3.04,0.0694134898937017,-0.122899785837268
3.042,0.067882188832807,-0.123796412071676
3.044,0.06632443159534,-0.124658046084039
3.046,0.0647581696013701,-0.125490423722736
3.048,0.063184492813086,-0.126288859496616
3.05,0.0616041908666692,-0.127057833502254
3.052,0.060006540156758,-0.127798013680705
3.054,0.05840105256855,-0.128503750433839
3.056,0.0567844498901328,-0.129178099060182
3.058,0.0551770636766504,-0.129823930100212
3.06,0.0535454393459762,-0.13042881118134
3.062,0.0519433177405629,-0.131023314612313
3.064,0.0503072657742852,-0.131569395557263
3.066,0.0486744420784716,-0.132091989782194
3.068,0.0470467850880752,-0.132585274862156
3.07,0.0454106584699626,-0.1330458409219
3.072,0.0437803868814154,-0.133476486286082
3.074,0.0421510319457382,-0.133871505727131
3.076,0.0405200541480651,-0.134250612569602
3.078,0.0389020632703133,-0.134595321061142
3.08,0.0372742807062896,-0.134905335589073
3.082,0.0356601547100308,-0.13518428337249
3.084,0.034039324759247,-0.135446612378999
3.086,0.0324371307859667,-0.135673970724127
3.088,0.0308365885324046,-0.135899776190151
3.09,0.0292376276119499,-0.136070382554669
3.092,0.027655894107368,-0.136221348139825
3.094,0.0260693186442107,-0.136353879199958
3.096,0.0245087597504003,-0.136457275442094
3.098,0.0229535912379856,-0.136536275788897
3.1,0.0213956236371464,-0.136593456397316
3.102,0.0198563538113232,-0.13662130757908
3.104,0.0183221365348112,-0.136639304110592
3.106,0.016805475443891,-0.136628700813469
3.108,0.0153024421470803,-0.136593656717813
3.11,0.0138036313199295,-0.136550170416959
3.112,0.0123202693782531,-0.136477310957783
3.114,0.0108454652155584,-0.136379405135964
3.116,0.0093897628617158,-0.136278275183707
3.118,0.0079465515648076,-0.13615581605027
3.12,0.0065055744401886,-0.136020688754144
3.122,0.0050906857798488,-0.135858798623256
3.124,0.0036843435618793,-0.135679015939703
3.126,0.0022840610302858,-0.135486703783957
3.128,0.000901932704922701,-0.135276636409173
3.13,-0.000456514218232899,-0.135060924313522
3.132,-0.00181040531667992,-0.134831697166102
3.134,-0.003151319180716,-0.134589882500731
3.136,-0.00446898609247901,-0.134323247750617
3.138,-0.00578385718482517,-0.134057058109332
3.14,-0.0070688229599235,-0.133781557253134
3.142,-0.00836352398865577,-0.13348441817781
3.144,-0.00963064936769778,-0.133170367285205
3.146,-0.0108842988924512,-0.132861070613471
3.148,-0.0121262664446342,-0.132549890605098
3.15,-0.0133585905887121,-0.132215488630622
3.152,-0.014575416612063,-0.131890905179115
3.154,-0.015773388108823,-0.13154253691937
3.156,-0.0169764763475792,-0.131185570686885
3.158,-0.0181451444957657,-0.130825193984539
3.16,-0.0193063439878068,-0.130462114890072
3.162,-0.020453058611004,-0.130101254672263
3.164,-0.0215962374342148,-0.12971550493596
3.166,-0.0227247104491991,-0.12933885873777
3.168,-0.0238430846857878,-0.128950665293574
3.17,-0.0249444663567379,-0.128561084982821
3.172,-0.026032012364365,-0.128180860968584
3.174,-0.027117604632902,-0.127774281097355
3.176,-0.0281904110645904,-0.127386045399713
3.178,-0.0292456542785646,-0.126976331529705
3.18,-0.0302965441863719,-0.126572066494031
3.182,-0.0313398371573407,-0.126175349513046
3.184,-0.0323663175906394,-0.125756155114555
3.186,-0.0333861734370488,-0.125350750165373
3.188,-0.0343980307865233,-0.12494804935675
3.19,-0.0354048491854359,-0.124534812632557
3.192,-0.0363983368456117,-0.124119481628312
3.194,-0.0373849257180576,-0.123718757131998
3.196,-0.0383634597594375,-0.123292384176725
3.198,-0.0393265550962961,-0.122885691208217
3.2,-0.0403135261609762,-0.122475651048068
3.202,-0.0412617646273491,-0.122068684286932
3.204,-0.042211388989384,-0.121657207797445
3.206,-0.0431549325915599,-0.121242250057038
3.208,-0.0440998009934999,-0.120830679010586
3.21,-0.0450372464081784,-0.12043261321289
3.212,-0.0459660933592741,-0.120022699501009
3.214,-0.0468948149462763,-0.119621816706442
3.216,-0.0478266738350783,-0.119222841897167
3.218,-0.0487375694619802,-0.118813037789524
3.22,-0.0496633826528896,-0.118417127430005
3.222,-0.0505776057233105,-0.118021100126815
3.224,-0.0515040511191017,-0.117616273731418
3.226,-0.0524112894659182,-0.11721858364585
3.228,-0.0533334451504161,-0.116835663970954
3.23,-0.0542457056082065,-0.116437051417507
3.232,-0.0551479428164913,-0.116049463393175
3.234,-0.0560593931574804,-0.115656246462403
3.236,-0.056970921424483,-0.115259869378159
3.238,-0.0578836982578185,-0.114875366550569
3.24,-0.0588038021793694,-0.114482486516458
3.242,-0.0597207951039061,-0.114093786537793
3.244,-0.0606434477151684,-0.113707473728981
3.246,-0.061559991041613,-0.113308293119128
3.248,-0.0624928207079803,-0.112932649263137
3.25,-0.0634147714164992,-0.112522869194781
3.252,-0.0643645921759234,-0.112136791549633
3.254,-0.0652985634312231,-0.111742606927938
3.256,-0.0662339913420309,-0.111348414900383
3.258,-0.0671793926708637,-0.110944575467805
3.26,-0.068127905367013,-0.110546036818794
3.262,-0.0690895696662309,-0.110142893327253
3.264,-0.0700535045631025,-0.109730370589867
3.266,-0.0710211846171733,-0.109317422491483
3.268,-0.0720002318188425,-0.108886966268469
3.27,-0.0729721981309247,-0.108474776408985
3.272,-0.07397336528403,-0.108050859027156
3.274,-0.0749669944405963,-0.107618214314265
3.276,-0.0759704591817412,-0.107177119472829
3.278,-0.0769800384077944,-0.106731721073619
3.28,-0.0779956543485796,-0.106275239441684
3.282,-0.0790199544534739,-0.105813319851179
3.284,-0.0800501487011423,-0.105339185562345
3.286,-0.0810819338390687,-0.104853799908387
3.288,-0.0821255119528109,-0.104364783195974
3.29,-0.0831886959949762,-0.103866846458023
3.292,-0.0842402077839712,-0.103340277671529
3.294,-0.0853065238624589,-0.102825801805683
3.296,-0.086368539335602,-0.102286162844055
3.298,-0.0874542196990166,-0.101728940024541
3.3,-0.0885341395064852,-0.101168901170977
3.302,-0.089622753537401,-0.100589160556783
3.304,-0.090712443513971,-0.0999991717424987
3.306,-0.091824226798186,-0.0993912918973946
3.308,-0.092930023908481,-0.0987711015410116
3.31,-0.094037993371183,-0.098130471551678
3.312,-0.095148243041738,-0.0974809612261005
3.314,-0.096269930823602,-0.0968082800998205
3.316,-0.097386770267956,-0.0961023812627823
3.318,-0.098510007675156,-0.0954004952628324
3.32,-0.099649739791918,-0.0946739459332342
3.322,-0.100774386420244,-0.0939350946441902
3.324,-0.101898522386161,-0.0931652247453709
3.326,-0.103033839873144,-0.0923792658884426
3.328,-0.104162079410334,-0.0915728856215907
3.33,-0.105287080518514,-0.0907423555981052
3.332,-0.106425510309803,-0.0899069858838989
3.334,-0.107558198437151,-0.0890274855561291
3.336,-0.108684268541604,-0.0881398597367856
3.338,-0.109814559198247,-0.0872270503632834
3.34,-0.110926469951002,-0.0862860281831442
3.342,-0.112047425306126,-0.0853360122546365
3.344,-0.113158794214499,-0.0843598841074825
3.346,-0.114260928657659,-0.0833719507345703
3.348,-0.115363064019631,-0.0823341028557129
3.35,-0.116460681098474,-0.081294580051455
3.352,-0.117545914408631,-0.0802393817518617
3.354,-0.118603976944032,-0.0791357303304176
3.356,-0.119683720534974,-0.0780215286628962
3.358,-0.120740870469741,-0.0768867213363293
3.36,-0.121787001908048,-0.0757278609179887
3.362,-0.122830238495994,-0.0745508788844171
3.364,-0.123848115419734,-0.0733455566005198
3.366,-0.124858301342297,-0.0721241676286916
3.368,-0.125858692394099,-0.0708847021180128
3.37,-0.126836752878804,-0.0696070264334807
3.372,-0.127811082731098,-0.0683316442653162
3.374,-0.128752181035788,-0.0670060456483304
3.376,-0.129699177123842,-0.0656846668013154
3.378,-0.130620816541772,-0.0643294757265588
3.38,-0.13151856952918,-0.0629495817493595
3.382,-0.132391878605734,-0.0615625829876676
3.384,-0.133270180489887,-0.0601510534117444
3.386,-0.134113460841414,-0.058726731343935
3.388,-0.134931713470689,-0.0572698630784745
3.39,-0.135751662899798,-0.0558064558833831
3.392,-0.136527515798399,-0.0543091364434763
3.394,-0.137295701578402,-0.0528078533913839
3.396,-0.138035818623427,-0.0512865415317036
3.398,-0.138755218739031,-0.0497661364441993
3.4,-0.139449436129788,-0.0482022646451265
3.402,-0.140111667076073,-0.0466272151976012
3.404,-0.140767738639757,-0.0450424123720835
3.406,-0.141383513694559,-0.0434601787039242
3.408,-0.141987074719336,-0.04184587439305
3.41,-0.142550525351074,-0.0402174621906889
3.412,-0.143102644355713,-0.0385776797632155
3.414,-0.143614259986788,-0.0369364893120991
3.416,-0.14410732986485,-0.0352744528119436
3.418,-0.144577282896692,-0.0336032720876081
3.42,-0.145005460011408,-0.0319373984894765
3.422,-0.145422073027225,-0.0302405544237805
3.424,-0.145811333800167,-0.028546207491063
3.426,-0.146166008988508,-0.0268412487027225
3.428,-0.146497712810079,-0.0251292832076846
3.43,-0.146784601708331,-0.0234095460111962
3.432,-0.147059935536248,-0.0216904375866924
3.434,-0.147302571632069,-0.0199654805898036
3.436,-0.147515714964843,-0.0182347469644868
3.438,-0.147699068526747,-0.0164954052152454
3.44,-0.147848149825315,-0.0147703439985102
3.442,-0.147982284115395,-0.0130139532760755
3.444,-0.148071253211002,-0.0112761637506369
3.446,-0.148136706026934,-0.00953231374768661
3.448,-0.148176413550294,-0.0077893437685152
3.45,-0.148185598991751,-0.00605497282594775
3.452,-0.148168368016694,-0.00429970524042222
3.454,-0.148109939756179,-0.00257381298334643
3.456,-0.148037052617762,-0.00083422656298083
3.458,-0.147922424726086,0.00089256716667506
3.46,-0.147788525963375,0.00262162986930837
3.462,-0.14761196127974,0.00434270860647019
3.464,-0.147424060243315,0.00605885563271692
3.466,-0.14719700449024,0.00776367472154004
3.468,-0.146943318344509,0.00947218986020474
3.47,-0.14667168412762,0.0111532617134226
3.472,-0.146355690889117,0.0128527709078729
3.474,-0.14602335677993,0.0145264265826166
3.476,-0.145663743568626,0.0161822234933116
3.478,-0.145268902039446,0.0178324509693468
3.48,-0.144862033666248,0.0194835001527556
3.482,-0.144408657676277,0.0211208359830513
3.484,-0.143943640245791,0.0227328344188373
3.486,-0.143446863711562,0.0243504839213406
3.488,-0.142937563199227,0.0259317726177411
3.49,-0.142389156981493,0.0275089066463574
3.492,-0.141821936415232,0.0290713242376897
3.494,-0.141229486333395,0.0306233061232793
3.496,-0.140620854965865,0.032149005219463
3.498,-0.139982682583101,0.0336661511288831
3.5,-0.139323980796696,0.0351584104699316
3.502,-0.138639499126824,0.0366367732779651
3.504,-0.137939709135503,0.0380960372723738
3.506,-0.137218080911821,0.0395384940375141
3.508,-0.136477642919933,0.0409655010004342
3.51,-0.135711201542048,0.0423652589694722
3.512,-0.134939227528218,0.0437529644836368
3.514,-0.134136440090046,0.0451109329099
3.516,-0.133325132238291,0.0464490340842318
3.518,-0.132489809906324,0.0477708941635331
3.52,-0.131644353441516,0.0490663152273474
3.522,-0.130775090577488,0.0503497098194514
3.524,-0.12989486434727,0.0515996516992149
3.526,-0.129016174052751,0.0528355105328455
3.528,-0.128111615057335,0.0540413325444167
3.53,-0.127186531125779,0.0552243562867345
3.532,-0.126259503698872,0.0563931404620362
3.534,-0.125320279171763,0.0575421870724984
3.536,-0.124371102898135,0.0586612662405535
3.538,-0.123419564573494,0.059754411909104
3.54,-0.12244823331202,0.0608230118814222
3.542,-0.121471660182001,0.0618690759510213
3.544,-0.12048208152931,0.0629054665812127
3.546,-0.11950661114055,0.0638994648245896
3.548,-0.118508642096099,0.0648793400522344
3.55,-0.117502116837067,0.0658448198628438
3.552,-0.116489450852199,0.0667717149515516
3.554,-0.115488816370678,0.0676761930486826
3.556,-0.114485290369874,0.0685693447152487
3.558,-0.113466720164016,0.0694394374362887
3.56,-0.112451187467794,0.0702857361510024
3.562,-0.111433501909887,0.0711024326247256
3.564,-0.110406004189437,0.0719038246657101
3.566,-0.109389618559482,0.0726813917926854
3.568,-0.10838116441027,0.0734396014102709
3.57,-0.107359583750569,0.0741786081782099
3.572,-0.106351081872901,0.0748896572153531
3.574,-0.105337034873728,0.0755881499815179
3.576,-0.104335363596573,0.0762631988611303
3.578,-0.103333444653098,0.076920030145669
3.58,-0.102331496373155,0.0775644671879463
3.582,-0.101338351080755,0.0781864048571691
3.584,-0.100352734444027,0.078785327347838
3.586,-0.099370750178117,0.0793705035184247
3.588,-0.098388925137043,0.0799360054798896
3.59,-0.097428121679549,0.0804793441139944
3.592,-0.096463046589871,0.0810115597724159
3.594,-0.095506558321522,0.0815290485246786
3.596,-0.094562233683021,0.0820320294858876
3.598,-0.093618047681576,0.0825326874253024
3.6,-0.092684716766798,0.0830050016416428
3.602,-0.091760114024316,0.083463762626311
3.604,-0.090844683819454,0.0839206490473087
3.606,-0.089954334310802,0.0843538952420682
3.608,-0.089038363933851,0.0847857974922054
3.61,-0.0881528857245481,0.0851954818627266
3.612,-0.0872740510328813,0.0856097952957814
3.614,-0.08641404389643,0.0860001997991679
3.616,-0.0855509612139138,0.0863904272521591
3.618,-0.0847010742387556,0.086758545078539
3.62,-0.0838710148825832,0.0871306376399458
3.622,-0.0830243808488115,0.0874963931505597
3.624,-0.0822137756661408,0.0878453942879854
3.626,-0.0814046259621196,0.0881953188775147
3.628,-0.0806064431366849,0.0885363922198085
3.63,-0.0798123705557032,0.0888784845333693
3.632,-0.0790314768345401,0.0892116906138583
3.634,-0.0782640935316142,0.0895426919362071
3.636,-0.0775069306220088,0.0898651542295139
3.638,-0.076754875560026,0.0901915647798041
3.64,-0.0759948851108427,0.0905124473065675
3.642,-0.0752734455271157,0.0908223267761043
3.644,-0.0745338725506463,0.0911281716836958
3.646,-0.0738232630730528,0.0914503363456065
3.648,-0.0730923974724769,0.0917615471968645
3.65,-0.0724025477963152,0.0920830274068599
3.652,-0.0717021968229752,0.092389279145808
3.654,-0.0710161027096551,0.092700816603948
3.656,-0.0703252953511943,0.093014932738621
3.658,-0.0696462001349053,0.093323478738148
3.66,-0.0689905346214804,0.093645336363507
3.662,-0.0683177268839445,0.093963915193842
3.664,-0.0676614701366043,0.094284590067797
3.666,-0.0670085310700947,0.094606934120651
3.668,-0.0663673296604271,0.094929140655292
3.67,-0.0657314436261147,0.095272145847007
3.672,-0.0650908095883519,0.095603389783068
3.674,-0.0644468715881932,0.095939901821169
3.676,-0.0638163526248499,0.096283062431703
3.678,-0.0631902271060144,0.096632832410789
3.68,-0.0625547025752285,0.096974285997218
3.682,-0.0619283415643316,0.097326179579147
3.684,-0.0613045970389687,0.097682596070662
3.686,-0.0606777718101483,0.098046739178165
3.688,-0.060052590012882,0.098418286646555
3.69,-0.0594279749118625,0.098784299135286
3.692,-0.0588069278293549,0.099186256274221
3.694,-0.058179625959915,0.099558705039341
3.696,-0.0575489752375013,0.099944176988246
3.698,-0.0569201006406635,0.100321130165544
3.7,-0.056289700220104,0.10073451816803
3.702,-0.0556505445967052,0.101133863329723
3.704,-0.0550140873363483,0.101544073016724
3.706,-0.0543785475210189,0.101947821551918
3.708,-0.0537240641119834,0.102377276149536
3.71,-0.0530781754402514,0.1027916319195
3.712,-0.0524151588871272,0.103224742441676
3.714,-0.051747611329879,0.103665341569918
3.716,-0.0510881336324147,0.104093838385981
3.718,-0.0504102738271621,0.104524284963269
3.72,-0.0497249854229527,0.104975424190434
3.722,-0.0490351763770388,0.105419179840807
3.724,-0.048333377060209,0.105881044691697
3.726,-0.0476285468969882,0.106337254466529
3.728,-0.0469148456529552,0.106776240047823
3.73,-0.0461979971521279,0.107233025267062
3.732,-0.0454629857175063,0.107691968304342
3.734,-0.0447097330226625,0.108163152484959
3.736,-0.0439574590774823,0.108628327774801
3.738,-0.0431979338399859,0.109097845584592
3.74,-0.0424177429352767,0.109560285507037
3.742,-0.0416319794775766,0.11002552064779
3.744,-0.040821520460405,0.1104937306103
3.746,-0.0400328894368577,0.110960567183493
3.748,-0.0391930307699832,0.11143550416737
3.75,-0.038365400040317,0.111895959427433
3.752,-0.0375145433044924,0.112354411333967
3.754,-0.0366522629189863,0.112824529569228
3.756,-0.0357768235700003,0.113274423261486
3.758,-0.0348961061824503,0.113722544127918
3.76,-0.0340024911870652,0.114163129369421
3.762,-0.0330766721286571,0.114621106039226
3.764,-0.0321589860744565,0.115050803050489
3.766,-0.0312083583026317,0.115489633675677
3.768,-0.0302530641408991,0.115915921137851
3.77,-0.0292850856252739,0.116347518737864
3.772,-0.0283058670289708,0.116760866020422
3.774,-0.0273173735514069,0.117155096998195
3.776,-0.0263062477073638,0.117558049153083
3.778,-0.0252791216362697,0.117957034244891
3.78,-0.0242377896516254,0.118345950890347
3.782,-0.0231839872305656,0.118708061423185
3.784,-0.0221256700835603,0.119070596177062
3.786,-0.0210500084242462,0.11942380686331
3.788,-0.0199605593594182,0.119753139401673
3.79,-0.0188518070991455,0.120088273884565
3.792,-0.0177341235170407,0.120402426471754
3.794,-0.0166060417906623,0.120693208218247
3.796,-0.0154715409520813,0.120988123825083
3.798,-0.0143053092585669,0.121250452720006
3.8,-0.0131436375834468,0.121504045418077
3.802,-0.0119594847070908,0.121761131540191
3.804,-0.010776774078064,0.121982302985454
3.806,-0.00956628373242449,0.122187790655585
3.808,-0.00836119372014746,0.122383203721074
3.81,-0.00714231086275023,0.122553173672413
3.812,-0.00591300527901705,0.122706813105143
3.814,-0.00466345672990983,0.122846901497862
3.816,-0.00341917399962824,0.122956863073147
3.818,-0.00215847472581577,0.123059964602396
3.82,-0.000885939389928881,0.123142141085597
3.822,0.000379056038257171,0.123200793065044
3.824,0.00166386430594094,0.123229717236941
3.826,0.0029501118454711,0.123245790872983
3.828,0.0042418762123591,0.123243916297835
3.83,0.0055334668621134,0.123212936673572
3.832,0.0068326746679344,0.12316822148803
3.834,0.008141426399221,0.123096813635142
3.836,0.0094555555189614,0.122995461621143
3.838,0.0107567413709229,0.122886729843797
3.84,0.0120771247326799,0.122751551298522
3.842,0.0133927145795272,0.122586772681449
3.844,0.0147128624921687,0.122408792196506
3.846,0.016025881988273,0.122200583262342
3.848,0.017343897998873,0.121961085109313
3.85,0.0186584506505855,0.121705903496336
3.852,0.019967363156659,0.12142897760777
3.854,0.0212812141888963,0.121125491010213
3.856,0.0225885395043614,0.120787703909251
3.858,0.0238912769060444,0.120442621156237
3.86,0.025200751778377,0.120065623924943
3.862,0.0264850960994504,0.11967603147826
3.864,0.0277819800069784,0.119251652264821
3.866,0.0290485656537071,0.118816630355613
3.868,0.0303264283155446,0.118334605390543
3.87,0.0315948884665121,0.117846159505022
3.872,0.0328534896506653,0.117329657466482
3.874,0.0340941888779071,0.116784540250894
3.876,0.0353414496295539,0.116231982979267
3.878,0.0365676394382417,0.11565528455413
3.88,0.0377704341036352,0.115027928705995
3.882,0.0389859066950098,0.114411807479816
3.884,0.0401677310136259,0.113753942871439
3.886,0.0413375057909743,0.113090901874021
3.888,0.0425244208748174,0.112396306334479
3.89,0.0436527286990879,0.111687043129916
3.892,0.0447954388286088,0.110958321286054
3.894,0.0459195180556607,0.110208149802631
3.896,0.0470133957323541,0.10944107392388
3.898,0.0481011432858694,0.108641275464923
3.9,0.0491668732175106,0.107837164743221
3.902,0.0502162943625812,0.107008980544045
