"Freq [GHz]","re(S(Rx_p1,Tx_p1)) []","im(S(Rx_p1,Tx_p1)) []"
1,-0.07285454031,0.119607474
1.01,-0.02264841259,0.1375227367
1.02,0.03034160756,0.1353369723
1.03,0.07840737054,0.1135786615
1.04,0.114641506,0.07560731035
1.05,0.1339291061,0.02709185065
1.06,0.1336663021,-0.02483893072
1.07,0.1141054968,-0.07264592694
1.08,0.07828278889,-0.1094742691
1.09,0.03154434229,-0.1301339845
1.1,-0.01925387243,-0.1318269269
1.11,-0.06675267401,-0.1145190778
1.12,-0.1041546335,-0.08091006397
1.13,-0.1261935385,-0.03601040682
1.14,-0.1298707726,0.01360690295
1.15,-0.1148566845,0.06076841796
1.16,-0.08350457376,0.09873509103
1.17,-0.04048102181,0.1221611548
1.18,0.007929146092,0.1278414241
1.19,0.05473966176,0.1151436431
1.2,0.09326791244,0.08606880017
1.21,0.1180843784,0.04493591086
1.22,0.1257724429,-0.002259038195
1.23,0.1153933121,-0.04871494642
1.24,0.08859385197,-0.08780193928
1.25,0.04934632644,-0.1140027946
1.26,0.003361027839,-0.123686726
1.27,-0.0427416368,-0.1156079801
1.28,-0.08238016309,-0.09106164576
1.29,-0.1099468595,-0.05367800693
1.3,-0.1215967646,-0.008887794494
1.31,-0.1157804307,0.03686333151
1.32,-0.09344739349,0.07703813898
1.33,-0.05789403506,0.1059375879
1.34,-0.01427977079,0.1195056055
1.35,0.03111797934,0.1158959161
1.36,0.07180319056,0.09572213696
1.37,0.1019869493,0.06195739279
1.38,0.1174082936,0.01949929307
1.39,0.1159343004,-0.02553669892
1.4,0.09785512446,-0.06669429758
1.41,0.0658330843,-0.09809878645
1.42,0.02451398586,-0.1152935811
1.43,-0.02014323225,-0.1158721749
1.44,-0.06172251982,-0.09981589046
1.45,-0.09427007002,-0.06948977161
1.46,-0.1131457179,-0.02929765757
1.47,-0.1156848026,0.0149539217
1.48,-0.1015759643,0.05689180028
1.49,-0.07290092873,0.09049232326
1.5,-0.03383070851,0.1109461843
1.51,0.009978083237,0.1153478054
1.52,0.05220000202,0.1031101907
1.53,0.08675308474,0.07604556279
1.54,0.1086752763,0.0381001494
1.55,0.1148385626,-0.005218653668
1.56,0.1043976863,-0.04764006075
1.57,0.07890857328,-0.08303732038
1.58,0.04209932881,-0.1063134964
1.59,-0.0006730100715,-0.1141373223
1.6,-0.04320116958,-0.1054224792
1.61,-0.079328735,-0.0814808246
1.62,-0.1038427437,-0.04582745301
1.63,-0.1132280557,-0.003666111967
1.64,-0.1061738852,0.03886994698
1.65,-0.08375899646,0.07561096539
1.66,-0.04928895871,0.1012473128
1.67,-0.007809645573,0.1120990871
1.68,0.03463156611,0.1066466674
1.69,0.07186865575,0.08574525767
1.7,0.09851472123,0.05249277434
1.71,0.1107435289,0.01177118598
1.72,0.1068410076,-0.03047084017
1.73,0.08744678764,-0.06808842238
1.74,0.05545148559,-0.09563637889
1.75,0.01556595716,-0.1091595355
1.76,-0.02637326282,-0.1067623012
1.77,-0.06425970853,-0.08887515303
1.78,-0.09260809845,-0.05818040985
1.79,-0.1073503745,-0.01920975656
1.8,-0.1064207738,0.02232599551
1.81,-0.09004553832,0.06037551703
1.82,-0.06069658413,0.08943043209
1.83,-0.02271789102,0.1053242984
1.84,0.01831877973,0.1058309069
1.85,0.05643299225,0.09097583047
1.86,0.08610880497,0.06301768097
1.87,0.1030941959,0.02610413298
1.88,0.1050106668,-0.01434473484
1.89,0.09168557032,-0.0524338099
1.9,0.0651608847,-0.08265341166
1.91,0.02937974418,-0.1006770062
1.92,-0.01040098831,-0.1039805442
1.93,-0.04838432714,-0.09219480246
1.94,-0.07907884595,-0.06714178073
1.95,-0.09809289229,-0.03255263053
1.96,-0.1027624309,0.006489077621
1.97,-0.09252287867,0.04429545022
1.98,-0.06897332932,0.07540345061
1.99,-0.03562670078,0.09536419709
2,0.00261506699,0.1013783887
2.01,0.04018219239,0.0926872914
2.02,0.0716483978,0.07066500706
2.03,0.09251422841,0.03860150005
2.04,0.09984938789,0.001210663353
2.05,0.09270262873,-0.03606292029
2.06,0.07222220023,-0.06783654158
2.07,0.04147217581,-0.08956595253
2.08,0.004973971498,-0.09819411416
2.09,-0.0319583195,-0.09257974678
2.1,-0.06399111505,-0.07364592301
2.11,-0.08654069461,-0.0442298087
2.12,-0.0964279473,-0.008657834837
2.13,-0.09232524724,0.02789014374
2.14,-0.07493290993,0.06013437111
2.15,-0.04686210661,0.08345695909
2.16,-0.012243504,0.09456221427
2.17,0.02387984287,0.09194132609
2.18,0.05628628355,0.07607609789
2.19,0.08032948211,0.04935442206
2.2,0.09260379838,0.01571184172
2.21,0.09142602718,-0.0199471873
2.22,0.07706547367,-0.05246342966
2.23,0.051691015,-0.07716861376
2.24,0.01904473155,-0.09055515664
2.25,-0.01610901594,-0.09077389397
2.26,-0.04867816534,-0.07788922228
2.27,-0.07398009994,-0.05385645183
2.28,-0.0884147575,-0.02222642625
2.29,-0.08997697028,0.01237823008
2.3,-0.07853507559,0.04493817972
2.31,-0.05583701063,0.07076529537
2.32,-0.02524470503,0.08617790713
2.33,0.008763135462,0.08902606148
2.34,0.04124648002,0.07899173503
2.35,0.06752179494,0.05762195624
2.36,0.08383789029,0.02809172382
2.37,0.08791213671,-0.005267202114
2.38,0.0792502298,-0.03760181366
2.39,0.05920455856,-0.06424442601
2.4,0.03076447159,-0.08138731624
2.41,-0.001889269019,-0.08662773453
2.42,-0.03399948883,-0.07930507533
2.43,-0.06092650505,-0.0605827511
2.44,-0.07881953641,-0.03326478582
2.45,-0.08516823164,-0.00137582556
2.46,-0.07915511604,0.03043251185
2.47,-0.06175936411,0.0575612327
2.48,-0.03559892591,0.07612999168
2.49,-0.004536252289,0.08353284783
2.5,0.02689292632,0.0788039687
2.51,0.05414308661,0.0627419105
2.52,0.07331735422,0.03777674992
2.53,0.08172528765,0.007601939573
2.54,0.07826002486,-0.02337321758
2.55,0.06354195008,-0.05066907188
2.56,0.03981058107,-0.0703843511
2.57,0.01058319138,-0.07975395839
2.58,-0.0198676411,-0.07753601734
2.59,-0.0471397059,-0.06417410108
2.6,-0.06733819168,-0.04171388188
2.61,-0.0776317489,-0.01348931421
2.62,-0.07664820095,0.01637334331
2.63,-0.06465480367,0.0435596437
2.64,-0.04349987125,0.0641905636
2.65,-0.01632738921,0.07537539966
2.66,0.01289116814,0.07561523666
2.67,0.03993789023,0.06500096293
2.68,0.06095720771,0.0451802221
2.69,0.07300453631,0.01910130671
2.7,0.0744568963,-0.009426078469
2.71,0.06522860738,-0.03628758984
2.72,0.04676396439,-0.05765712548
2.73,0.02181114914,-0.07054047042
2.74,-0.005987163555,-0.07319271896
2.75,-0.03262542731,-0.0653516922
2.76,-0.0543115079,-0.04825669208
2.77,-0.06800489137,-0.02445296913
2.78,-0.07184074976,0.002587247267
2.79,-0.06538115599,0.02897071279
2.8,-0.04966013741,0.05094249931
2.81,-0.02701896731,0.06541857816
2.82,-0.0007578482026,0.07041647696
2.83,0.02534425154,0.0653243085
2.84,0.0475719204,0.05097213523
2.85,0.06280025127,0.02949803342
2.86,0.06893205685,0.00403029678
2.87,0.06518458952,-0.02176711534
2.88,0.0521869597,-0.04422007165
2.89,0.0318765804,-0.06016566359
2.9,0.007211414036,-0.06739588202
2.91,-0.01825943507,-0.0649616991
2.92,-0.04090472282,-0.05329597963
2.93,-0.05752699902,-0.03413957618
2.94,-0.06581251049,-0.01028283891
2.95,-0.06465206293,0.01483932366
2.96,-0.05428855113,0.03764036825
2.97,-0.03627166552,0.05489261275
2.98,-0.01322764146,0.06418293685
2.99,0.01152201801,0.06424956635
3,0.03443779608,0.05515304921
3.01,0.05226711069,0.03825827364
3.02,0.06250515464,0.01603126238
3.03,0.06374647003,-0.008319299905
3.04,0.0558779345,-0.031303985
3.05,0.04008659417,-0.04965173371
3.06,0.01868221403,-0.06077493582
3.07,-0.00523922433,-0.06313441028
3.08,-0.02824230993,-0.05645275727
3.09,-0.0470449863,-0.04174638373
3.1,-0.05898673921,-0.02117250185
3.11,-0.06240538838,0.00228615194
3.12,-0.05686901596,0.0252530109
3.13,-0.04323051092,0.0444434322
3.14,-0.02349775493,0.05713465682
3.15,-0.0005389454083,0.06155266361
3.16,0.02233385965,0.05712080941
3.17,0.04184257243,0.04453523561
3.18,0.05521331269,0.02565708238
3.19,0.06057148267,0.003237958694
3.2,0.05720524709,-0.0194809476
3.21,0.04566022131,-0.03923772288
3.22,0.02765269488,-0.05321864301
3.23,0.00581496168,-0.05945960056
3.24,-0.01668951721,-0.05712260747
3.25,-0.03662481851,-0.04660830663
3.26,-0.0511485051,-0.02948934674
3.27,-0.0582175714,-0.008275448557
3.28,-0.05687625761,0.01395476399
3.29,-0.04738507955,0.03400108641
3.3,-0.03117366221,0.04900308395
3.31,-0.01062555898,0.05684881017
3.32,0.01127254887,0.0564723657
3.33,0.03136554869,0.04799830903
3.34,0.04678508635,0.03271341115
3.35,0.05535944527,0.01287135191
3.36,0.0559194508,-0.008639975586
3.37,0.04845729261,-0.02871933533
3.38,0.03411679414,-0.04449973086
3.39,0.01501817726,-0.05375799552
3.4,-0.006055805184,-0.05522782107
3.41,-0.02606580469,-0.04877217704
3.42,-0.04215455676,-0.03539178792
3.43,-0.05205491417,-0.01707017968
3.44,-0.05440895249,0.003520696027
3.45,-0.04895330268,0.02341048444
3.46,-0.03654559008,0.03975908499
3.47,-0.0190299544,0.05026204564
3.48,0.001037271922,0.0534748568
3.49,0.02076085622,0.04901061316
3.5,0.03732436974,0.03758418914
3.51,0.04839204031,0.02089836107
3.52,0.05243748099,0.001389967651
3.53,0.04895316129,-0.01812601455
3.54,0.03851207433,-0.03486248059
3.55,0.02267449124,-0.04645776826
3.56,0.0037548734,-0.05130817238
3.57,-0.01551623364,-0.04878873194
3.58,-0.03238595365,-0.0393320885
3.59,-0.04447176757,-0.02435577597
3.6,-0.05009723477,-0.006049981551
3.61,-0.04852359289,0.01294247648
3.62,-0.04004541968,0.02990724673
3.63,-0.02593821489,0.04244575585
3.64,-0.00826692974,0.04881359322
3.65,0.01041587907,0.04816237702
3.66,0.02743822898,0.0406517202
3.67,0.0403902275,0.02741670396
3.68,0.04746457774,0.010396924
3.69,0.04770809262,-0.007947240334
3.7,0.0411493377,-0.02498973077
3.71,0.02878543725,-0.03831415308
3.72,0.01243122783,-0.0460558302
3.73,-0.0055465455,-0.04716225348
3.74,-0.02257117539,-0.04153563899
3.75,-0.03622479201,-0.03003835661
3.76,-0.0445913336,-0.01436164518
3.77,-0.0465251161,0.003222547767
3.78,-0.0418074048,0.02019030935
3.79,-0.03116962212,0.03412762467
3.8,-0.01618097046,0.04307355767
3.81,0.000982430274,0.0457960072
3.82,0.01785304425,0.04196127093
3.83,0.03202640507,0.03217407598
3.84,0.04150371015,0.01788337992
3.85,0.04497372094,0.001168433093
3.86,0.04199418897,-0.01556341814
3.87,0.03304767169,-0.02992332985
3.88,0.01946474095,-0.03988207783
3.89,0.003226603477,-0.04405696113
3.9,-0.01332367896,-0.04190387798
3.91,-0.02781931345,-0.03378784141
3.92,-0.03820843629,-0.02092281883
3.93,-0.04304480016,-0.005190580085
3.94,-0.04168923708,0.01113448619
3.95,-0.03439377597,0.02571435272
3.96,-0.02225736514,0.03648250163
3.97,-0.007060677675,0.04193712369
3.98,0.008995219447,0.04135068961
3.99,0.02360795779,0.03486659557
4,0.03470439365,0.0234700781
4.01,0.04073502863,0.008838783584
4.02,0.04089043154,-0.006904375061
4.03,0.03520939513,-0.02149961959
4.04,0.02456443348,-0.03287507609
4.05,0.01052800808,-0.03944114281
4.06,-0.004860023819,-0.04031256172
4.07,-0.01938927982,-0.03542715559
4.08,-0.03099673933,-0.02554539372
4.09,-0.03805983822,-0.01213225086
4.1,-0.03962307873,0.00286029668
4.11,-0.03552652274,0.01727776633
4.12,-0.02641901312,0.02907309239
4.13,-0.01365571461,0.03659731614
4.14,0.000903860528,0.03882973861
4.15,0.015167157,0.03551546516
4.16,0.02710953642,0.02719196661
4.17,0.03506155119,0.01510240313
4.18,0.03794177885,0.001009655548
4.19,0.03540283445,-0.01306103903
4.2,0.02787103761,-0.02511320014
4.21,0.01647564492,-0.03346209301
4.22,0.002879321103,-0.036969526
4.23,-0.01096463751,-0.03519786
4.24,-0.0230928284,-0.02846260628
4.25,-0.03180973622,-0.01777768336
4.26,-0.03592391512,-0.00470268435
4.27,-0.03490961862,0.008884797189
4.28,-0.02897218135,0.02105852777
4.29,-0.01900937062,0.03011608196
4.3,-0.006475694182,0.03481595883
4.31,0.006829814299,0.03454652314
4.32,0.01902138621,0.0294040169
4.33,0.02839302489,0.0201699945
4.34,0.03365620982,0.008192775012
4.35,0.03411587429,-0.004809128429
4.36,0.02976084895,-0.01699299616
4.37,0.02125725646,-0.02665220798
4.38,0.009847051478,-0.03245426286
4.39,-0.002832898182,-0.0336235157
4.4,-0.01498492018,-0.03004377706
4.41,-0.02490449155,-0.02226740516
4.42,-0.03121833998,-0.01143070593
4.43,-0.03307362342,0.0009114957056
4.44,-0.03025230299,0.01300814505
4.45,-0.02319551583,0.02315948302
4.46,-0.0129354387,0.02995499585
4.47,-0.0009450362488,0.03246864953
4.48,0.01107257195,0.03038452381
4.49,0.02142516888,0.02403589129
4.5,0.02866896969,0.01435299086
4.51,0.03180942464,0.002727516817
4.52,0.03043746251,-0.009186588066
4.53,0.02478254886,-0.01970768145
4.54,0.01567568271,-0.02736319623
4.55,0.004428101549,-0.0310954098
4.56,-0.007356757323,-0.0304075055
4.57,-0.01801122047,-0.02542974887
4.58,-0.02603897373,-0.01689691936
4.59,-0.03032507346,-0.006040656689
4.6,-0.03029090643,0.005587657137
4.61,-0.02597251631,0.01633813468
4.62,-0.0180116179,0.02469627151
4.63,-0.007561000396,0.02949635741
4.64,0.00388187398,0.03008430931
4.65,0.01468915381,0.02640710795
4.66,0.02333414688,0.01901651806
4.67,0.02860718765,0.008986990914
4.68,0.02978524242,-0.002240155499
4.69,0.02673138276,-0.01306374672
4.7,0.01991034993,-0.02195123078
4.71,0.01031845637,-0.02765598189
4.72,-0.0006617020897,-0.02939253785
4.73,-0.01146057015,-0.02694504335
4.74,-0.02054623587,-0.02069384594
4.75,-0.02664210678,-0.011556976
4.76,-0.0289066394,-0.0008554320165
4.77,-0.02704972864,0.009877964463
4.78,-0.02136959947,0.01911843933
4.79,-0.01270553637,0.02556624364
4.8,-0.00231386782,0.0283297727
4.81,0.008314449476,0.02704895274
4.82,0.01766809653,0.02194178674
4.83,0.02443063104,0.01376809729
4.84,0.02766596547,0.003716405866
4.85,0.02694789955,-0.006769174749
4.86,0.02241578108,-0.01619674922
4.87,0.01474910974,-0.0232391655
4.88,0.005065551804,-0.02692092002
4.89,-0.00524228451,-0.02675309575
4.9,-0.0147074033,-0.02279769779
4.91,-0.02199735502,-0.01565303079
4.92,-0.02610175401,-0.006363105472
4.93,-0.02647199558,0.003735166986
4.94,-0.02309391267,0.01320456436
4.95,-0.01648387914,0.02071213482
4.96,-0.007609848102,0.02521663722
4.97,0.002250569935,0.02611251748
4.98,0.01169413296,0.02331059801
4.99,0.01939156646,0.01724486937
5,0.02427436032,0.008805351531
5.01,0.02568257532,-0.0007925775163
5.02,0.02345331626,-0.01018317458
5.03,0.0179381534,-0.01804445186
5.04,0.009947920778,-0.02328387644
5.05,0.0006335432644,-0.02518964548
5.06,-0.008679590097,-0.02352670382
5.07,-0.01667989972,-0.01856468661
5.08,-0.02225385651,-0.01103466844
5.09,-0.02464040523,-0.002021606691
5.1,-0.02353426787,0.00719172038
5.11,-0.01912422363,0.01530688414
5.12,-0.01206170735,0.02119229589
5.13,-0.003364854217,0.02404046967
5.14,0.005727922563,0.02347830695
5.15,0.01393383385,0.0196154364
5.16,0.0201062029,0.01302443794
5.17,0.02339424359,0.00465634754
5.18,0.02335995457,-0.004296156091
5.19,0.02003613691,-0.01256828504
5.2,0.01391789971,-0.01900139054
5.21,0.005889372258,-0.02270489345
5.22,-0.002903613106,-0.02317933397
5.23,-0.01121662323,-0.02038357841
5.24,-0.01788238222,-0.0147371525
5.25,-0.02197443359,-0.007057816979
5.26,-0.02293580301,0.001556421616
5.27,-0.02065480404,0.009883929837
5.28,-0.01547765294,0.01675243128
5.29,-0.008156497323,0.02120391118
5.3,0.0002594415045,0.02262826187
5.31,0.008573939032,0.02084700967
5.32,0.01561364458,0.01613559436
5.33,0.02039366691,0.009181401249
5.34,0.02225549298,0.0009838360176
5.35,0.02095788916,-0.007289100437
5.36,0.01670818396,-0.01446719198
5.37,0.01012984059,-0.01954364394
5.38,0.002171284478,-0.02181650172
5.39,-0.006030734812,-0.02098593395
5.4,-0.0133135779,-0.0171938383
5.41,-0.01865371548,-0.01100050269
5.42,-0.02131082949,-0.003302041462
5.43,-0.02093066517,0.004799263066
5.44,-0.01759228647,0.01215294781
5.45,-0.0117934048,0.01772400241
5.46,-0.00437632619,0.02073881471
5.47,0.003594484632,0.02079278349
5.48,0.01098540208,0.01790457855
5.49,0.01675515545,0.01250976126
5.5,0.02010178392,0.005395195654
5.51,0.02057422979,-0.002415879336
5.52,0.01813300471,-0.009811291198
5.53,0.01315177997,-0.01574858137
5.54,0.006360262679,-0.01940216201
5.55,-0.001262907232,-0.02027815747
5.56,-0.008631470076,-0.01828093687
5.57,-0.01470659873,-0.01372240803
5.58,-0.01864349759,-0.007273400231
5.59,-0.01990882344,0.0001352832356
5.6,-0.01835260947,0.007447494256
5.61,-0.01422504928,0.01363251524
5.62,-0.008136455206,0.01783040648
5.63,-0.000966792786,0.01947141066
5.64,0.006261746396,0.01835285916
5.65,0.01253062527,0.01466327598
5.66,0.01696844178,0.008950992331
5.67,0.01897179889,0.002042464961
5.68,0.01828684448,-0.005077487545
5.69,0.0150405559,-0.01140613171
5.7,0.00971808497,-0.01606390358
5.71,0.003090118579,-0.01841630241
5.72,-0.003898833327,-0.0181597663
5.73,-0.01026500148,-0.01536001313
5.74,-0.01512360456,-0.01043816511
5.75,-0.01781139459,-0.004107349278
5.76,-0.01797660824,0.002730660306
5.77,-0.01562423736,0.009113767768
5.78,-0.01111093995,0.01415460952
5.79,-0.005091002951,0.01716343862
5.8,0.001578452059,0.01774191361
5.81,0.007959294615,0.01583515226
5.82,0.01316396734,0.01173537758
5.83,0.01647844182,0.006037280583
5.84,0.0174596121,-0.00044809783
5.85,0.01599394897,-0.006808521133
5.86,0.01230975986,-0.01215845345
5.87,0.006941898336,-0.01576184898
5.88,0.0006543410129,-0.01713290543
5.89,-0.00566820293,-0.0161010865
5.9,-0.0111443393,-0.01283179616
5.91,-0.01501838652,-0.007800290195
5.92,-0.01676421729,-0.001722880123
5.93,-0.01615635649,0.0045446679
5.94,-0.0132987883,0.01012720298
5.95,-0.008607838257,0.01425196606
5.96,-0.002751859893,0.01635520861
5.97,0.003443602079,0.01615900564
5.98,0.009111792165,0.01370783399
5.99,0.01346565193,0.009360114373
6,0.01590685494,0.003736175156
