"Freq [GHz]","re(S(Rx_p1,Tx_p1)) []","im(S(Rx_p1,Tx_p1)) []"
1,-0.0004649267722,0.04107926847
1.01,0.01580270441,0.03854406677
1.02,0.02999197968,0.02969328424
1.03,0.0396998039,0.01577548437
1.04,0.04318719418,-0.001067060838
1.05,0.03970198581,-0.01812961881
1.06,0.02964268971,-0.03258784855
1.07,0.01452758511,-0.04197809811
1.08,-0.003232950309,-0.04463097988
1.09,-0.0207271282,-0.0399792841
1.1,-0.03503086406,-0.0286813975
1.11,-0.0437108149,-0.01253311903
1.12,-0.04525199299,0.005821518903
1.13,-0.03933218669,0.02333306344
1.14,-0.02689164446,0.03706690341
1.15,-0.009982721175,0.0447094918
1.16,0.008576192135,0.04497037049
1.17,0.02568251877,0.03780778132
1.18,0.03848228888,0.02443701036
1.19,0.04485956998,0.007119626817
1.2,0.04379601355,-0.01122880494
1.21,0.0355375746,-0.02754247149
1.22,0.02154040454,-0.03913088788
1.23,0.004207678357,-0.04413358571
1.24,-0.01353369926,-0.04182496644
1.25,-0.02873977419,-0.03271825616
1.26,-0.03894943506,-0.01845412763
1.27,-0.04259043509,-0.001498043283
1.28,-0.03922314402,0.01529636551
1.29,-0.02958409212,0.02917846527
1.3,-0.01542772138,0.03795967371
1.31,0.000799782691,0.04036219539
1.32,0.01639253022,0.03620130551
1.33,0.02884470349,0.02637622696
1.34,0.03625833592,0.0126789451
1.35,0.03763188353,-0.002538569996
1.36,0.03298611368,-0.01677572841
1.37,0.02331397882,-0.02779990138
1.38,0.01037199007,-0.03399783391
1.39,-0.003643345836,-0.0346065464
1.4,-0.01647351357,-0.02979209385
1.41,-0.02616443329,-0.02057220783
1.42,-0.03136161036,-0.008605344305
1.43,-0.03149021106,0.004110536052
1.44,-0.02679851451,0.01557419772
1.45,-0.01826735094,0.02409541863
1.46,-0.007409923912,0.02853837444
1.47,0.003997684709,0.02846063245
1.48,0.0142071784,0.02413393295
1.49,0.02176249401,0.01645308175
1.5,0.02569905338,0.006756490744
1.51,0.02565270176,-0.003406369949
1.52,0.02186967669,-0.01252044318
1.53,0.015125039,-0.01932527321
1.54,0.006570166798,-0.02297941096
1.55,-0.002461577988,-0.02315006642
1.56,-0.01065879992,-0.02002210326
1.57,-0.01691550547,-0.01423285063
1.58,-0.02047013302,-0.006749115293
1.59,-0.0209851768,0.001290914855
1.6,-0.01856226646,0.008745874333
1.61,-0.01369685472,0.01462594924
1.62,-0.007184191675,0.01821493897
1.63,6.702930823E-06,0.01914677084
1.64,0.00687207815,0.0174307179
1.65,0.01250683562,0.01342651443
1.66,0.01621609362,0.007776535164
1.67,0.01759284606,0.001306678005
1.68,0.01655464254,-0.005089708101
1.69,0.01333753548,-0.01056963697
1.7,0.008450612438,-0.01444567968
1.71,0.002598787389,-0.01626652363
1.72,-0.00341520965,-0.01586439182
1.73,-0.008796799971,-0.01336509449
1.74,-0.01286024301,-0.009161065847
1.75,-0.0151119371,-0.003852129573
1.76,-0.0153067425,0.0018375496
1.77,-0.0134713273,0.007155261058
1.78,-0.009892766207,0.01141602313
1.79,-0.005074954513,0.01408741399
1.8,0.0003307179364,0.0148528511
1.81,0.005611045052,0.01364622839
1.82,0.01008199475,0.01065460206
1.83,0.01317376348,0.006289636475
1.84,0.01449982872,0.001132246913
1.85,0.01390225586,-0.004142144664
1.86,0.01146859881,-0.008848396962
1.87,0.007519139705,-0.01237638855
1.88,0.002566527092,-0.01426600814
1.89,-0.002747239024,-0.01426405319
1.9,-0.007729280696,-0.01235677828
1.91,-0.01172108766,-0.008774394349
1.92,-0.01418114149,-0.00396663382
1.93,-0.01475560014,0.001448610935
1.94,-0.01332857965,0.006758747222
1.95,-0.01004521777,0.01124461908
1.96,-0.005303151388,0.0142737426
1.97,0.0002887560513,0.01538760461
1.98,0.005981793153,0.01437155523
1.99,0.01098214542,0.01129671977
2,0.014558372,0.006525791419
2.01,0.01614791789,0.0006785507517
2.02,0.01544741077,-0.005441784211
2.03,0.01247202424,-0.01095433761
2.04,0.007572136161,-0.01502570711
2.05,0.001400803949,-0.01699716355
2.06,-0.005167314506,-0.0164943717
2.07,-0.01115703344,-0.01350082503
2.08,-0.01563769983,-0.008380236815
2.09,-0.01787070334,-0.001840200748
2.1,-0.01743552794,0.005161391777
2.11,-0.01431203586,0.0115558572
2.12,-0.008902367593,0.01632908027
2.13,-0.001984980127,0.01868672411
2.14,0.005395452116,0.0181915122
2.15,0.0120871888,0.01484787071
2.16,0.01701512005,0.0091169245
2.17,0.01935889772,0.001856073989
2.18,0.01869488878,-0.005809717405
2.19,0.01507631877,-0.01266552375
2.2,0.009035792151,-0.01760420674
2.21,0.00150743695,-0.01981103757
2.22,-0.006320064166,-0.01890320004
2.23,-0.01319587862,-0.01499926128
2.24,-0.01801270609,-0.008705429477
2.25,-0.01999068991,-0.001019759462
2.26,-0.01880784918,0.006830164605
2.27,-0.01465437028,0.01358877878
2.28,-0.008201252945,0.01817905039
2.29,-0.0004886930031,0.01987877843
2.3,0.007246505173,0.01843685391
2.31,0.01377477626,0.01411024254
2.32,0.01807411969,0.007616331489
2.33,0.01949323649,9.905856224E-06
2.34,0.0178507999,-0.007493249573
2.35,0.01345566443,-0.01371552256
2.36,0.007046627329,-0.01770575725
2.37,-0.0003360274085,-0.01888583422
2.38,-0.007523939591,-0.01713276809
2.39,-0.01340915186,-0.01278514947
2.4,-0.01711650666,-0.006575745082
2.41,-0.01813284924,0.0004958752987
2.42,-0.01637427744,0.007327711545
2.43,-0.0121836595,0.01288894619
2.44,-0.006262226016,0.01637509276
2.45,0.0004507469942,0.01732151552
2.46,0.006928888575,0.01566009134
2.47,0.01221567683,0.01171354374
2.48,0.01556346689,0.006131836674
2.49,0.01653502562,-0.0002165926246
2.5,0.01505490826,-0.006380215286
2.51,0.01140619339,-0.01146532278
2.52,0.006176196557,-0.01476210879
2.53,0.0001616539909,-0.01583908081
2.54,-0.005751311172,-0.01459447095
2.55,-0.0107147669,-0.01125984793
2.56,-0.01403654243,-0.006357729602
2.57,-0.01527254962,-0.0006208413424
2.58,-0.01428261423,0.005114843471
2.59,-0.01124365904,0.01002837802
2.6,-0.006619620494,0.01342764044
2.61,-0.001092881763,0.01484382896
2.62,0.004533268379,0.01409447376
2.63,0.009448057325,0.01130682417
2.64,0.01294737699,0.006898496177
2.65,0.01453324201,0.001517768413
2.66,0.01398479857,-0.004048711547
2.67,0.01139062836,-0.008988464368
2.68,0.007137130046,-0.01258046832
2.69,0.001853774769,-0.01430054486
2.7,-0.003677749009,-0.01389932816
2.71,-0.008637960422,-0.01144077733
2.72,-0.01229109996,-0.007294643663
2.73,-0.01409562743,-0.002083039113
2.74,-0.01378670902,0.003411717723
2.75,-0.01141753321,0.008364592268
2.76,-0.007352381423,0.01203295251
2.77,-0.002211820961,0.01386998082
2.78,0.003221998669,0.01360850686
2.79,0.008125454335,0.01130181041
2.8,0.01176019927,0.007314668781
2.81,0.01358653944,0.002265871077
2.82,0.01334546217,-0.003068736114
2.83,0.01109637317,-0.007877207596
2.84,0.007204785282,-0.01143714286
2.85,0.002282327317,-0.0132260434
2.86,-0.002910878495,-0.01299906902
2.87,-0.00758548568,-0.01082236092
2.88,-0.01104464057,-0.007057442548
2.89,-0.01278894617,-0.002300142439
2.9,-0.0125886034,0.002715339162
2.91,-0.0105123122,0.007231348705
2.92,-0.006909664518,0.01058229522
2.93,-0.002351174565,0.01229289928
2.94,0.002463453421,0.01214465529
2.95,0.006813719181,0.01020147569
2.96,0.01006635384,0.006792126972
2.97,0.01176675502,0.002453743414
2.98,0.01170084509,-0.002153628945
2.99,0.009919389946,-0.006347657316
3,0.006722735355,-0.009524144921
3.01,0.002609787943,-0.01124266063
3.02,-0.001799966522,-0.0112856293
3.03,-0.005859199788,-0.009683483707
3.04,-0.008986522209,-0.006703605217
3.05,-0.01074807172,-0.002805924813
3.06,-0.01091591787,0.001427471324
3.07,-0.009495886465,0.00537812566
3.08,-0.006721817624,0.008480064946
3.09,-0.003017888646,0.01029937573
3.1,0.001065115497,0.01059371517
3.11,0.004930321332,0.009343891435
3.12,0.008020692344,0.006753529213
3.13,0.009898357389,0.003217194906
3.14,0.01030629419,-0.00073834593
3.15,0.00920374737,-0.00453136808
3.16,0.006770378314,-0.00760994234
3.17,0.003378509684,-0.009532081106
3.18,-0.0004626252894,-0.01002967535
3.19,-0.004182618408,-0.009046820401
3.2,-0.007234552741,-0.006746749833
3.21,-0.009176055172,-0.00348617494
3.22,-0.009734550484,0.0002392871183
3.23,-0.008846767495,0.003870461114
3.24,-0.006666385328,0.006869302482
3.25,-0.003538595393,0.008799917575
3.26,5.446529922E-05,0.009393373155
3.27,0.003568824699,0.008586247279
3.28,0.006482451994,0.006527033107
3.29,0.008374445379,0.003549667741
3.3,0.008987182164,0.0001187611927
3.31,0.008261853588,-0.003244357865
3.32,0.006342261458,-0.006042666856
3.33,0.003547020468,-0.007878497539
3.34,0.0003154690669,-0.008510836226
3.35,-0.002863255215,-0.00788633881
3.36,-0.005526080123,-0.006140112961
3.37,-0.007304564321,-0.003567423837
3.38,-0.007975672744,-0.000572182954
3.39,-0.007487715357,0.002398431881
3.4,-0.005958857398,0.004922164586
3.41,-0.003650227749,0.006661884361
3.42,-0.0009196037937,0.007409090294
3.43,0.001835719852,0.00710538989
3.44,0.004237326796,0.005840610248
3.45,0.005976541469,0.003830016997
3.46,0.006851105871,0.00137609521
3.47,0.006784004067,-0.00117795186
3.48,0.005823947245,-0.003495549189
3.49,0.004129795966,-0.005288488357
3.5,0.001943104167,-0.006348465024
3.51,-0.0004461756314,-0.006566049115
3.52,-0.002735923596,-0.005936812438
3.53,-0.004645977355,-0.004555916845
3.54,-0.005947304717,-0.002603353786
3.55,-0.006484531825,-0.0003222615772
3.56,-0.00619096657,0.002007456158
3.57,-0.005095666386,0.004098326299
3.58,-0.003322170636,0.005685621133
3.59,-0.001078479857,0.006556966005
3.6,0.001361995915,0.006578963791
3.61,0.003688240596,0.005717973945
3.62,0.005586837588,0.004051771077
3.63,0.006781745421,0.001768912491
3.64,0.007074217306,-0.0008464710534
3.65,0.006377168821,-0.003445001292
3.66,0.004737817596,-0.005655591052
3.67,0.002343089718,-0.007137553449
3.68,-0.0004957504105,-0.007634185251
3.69,-0.003379693882,-0.007019184328
3.7,-0.005876483006,-0.005327152765
3.71,-0.007585943032,-0.002761042067
3.72,-0.008206163208,0.0003273544816
3.73,-0.00758917029,0.003483309259
3.74,-0.00577539884,0.006216028784
3.75,-0.002999056706,0.00807666415
3.76,0.0003389274437,0.008734704164
3.77,0.003728048919,0.008039215477
3.78,0.006627474431,0.006053121689
3.79,0.008554823153,0.00305280142
3.8,0.009169387754,-0.000508896817
3.81,0.008334851603,-0.004071595439
3.82,0.00614950652,-0.007057632759
3.83,0.002937299285,-0.008968622688
3.84,-0.0008001731169,-0.009471591159
3.85,-0.004463570292,-0.008459226464
3.86,-0.007454520288,-0.006072943176
3.87,-0.009276323002,-0.002683811919
3.88,-0.009619096836,0.001166184155
3.89,-0.008414264219,0.004852999123
3.9,-0.005848491455,0.007774431702
3.91,-0.002334262693,0.009451215079
3.92,0.0015581073,0.009607781468
3.93,0.005195423998,0.008218699093
3.94,0.007987205239,0.005512783426
3.95,0.009483782901,0.001934289412
3.96,0.009450192086,-0.001931948655
3.97,0.007903465389,-0.005458386539
3.98,0.005107401888,-0.008078796
3.99,0.001526262157,-0.009380784961
4,-0.002254170799,-0.009171419383
4.01,-0.005624345536,-0.007505430299
4.02,-0.008050816406,-0.004672050123
4.03,-0.009161594072,-0.00114358006
4.04,-0.008803200571,0.00250488612
4.05,-0.007060759702,0.005690622644
4.06,-0.004238835848,0.007917314481
4.07,-0.0008072699249,0.008852673059
4.08,0.002678149224,0.008377513367
4.09,0.005666581546,0.006599243298
4.1,0.007699612817,0.003828725866
4.11,0.00848141645,0.0005254077997
4.12,0.007920985952,-0.002779491967
4.13,0.006140663317,-0.005568809477
4.14,0.003450741746,-0.007420404865
4.15,0.0002952780771,-0.008070677337
4.16,-0.0028214173,-0.007451229552
4.17,-0.005415462913,-0.005693821185
4.18,-0.007098418515,-0.003103865379
4.19,-0.007635103672,-0.0001076049224
4.2,-0.006975747246,0.002817978252
4.21,-0.005258241474,0.005221075434
4.22,-0.002781038253,0.00674478482
4.23,4.823460356E-05,0.007179972542
4.24,0.00277972596,0.00649348523
4.25,0.004992975832,0.004827983928
4.26,0.006361831534,0.002474199231
4.27,0.006702632228,-0.0001792840928
4.28,0.005998502162,-0.002710182297
4.29,0.00439654322,-0.004730063973
4.3,0.002179109011,-0.005944451879
4.31,-0.0002855289105,-0.006196070481
4.32,-0.00260460987,-0.005484770405
4.33,-0.004424133047,-0.003961601773
4.34,-0.00548360811,-0.001898796621
4.35,-0.005653656347,0.0003586608132
4.36,-0.004950892009,0.002451304194
4.37,-0.003528468367,0.00406333742
4.38,-0.001644810343,0.004971050033
4.39,0.0003833456745,0.005073856046
4.4,0.002235045958,0.004403560332
4.41,0.003636918745,0.003111364322
4.42,0.004404066906,0.001435979622
4.43,0.004463752546,-0.0003406703396
4.44,0.003858909075,-0.001941858429
4.45,0.002732230381,-0.003140026924
4.46,0.001294973887,-0.003789101517
4.47,-0.0002129463328,-0.00384049099
4.48,-0.001563925266,-0.003341388535
4.49,-0.002577464398,-0.002417301852
4.5,-0.003143329191,-0.001243447202
4.51,-0.003230256111,-1.125481994E-05
4.52,-0.002880377395,0.001103497484
4.53,-0.002192206365,0.001965437172
4.54,-0.001296873307,0.002493773637
4.55,-0.0003330047957,0.002664949598
4.56,0.0005748538426,0.002505248367
4.57,0.001330849655,0.002076666624
4.58,0.001874085817,0.001460238944
4.59,0.002177247714,0.0007408147618
4.6,0.002239945803,-3.81621231E-06
4.61,0.002079972213,-0.0007082260629
4.62,0.001725568224,-0.001319625839
4.63,0.001210859254,-0.001795070631
4.64,0.0005751424728,-0.002098233642
4.65,-0.0001348555544,-0.002198210511
4.66,-0.0008618499,-0.002071848994
4.67,-0.001536613752,-0.001709636891
4.68,-0.002080619608,-0.001123646037
4.69,-0.002413864153,-0.0003548694148
4.7,-0.002467418839,0.0005231416547
4.71,-0.00219856455,0.001406961029
4.72,-0.001605085068,0.002173599329
4.73,-0.0007347962461,0.002697882398
4.74,0.0003131198455,0.002874358331
4.75,0.001396959402,0.002639610845
4.76,0.002351378419,0.001990101466
4.77,0.003013827575,0.0009909958831
4.78,0.003254040377,-0.0002271355467
4.79,0.003000882691,-0.001484563666
4.8,0.002260840559,-0.002579729546
4.81,0.001123641189,-0.003323291973
4.82,-0.0002472197423,-0.003572774841
4.83,-0.001638366652,-0.003261115467
4.84,-0.002821229826,-0.002413194645
4.85,-0.00359155385,-0.001146468273
4.86,-0.003806500263,0.000345255473
4.87,-0.003412263032,0.001822613111
4.88,-0.002456676124,0.003040880682
4.89,-0.001083986072,0.003792429681
4.9,0.0004877288982,0.003943694377
4.91,0.002002736932,0.003459777041
4.92,0.003211076814,0.002412024487
4.93,0.003911473233,0.0009670215025
4.94,0.0039860461,-0.0006411400617
4.95,0.003420618804,-0.002150401985
4.96,0.002307074182,-0.003315057412
4.97,0.0008274747631,-0.00394701974
4.98,-0.0007770714701,-0.003946871691
4.99,-0.002247166197,-0.003319468925
5,-0.003348296246,-0.002171710224
5.01,-0.003908998325,-0.0006932648827
5.02,-0.003847677599,0.0008760245323
5.03,-0.003183911223,0.0022861869
5.04,-0.002032866103,0.00331769572
5.05,-0.0005843610518,0.003815852069
5.06,0.0009294066246,0.003713593946
5.07,0.002271776407,0.003039516487
5.08,0.003238861258,0.001910461187
5.09,0.003690235387,0.0005105487533
5.1,0.003568572097,-0.0009394238604
5.11,0.00290572118,-0.00221702169
5.12,0.001814954885,-0.003132070181
5.13,0.0004712269624,-0.003554347387
5.14,-0.0009170319567,-0.00343123582
5.15,-0.002140026099,-0.002793203079
5.16,-0.003017756673,-0.001746862445
5.17,-0.003425781845,-0.0004571441443
5.18,-0.003312109285,0.0008784465727
5.19,-0.002703144413,0.002059555771
5.2,-0.00169819855,0.002912381703
5.21,-0.0004536281173,0.003314634996
5.22,0.0008409554634,0.00321265525
5.23,0.001990945286,0.002628405273
5.24,0.002825443953,0.001655459798
5.25,0.003222344387,0.0004446087928
5.26,0.003126200738,-0.0008188704016
5.27,0.002556273562,-0.001943030558
5.28,0.001603487054,-0.002758142044
5.29,0.0004166142726,-0.003142388474
5.3,-0.0008203962867,-0.003040470698
5.31,-0.001916653684,-0.00247217486
5.32,-0.002703867982,-0.001529408134
5.33,-0.003062620519,-0.0003619558026
5.34,-0.00294115544,0.0008459939746
5.35,-0.002363563816,0.001904967691
5.36,-0.001425871278,0.00265035718
5.37,-0.0002804955249,0.002968704879
5.38,0.000888510849,0.00281575562
5.39,0.001895417118,0.002223204278
5.4,0.002583005144,0.001292935924
5.41,0.00284792234,0.0001796788956
5.42,0.002656910218,-0.0009350042538
5.43,0.002051179137,-0.001872946086
5.44,0.001138260337,-0.002488640956
5.45,7.285866176E-05,-0.002692549518
5.46,-0.0009698506829,-0.002464524701
5.47,-0.001823747956,-0.001855228755
5.48,-0.0023589633,-0.0009755661439
5.49,-0.002502107235,2.372330489E-05
5.5,-0.002246258975,0.0009784791166
5.51,-0.0016493522,0.001738764076
5.52,-0.0008217056065,0.002192913027
5.53,9.465941008E-05,0.002283999543
5.54,0.0009509387807,0.002016264448
5.55,0.001616185953,0.00145095694
5.56,0.001997467179,0.0006929434216
5.57,0.002052388585,-0.0001290189547
5.58,0.001792415832,-0.0008845371836
5.59,0.001277143163,-0.001462410112
5.6,0.0006012344039,-0.001786656172
5.61,-0.0001231284996,-0.001825510885
5.62,-0.0007849630039,-0.001592597629
5.63,-0.001291204363,-0.001140898394
5.64,-0.00157896963,-0.0005512946633
5.65,-0.001621968162,8.187083759E-05
5.66,-0.001430814161,0.0006656100579
5.67,-0.001048014925,0.001121210672
5.68,-0.0005391181683,0.001393656206
5.69,1.817669302E-05,0.001456753385
5.7,0.0005451869099,0.001313949245
5.71,0.0009722612369,0.0009954136964
5.72,0.001246668638,0.0005523062984
5.73,0.001337850344,4.924729958E-05
5.74,0.001239889807,-0.0004440589059
5.75,0.0009712835517,-0.0008612479735
5.76,0.0005722082913,-0.001147102831
5.77,9.953861875E-05,-0.001264150453
5.78,-0.0003800500451,-0.001197463196
5.79,-0.0007984029523,-0.0009570756867
5.8,-0.00109490275,-0.000577489241
5.81,-0.001225176828,-0.0001139341179
5.82,-0.001168270371,0.0003645690101
5.83,-0.0009310037027,0.0007847880434
5.84,-0.0005484295619,0.001080360712
5.85,-7.979160976E-05,0.001202740526
5.86,0.0003998823409,0.001130100558
5.87,0.000811562078,0.0008723720062
5.88,0.001085580994,0.0004710847634
5.89,0.001174251123,-6.467961893E-06
5.9,0.001061271147,-0.0004781406639
5.91,0.000765861693,-0.0008612365318
5.92,0.0003404392607,-0.001087666825
5.93,-0.000138139965,-0.001117048773
5.94,-0.0005824120465,-0.0009450249897
5.95,-0.0009107190256,-0.0006048895353
5.96,-0.001063023602,-0.0001618772849
5.97,-0.001012895674,0.000299034004
5.98,-0.0007730852255,0.0006895621001
5.99,-0.000393330212,0.0009355654016
6,4.936826653E-05,0.0009919249649
