"Freq [GHz]","re(S(Rx_p1,Tx_p1)) []","im(S(Rx_p1,Tx_p1)) []"
1,-0.001419510028,-0.01248495967
1.01,-0.007313072852,-0.01047559888
1.02,-0.01165765263,-0.005899737164
1.03,-0.01342461832,0.0002705238793
1.04,-0.01212965984,0.006691201189
1.05,-0.007946902189,0.01192839908
1.06,-0.001685547357,0.01476371611
1.07,0.005367898687,0.01445949975
1.08,0.01171079073,0.01092799393
1.09,0.01593608126,0.004767711444
1.1,0.01703072984,-0.002842604465
1.11,0.01459887515,-0.01037281183
1.12,0.008962586405,-0.01624790886
1.13,0.001117519442,-0.01917075434
1.14,-0.007449875201,-0.01839543587
1.15,-0.01504876821,-0.01389504002
1.16,-0.02011786194,-0.006388314147
1.17,-0.02154055663,0.002782278088
1.18,-0.01887827001,0.01189895455
1.19,-0.01247456053,0.01919597163
1.2,-0.003407913852,0.0232024737
1.21,0.006699316664,0.02303391869
1.22,0.01598015065,0.01857487578
1.23,0.02267356242,0.01051688991
1.24,0.02545949187,0.0002430274974
1.25,0.02371428328,-0.01041983488
1.26,0.01763775987,-0.01953466674
1.27,0.008227586709,-0.02541134129
1.28,-0.002894545709,-0.02692033946
1.29,-0.01377263603,-0.02370479023
1.3,-0.02246832613,-0.01625183909
1.31,-0.02741034614,-0.005810674317
1.32,-0.02767777933,0.005827150777
1.33,-0.02316626792,0.01664448734
1.34,-0.01460816025,0.02475474005
1.35,-0.003444330178,0.02873340623
1.36,0.008428018169,0.02786642289
1.37,0.01898562002,0.0222725301
1.38,0.02642862337,0.01287988942
1.39,0.02948819742,0.001263133358
1.4,0.02763978114,-0.01062881867
1.41,0.02118694777,-0.02080564371
1.42,0.01120387078,-0.02757138216
1.43,-0.0006512554886,-0.02980618188
1.44,-0.0124179835,-0.02714766896
1.45,-0.02216161071,-0.02004362621
1.46,-0.0282920328,-0.009669835713
1.47,-0.02982105783,0.002270603318
1.48,-0.02651728513,0.01383115226
1.49,-0.01893543459,0.02314096203
1.5,-0.008317937866,0.02870687065
1.51,0.003612810767,0.02964999966
1.52,0.01493615234,0.02584034358
1.53,0.02384254748,0.0179098276
1.54,0.02892109481,0.00714394049
1.55,0.02938015471,-0.004728894153
1.56,0.02516742521,-0.01581546239
1.57,0.01697209666,-0.02435882477
1.58,0.006110294583,-0.02901491206
1.59,-0.005686946492,-0.02906176309
1.6,-0.01654913967,-0.02450947479
1.61,-0.02476178539,-0.01609459662
1.62,-0.0290356502,-0.005160660374
1.63,-0.02870808627,0.0065559115
1.64,-0.02384528354,0.01720075351
1.65,-0.01522975882,0.02509426974
1.66,-0.004235200947,0.02899630159
1.67,0.00739168078,0.02830126456
1.68,0.0178080898,0.02313302587
1.69,0.02536730094,0.01432439568
1.7,0.02887988016,0.003284194032
1.71,0.02780242677,-0.00822735246
1.72,0.02232354257,-0.01837943777
1.73,0.01333292027,-0.02556306526
1.74,0.002278077071,-0.02864816363
1.75,-0.009068618696,-0.02716393815
1.76,-0.01889531293,-0.02137308947
1.77,-0.02564235183,-0.01222757447
1.78,-0.0282529059,-0.001212827488
1.79,-0.02634161776,0.00989434182
1.8,-0.02025364681,0.01931465947
1.81,-0.01100446124,0.02555473723
1.82,-0.0001104328121,0.02764747586
1.83,0.01066158146,0.02530504236
1.84,0.01958401825,0.01895950204
1.85,0.02524960692,0.009684970874
1.86,0.02679708053,-0.0009850181828
1.87,0.02404458959,-0.01131375745
1.88,0.01750955113,-0.01964789686
1.89,0.008312939312,-0.02468622973
1.9,-0.002014502504,-0.02568618628
1.91,-0.01179033534,-0.02257454054
1.92,-0.01945863045,-0.01594547843
1.93,-0.02384147909,-0.006948470927
1.94,-0.02432235336,0.002913029656
1.95,-0.02093223917,0.01203640906
1.96,-0.01432656601,0.01898432604
1.97,-0.005659727035,0.02271433108
1.98,0.003618879539,0.02273633378
1.99,0.01201078915,0.01917388617
2,0.01821395359,0.01272227582
2.01,0.0213268581,0.004514102443
2.02,0.02097884695,-0.004081751208
2.03,0.01736795405,-0.01169161111
2.04,0.01120391337,-0.01715918735
2.05,0.003570104884,-0.01972197923
2.06,-0.004268805797,-0.01911486524
2.07,-0.01107896882,-0.01558741244
2.08,-0.01585311735,-0.009836629533
2.09,-0.01795864978,-0.002870968952
2.1,-0.017216475,0.004168025655
2.11,-0.0139019506,0.01019456307
2.12,-0.008672791371,0.01434636836
2.13,-0.00244064905,0.01610542864
2.14,0.003788763499,0.0153554205
2.15,0.009078764638,0.01237121311
2.16,0.01270143767,0.007747417354
2.17,0.0142334436,0.002282420704
2.18,0.01359631819,-0.003159750527
2.19,0.0110397792,-0.007785776421
2.2,0.00707599561,-0.01098617755
2.21,0.002379942743,-0.01240970101
2.22,-0.002325123059,-0.01199129205
2.23,-0.006377720777,-0.009934279713
2.24,-0.009267316631,-0.0066546493
2.25,-0.01069149648,-0.002700342089
2.26,-0.01057648515,0.001339191071
2.27,-0.009062716621,0.004918484745
2.28,-0.006462327224,0.007604769597
2.29,-0.00319870277,0.009122429026
2.3,0.0002607110786,0.009370601866
2.31,0.003468052459,0.008415773407
2.32,0.006047270519,0.006464506658
2.33,0.00773025008,0.003823273479
2.34,0.008375371423,0.0008526387463
2.35,0.007969707369,-0.002077879715
2.36,0.006617804691,-0.004629626299
2.37,0.004520737643,-0.006526532581
2.38,0.00194901966,-0.00757762573
2.39,-0.0007876593848,-0.007690305826
2.4,-0.003371660311,-0.006874892898
2.41,-0.005507950353,-0.005240989989
2.42,-0.006952560873,-0.002986041207
2.43,-0.007537359453,-0.0003763773732
2.44,-0.007189176179,0.002278728412
2.45,-0.005941003857,0.004658825384
2.46,-0.003933008769,0.006467700137
2.47,-0.001401656438,0.007469140672
2.48,0.001343552154,0.007518804645
2.49,0.003954529968,0.006587526954
2.5,0.006087082642,0.004771764059
2.51,0.007446452006,0.002288122998
2.52,0.007829714139,-0.0005490283833
2.53,0.007158490056,-0.003365311784
2.54,0.005496207944,-0.005775249111
2.55,0.003046037724,-0.007435908831
2.56,0.0001283662974,-0.008097518975
2.57,-0.002860129744,-0.00764314182
2.58,-0.005500668793,-0.006110698487
2.59,-0.007412228526,-0.003693032893
2.6,-0.008308199703,-0.0007149633436
2.61,-0.008041029637,0.002410134471
2.62,-0.006627591037,0.005238337392
2.63,-0.004250782999,0.007359404987
2.64,-0.001236449071,0.00845763513
2.65,0.00199149058,0.008360031804
2.66,0.004971368382,0.007064235971
2.67,0.007270750505,0.004741648275
2.68,0.008550121277,0.001714896623
2.69,0.008613712454,-0.001587314173
2.7,0.007439776163,-0.004691496711
2.71,0.005185631701,-0.007147885109
2.72,0.002166550827,-0.008596100524
2.73,-0.001188586598,-0.00881831792
2.74,-0.004398513625,-0.007772090695
2.75,-0.006998845626,-0.005597950414
2.76,-0.008609390104,-0.002600557202
2.77,-0.008989759085,0.0007940039535
2.78,-0.008075211083,0.004098752092
2.79,-0.005987459077,0.006835569007
2.8,-0.003018731988,0.00860424537
2.81,0.0004088282873,0.009140923749
2.82,0.003802838636,0.008357487566
2.83,0.006671069705,0.006356074816
2.84,0.008592612285,0.003416360562
2.85,0.0092796301,-4.291440699E-05
2.86,0.008620703652,-0.003523010037
2.87,0.00669924341,-0.006516669148
2.88,0.003783894522,-0.008581907382
2.89,0.0002918155068,-0.009407463529
2.9,-0.003270350159,-0.008860229227
2.91,-0.006379636365,-0.007007362648
2.92,-0.008573606607,-0.004109305653
2.93,-0.009519635437,-0.0005841028533
2.94,-0.009066174475,0.003052320608
2.95,-0.007267954897,0.006261555336
2.96,-0.004380764052,0.00856282722
2.97,-0.000825906625,0.009605872523
2.98,0.002870929884,0.009225373124
2.99,0.00615764555,0.007468274756
3,0.008538956924,0.004589254703
3.01,0.009652203707,0.001014411941
3.02,0.009323903727,-0.002721806231
3.03,0.007597968143,-0.006057134481
3.04,0.004730745128,-0.008487237352
3.05,0.00115319284,-0.009643379684
3.06,-0.002594315866,-0.009349772152
3.07,-0.005944629932,-0.007651381582
3.08,-0.008391066336,-0.004807572802
3.09,-0.009565559725,-0.001252346787
3.1,-0.009295345126,0.002472715686
3.11,-0.007629163392,0.005802288654
3.12,-0.004828831232,0.008234669063
3.13,-0.001327570764,0.00940885124
3.14,0.002338170844,0.009159153654
3.15,0.005612450535,0.007538899821
3.16,0.008005723822,0.004809684165
3.17,0.009169302275,0.001398312962
3.18,0.008946776413,-0.00217132908
3.19,0.00739467613,-0.005360328547
3.2,0.004769705222,-0.007697528055
3.21,0.001485282724,-0.008850027251
3.22,-0.001955050437,-0.008670655082
3.23,-0.005036329837,-0.007215622574
3.24,-0.007310358534,-0.004730497594
3.25,-0.008461281556,-0.001607707829
3.26,-0.008348863926,0.001676861611
3.27,-0.00702366974,0.004637638823
3.28,-0.004712967121,0.006851807011
3.29,-0.00178077204,0.008019469849
3.3,0.00133074635,0.008003026156
3.31,0.004168811675,0.006840867581
3.32,0.006336039255,0.004734679944
3.33,0.007545247355,0.002013637203
3.34,0.007655709604,-0.0009179919894
3.35,0.006686693876,-0.003641294136
3.36,0.004807720999,-0.005782102639
3.37,0.002308356337,-0.007061022302
3.38,-0.0004469693869,-0.007327718363
3.39,-0.003071953179,-0.006575776646
3.4,-0.005211563833,-0.004937383276
3.41,-0.00658826381,-0.002659833425
3.42,-0.007035709556,-6.809798371E-05
3.43,-0.006516380721,0.002480875713
3.44,-0.00512187458,0.00464586553
3.45,-0.003056808614,0.006145045385
3.46,-0.0006091523167,0.006790502376
3.47,0.001888805107,0.006509874004
3.48,0.004103829889,0.005353054254
3.49,0.00574420477,0.003483676091
3.5,0.006596321253,0.00115675695
3.51,0.006551218551,-0.001314637464
3.52,0.005618038445,-0.003599699699
3.53,0.003922807096,-0.005392385653
3.54,0.001692575896,-0.006451049574
3.55,-0.0007733755939,-0.006630356587
3.56,-0.003142003567,-0.005901370749
3.57,-0.005090067244,-0.004356976538
3.58,-0.006347395381,-0.002201475783
3.59,-0.006734213955,0.0002748448514
3.6,-0.006187370766,0.00273337878
3.61,-0.00477149094,0.004832513913
3.62,-0.002672931102,0.006274718156
3.63,-0.0001766699758,0.006848949794
3.64,0.002371313966,0.006462260591
3.65,0.004611421203,0.005155686618
3.66,0.006221163631,0.003101550367
3.67,0.006962057448,0.0005818758941
3.68,0.006715728992,-0.00204961523
3.69,0.005503594885,-0.00441692475
3.7,0.00348670501,-0.006175718951
3.71,0.0009451800532,-0.00706396993
3.72,-0.001760283118,-0.006941711711
3.73,-0.004239593981,-0.005813730355
3.74,-0.006129837764,-0.00383140314
3.75,-0.00714893249,-0.001272946236
3.76,-0.007138319954,0.001495433636
3.77,-0.006088118234,0.004072058748
3.78,-0.004140676987,0.00607838423
3.79,-0.001571653338,0.007215052145
3.8,0.001248912298,0.007307007563
3.81,0.003910006694,0.006330806984
3.82,0.006019785507,0.004419823653
3.83,0.007263590328,0.001846304022
3.84,0.007451200802,-0.001017329981
3.85,0.006546190708,-0.003752422474
3.86,0.004672842815,-0.005955435682
3.87,0.002099361794,-0.007297700299
3.88,-0.000800375133,-0.007574699052
3.89,-0.003601089833,-0.0067374788
3.9,-0.00588853083,-0.004901354658
3.91,-0.007320900973,-0.002330376695
3.92,-0.007680176512,0.0006004026351
3.93,-0.006905599492,0.003459514769
3.94,-0.005104171351,0.005822609857
3.95,-0.002536318723,0.007335608692
3.96,0.0004214366831,0.007768073312
3.97,0.003331527149,0.00704872203
3.98,0.005760113079,0.005277559263
3.99,0.007342015684,0.002712501864
4,0.007836070672,-0.0002678276455
4.01,0.007162451554,-0.00321986239
4.02,0.005416094359,-0.005701246332
4.03,0.002853876192,-0.007337518309
4.04,-0.0001428534372,-0.00787921984
4.05,-0.003125008813,-0.007240617981
4.06,-0.005643360832,-0.005513905634
4.07,-0.007316779286,-0.002956409181
4.08,-0.007890664222,4.754779346E-05
4.09,-0.007276471004,0.003044536779
4.1,-0.00556603992,0.005580946311
4.11,-0.003018278083,0.007272380763
4.12,-2.002382134E-05,0.007862783997
4.13,0.002973019327,0.007264027262
4.14,0.005506210983,0.005569675111
4.15,0.007195914457,0.003040649157
4.16,0.007788522341,6.491978923E-05
4.17,0.007199302765,-0.002902533837
4.18,0.005524955241,-0.005410111339
4.19,0.003027912818,-0.007079281507
4.2,9.49046991E-05,-0.007662633297
4.21,-0.002823624262,-0.007081202791
4.22,-0.005283618235,-0.005435307499
4.23,-0.006915949791,-0.002987355566
4.24,-0.007482623348,-0.0001195626663
4.25,-0.006911921448,0.002726524496
4.26,-0.005307208452,0.005118975565
4.27,-0.002928356959,0.006701941753
4.28,-0.0001491267107,0.007249232142
4.29,0.002602408448,0.006696805445
4.3,0.00491072659,0.005149472186
4.31,0.006436392529,0.00286128219
4.32,0.00696639507,0.0001932486042
4.33,0.006443739689,-0.002444445021
4.34,0.004972216309,-0.004656343254
4.35,0.002796284032,-0.006121610259
4.36,0.0002599268698,-0.006640730828
4.37,-0.002248490047,-0.006162196046
4.38,-0.004356380616,-0.004785708344
4.39,-0.005762667848,-0.002742226666
4.4,-0.006280680709,-0.0003547629012
4.41,-0.005862136018,0.002013328617
4.42,-0.004599298889,0.004014172466
4.43,-0.002705902219,0.005366638531
4.44,-0.0004806393284,0.005895478275
4.45,0.001740471591,0.005552966709
4.46,0.003635166483,0.004420612023
4.47,0.004941641483,0.002691640457
4.48,0.00549414088,0.0006378282115
4.49,0.005242719037,-0.001433590969
4.5,0.00425509854,-0.003226052517
4.51,0.002701329623,-0.004495880334
4.52,0.0008244574905,-0.005084649411
4.53,-0.001097735083,-0.004937557648
4.54,-0.002793857662,-0.004105979293
4.55,-0.004036837299,-0.002734789297
4.56,-0.004673428348,-0.001037207324
4.57,-0.004641658051,0.0007384875251
4.58,-0.003974531267,0.002345166198
4.59,-0.00279037929,0.003570736487
4.6,-0.001272082487,0.004265168726
4.61,0.0003612224093,0.004357414445
4.62,0.001885578259,0.003860612432
4.63,0.003102324849,0.002865701094
4.64,0.003862967446,0.0015251145
4.65,0.00408588592,2.943096658E-05
4.66,0.003763292378,-0.001419460442
4.67,0.00295825248,-0.002634953256
4.68,0.001792882231,-0.003468701691
4.69,0.0004298572598,-0.003827358509
4.7,-0.0009499788481,-0.003681456766
4.71,-0.002170886894,-0.003065926717
4.72,-0.003083526298,-0.002072791687
4.73,-0.003581899,-0.0008374605219
4.74,-0.003614280672,0.0004793535096
4.75,-0.003187295702,0.001711742993
4.76,-0.002363111505,0.002708378173
4.77,-0.001250457984,0.003349799904
4.78,9.242072639E-06,0.003561509656
4.79,0.001258948358,0.003321668566
4.8,0.002344392118,0.002662807995
4.81,0.003131854937,0.001667544848
4.82,0.003523536197,0.000458846329
4.83,0.003468962208,-0.0008141265916
4.84,0.002971253377,-0.001993168823
4.85,0.002087520665,-0.00292944966
4.86,0.0009231910885,-0.003501301377
4.87,-0.0003793579876,-0.003629448894
4.88,-0.001656877625,-0.003287889358
4.89,-0.002744491481,-0.002508954965
4.9,-0.003496079014,-0.001381608141
4.91,-0.003803454792,-4.270646623E-05
4.92,-0.003611917014,0.001338213397
4.93,-0.00292994266,0.002579228865
4.94,-0.00183132477,0.003509208035
4.95,-0.00044886158,0.003991073452
4.96,0.001040250709,0.003942059263
4.97,0.00243601772,0.003347967406
4.98,0.003541829967,0.002268968951
4.99,0.004191935724,0.0008354578255
5,0.004276412728,-0.000766245727
5.01,0.003759862945,-0.002317084614
5.02,0.002690641426,-0.003594667752
5.03,0.001198561264,-0.004405050745
5.04,-0.0005194282277,-0.004612380394
5.05,-0.002224317279,-0.004161845192
5.06,-0.003667857588,-0.003092033903
5.07,-0.004628709915,-0.001534128386
5.08,-0.004946661649,0.0003028080533
5.09,-0.00454958468,0.002159090472
5.1,-0.003468565378,0.00376082539
5.11,-0.001838178015,0.004860433488
5.12,0.0001189997546,0.00527527497
5.13,0.002122117564,0.004918298349
5.14,0.003872189623,0.003815525471
5.15,0.005096940015,0.002106961489
5.16,0.005593598965,2.994628491E-05
5.17,0.005262856486,-0.002113310905
5.18,0.004128231553,-0.003999675124
5.19,0.002337145762,-0.005334130803
5.2,0.000142722833,-0.005896434637
5.21,-0.002131639121,-0.005577917677
5.22,-0.004140036001,-0.004402218032
5.23,-0.005567099275,-0.002526026573
5.24,-0.006178108249,-0.0002189639991
5.25,-0.005858114714,0.002174984927
5.26,-0.004633476527,0.004289004504
5.27,-0.002671778964,0.005790191538
5.28,-0.0002594542231,0.006432643066
5.29,0.002240027088,0.006098312664
5.3,0.00444129935,0.004818753278
5.31,0.005997152445,0.002773732585
5.32,0.00665402462,0.0002663179596
5.33,0.006293945565,-0.002322187385
5.34,0.004955887939,-0.004590734408
5.35,0.002832635678,-0.00618138617
5.36,0.0002431417768,-0.00683656709
5.37,-0.002415690649,-0.006441413446
5.38,-0.004730462026,-0.005044152126
5.39,-0.006336341035,-0.002850852092
5.4,-0.006975361006,-0.0001949732702
5.41,-0.006538493218,0.002513778206
5.42,-0.005084524968,0.004853363936
5.43,-0.002832427889,0.006455998361
5.44,-0.0001281496031,0.007066751779
5.45,0.002609091875,0.006584693886
5.46,0.004952570078,0.005079834155
5.47,0.0065354116,0.002782972877
5.48,0.007108773128,4.993339317E-05
5.49,0.006581476488,-0.002694210516
5.5,0.005034699861,-0.005022049327
5.51,0.002709328745,-0.006571214062
5.52,-3.202878879E-05,-0.007101447859
5.53,-0.002762281807,-0.006532267748
5.54,-0.005057185364,-0.004955246297
5.55,-0.006561999947,-0.002619035272
5.56,-0.007046876277,0.0001103677248
5.57,-0.00644222458,0.002807658205
5.58,-0.004848587621,0.005055234959
5.59,-0.002519651429,0.006508490101
5.6,0.0001786781448,0.006949061134
5.61,0.002826427399,0.006317750435
5.62,0.005015571254,0.004722143156
5.63,0.006413422648,0.002418028415
5.64,0.006813463493,-0.0002321145673
5.65,0.006165815577,-0.002816731056
5.66,0.004582880562,-0.004939642996
5.67,0.0023196564,-0.006281155467
5.68,-0.0002677815827,-0.006646337717
5.69,-0.002778793373,-0.00599318054
5.7,-0.004830628597,-0.00443661374
5.71,-0.006117023894,-0.002228208069
5.72,-0.006453944461,0.0002848304391
5.73,-0.005805653774,0.002714629536
5.74,-0.004287486461,0.004692822643
5.75,-0.00214537684,0.005926551182
5.76,0.0002842228019,0.006241776126
5.77,0.002627465176,0.005607521937
5.78,0.004530850104,0.00413774931
5.79,0.005714648759,0.002071058582
5.8,0.006013940099,-0.0002681853679
5.81,0.005401270031,-0.002520958803
5.82,0.003987888867,-0.004348847012
5.83,0.002003861253,-0.005484957975
5.84,-0.0002394432048,-0.005772826529
5.85,-0.002398366871,-0.005187660697
5.86,-0.004149765036,-0.003837102286
5.87,-0.00523946934,-0.001941859608
5.88,-0.005519140507,0.0002003714843
5.89,-0.004966175223,0.002261814021
5.9,-0.003684040297,0.003934944986
5.91,-0.001883456135,0.004978509944
5.92,0.0001522325726,0.005252311213
5.93,0.002111822226,0.004735745952
5.94,0.003704060855,0.003527681517
5.95,0.00470112211,0.001828177553
5.96,0.004971215192,-9.466057498E-05
5.97,0.004495645622,-0.001947211488
5.98,0.003368164391,-0.003455468481
5.99,0.001777236777,-0.00440577877
6,-2.551707316E-05,-0.004675082835
