"Freq [GHz]","re(S(Rx_p1,Tx_p1)) []","im(S(Rx_p1,Tx_p1)) []"
1,-0.08165464974,0.06836390188
1.01,-0.05028809602,0.09354410717
1.02,-0.01191738793,0.1052444498
1.03,0.02794765778,0.1018677804
1.04,0.0636126688,0.08397529645
1.05,0.09001164281,0.05419574347
1.06,0.1034264188,0.01684019629
1.07,0.1020104709,-0.02272134049
1.08,0.0860431322,-0.05883149681
1.09,0.05787914941,-0.08635444761
1.1,0.02160215217,-0.1014064682
1.11,-0.01756709262,-0.101904125
1.12,-0.05402192642,-0.08785262551
1.13,-0.08257240803,-0.06133437174
1.14,-0.09918431406,-0.02620083442
1.15,-0.1015492236,0.01248670766
1.16,-0.08940507954,0.04918632669
1.17,-0.06456273279,0.07866939341
1.18,-0.03063626262,0.09676550851
1.19,0.007482770466,0.1009522537
1.2,0.04433061236,0.09070638175
1.21,0.07465440623,0.06756763324
1.22,0.09416083414,0.03490769953
1.23,0.1001236398,-0.002561005066
1.24,0.09176413891,-0.03946516967
1.25,0.07035172536,-0.07054093705
1.26,0.03901162977,-0.09138437437
1.27,0.002269006171,-0.09907514618
1.28,-0.0346041646,-0.09258516919
1.29,-0.06634514603,-0.07291517856
1.3,-0.08845114361,-0.04294122671
1.31,-0.09781764698,-0.006994561101
1.32,-0.09317402112,0.02976381772
1.33,-0.0752553129,0.06208369227
1.34,-0.04668713446,0.08537510349
1.35,-0.01160148024,0.09635987225
1.36,0.02496041321,0.0935327581
1.37,0.05777197481,0.07736742097
1.38,0.08216811886,0.05023903454
1.39,0.09470833351,0.01607593129
1.4,0.09366181914,-0.02020875036
1.41,0.07924626528,-0.05342328738
1.42,0.0535873144,-0.07884001976
1.43,0.02040577725,-0.09286822622
1.44,-0.01552149128,-0.09356145522
1.45,-0.04904901793,-0.08088760092
1.46,-0.07539955323,-0.05672422297
1.47,-0.09084481693,-0.02458103778
1.48,-0.09323311829,0.01090950323
1.49,-0.08228914692,0.04465966148
1.5,-0.05964414243,0.07185573681
1.51,-0.02859339695,0.08864471386
1.52,0.006382947314,0.09268025894
1.53,0.04026615934,0.08345067074
1.54,0.06821902988,0.06234293858
1.55,0.08627650505,0.03243502242
1.56,0.09190822881,-0.001952625183
1.57,0.08437317543,-0.03588099372
1.58,0.06481667175,-0.06450183031
1.59,0.03609718789,-0.0837504875
1.6,0.002368977565,-0.09092330174
1.61,-0.03151856463,-0.08505748803
1.62,-0.06071804325,-0.0670601655
1.63,-0.08107752341,-0.03956925438
1.64,-0.0897311283,-0.006567409871
1.65,-0.08550275311,0.0271946152
1.66,-0.06906598564,0.05688177802
1.67,-0.04283845746,0.07826735362
1.68,-0.01062695295,0.0883351357
1.69,0.02292477871,0.0857053838
1.7,0.05300551691,0.07082426913
1.71,0.07532688832,0.04589070566
1.72,0.08673542689,0.01453221036
1.73,0.08565890547,-0.01872260339
1.74,0.07232359922,-0.0490982852
1.75,0.04871229195,-0.07225903324
1.76,0.01827022318,-0.08492861336
1.77,-0.01459759323,-0.08535488317
1.78,-0.04516438566,-0.07355282071
1.79,-0.06906248702,-0.05129214202
1.8,-0.08290877031,-0.02183256361
1.81,-0.08478482179,0.01055383492
1.82,-0.07450341242,0.04120313768
1.83,-0.05362404522,0.06573269985
1.84,-0.02521682969,0.08066940171
1.85,0.006589656946,0.08394265154
1.86,0.03720981509,0.07517185586
1.87,0.06226388226,0.05570828283
1.88,0.07820602587,0.02842708673
1.89,0.08282723295,-0.002698522275
1.9,0.07556140737,-0.03317767634
1.91,0.05755218986,-0.05865167585
1.92,0.03147304467,-0.07551881276
1.93,0.001128944281,-0.08144428097
1.94,-0.02910070261,-0.07568279916
1.95,-0.05489591596,-0.05916942784
1.96,-0.07261466604,-0.03436805963
1.97,-0.07980722308,-0.004902171341
1.98,-0.07555363336,0.02497647532
1.99,-0.06057804359,0.05100287419
2,-0.03712632702,0.06950825364
2.01,-0.008627663424,0.07793673998
2.02,0.02080857765,0.075196528
2.03,0.04698647399,0.06179766816
2.04,0.06622171949,0.03975982377
2.05,0.07585903002,0.01230644748
2.06,0.07463635342,-0.01660800296
2.07,0.06284640398,-0.04286819501
2.08,0.04227561577,-0.06278309751
2.09,0.01593246895,-0.07360311725
2.1,-0.01239326965,-0.07389709416
2.11,-0.03867566636,-0.0637380123
2.12,-0.05922372676,-0.04467406266
2.13,-0.07119772213,-0.01949225451
2.14,-0.07299894206,0.008189219779
2.15,-0.06447993827,0.03444022398
2.16,-0.04694825273,0.0555751681
2.17,-0.02296588665,0.06866829147
2.18,0.004024751816,0.07195616019
2.19,0.03019391136,0.0650725201
2.2,0.0518662061,0.04908473594
2.21,0.06603472639,0.02632906663
2.22,0.07077607636,7.005741083E-05
2.23,0.06550947322,-0.02596649141
2.24,0.05106535917,-0.04812047209
2.25,0.0295558367,-0.06331017768
2.26,0.004066892159,-0.0694593187
2.27,-0.02178299926,-0.06577948107
2.28,-0.04435506497,-0.05286980256
2.29,-0.0605010408,-0.03262143374
2.3,-0.06800115307,-0.007941678714
2.31,-0.06586852159,0.01766221715
2.32,-0.05447831338,0.04058032046
2.33,-0.03550476715,0.05760803802
2.34,-0.01167622455,0.06639358169
2.35,0.01361623827,0.06576245144
2.36,0.03680064299,0.05587414561
2.37,0.05462807832,0.03819013896
2.38,0.0646277537,0.01525883561
2.39,0.06544937547,-0.009651059073
2.4,0.05704532833,-0.03301612198
2.41,0.04066801562,-0.05155647531
2.42,0.01868394869,-0.06269623603
2.43,-0.005767952366,-0.06492143185
2.44,-0.0292245437,-0.05798556437
2.45,-0.04838909569,-0.04293486709
2.46,-0.06059478656,-0.02195099662
2.47,-0.06417579045,0.001965264264
2.48,-0.05869425655,0.02542339705
2.49,-0.04499226248,0.04512409374
2.5,-0.02506283152,0.05832342545
2.51,-0.001759739344,0.06321484548
2.52,0.02161154569,0.0591758235
2.53,0.04176303054,0.04684551571
2.54,0.05588677353,0.02802405141
2.55,0.06204573997,0.005409284912
2.56,0.059438568,-0.01779037049
2.57,0.04850219707,-0.03831133657
2.58,0.03083951703,-0.05329377232
2.59,0.008983949538,-0.06067945513
2.6,-0.01396433459,-0.05949338346
2.61,-0.03477821302,-0.04997077382
2.62,-0.05055699089,-0.03351323468
2.63,-0.05912972005,-0.01248201619
2.64,-0.05935253675,0.01014104979
2.65,-0.05125954191,0.03117615051
2.66,-0.03604765605,0.04769174542
2.67,-0.01589926094,0.05741195419
2.68,0.006330998684,0.05902867307
2.69,0.02752026248,0.05237589618
2.7,0.04471521715,0.03844334043
2.71,0.0555423698,0.01922903916
2.72,0.05853408416,-0.002547082594
2.73,0.05332589202,-0.023827592
2.74,0.04069886507,-0.04164567568
2.75,0.02246252645,-0.05353726642
2.76,0.001195872652,-0.05788019653
2.77,-0.02011647769,-0.0541139999
2.78,-0.03850182864,-0.04281086317
2.79,-0.05141247557,-0.02558900832
2.8,-0.05707719448,-0.004881589721
2.81,-0.05474295392,0.01640598606
2.82,-0.04477410863,0.03530225354
2.83,-0.0285961778,0.04918287959
2.84,-0.008492799581,0.05613369745
2.85,0.01271536142,0.0552136368
2.86,0.03206484269,0.04658162936
2.87,0.04686194101,0.03147046609
2.88,0.05505645654,0.01201174423
2.89,0.05552500587,-0.00906342785
2.9,0.04822489216,-0.02880621074
2.91,0.03419747151,-0.0444612266
2.92,0.01542078701,-0.05385009589
2.93,-0.00546790353,-0.05567412134
2.94,-0.02554106685,-0.04969413588
2.95,-0.04198997273,-0.0367625536
2.96,-0.05251697929,-0.01870316265
2.97,-0.05565636647,0.001944644338
2.98,-0.05097892396,0.02228161718
2.99,-0.03915161948,0.03945479084
3,-0.02184383733,0.05105730576
3.01,-0.001493099951,0.05546593745
3.02,0.01903711451,0.05206894131
3.03,0.03685963169,0.04135206277
3.04,0.04946951999,0.02483038004
3.05,0.05509662822,0.004835282814
3.06,0.0529549886,-0.01581368911
3.07,0.04335374305,-0.0342061044
3.08,0.02765369501,-0.04775106611
3.09,0.008075361987,-0.0545428585
3.1,-0.01261456812,-0.05363005051
3.11,-0.0314941835,-0.04514984068
3.12,-0.04589943047,-0.03030845052
3.13,-0.05380081286,-0.01121018477
3.14,-0.05409025988,0.009440723499
3.15,-0.04673740786,0.0287232499
3.16,-0.03279307173,0.04391333479
3.17,-0.01423940926,0.05286950129
3.18,0.006291896581,0.05433556472
3.19,0.02589332286,0.04811747043
3.2,0.0417938808,0.03510923947
3.21,0.05175153549,0.01716450923
3.22,0.05436993947,-0.003167854665
3.23,0.04929461158,-0.02300627666
3.24,0.03726093673,-0.03954542912
3.25,0.01998750677,-0.05045344979
3.26,-6.96676393E-05,-0.05420106056
3.27,-0.02006681489,-0.05027607172
3.28,-0.03717602913,-0.03925318446
3.29,-0.04898547465,-0.02270964827
3.3,-0.05383947118,-0.002999230495
3.31,-0.05107050183,0.01708300764
3.32,-0.04109068373,0.03469729597
3.33,-0.02533026524,0.04736077792
3.34,-0.00603240021,0.05329736708
3.35,0.0140662761,0.05168658659
3.36,0.03212373887,0.04277661036
3.37,0.04559429794,0.02784603412
3.38,0.05258721682,0.009020302232
3.39,0.05213178659,-0.01103081737
3.4,0.0443117841,-0.02947165639
3.41,0.03025077302,-0.04370137796
3.42,0.01195076918,-0.05172046702
3.43,-0.007992575134,-0.05241142757
3.44,-0.02675780189,-0.04569436005
3.45,-0.04169645151,-0.03253580564
3.46,-0.05070656537,-0.01480994805
3.47,-0.05252829395,0.00496795247
3.48,-0.04692008436,0.02399806674
3.49,-0.03469080865,0.0395920147
3.5,-0.01758352589,0.04955246645
3.51,0.001972510063,0.05248277911
3.52,0.02120641868,0.04798304164
3.53,0.03739805724,0.03670496448
3.54,0.04826268333,0.0202580009
3.55,0.05227353224,0.0009801126002
3.56,0.04887672702,-0.0183942725
3.57,0.03856818842,-0.03512202488
3.58,0.02282176272,-0.0468398365
3.59,0.003878871942,-0.05189844529
3.6,-0.0155703746,-0.04959521932
3.61,-0.03276927601,-0.04027219708
3.62,-0.04528555509,-0.02526579846
3.63,-0.05135576584,-0.00671550163
3.64,-0.05013422702,0.01274117512
3.65,-0.0418112332,0.03034389959
3.66,-0.0275839282,0.04360152631
3.67,-0.009484216213,0.05064511301
3.68,0.009911566793,0.05049182194
3.69,0.02784970062,0.04318234529
3.7,0.04179047676,0.02977257613
3.71,0.04976821286,0.01218104623
3.72,0.05066875486,-0.007085807767
3.73,0.04438521895,-0.02529114471
3.74,0.03183017462,-0.0398569049
3.75,0.01480297595,-0.0487292443
3.76,-0.004268428793,-0.05066834184
3.77,-0.02267408484,-0.04542164623
3.78,-0.03780745351,-0.03375636084
3.79,-0.04753477697,-0.01734707395
3.8,-0.05049599663,0.001464952461
3.81,-0.04629478057,0.02000615835
3.82,-0.03555114606,0.03565089776
3.83,-0.01980978302,0.04619336648
3.84,-0.001317686711,0.05015854511
3.85,0.01729682456,0.04700834706
3.86,0.03339780423,0.03721421721
3.87,0.04471493113,0.02218647894
3.88,0.04966348049,0.004071055467
3.89,0.04756595987,-0.01455708962
3.9,0.0387444778,-0.03105997414
3.91,0.02447133553,-0.04311005775
3.92,0.00678542934,-0.0490183028
3.93,-0.01179902078,-0.04797065044
3.94,-0.02864980671,-0.04013986753
3.95,-0.04138937116,-0.026657464
3.96,-0.0482300416,-0.009450203123
3.97,-0.0482246467,0.009035174766
3.98,-0.04139743488,0.02617970787
3.99,-0.02873724525,0.03956306084
4,-0.01205439068,0.04730500229
4.01,0.006278055371,0.04832938279
4.02,0.02366163159,0.04251359064
4.03,0.03764060387,0.03070275257
4.04,0.04624871955,0.01458710921
4.05,0.04828567585,-0.003539680752
4.06,0.04348445041,-0.02110679077
4.07,0.03254617027,-0.03563067121
4.08,0.01703797536,-0.04506606237
4.09,-0.0008312941382,-0.04809398831
4.1,-0.01852552699,-0.04430618245
4.11,-0.03354116828,-0.03426014376
4.12,-0.04376141885,-0.01939738306
4.13,-0.04775470246,-0.001836791406
4.14,-0.04497530474,0.01592729605
4.15,-0.03583803583,0.03137934775
4.16,-0.02165667246,0.04233889797
4.17,-0.004455252217,0.04726836019
4.18,0.01332071587,0.04548891161
4.19,0.02915194143,0.03727409923
4.2,0.04080251044,0.02380822392
4.21,0.0466358544,0.007015762964
4.22,0.04584484163,-0.0107136333
4.23,0.0385635962,-0.02686528295
4.24,0.02584551553,-0.03915632175
4.25,0.009510989144,-0.04585858622
4.26,-0.008113191035,-0.04604181542
4.27,-0.02452542141,-0.03970289752
4.28,-0.03740459494,-0.02776316946
4.29,-0.04493861567,-0.011934573
4.3,-0.04607957045,0.005525902112
4.31,-0.04068957784,0.02213824768
4.32,-0.02955698768,0.03555195051
4.33,-0.01428109724,0.04387882823
4.34,0.0029577587,0.04595900211
4.35,0.01970966131,0.04152249938
4.36,0.03360356234,0.0312239536
4.37,0.04268311982,0.0165459948
4.38,0.04568229463,-0.0004144044271
4.39,0.04220185205,-0.01724579441
4.4,0.03276216192,-0.03156538616
4.41,0.0187253728,-0.04135657587
4.42,0.002098614927,-0.04525300199
4.43,-0.01475328379,-0.04272910636
4.44,-0.02944438861,-0.03417064177
4.45,-0.0399055965,-0.02081573691
4.46,-0.04467602824,-0.004575535501
4.47,-0.04310684015,0.01223955252
4.48,-0.03544905921,0.02724872131
4.49,-0.02281363243,0.03833791031
4.5,-0.00701003931,0.0439574642
4.51,0.009713037702,0.0433384243
4.52,0.0249877753,0.03659731797
4.53,0.03666242899,0.02471525298
4.54,0.04310426351,0.009394968279
4.55,0.04342758798,-0.007183292989
4.56,0.03761511406,-0.02267206245
4.57,0.02651609346,-0.0348889227
4.58,0.01172216708,-0.04212377946
4.59,-0.004660906228,-0.04337792276
4.6,-0.02031290071,-0.03850152694
4.61,-0.03302753784,-0.02821073298
4.62,-0.04102322503,-0.0139825203
4.63,-0.04319241399,0.002157205292
4.64,-0.03925473961,0.01792192339
4.65,-0.02979281969,0.03108822137
4.66,-0.01616621582,0.03980914891
4.67,-0.0003162297129,0.04287309781
4.68,0.01551047803,0.03987196604
4.69,0.02908014869,0.03125529432
4.7,0.03848703217,0.01826321871
4.71,0.04242092887,0.002748182193
4.72,0.04034962829,-0.01308901479
4.73,0.03259084061,-0.02701126477
4.74,0.0202638908,-0.03706109643
4.75,0.005128440378,-0.04183590672
4.76,-0.01066657896,-0.04068377554
4.77,-0.02488803565,-0.03379249901
4.78,-0.03553437796,-0.02215965217
4.79,-0.041117458,-0.007448345929
4.8,-0.04087068394,0.008250509983
4.81,-0.03485433953,0.02271547054
4.82,-0.02394356305,0.03390906976
4.83,-0.00970114195,0.0402650165
4.84,0.005846413738,0.04090753363
4.85,0.02049742253,0.03577207002
4.86,0.03218707769,0.02561071364
4.87,0.03927869862,0.01188204794
4.88,0.04079303753,-0.003458421553
4.89,0.03654346309,-0.01823711813
4.9,0.02715834363,-0.03037069036
4.91,0.01398804208,-0.03815994832
4.92,-0.001089691649,-0.04052790181
4.93,-0.01593781875,-0.03716851826
4.94,-0.02846323706,-0.02858566573
4.95,-0.03691202879,-0.01601738955
4.96,-0.04011502976,-0.001256940507
4.97,-0.03764932749,0.01360348905
4.98,-0.02989342591,0.02646960908
4.99,-0.01796900604,0.03554026808
5,-0.00357828582,0.03955943114
5.01,0.01123934668,0.03798967057
5.02,0.02439654776,0.03108328454
5.03,0.03405201496,0.0198417766
5.04,0.03886785711,0.005870225015
5.05,0.03819441901,-0.00885219354
5.06,0.03215713504,-0.02225265032
5.07,0.02163395503,-0.03245631897
5.08,0.00812733421,-0.03804823341
5.09,-0.006450474594,-0.0382688607
5.1,-0.02004810071,-0.03311648375
5.11,-0.03076340049,-0.02334274789
5.12,-0.03710899914,-0.01034277108
5.13,-0.03821806698,0.004044065197
5.14,-0.03396199602,0.01779418496
5.15,-0.02496414535,0.028984013
5.16,-0.01250842667,0.0360584695
5.17,0.001643839582,0.03804640682
5.18,0.0155026869,0.03469327403
5.19,0.02712881182,0.02649300978
5.2,0.0349043267,0.01461529703
5.21,0.03775727654,0.000738890102
5.22,0.03530888228,-0.01318527413
5.23,0.02792338298,-0.02520783211
5.24,0.01665399228,-0.03365330896
5.25,0.003092959489,-0.03735306541
5.26,-0.01085297443,-0.03580658864
5.27,-0.02323014667,-0.02924893666
5.28,-0.03231112219,-0.0186152839
5.29,-0.03683533152,-0.005407865553
5.3,-0.03618375234,0.008515813501
5.31,-0.03046347337,0.02120373202
5.32,-0.02049059759,0.0308825547
5.33,-0.007674137804,0.03620512649
5.34,0.006182644896,0.03643777301
5.35,0.0191355282,0.03156138961
5.36,0.02937174047,0.02227238277
5.37,0.0354633899,0.00988353415
5.38,0.03656651759,-0.003861162958
5.39,0.03253803475,-0.01703164494
5.4,0.02395432469,-0.02778249912
5.41,0.01202906649,-0.03461133611
5.42,-0.001558057632,-0.03656866168
5.43,-0.01489764936,-0.03338993094
5.44,-0.02611868116,-0.02553140034
5.45,-0.03365077356,-0.01410489083
5.46,-0.03644391099,-0.0007207464382
5.47,-0.03411485258,0.01273887025
5.48,-0.02699980749,0.02438446302
5.49,-0.01610611256,0.03258432347
5.5,-0.002969824777,0.03619309903
5.51,0.01056066826,0.03471178913
5.52,0.02258456053,0.02835681048
5.53,0.03141553229,0.01802855837
5.54,0.03581818024,0.005184007427
5.55,0.03518082872,-0.008368643042
5.56,0.02960054755,-0.02072435427
5.57,0.01986855469,-0.03014889324
5.58,0.00735817855,-0.03532214997
5.59,-0.006168770732,-0.03552300023
5.6,-0.01880993897,-0.03072983351
5.61,-0.02878980265,-0.02162273465
5.62,-0.03470892209,-0.009487127409
5.63,-0.03574010158,0.003967481143
5.64,-0.03174397569,0.01684811708
5.65,-0.02328787864,0.02734447518
5.66,-0.01156544336,0.03398318583
5.67,0.001771690227,0.03583452773
5.68,0.0148463548,0.03264260633
5.69,0.02581983337,0.02486078232
5.7,0.03315025018,0.01358744339
5.71,0.03580909869,0.0004112000428
5.72,0.03342552592,-0.01281270911
5.73,0.02633814418,-0.02422337426
5.74,0.01554712572,-0.03221587328
5.75,0.002573331969,-0.03566688241
5.76,-0.01075572335,-0.03409255241
5.77,-0.02256300717,-0.02771647114
5.78,-0.03118607078,-0.01743815304
5.79,-0.03541100944,-0.004706460899
5.8,-0.03464337962,0.008684281384
5.81,-0.02899201204,0.02084685527
5.82,-0.0192538797,0.03006690186
5.83,-0.006802076764,0.03504448681
5.84,0.006607410776,0.03507745986
5.85,0.0190830203,0.03016073868
5.86,0.0288642435,0.02098744165
5.87,0.03457003144,0.00885159039
5.88,0.03539393666,-0.004534034978
5.89,0.03121839849,-0.01727932423
5.9,0.02263192428,-0.02758357851
5.91,0.01084658518,-0.03398995445
5.92,-0.002472690127,-0.03559165643
5.93,-0.01544305724,-0.03216065726
5.94,-0.02622983352,-0.0241806097
5.95,-0.03330613042,-0.01277911689
5.96,-0.03566928141,0.0004312397921
5.97,-0.03298333518,0.01358077362
5.98,-0.0256272854,0.02480730669
5.99,-0.01464202502,0.03252007814
6,-0.001583366049,0.03562550949
