"Freq [GHz]","re(S(Rx_p1,Tx_p1)) []","im(S(Rx_p1,Tx_p1)) []"
1,-0.003444410069,0.01309851499
1.01,0.001724187164,0.01352156296
1.02,0.006719313268,0.01196447401
1.03,0.01080088849,0.008614933631
1.04,0.01334332977,0.003931891183
1.05,0.01393369682,-0.001413084771
1.06,0.01244214729,-0.006629793961
1.07,0.009051918,-0.01092615213
1.08,0.004241705899,-0.01363044103
1.09,-0.001279294473,-0.01429969365
1.1,-0.006675519119,-0.01279593757
1.11,-0.01111310009,-0.009316377565
1.12,-0.01389181819,-0.004370666239
1.13,-0.01455932415,0.001292932201
1.14,-0.01298816064,0.006801928331
1.15,-0.009401770985,0.01129672863
1.16,-0.004343950477,0.01406828567
1.17,0.001404324961,0.01467343676
1.18,0.006947743612,0.013008424
1.19,0.01141929879,0.009327876089
1.2,0.01411927241,0.004205616172
1.21,0.01462755203,-0.00155654613
1.22,0.01287067842,-0.007057100868
1.23,0.009132619736,-0.01143904035
1.24,0.004007721856,-0.01402622634
1.25,-0.001696063396,-0.01442963685
1.26,-0.007087390404,-0.0126064324
1.27,-0.01133356766,-0.008862810747
1.28,-0.01379122953,-0.003801026946
1.29,-0.01410472183,0.001779888457
1.3,-0.01225701456,0.007012820821
1.31,-0.008566040377,0.01109940584
1.32,-0.003628375969,0.01343299082
1.33,0.001779398436,0.01368858171
1.34,0.006824880184,0.0118665226
1.35,0.01074929042,0.008284464171
1.36,0.0129818101,0.003520548685
1.37,0.01322158222,-0.001681712231
1.38,0.01147589063,-0.006530839327
1.39,0.008050290631,-0.0103082655
1.4,0.003494027281,-0.01247417985
1.41,-0.001489266646,-0.01274294728
1.42,-0.00615082579,-0.01111801921
1.43,-0.009808908925,-0.007882783784
1.44,-0.01194719354,-0.003550498295
1.45,-0.01228556533,0.001217706426
1.46,-0.01081413144,0.005713557625
1.47,-0.007787006132,0.009285850409
1.48,-0.003678300991,0.01143309129
1.49,0.0008920310475,0.01187183622
1.5,0.005250965316,0.01057192416
1.51,0.008770141744,0.007754748938
1.52,0.01095474616,0.003855941891
1.53,0.01151139473,-0.0005413378997
1.54,0.01038610768,-0.004792488665
1.55,0.007767759947,-0.008284535242
1.56,0.004057192489,-0.01052311409
1.57,-0.0001931585824,-0.01120136726
1.58,-0.004360296995,-0.010241376
1.59,-0.007840798588,-0.00780262738
1.6,-0.01013729238,-0.004256596106
1.61,-0.01092909217,-0.0001312387938
1.62,-0.01011700972,0.003966587054
1.63,-0.007836013517,0.007439635494
1.64,-0.004433957894,0.009786977908
1.65,-0.000419474184,0.01067636595
1.66,0.003613401644,0.009991726241
1.67,0.00707285226,0.007848830499
1.68,0.0094562769,0.00457682313
1.69,0.01042381074,0.0006683270752
1.7,0.00984745708,-0.003294460928
1.71,0.007828529936,-0.006726651898
1.72,0.004680848692,-0.009127505129
1.73,0.0008822942465,-0.01015419305
1.74,-0.002997866237,-0.009671432148
1.75,-0.006384800281,-0.007769603242
1.76,-0.008784013166,-0.004748809803
1.77,-0.009854310152,-0.001071542469
1.78,-0.009456853015,0.00270858539
1.79,-0.007673099016,0.006030947466
1.8,-0.004789263507,0.008411903243
1.81,-0.001250129588,0.009515891167
1.82,0.002410282946,0.009202979995
1.83,0.005650221198,0.007546036816
1.84,0.008001219533,0.004815480136
1.85,0.009136306243,0.001434631454
1.86,0.008915318724,-0.00208684986
1.87,0.007401031791,-0.005230769097
1.88,0.004844475486,-0.007547321217
1.89,0.001642607785,-0.008719529933
1.9,-0.001724357207,-0.008605900785
1.91,-0.004765823816,-0.007255665649
1.92,-0.007052607373,-0.004895399681
1.93,-0.008277022473,-0.001890184665
1.94,-0.008292916318,0.001313825358
1.95,-0.007130726375,0.004256154784
1.96,-0.004986614837,0.00652792792
1.97,-0.002188587452,0.007827540278
1.98,0.0008543493348,0.007998737074
1.99,0.003711925027,0.007046754261
2,0.005992485576,0.005131555114
2.01,0.007394883205,0.002540412243
2.02,0.007745920539,-0.0003553081227
2.03,0.007019273163,-0.003152599403
2.04,0.005334480507,-0.005471259761
2.05,0.00293716356,-0.007003364374
2.06,0.0001638011976,-0.007551874651
2.07,-0.002604011525,-0.007054124571
2.08,-0.004989968076,-0.005587863648
2.09,-0.006671987211,-0.003359566828
2.1,-0.00742387944,-0.0006766715535
2.11,-0.007144804784,0.002092860805
2.12,-0.005872910888,0.004568848775
2.13,-0.003781253126,0.006409267829
2.14,-0.001156092722,0.007356471662
2.15,0.001640204725,0.007273244028
2.16,0.004217399351,0.006163608862
2.17,0.006210756991,0.004174994736
2.18,0.007332517401,0.001580637001
2.19,0.007414184303,-0.001256227708
2.2,0.006433201609,-0.003932115768
2.21,0.004519452356,-0.006060426881
2.22,0.001939750941,-0.007327876327
2.23,-0.0009382654012,-0.00754180206
2.24,-0.003698199133,-0.006660882618
2.25,-0.005935564498,-0.004804026611
2.26,-0.007318068516,-0.002235392123
2.27,-0.007636231905,0.0006728224513
2.28,-0.006836316565,0.00349461098
2.29,-0.005030117088,0.005813379393
2.3,-0.002479722689,0.007284523768
2.31,0.0004407151304,0.007687682747
2.32,0.003300520433,0.006960497458
2.33,0.005676882944,0.005208561744
2.34,0.007218232005,0.002689958269
2.35,0.007696887616,-0.0002232615986
2.36,0.007042978904,-0.003100730943
2.37,0.005354557741,-0.0055180298
2.38,0.002882522756,-0.00711979248
2.39,-7.188957942E-06,-0.007672178031
2.4,-0.002888287149,-0.007096945732
2.41,-0.005337388257,-0.005482238502
2.42,-0.006996391455,-0.003068711187
2.43,-0.007624781166,-0.0002133026065
2.44,-0.007134277613,0.002663800728
2.45,-0.005600939093,0.005141084023
2.46,-0.003253159654,0.006857393126
2.47,-0.0004375135845,0.007564419803
2.48,0.002432424131,0.00716243168
2.49,0.004936744534,0.005714176029
2.5,0.006710510291,0.003435065417
2.51,0.007496809703,0.0006611787928
2.52,0.007183894434,-0.002200197753
2.53,0.00582105459,-0.004730259063
2.54,0.003610968727,-0.006559897932
2.55,0.0008796792024,-0.007423534431
2.56,-0.001971402913,-0.007197713785
2.57,-0.004524435722,-0.005918844992
2.58,-0.006406393032,-0.003777497461
2.59,-0.007343638881,-0.00109010703
2.6,-0.007201822769,0.001747737429
2.61,-0.006005245753,0.004319542361
2.62,-0.003932874184,0.006249108037
2.63,-0.001291625921,0.007255662105
2.64,0.001529090627,0.007194819413
2.65,0.004114842401,0.006079367753
2.66,0.006087143615,0.004076873122
2.67,0.007158942496,0.001484529046
2.68,0.007176471777,-0.001314969945
2.69,0.006141352853,-0.003909968146
2.7,0.004209776118,-0.005920437993
2.71,0.001668965685,-0.007053694458
2.72,-0.001105525322,-0.007147064084
2.73,-0.003705341689,-0.006191287625
2.74,-0.005749470082,-0.004331287524
2.75,-0.006940146235,-0.001844265591
2.76,-0.007106321218,0.0009015760619
2.77,-0.006228331941,0.003501561077
2.78,-0.004440198082,0.005574249104
2.79,-0.002009266614,0.006817519612
2.8,0.0007037360864,0.007052766353
2.81,0.003298295708,0.006250705068
2.82,0.005393384233,0.004535024156
2.83,0.00668362193,0.002163396936
2.84,0.006984005011,-0.0005112612836
2.85,0.006256592119,-0.0030934703
2.86,0.004615248497,-0.005203906852
2.87,0.002307838534,-0.00653539836
2.88,-0.0003213617025,-0.006897854623
2.89,-0.002883304586,-0.0062455003
2.9,-0.005002057263,-0.004682466869
2.91,-0.006370242279,-0.00244608302
2.92,-0.006793780195,0.0001294384508
2.93,-0.006219370844,0.002663298295
2.94,-0.004740817569,0.004784736839
2.95,-0.002583523778,0.006187481958
2.96,-6.977010216E-05,0.006673963157
2.97,0.002429790339,0.00618289604
2.98,0.004551025205,0.004796433207
2.99,0.005989406668,0.002726184932
3,0.006543526463,0.0002805516365
3.01,0.006142863926,-0.002181493732
3.02,0.004856079235,-0.004303171571
3.03,0.002879031039,-0.005781425406
3.04,0.0005046728296,-0.00640980639
3.05,-0.001920466284,-0.006106737628
3.06,-0.004046715804,-0.004925428048
3.07,-0.005571299263,-0.003044407137
3.08,-0.006280899818,-0.0007404105679
3.09,-0.006080906114,0.001652224023
3.1,-0.005007480165,0.003789712553
3.11,-0.003221050394,0.005367679037
3.12,-0.0009824167907,0.006163898589
3.13,0.001384984666,0.006069076688
3.14,0.003541276438,0.005101533866
3.15,0.005178325429,0.003403906088
3.16,0.006063241056,0.001222432702
3.17,0.006071181013,-0.001128232426
3.18,0.005202929036,-0.003309786563
3.19,0.003584781989,-0.005008406563
3.2,0.001450697368,-0.005979535388
3.21,-0.0008909025164,-0.006083028564
3.22,-0.003101117502,-0.005303630034
3.23,-0.004859223397,-0.003753727964
3.24,-0.005909110393,-0.001657789144
3.25,-0.006096812366,0.0006795352178
3.26,-0.005393577881,0.002917256847
3.27,-0.003900909687,0.004727652279
3.28,-0.001836555602,0.005844444317
3.29,0.0004967816169,0.006102438383
3.3,0.0027556407,0.005462601832
3.31,0.0046065024,0.004018625231
3.32,0.005775478216,0.001983716857
3.33,0.006089478732,-0.00034064003
3.34,0.005502520107,-0.002609450031
3.35,0.004103007834,-0.004485820977
3.36,0.002100713912,-0.005691611745
3.37,-0.0002047052602,-0.006049348261
3.38,-0.002468915564,-0.005508925691
3.39,-0.004354928995,-0.004154939093
3.4,-0.005583941345,-0.002193489789
3.41,-0.005977150648,7.948010971E-05
3.42,-0.005482139801,0.00232338665
3.43,-0.004179842227,0.004204700878
3.44,-0.002271166367,0.005447138346
3.45,-4.553393976E-05,0.005872644108
3.46,0.00216362684,0.005426998661
3.47,0.004029441734,0.004186344872
3.48,0.005280396674,0.002343947755
3.49,0.005740003803,0.0001795555945
3.5,0.005351503091,-0.001983654105
3.51,0.004184196752,-0.003827786051
3.52,0.002420887813,-0.005087154892
3.53,0.0003287586857,-0.005586462704
3.54,-0.001781560079,-0.005264774645
3.55,-0.003602366111,-0.004182122749
3.56,-0.004873736553,-0.002508238794
3.57,-0.005420333588,-0.000495560842
3.58,-0.00517503251,0.001559115144
3.59,-0.004186322743,0.003358463785
3.6,-0.002608873251,0.004647467833
3.61,-0.0006790873739,0.005249148032
3.62,0.001320447025,0.005088279485
3.63,0.003102254897,0.004200047802
3.64,0.004415015453,0.002722818059
3.65,0.00507855958,0.0008764475556
3.66,0.005008048394,-0.001070443206
3.67,0.004224200964,-0.002839380066
3.68,0.002848464968,-0.004181532929
3.69,0.001084143811,-0.004912270519
3.7,-0.0008135845225,-0.004936061777
3.71,-0.002574353816,-0.004258459948
3.72,-0.00395077171,-0.002983763203
3.73,-0.004752738514,-0.001298950846
3.74,-0.004873244025,0.0005536300358
3.75,-0.004302228218,0.002310857791
3.76,-0.003126793035,0.003725819172
3.77,-0.001517949461,0.004602055743
3.78,0.0002940839023,0.004820410252
3.79,0.002052491592,0.004354891713
3.8,0.003509823596,0.003275520262
3.81,0.004462360033,0.001737900155
3.82,0.004778202267,-3.893844136E-05
3.83,0.004415303343,-0.001803324621
3.84,0.0034270295,-0.003306117797
3.85,0.001954529651,-0.004335453747
3.86,0.0002069631176,-0.004746319467
3.87,-0.001567728674,-0.004480899437
3.88,-0.003117532054,-0.003576862338
3.89,-0.004221803724,-0.002162369446
3.9,-0.004722545099,-0.0004383821667
3.91,-0.00454711081,0.001349403058
3.92,-0.003719065055,0.002945191152
3.93,-0.002355490115,0.004119506189
3.94,-0.0006509228515,0.004702249877
3.95,0.001150001119,0.004607622732
3.96,0.002787447679,0.003847186141
3.97,0.00402389994,0.002528972625
3.98,0.004678862214,0.0008425406202
3.99,0.00465561439,-0.0009680614375
4,0.003955946261,-0.002639618557
4.01,0.002680514722,-0.003928239811
4.02,0.001014584982,-0.004645323308
4.03,-0.0007988775339,-0.004685589653
4.04,-0.002494849677,-0.004042904751
4.05,-0.003825336759,-0.002811421907
4.06,-0.004596038771,-0.001171791126
4.07,-0.00469506677,0.000635536978
4.08,-0.004109376411,0.002345907078
4.09,-0.002926459474,0.003709589666
4.1,-0.001321087233,0.004528556624
4.11,0.0004708274632,0.004685402589
4.12,0.002187248672,0.004160147659
4.13,0.003578619732,0.003032530683
4.14,0.004444285099,0.001469610902
4.15,0.004661381003,-0.0002993098056
4.16,0.004202052811,-0.002016587029
4.17,0.003136653198,-0.003433872868
4.18,0.001622670865,-0.004347965666
4.19,-0.0001187856846,-0.004629716528
4.2,-0.001835372288,-0.004241947103
4.21,-0.003279993197,-0.003243987952
4.22,-0.004246134127,-0.001782392735
4.23,-0.004597058545,-6.933823936E-05
4.24,-0.004284830866,0.001648084946
4.25,-0.003356611627,0.003123271952
4.26,-0.001947468585,0.004145187909
4.27,-0.000260817295,0.004568234174
4.28,0.001460702021,0.004332756806
4.29,0.002969806118,0.003473370954
4.3,0.004049765927,0.002113961429
4.31,0.004545293441,0.0004500576231
4.32,0.00438477684,-0.001278971178
4.33,0.003590702054,-0.002824028359
4.34,0.002276723789,-0.003961930192
4.35,0.0006317069909,-0.004527534073
4.36,-0.0011070987,-0.004437754139
4.37,-0.002688019636,-0.003703956704
4.38,-0.003881252392,-0.002430838691
4.39,-0.004512285382,-0.0008018056431
4.4,-0.00448757875,0.0009471843904
4.41,-0.003808683603,0.002561640722
4.42,-0.0025726106,0.003805550847
4.43,-0.0009582403585,0.004495999012
4.44,0.0007993813022,0.004530283987
4.45,0.002443206117,0.0039014645
4.46,0.003731846413,0.002699921382
4.47,0.004475199739,0.001100572301
4.48,0.004562736014,-0.0006624936781
4.49,0.003980185902,-0.002330299476
4.5,0.002812059948,-0.00365715103
4.51,0.001229524525,-0.004447039234
4.52,-0.0005346504247,-0.004582835266
4.53,-0.00222040669,-0.004043882579
4.54,-0.003578898034,-0.00290930105
4.55,-0.004409440573,-0.001346448092
4.56,-0.004589383349,0.0004137923018
4.57,-0.004092409937,0.002111236025
4.58,-0.002992505269,0.003495041947
4.59,-0.001452969107,0.004360995281
4.6,0.0002978953702,0.004581847914
4.61,0.002000783733,0.004126169366
4.62,0.003403989589,0.003062887281
4.63,0.004300816669,0.001550848995
4.64,0.004560202764,-0.0001850109083
4.65,0.004145984198,-0.001887300378
4.66,0.00312194798,-0.003304535355
4.67,0.001641963993,-0.004228482738
4.68,-7.326563803E-05,-0.004524898146
4.69,-0.001769299684,-0.004153093329
4.7,-0.003195894373,-0.003171469355
4.71,-0.004144088299,-0.001728274486
4.72,-0.004476907435,-3.90654408E-05
4.73,-0.004149159697,0.001645669583
4.74,-0.003213458524,0.003077825389
4.75,-0.001811698226,0.00404833843
4.76,-0.0001533815734,0.004417749429
4.77,0.001515856722,0.004136195219
4.78,0.002950766945,0.003249976797
4.79,0.003942586499,0.001893876377
4.8,0.004349400936,0.0002705169867
4.81,0.004116354623,-0.001380043521
4.82,0.003282857151,-0.002815894393
4.83,0.001975883856,-0.003828741107
4.84,0.0003905227166,-0.004274062796
4.85,-0.001239228344,-0.004091609808
4.86,-0.002675027259,-0.003313365968
4.87,-0.003709009752,-0.002057967985
4.88,-0.004193793916,-0.0005125586644
4.89,-0.004063362267,0.001095138267
4.9,-0.003341894952,0.002530353716
4.91,-0.002139408168,0.003585492579
4.92,-0.0006349719582,0.004110071385
4.93,0.0009499350094,0.004032083631
4.94,0.002383981438,0.003367784262
4.95,0.003459685239,0.002218583699
4.96,0.004023374339,0.0007556114029
4.97,0.003997098899,-0.0008057178902
4.98,0.003389380036,-0.002237376728
4.99,0.002293312833,-0.003332000604
5,0.0008723794533,-0.003932925101
5.01,-0.0006638917883,-0.003956635949
5.02,-0.00209081895,-0.003404404414
5.03,-0.003201467016,-0.002361468167
5.04,-0.003836734819,-0.0009839432122
5.05,-0.003908234511,0.0005245499153
5.06,-0.003410643644,0.001943056611
5.07,-0.002421774133,0.003065775878
5.08,-0.001090426487,0.003732060523
5.09,0.0003860901,0.003849516436
5.1,0.001791364098,0.003406838698
5.11,0.00292179641,0.00247457547
5.12,0.003616266394,0.001193829339
5.13,0.00377917454,-0.0002452887773
5.14,0.003393529853,-0.001632123562
5.15,0.002522287138,-0.002766535423
5.16,0.001297928253,-0.003487913841
5.17,-9.795859121E-05,-0.00369789089
5.18,-0.001461888688,-0.003373530188
5.19,-0.002598329083,-0.002569260103
5.2,-0.003347748858,-0.001407535776
5.21,-0.003608826006,-5.988102012E-05
5.22,-0.003351748983,0.001278675636
5.23,-0.002620953314,0.00241789242
5.24,-0.001527223409,0.003199198269
5.25,-0.0002306193403,0.00351739293
5.26,0.001083065639,0.003334273784
5.27,0.002228813519,0.002682553853
5.28,0.00304808902,0.001659852515
5.29,0.003430250172,0.0004139098221
5.3,0.003326895293,-0.0008786879012
5.31,0.002757435389,-0.002037214452
5.32,0.001805400658,-0.002901556101
5.33,0.0006062074137,-0.003353742559
5.34,-0.0006718207899,-0.003333508539
5.35,-0.001850581693,-0.002845969656
5.36,-0.002766414162,-0.001960527502
5.37,-0.00329226295,-0.0008012261313
5.38,-0.003354924714,0.0004701556223
5.39,-0.002945128322,0.001676086592
5.4,-0.002119087675,0.002647499808
5.41,-0.0009912278486,0.003247080174
5.42,0.0002810869089,0.003388515177
5.43,0.001518929915,0.003049045208
5.44,0.002546531375,0.002273455266
5.45,0.003216029832,0.001168739135
5.46,0.003428814732,-0.0001100817683
5.47,0.003150357268,-0.001381248678
5.48,0.002416223051,-0.002461849538
5.49,0.00132813407,-0.003194148213
5.5,4.035194741E-05,-0.003468858089
5.51,-0.001261907778,-0.003241860733
5.52,-0.002389069601,-0.002541715111
5.53,-0.003174982109,-0.001466592072
5.54,-0.003501767487,-0.0001708236307
5.55,-0.003317932278,0.001157156962
5.56,-0.002646859714,0.00232234212
5.57,-0.001584207918,0.003152083304
5.58,-0.0002844129724,0.003522062996
5.59,0.001061820002,0.003375308267
5.6,0.002255731259,0.002731255537
5.61,0.003120191043,0.001683370021
5.62,0.003526341863,0.0003855734534
5.63,0.003413112837,-0.0009705362516
5.64,0.002796590339,-0.002184255392
5.65,0.001767776135,-0.003075807778
5.66,0.0004790453297,-0.003513275427
5.67,-0.0008786486404,-0.003432331658
5.68,-0.002104358148,-0.002845786132
5.69,-0.003017172896,-0.001841515147
5.7,-0.003483151617,-0.0005691274
5.71,-0.003435100968,0.0007825714899
5.72,-0.002882260225,0.002013867615
5.73,-0.001908502107,0.002943886119
5.74,-0.000659408601,0.003437319012
5.75,0.0006797441303,0.003424154246
5.76,0.001911710905,0.002909523341
5.77,0.002856514203,0.001972303273
5.78,0.003377821378,0.0007528110632
5.79,0.003402579772,-0.000568444706
5.8,0.00293109037,-0.001797687403
5.81,0.002036167349,-0.002756411494
5.82,0.0008516714862,-0.003307307786
5.83,-0.0004477301122,-0.003373807886
5.84,-0.001672469613,-0.002950492039
5.85,-0.002645772873,-0.00210299909
5.86,-0.003229086188,-0.0009576380167
5.87,-0.003341596408,0.0003176078671
5.88,-0.00297114047,0.001537786812
5.89,-0.002175099921,0.002527742876
5.9,-0.001071339722,0.003147077169
5.91,0.0001793364949,0.00330979051
5.92,0.001396578792,0.002995923582
5.93,0.002406333832,0.002253693704
5.94,0.00306547301,0.001191984758
5.95,0.003281783589,-3.561321709E-05
5.96,0.00302660405,-0.001252876019
5.97,0.002338439461,-0.002285991246
5.98,0.001317148789,-0.002988079848
5.99,0.0001095846366,-0.003259807667
6,-0.0011112804,-0.003063262775
