"Freq [GHz]","re(S(Rx_p1,Tx_p1)) []","im(S(Rx_p1,Tx_p1)) []"
1,0.009140234424,0.0006074690198
1.01,0.008500938013,-0.002924139565
1.02,0.006585379652,-0.005866292562
1.03,0.003746905039,-0.007796733258
1.04,0.000460001445,-0.008471686676
1.05,-0.002760520631,-0.007850953447
1.06,-0.005439790953,-0.006089689286
1.07,-0.007210221583,-0.003501559459
1.08,-0.007857164612,-0.0005018928423
1.09,-0.007338620414,0.002458631876
1.1,-0.005779162353,0.004959327813
1.11,-0.003441852785,0.006665106218
1.12,-0.000684287654,0.007366211531
1.13,0.002094049272,0.006998867008
1.14,0.004506008686,0.005646296453
1.15,0.006226282465,0.003521736915
1.16,0.007031115941,0.0009366010892
1.17,0.006824490754,-0.001742020573
1.18,0.005648406822,-0.004139657487
1.19,0.003676292504,-0.005923276061
1.2,0.00119008374,-0.006845163783
1.21,-0.001456825328,-0.006776610208
1.22,-0.003886816884,-0.005726819785
1.23,-0.005749914904,-0.003843858187
1.24,-0.0067735642,-0.001396482249
1.25,-0.006803234769,0.001261727842
1.26,-0.005827448601,0.003741776197
1.27,-0.00398265028,0.005675613825
1.28,-0.001536146126,0.006771268533
1.29,0.001151281781,0.006858190205
1.3,0.003678097082,0.005915336544
1.31,0.005662326352,0.004076965159
1.32,0.006800169616,0.001614540162
1.33,0.00691357445,-0.001102977401
1.34,0.00597901234,-0.00366459335
1.35,0.00413261478,-0.005679962796
1.36,0.001650594831,-0.006839483556
1.37,-0.001092156997,-0.006962343694
1.38,-0.003678933367,-0.006024965596
1.39,-0.005714733975,-0.004165392494
1.4,-0.006886662451,-0.001662934968
1.41,-0.007011953543,0.001103787087
1.42,-0.006066343323,0.003714002977
1.43,-0.004188512846,0.005768503098
1.44,-0.001659933345,0.006950334536
1.45,0.001136917346,0.007073398238
1.46,0.003775823729,0.006111655287
1.47,0.005851164039,0.004204468695
1.48,0.007039794088,0.001637061291
1.49,0.007151223887,-0.001201304865
1.5,0.006158396282,-0.003875512628
1.51,0.004204081608,-0.005970685267
1.52,0.001581408523,-0.00715635342
1.53,-0.001309101272,-0.007238863132
1.54,-0.004019978265,-0.006193673677
1.55,-0.006125820852,-0.00417200825
1.56,-0.007290324797,-0.001480122089
1.57,-0.00732070706,0.00146629342
1.58,-0.006200537824,0.004206001254
1.59,-0.004095160053,0.006304664202
1.6,-0.001328135209,0.007424396622
1.61,0.001668154699,0.007379094974
1.62,0.004420276232,0.006166240501
1.63,0.006489184031,0.00396952294
1.64,0.007541118682,0.001131351894
1.65,0.007402275155,-0.001900685641
1.66,0.006088074985,-0.004644961498
1.67,0.003801992357,-0.006663044793
1.68,0.0009039016357,-0.007630436473
1.69,-0.002147032195,-0.007389203894
1.7,-0.004865680794,-0.005973883241
1.71,-0.006818595766,-0.003606419673
1.72,-0.007693398059,-0.0006609939633
1.73,-0.007348753629,0.002395524024
1.74,-0.005836991633,0.005077860319
1.75,-0.003395875434,0.006959445929
1.76,-0.0004109772002,0.007740098932
1.77,0.002645266522,0.00729363567
1.78,0.005288144265,0.005688011318
1.79,0.007097188468,0.00317492546
1.8,0.007782688809,0.0001505688145
1.81,0.007231857421,-0.002906383085
1.82,0.005527437242,-0.005509949257
1.83,0.002935744119,-0.007243587557
1.84,-0.0001342139546,-0.007826595719
1.85,-0.003194457413,-0.007159734057
1.86,-0.005754925703,-0.005342687139
1.87,-0.007401669225,-0.002660202615
1.88,-0.007864023782,0.0004614500515
1.89,-0.007059877832,0.003521362695
1.9,-0.005111317058,0.006024005115
1.91,-0.002327445489,0.007559762236
1.92,0.0008436037544,0.007872899208
1.93,0.003886345063,0.006905495289
1.94,0.00630202502,0.004809488344
1.95,0.007691389384,0.00192405032
1.96,0.007822188888,-0.001278714455
1.97,0.006669654779,-0.004271258195
1.98,0.004422485662,-0.006558537323
1.99,0.00145267018,-0.00776153321
2,-0.001746252454,-0.007681870959
2.01,-0.004642244931,-0.00633607278
2.02,-0.00675493406,-0.00395313816
2.03,-0.007737205228,-0.0009355579193
2.04,-0.007433899791,0.002209616082
2.05,-0.005907267254,0.004957624648
2.06,-0.003424736317,0.006855504923
2.07,-0.0004113233059,0.007598500408
2.08,0.002624672716,0.007080051141
2.09,0.005179323901,0.005406889054
2.1,0.006838492746,0.002877123064
2.11,0.007346099038,-7.41460367E-05
2.12,0.006643697951,-0.002951443912
2.13,0.004875234512,-0.005283845537
2.14,0.00235719769,-0.006703221637
2.15,-0.0004795037935,-0.007002522944
2.16,-0.003164902474,-0.006164837446
2.17,-0.005268996713,-0.004359456555
2.18,-0.006470874265,-0.001907083303
2.19,-0.00660677353,0.0007784867155
2.2,-0.005690134693,0.003261277663
2.21,-0.003901837867,0.005154231172
2.22,-0.001553920355,0.006178838665
2.23,0.0009657778233,0.006204331864
2.24,0.00325800844,0.005261417238
2.25,0.004974802151,0.003529995473
2.26,0.00587078577,0.001304461261
2.27,0.005835985576,-0.001056617619
2.28,0.004906361346,-0.003187797719
2.29,0.003251945544,-0.004772033306
2.3,0.001145753961,-0.005585932821
2.31,-0.001080851432,-0.005529061293
2.32,-0.003089186039,-0.004634035824
2.33,-0.004583114968,-0.003057034873
2.34,-0.005350879603,-0.00105101438
2.35,-0.005293452538,0.001073907323
2.36,-0.004436035369,0.00299696797
2.37,-0.002921651565,0.004433594154
2.38,-0.0009881517425,0.00517612159
2.39,0.001067909951,0.005122910119
2.4,0.002935377634,0.004291954134
2.41,0.004334370043,0.00281717074
2.42,0.005057453922,0.0009278905632
2.43,0.005000209858,-0.00108559473
2.44,0.004176679196,-0.002915559463
2.45,0.002717256726,-0.004283169684
2.46,0.0008491035376,-0.004980771557
2.47,-0.001138242689,-0.004903731722
2.48,-0.002937075479,-0.004066828492
2.49,-0.004268925935,-0.002602427492
2.5,-0.00492788253,-0.0007404277937
2.51,-0.004813000159,0.001227181003
2.52,-0.00394453994,0.002991813562
2.53,-0.002461241045,0.004276783788
2.54,-0.0005988074393,0.00488112822
2.55,0.001347181278,0.004711699325
2.56,0.003068156017,0.003798250467
2.57,0.004291788557,0.002288915198
2.58,0.004825633887,0.0004266384794
2.59,0.004588070292,-0.001489769448
2.6,0.003621424758,-0.003153733587
2.61,0.002085041921,-0.004300388107
2.62,0.0002293289999,-0.00474935216
2.63,-0.001645052811,-0.00443377791
2.64,-0.003236202254,-0.003410858389
2.65,-0.004290152702,-0.001852019936
2.66,-0.004642094214,-1.43832781E-05
2.67,-0.004242815241,0.001801800051
2.68,-0.00316597653,0.003302670926
2.69,-0.001595026235,0.004248993521
2.7,0.000208015113,0.004495041366
2.71,0.001946609041,0.004011653964
2.72,0.003339126854,0.002889661918
2.73,0.00416528071,0.001323224354
2.74,0.004301725087,-0.0004239437624
2.75,0.003740891288,-0.002063555042
2.76,0.002590046766,-0.003331153017
2.77,0.001051019001,-0.004029623704
2.78,-0.0006156243898,-0.004060449468
2.79,-0.002135494044,-0.00343758101
2.8,-0.003266472749,-0.002281930897
2.81,-0.003838020613,-0.0007979303204
2.82,-0.003777114583,0.0007632927716
2.83,-0.003116784689,0.002147329498
2.84,-0.001986409327,0.003138772765
2.85,-0.0005861824926,0.003595125222
2.86,0.0008491396539,0.003466871584
2.87,0.002090451625,0.002800952587
2.88,0.002951363763,0.001727949837
2.89,0.003315978449,0.0004361416836
2.9,0.003153260938,-0.0008623055417
2.91,0.002516525638,-0.001966740654
2.92,0.001529267394,-0.002718962376
2.93,0.000360829496,-0.003024911453
2.94,-0.0008031750331,-0.002864378633
2.95,-0.001790375151,-0.002288307832
2.96,-0.002466370103,-0.001405411859
2.97,-0.002751319797,-0.0003613892709
2.98,-0.002626811232,0.0006851891551
2.99,-0.00213319591,0.00158630071
3,-0.001359046524,0.002223902365
3.01,-0.0004252903824,0.002523228377
3.02,0.0005331203741,0.002459076371
3.03,0.001385363422,0.002055321247
3.04,0.002020652235,0.001378687995
3.05,0.002360511953,0.0005282281945
3.06,0.002366678285,-0.0003779618414
3.07,0.002044342662,-0.00121734227
3.08,0.001440760664,-0.00187756004
3.09,0.0006394265024,-0.002269913448
3.1,-0.0002497984751,-0.002340469289
3.11,-0.001103935938,-0.002077633654
3.12,-0.001802441999,-0.001515037853
3.13,-0.002243488296,-0.000728858389
3.14,-0.002358947123,0.0001707775667
3.15,-0.00212580947,0.001053847461
3.16,-0.001571886622,0.001788530093
3.17,-0.0007742274136,0.002260988723
3.18,0.0001502928346,0.00239381604
3.19,0.00106143071,0.002159929988
3.2,0.001816919918,0.001589139148
3.21,0.002295408343,0.000765643414
3.22,0.002417084628,-0.0001837470131
3.23,0.002158203066,-0.001109178531
3.24,0.001556590639,-0.001862050204
3.25,0.0007067359654,-0.002319915154
3.26,-0.000255057323,-0.002407546792
3.27,-0.001173090966,-0.002110270116
3.28,-0.001898415073,-0.001476982694
3.29,-0.002314060151,-0.0006121540318
3.3,-0.002354824136,0.0003418688859
3.31,-0.002018054992,0.001229115139
3.32,-0.001363529873,0.001906454981
3.33,-0.0005025478445,0.002267549476
3.34,0.0004216752369,0.00226007783
3.35,0.001258678238,0.00189333851
3.36,0.001876035607,0.001235134118
3.37,0.002180818562,0.0003988098888
3.38,0.002133651215,-0.00047695827
3.39,0.001753239229,-0.001251854233
3.4,0.001111024291,-0.001806885438
3.41,0.0003173577041,-0.002062762038
3.42,-0.0004980280608,-0.001990847277
3.43,-0.001207667909,-0.001615283435
3.44,-0.00170643118,-0.001006486007
3.45,-0.0019268346,-0.0002676314894
3.46,-0.001847455705,0.000483198182
3.47,-0.001493600855,0.001132052947
3.48,-0.0009307030448,0.001586245094
3.49,-0.0002520409173,0.001787056578
3.5,0.0004368824964,0.001716427985
3.51,0.00103466514,0.001397112191
3.52,0.001458545338,0.0008868180414
3.53,0.001655176618,0.000267714748
3.54,0.001606409425,-0.000366790043
3.55,0.001329693884,-0.0009258886933
3.56,0.0008735148307,-0.001333849331
3.57,0.000308912058,-0.001539542815
3.58,-0.0002814435521,-0.001521996758
3.59,-0.0008149784536,-0.001291580739
3.6,-0.001220175019,-0.0008870270874
3.61,-0.001445440604,-0.0003689900377
3.62,-0.001464949875,0.0001888039981
3.63,-0.001280966701,0.0007095789612
3.64,-0.0009225955383,0.001123445363
3.65,-0.000441308106,0.001376103722
3.66,9.609195426E-05,0.001435382753
3.67,0.0006161807976,0.001294958926
3.68,0.001048289908,0.0009749159081
3.69,0.001333496444,0.0005191226169
3.7,0.0014322259,-1.028021246E-05
3.71,0.001329588582,-0.000540705463
3.72,0.001037770667,-0.0009984224984
3.73,0.000595074288,-0.001318299724
3.74,6.154410313E-05,-0.001452822571
3.75,-0.0004884854768,-0.001379202939
3.76,-0.0009761698493,-0.001103513393
3.77,-0.001329118504,-0.0006610536922
3.78,-0.001492106494,-0.0001125875679
3.79,-0.00143596395,0.0004633572409
3.8,-0.001163165523,0.0009813183912
3.81,-0.0007089856264,0.00136147204
3.82,-0.0001376687498,0.001542132177
3.83,0.0004661781465,0.001490178769
3.84,0.001009945459,0.001207563204
3.85,0.00140737347,0.0007325317132
3.86,0.001592640569,0.0001349982648
3.87,0.001531793405,-0.0004935277761
3.88,0.001229415474,-0.001054065419
3.89,0.0007291336886,-0.001456130872
3.9,0.0001075779374,-0.001632882296
3.91,-0.0005374374594,-0.00155277633
3.92,-0.001102665276,-0.001225576001
3.93,-0.001496481523,-0.0007014832685
3.94,-0.001654295483,-6.337169291E-05
3.95,-0.001549583503,0.0005866583859
3.96,-0.001198554417,0.001144130262
3.97,-0.0006575783969,0.001519532096
3.98,-1.380820682E-05,0.001653129045
3.99,0.0006293578767,0.001524682832
4,0.00116941429,0.001156444189
4.01,0.001521505792,0.0006090012755
4.02,0.001631953266,-2.916457139E-05
4.03,0.001486341604,-0.0006564880561
4.04,0.001110982113,-0.001174877545
4.05,0.0005677458982,-0.001505213793
4.06,-5.661457544E-05,-0.001599296736
4.07,-0.0006646818805,-0.00144647517
4.08,-0.001163695699,-0.001074171778
4.09,-0.001479533959,-0.0005425475962
4.1,-0.001567293736,6.554982742E-05
4.11,-0.001417089935,0.0006575795426
4.12,-0.001054508304,0.001145175248
4.13,-0.0005359589476,0.001456868389
4.14,6.014421038E-05,0.00154797107
4.15,0.0006449781422,0.00140643298
4.16,0.001132034811,0.00105408049
4.17,0.001449299172,0.000543239467
4.18,0.001549351426,-5.072219042E-05
4.19,0.001416144327,-0.0006399525218
4.2,0.001067587698,-0.001136455699
4.21,0.0005535319886,-0.001464673498
4.22,-5.073729928E-05,-0.001572677327
4.23,-0.0006548274152,-0.001440409582
4.24,-0.00116617597,-0.001083670337
4.25,-0.001503918587,-0.0005530061018
4.26,-0.001611705003,7.269350215E-05
4.27,-0.001467434415,0.0006973068653
4.28,-0.001088152495,0.00122191345
4.29,-0.0005289590424,0.001560479284
4.3,0.000124335695,0.001654309794
4.31,0.0007680204062,0.001482761517
4.32,0.001296946751,0.001068135754
4.33,0.001622038567,0.000473539078
4.34,0.001685850578,-0.0002063322016
4.35,0.001473327273,-0.0008602446564
4.36,0.001015612073,-0.001378932617
4.37,0.0003859152807,-0.001673900911
4.38,-0.0003121318419,-0.001693158748
4.39,-0.0009617971425,-0.00143094047
4.4,-0.001453278338,-0.0009294760054
4.41,-0.001702882696,-0.0002722920189
4.42,-0.001667859768,0.000429912199
4.43,-0.001354128545,0.001058366939
4.44,-0.0008154193923,0.001506902742
4.45,-0.0001439295221,0.00170045454
4.46,0.0005458371807,0.001608046424
4.47,0.001137115785,0.001247922444
4.48,0.00153117826,0.0006839448193
4.49,0.00166423576,1.399070091E-05
4.5,0.001517964775,-0.000647468553
4.51,0.001121887345,-0.001189400053
4.52,0.0005473476163,-0.001523242035
4.53,-0.0001056523042,-0.001597593085
4.54,-0.0007262495084,-0.001406086422
4.55,-0.00121189522,-0.0009872696365
4.56,-0.001485519598,-0.0004167673493
4.57,-0.001507778264,0.0002066467415
4.58,-0.001282448799,0.0007784404886
4.59,-0.0008543181442,0.001206057021
4.6,-0.0003002286425,0.00142395072
4.61,0.0002849058073,0.001403488062
4.62,0.0008045305472,0.001156268439
4.63,0.001176457318,0.0007306065439
4.64,0.001345793245,0.0002020830149
4.65,0.001292789045,-0.0003399830556
4.66,0.001034554523,-0.0008077035912
4.67,0.0006206611362,-0.001128853254
4.68,0.0001236585342,-0.001257875693
4.69,-0.0003736877809,-0.001182028969
4.7,-0.0007921914976,-0.000921918445
4.71,-0.001068780592,-0.0005266216566
4.72,-0.001165810193,-6.447825168E-05
4.73,-0.001075822235,0.0003887376683
4.74,-0.0008212328822,0.000762217495
4.75,-0.0004492783062,0.001001068757
4.76,-2.329561531E-05,0.0010741461
4.77,0.0003880578734,0.0009776943269
4.78,0.000721810722,0.0007344740717
4.79,0.0009301530891,0.0003887860529
4.8,0.0009869870058,-1.562262105E-06
4.81,0.0008907179172,-0.0003748893357
4.82,0.0006631090516,-0.0006752658428
4.83,0.0003446519364,-0.0008606517322
4.84,-1.258785591E-05,-0.0009084111498
4.85,-0.0003533828366,-0.0008175702695
4.86,-0.0006276673076,-0.0006077322229
4.87,-0.0007975627988,-0.0003150685874
4.88,-0.0008421993312,1.380733982E-05
4.89,-0.0007598276466,0.0003290584662
4.9,-0.0005671400286,0.0005848576892
4.91,-0.0002960957112,0.0007456661233
4.92,1.116355519E-05,0.0007907989016
4.93,0.0003085415316,0.000716797937
4.94,0.0005525195131,0.0005374246625
4.95,0.0007081715087,0.0002813646605
4.96,0.0007539332261,-1.201794717E-05
4.97,0.0006845439154,-0.0002983334872
4.98,0.000511776367,-0.0005345250918
4.99,0.0002628099123,-0.0006851256752
5,-2.362228468E-05,-0.0007275721877
5.01,-0.0003028831008,-0.0006557923496
5.02,-0.0005311630423,-0.0004814455834
5.03,-0.0006723477389,-0.0002324823025
5.04,-0.0007039558622,5.093305962E-05
5.05,-0.0006211218346,0.0003226557153
5.06,-0.0004378244219,0.000538056182
5.07,-0.000184967582,0.0006615736573
5.08,9.45474373E-05,0.0006730007204
5.09,0.0003530504083,0.0005712934118
5.1,0.0005464311837,0.0003750726863
5.11,0.0006420711007,0.000119559361
5.12,0.0006248580443,-0.0001496356588
5.13,0.0005000571223,-0.0003847973543
5.14,0.0002923750966,-0.0005449299996
5.15,4.129659726E-05,-0.000603402159
5.16,-0.0002064665249,-0.0005528728281
5.17,-0.0004059512682,-0.0004064689309
5.18,-0.0005225513257,-0.0001949351021
5.19,-0.000538505373,3.968826438E-05
5.2,-0.000455936079,0.0002525659569
5.21,-0.0002958287472,0.0004049842204
5.22,-9.320058482E-05,0.0004718257156
5.23,0.0001104737882,0.0004460595245
5.24,0.000275932068,0.0003393564715
5.25,0.000374023167,0.000178789795
5.26,0.0003911675693,4.347335005E-07
5.27,0.0003312799396,-0.0001586563196
5.28,0.0002138615593,-0.0002683040509
5.29,6.882807965E-05,-0.0003111675938
5.3,-7.065067882E-05,-0.0002855887082
5.31,-0.0001756190231,-0.0002048216542
5.32,-0.0002274238134,-9.299071356E-05
5.33,-0.0002211145598,2.115165118E-05
5.34,-0.0001655153402,0.0001111333907
5.35,-8.012203796E-05,0.0001587168598
5.36,1.029307002E-05,0.0001575682208
5.37,8.199237553E-05,0.0001139028238
5.38,0.0001179694777,4.410757032E-05
5.39,0.0001117132273,-2.99482483E-05
5.4,6.823499584E-05,-8.668804384E-05
5.41,2.23703035E-06,-0.0001102592721
5.42,-6.601746808E-05,-9.433298018E-05
5.43,-0.0001160496136,-4.342321762E-05
5.44,-0.0001323970847,2.850045183E-05
5.45,-0.0001084822489,0.0001016846768
5.46,-4.823279774E-05,0.0001556019448
5.47,3.486917886E-05,0.0001740706788
5.48,0.0001210217837,0.0001492742914
5.49,0.0001888131914,8.376316603E-05
5.5,0.000220284884,-9.982659351E-06
5.51,0.0002051813045,-0.0001122826627
5.52,0.0001434393711,-0.0002006168104
5.53,4.539395214E-05,-0.0002546149982
5.54,-7.030437408E-05,-0.000260565131
5.55,-0.0001805650163,-0.0002144708786
5.56,-0.0002626637541,-0.0001230338166
5.57,-0.0002989496911,-2.395485807E-06
5.58,-0.0002804799543,0.0001250519445
5.59,-0.0002088653898,0.0002350920471
5.6,-9.599990568E-05,0.000306429004
5.61,3.821899191E-05,0.0003248047899
5.62,0.0001696805746,0.0002857038072
5.63,0.0002745923069,0.0001951658164
5.64,0.0003338733647,6.860897127E-05
5.65,0.000336594694,-7.205678069E-05
5.66,0.0002818620762,-0.0002024404938
5.67,0.000178850066,-0.0003000391699
5.68,4.504216035E-05,-0.0003481672344
5.69,-9.69485419E-05,-0.0003387622904
5.7,-0.000223368325,-0.0002736119841
5.71,-0.0003133956578,-0.0001638443897
5.72,-0.0003525889928,-2.783460085E-05
5.73,-0.0003351405512,0.0001120513866
5.74,-0.0002645990985,0.0002332722811
5.75,-0.0001530040905,0.000316814907
5.76,-1.864927566E-05,0.0003501654879
5.77,0.0001170824265,0.0003290861023
5.78,0.000233236417,0.0002579634001
5.79,0.0003125542966,0.000148754225
5.8,0.0003439722894,1.878987684E-05
5.81,0.0003239988567,-0.0001121250019
5.82,0.0002568379227,-0.0002247998558
5.83,0.0001533463339,-0.0003034298463
5.84,2.909779137E-05,-0.000337654625
5.85,-9.806138167E-05,-0.0003236710109
5.86,-0.0002105508564,-0.0002643494832
5.87,-0.0002933259042,-0.0001684670288
5.88,-0.0003356205201,-4.928037627E-05
5.89,-0.0003320344623,7.729035377E-05
5.9,-0.0002829502363,0.0001946126051
5.91,-0.0001943442179,0.0002872276438
5.92,-7.708736143E-05,0.000342540053
5.93,5.417659001E-05,0.0003522294329
5.94,0.0001825117679,0.000313321022
5.95,0.0002904796481,0.0002288360672
5.96,0.0003621676066,0.0001079101059
5.97,0.0003853259481,-3.475349336E-05
5.98,0.0003533921584,-0.0001802061084
5.99,0.0002670905033,-0.0003073805228
6,0.0001352446206,-0.0003959039652
