"Freq [GHz]","re(S(Rx_p1,Tx_p1)) []","im(S(Rx_p1,Tx_p1)) []"
1,-0.03112739914,0.06256107197
1.01,-0.005600178253,0.0690002757
1.02,0.0202291174,0.06553640707
1.03,0.04270312514,0.05286727201
1.04,0.05872188366,0.0329714016
1.05,0.06616339903,0.008797477194
1.06,0.06415554653,-0.01617265072
1.07,0.05316650452,-0.03842260774
1.08,0.03490710682,-0.05489103706
1.09,0.01206443253,-0.06338513647
1.1,-0.01209183969,-0.06286401286
1.11,-0.03417306051,-0.05355711443
1.12,-0.05114047064,-0.03690627143
1.13,-0.06071585681,-0.01534377754
1.14,-0.06168013762,0.00805962524
1.15,-0.05402228505,0.0300266647
1.16,-0.03892165661,0.04752581586
1.17,-0.01856913715,0.05818297382
1.18,0.004146371338,0.06059802919
1.19,0.0260422392,0.05452523155
1.2,0.04408187768,0.040894719
1.21,0.05579053301,0.02167381978
1.22,0.05959124904,-0.0004120003628
1.23,0.05501601888,-0.02226006416
1.24,0.04276393472,-0.0408212456
1.25,0.02459871602,-0.05352181712
1.26,0.003099702277,-0.05861870516
1.27,-0.01869961407,-0.05543931161
1.28,-0.03773586669,-0.04447259605
1.29,-0.0513442879,-0.0272983774
1.3,-0.05763174375,-0.006364126754
1.31,-0.0557419483,0.01536015346
1.32,-0.04597514391,0.03480103016
1.33,-0.02974471607,0.04921595731
1.34,-0.009376151781,0.05658139765
1.35,0.0122237781,0.05587940681
1.36,0.03198097622,0.04724141732
1.37,0.04709222359,0.03192814823
1.38,0.05542487417,0.01214801744
1.39,0.05582049427,-0.009260237373
1.4,0.04825854302,-0.02923524968
1.41,0.03385633922,-0.04493228292
1.42,0.01470529749,-0.05413058104
1.43,-0.006432751312,-0.05554989574
1.44,-0.02652494894,-0.04903050157
1.45,-0.04270439274,-0.03555096512
1.46,-0.05268124589,-0.01708165894
1.47,-0.05506850285,0.003704021788
1.48,-0.04957566156,0.02381813489
1.49,-0.03704307643,0.04038947485
1.5,-0.01931315238,0.05107494433
1.51,0.001041702866,0.0543916951
1.52,0.02109383268,0.04992276399
1.53,0.03798277665,0.03836774336
1.54,0.0493240953,0.02143275725
1.55,0.05354595177,0.001577281025
1.56,0.0501059664,-0.01834425797
1.57,0.03955868642,-0.03549354176
1.58,0.02346582576,-0.04745269918
1.59,0.004164012713,-0.05256433018
1.6,-0.01557511923,-0.05015962163
1.61,-0.03294286565,-0.04064355739
1.62,-0.04549227766,-0.02542693362
1.63,-0.05148144882,-0.006716695592
1.64,-0.05011346665,0.01280407602
1.65,-0.04164043167,0.03036011726
1.66,-0.02731845917,0.04347711072
1.67,-0.009221613309,0.05032865072
1.68,0.01005765571,0.04998882437
1.69,0.0277784732,0.04255590618
1.7,0.041439437,0.02913098678
1.71,0.04912998095,0.01165571113
1.72,0.04979627455,-0.007367121747
1.73,0.04338497618,-0.02523021269
1.74,0.03084538526,-0.03940527119
1.75,0.01399036255,-0.04789948604
1.76,-0.004763916213,-0.04953503809
1.77,-0.02274243678,-0.04411261568
1.78,-0.03739138801,-0.0324361846
1.79,-0.0466401428,-0.01619573153
1.8,-0.04919406909,0.002275339512
1.81,-0.04471674525,0.02033379239
1.82,-0.03387570051,0.03540383485
1.83,-0.01824507689,0.04534447634
1.84,-7.893066683E-05,0.04875460035
1.85,0.0180126101,0.04517208151
1.86,0.03343809413,0.03513827123
1.87,0.04399667497,0.02011838515
1.88,0.04819368565,0.002289034091
1.89,0.04545425873,-0.01577663249
1.9,0.03620399063,-0.03148076398
1.91,0.02180485487,-0.04257579795
1.92,0.004355609398,-0.04748816231
1.93,-0.01361426099,-0.04554361283
1.94,-0.02951240865,-0.03706143933
1.95,-0.04105953905,-0.02330396135
1.96,-0.046618439,-0.006288976863
1.97,-0.04542811634,0.01150703039
1.98,-0.03770910412,0.0275110867
1.99,-0.02462506153,0.0394279732
2,-0.008107054629,0.04557159194
2.01,0.009432868594,0.04510512275
2.02,0.02545601352,0.03815539474
2.03,0.03766677159,0.02578571224
2.04,0.04434340253,0.009832397229
2.05,0.04458178145,-0.007369633983
2.06,0.0384173717,-0.02333085305
2.07,0.02680903378,-0.03576949914
2.08,0.01148882276,-0.04293915402
2.09,-0.0052984414,-0.04387417949
2.1,-0.02112623992,-0.0385184587
2.11,-0.03373877321,-0.02772053917
2.12,-0.04137318742,-0.01309809502
2.13,-0.04300542306,0.003206371611
2.14,-0.03848550949,0.01884127668
2.15,-0.02854486688,0.03158622961
2.16,-0.01467706619,0.03966736854
2.17,0.001088279887,0.04200297504
2.18,0.01648390144,0.03834563331
2.19,0.02933138739,0.02930281711
2.2,0.03784872642,0.01623558806
2.21,0.04089561469,0.001052448373
2.22,0.03812316799,-0.01407015751
2.23,0.03000901788,-0.02699961465
2.24,0.01777538737,-0.03594658706
2.25,0.003204221512,-0.0397103916
2.26,-0.01162250849,-0.03783713952
2.27,-0.02461947358,-0.03067045563
2.28,-0.03398955285,-0.01928998755
2.29,-0.03846992059,-0.005348560592
2.3,-0.03749947732,0.009167428803
2.31,-0.0312860053,0.02221976934
2.32,-0.02076565082,0.03200267652
2.33,-0.007462233564,0.03719031552
2.34,0.006732564029,0.03711416915
2.35,0.01982664805,0.03184699092
2.36,0.03000515142,0.02218321235
2.37,0.0358799913,0.009519944039
2.38,0.03667744182,-0.00434379804
2.39,0.03233870042,-0.01746108418
2.4,0.02352058244,-0.02800878769
2.41,0.01149725111,-0.03453947233
2.42,-0.002022579862,-0.03617894332
2.43,-0.01513706211,-0.0327426701
2.44,-0.02601746172,-0.02475561136
2.45,-0.03316223429,-0.01337335997
2.46,-0.03560378294,-0.0002161549642
2.47,-0.03303945529,0.01286068467
2.48,-0.02586895482,0.0240276154
2.49,-0.01513342429,0.03173647847
2.5,-0.002365194769,0.03493517215
2.51,0.01063033271,0.03321152919
2.52,0.02202974796,0.02684656248
2.53,0.03024761075,0.01677005046
2.54,0.03415731714,0.004425224866
2.55,0.03324591962,-0.008437862031
2.56,0.02768144861,-0.02001070457
2.57,0.01828379267,-0.02868109019
2.58,0.006403933733,-0.033258166
2.59,-0.00627067675,-0.03313621711
2.6,-0.0179564457,-0.02837449564
2.61,-0.02702524951,-0.01968256702
2.62,-0.03223162396,-0.008314176598
2.63,-0.03288367061,0.004114386258
2.64,-0.02893417769,0.01585490422
2.65,-0.02098007084,0.02527368626
2.66,-0.01017146217,0.03107892305
2.67,0.001955662824,0.03249721945
2.68,0.01369852039,0.02937525177
2.69,0.02342688588,0.02219344239
2.7,0.02980895839,0.01199112988
2.71,0.03199246964,0.000215112446
2.72,0.02971661794,-0.01148609584
2.73,0.02334050797,-0.02149285559
2.74,0.01378562713,-0.02843756026
2.75,0.002401789947,-0.03138978011
2.76,-0.009223714884,-0.02997867066
2.77,-0.01948669968,-0.02443701746
2.78,-0.02698582968,-0.01556227135
2.79,-0.03071175192,-0.00460125597
2.8,-0.03018052877,0.006924627229
2.81,-0.02549425827,0.01742922503
2.82,-0.01732179723,0.02547779783
2.83,-0.006803242613,0.02998048937
2.84,0.004608140578,0.03033753381
2.85,0.01534480131,0.02651736617
2.86,0.02393775528,0.01905786355
2.87,0.02921501756,0.008991134789
2.88,0.03045934943,-0.002297709628
2.89,0.02750453832,-0.01325879455
2.9,0.02075755114,-0.02238762519
2.91,0.01114362791,-0.02842919877
2.92,-1.850890449E-05,-0.03054889442
2.93,-0.01119493357,-0.02844721843
2.94,-0.02084472838,-0.02240274678
2.95,-0.02763040433,-0.01323698308
2.96,-0.0306022169,-0.002205169964
2.97,-0.0293311913,0.009172957944
2.98,-0.02397219697,0.01932021722
2.99,-0.01524756224,0.02681908493
3,-0.004352351631,0.03060928907
3.01,0.007206840834,0.03013840952
3.02,0.01781835439,0.02544394048
3.03,0.02598926054,0.01715430626
3.04,0.03055558571,0.006407334942
3.05,0.0308492911,-0.005303793384
3.06,0.02679779474,-0.01633669834
3.07,0.01894084133,-0.02512983456
3.08,0.008360941886,-0.0304242178
3.09,-0.003464151108,-0.03144517882
3.1,-0.01486714174,-0.02801757702
3.11,-0.02422653802,-0.02059695658
3.12,-0.03019833129,-0.01021092005
3.13,-0.03191064188,0.001682130291
3.14,-0.02909278348,0.01339764504
3.15,-0.02211928117,0.02326423651
3.16,-0.0119614701,0.0298634552
3.17,-5.266635275E-05,0.03223532735
3.18,0.01191442296,0.03001952317
3.19,0.02222929148,0.0235110932
3.2,0.02940949495,0.01362198119
3.21,0.03241513031,0.001753209203
3.22,0.03080060198,-0.01040428694
3.23,0.02478130543,-0.02111166428
3.24,0.01520515913,-0.02883211557
3.25,0.003432748902,-0.03245254302
3.26,-0.008856828177,-0.03144476428
3.27,-0.01990648716,-0.02594278169
3.28,-0.02813334297,-0.01672481211
3.29,-0.03235615437,-0.005102585766
3.3,-0.03196521399,0.007266149682
3.31,-0.02701022822,0.01861490066
3.32,-0.01819360392,0.02732131972
3.33,-0.006770205137,0.03213938902
3.34,0.005631920849,0.03237763649
3.35,0.01724406078,0.02799796149
3.36,0.02640927223,0.01962108619
3.37,0.03181868239,0.008438026932
3.38,0.03269801099,-0.003959627744
3.39,0.02891786765,-0.01580634067
3.4,0.02101227586,-0.02541385868
3.41,0.01010292409,-0.03141136613
3.42,-0.00226001209,-0.03294052789
3.43,-0.01431786835,-0.02977783369
3.44,-0.02435315444,-0.02236695735
3.45,-0.0309335741,-0.01175654714
3.46,-0.03311590113,0.0005478121143
3.47,-0.03058085162,0.01279663638
3.48,-0.0236797755,0.02324457646
3.49,-0.01338637075,0.03039846446
3.5,-0.00115998192,0.03323029516
3.51,0.01126047338,0.03132488819
3.52,0.02210304431,0.02494106402
3.53,0.02981499259,0.01497727418
3.54,0.03328498368,0.002846082706
3.55,0.0320034938,-0.009725172674
3.56,0.0261382475,-0.02093962357
3.57,0.01651339895,-0.02918737383
3.58,0.004494781792,-0.03327674126
3.59,-0.008203031698,-0.03260701568
3.6,-0.01976081023,-0.02725758106
3.61,-0.02851526398,-0.01798000319
3.62,-0.03319886131,-0.006093488632
3.63,-0.03312420224,0.006701977346
3.64,-0.02828595945,0.01856850914
3.65,-0.01936505442,0.02779457908
3.66,-0.007633743977,0.03304261138
3.67,0.005225353908,0.03354394586
3.68,0.0173606561,0.02921253991
3.69,0.02701879164,0.02066036092
3.7,0.03279889144,0.009111609194
3.71,0.03385691404,-0.003772350709
3.72,0.03002997138,-0.0161323478
3.73,0.02186212408,-0.02618048881
3.74,0.0105274277,-0.03245985356
3.75,-0.002338961313,-0.03405685684
3.76,-0.0148772873,-0.03073509477
3.77,-0.02527296286,-0.02297088186
3.78,-0.03202026883,-0.01188503871
3.79,-0.03414144018,0.0009193057964
3.8,-0.03132906068,0.01358932908
3.81,-0.02399089608,0.02429162006
3.82,-0.01319058687,0.03147847899
3.83,-0.0004928840751,0.03411252887
3.84,0.01226391337,0.03181688926
3.85,0.02323503574,0.02492910116
3.86,0.03083683531,0.01445111015
3.87,0.03397591741,0.001902821014
3.88,0.03220656417,-0.01089920991
3.89,0.02579377737,-0.02210553922
3.9,0.01567310204,-0.03010159751
3.91,0.003313444697,-0.03374057404
3.92,-0.009496838197,-0.0325078027
3.93,-0.02090927693,-0.02659313432
3.94,-0.02928233188,-0.01686123559
3.95,-0.03341751852,-0.004724577792
3.96,-0.03273067573,0.008062089721
3.97,-0.02733399245,0.01965576733
3.98,-0.01801740852,0.02839090683
3.99,-0.006132551241,0.03301849377
4,0.006603640959,0.03288426316
4.01,0.0183570232,0.02802073134
4.02,0.02744023065,0.01914022437
4.03,0.03255461211,0.007530333702
4.04,0.03297552097,-0.005132809939
4.05,0.02865463701,-0.01702636959
4.06,0.02022496699,-0.02644290613
4.07,0.008908134987,-0.03203515776
4.08,-0.003662467228,-0.03300850674
4.09,-0.01567712377,-0.02923372633
4.1,-0.02540998583,-0.0212640604
4.11,-0.03146670454,-0.01025439073
4.12,-0.03298406122,0.002205757768
4.13,-0.0297530621,0.0143213214
4.14,-0.02224793983,0.02434999744
4.15,-0.01155698342,0.030852664
4.16,0.0007748156595,0.03289997998
4.17,0.01296866581,0.03020550351
4.18,0.02326836966,0.02316620195
4.19,0.03019331728,0.01280452181
4.2,0.03275163864,0.0006203458065
4.21,0.03058277392,-0.01162584431
4.22,0.02400886255,-0.02216733011
4.23,0.01398749352,-0.02948631299
4.24,0.001972613893,-0.0325329688
4.25,-0.01029629966,-0.03087668237
4.26,-0.02104627585,-0.02476753589
4.27,-0.02872754402,-0.01509912705
4.28,-0.03223763086,-0.003278122706
4.29,-0.03108031482,0.008980474953
4.3,-0.02543636513,0.01990254576
4.31,-0.01613584639,0.02791226075
4.32,-0.004536130782,0.03186020334
4.33,0.007676478045,0.03118901994
4.34,0.01873246504,0.02601257582
4.35,0.02703624635,0.0170972671
4.36,0.03139721181,0.005748466991
4.37,0.03120105189,-0.006381049568
4.38,0.02649658599,-0.01753249541
4.39,0.01798575396,-0.02609687718
4.4,0.006918645624,-0.03084785173
4.41,-0.005090677892,-0.03111778974
4.42,-0.01630031602,-0.02689167631
4.43,-0.02509391672,-0.01880562513
4.44,-0.03021431238,-0.008050796117
4.45,-0.03094352062,0.003802690227
4.46,-0.02720328877,0.01503567983
4.47,-0.01956213556,0.02402993918
4.48,-0.009148572083,0.0295016732
4.49,0.002516162408,0.03068483823
4.5,0.01374093159,0.02743807286
4.51,0.02291033881,0.02026039657
4.52,0.02871740697,0.01021419726
4.53,0.03034976036,-0.001232525595
4.54,0.02760282612,-0.01242112927
4.55,0.02090438734,-0.0217429421
4.56,0.01124777676,-0.02787057745
4.57,4.420187057E-05,-0.02994670157
4.58,-0.01108376915,-0.02770348183
4.59,-0.02053729403,-0.02149619174
4.6,-0.02697085524,-0.01224695763
4.61,-0.02948344834,-0.001307573846
4.62,-0.02774428035,0.009738168285
4.63,-0.0220355557,0.01930372817
4.64,-0.0132069714,0.02602749241
4.65,-0.002549230903,0.028966275
4.66,0.008394599732,0.02772722916
4.67,0.0180523532,0.02251981319
4.68,0.02504839432,0.01412104009
4.69,0.02839931397,0.003759689886
4.7,0.0276519143,-0.007063303367
4.71,0.0229441798,-0.01679209265
4.72,0.01498108159,-0.02403940892
4.73,0.004929296741,-0.02778425663
4.74,-0.005753506028,-0.02751567955
4.75,-0.01552990347,-0.02330236647
4.76,-0.02300392263,-0.01577861475
4.77,-0.0271204177,-0.006049213315
4.78,-0.02731414241,0.004472580483
4.79,-0.02358742641,0.0142702739
4.8,-0.01650574082,0.02194281137
4.81,-0.007112306512,0.02640514906
4.82,0.003225453323,0.0270419737
4.83,0.01301506408,0.02379271934
4.84,0.02085474946,0.01715606896
4.85,0.02563454428,0.008113821387
4.86,0.02669383359,-0.002014339376
4.87,0.02391286191,-0.01176370847
4.88,0.01772546096,-0.01973683212
4.89,0.00905174787,-0.02480433603
4.9,-0.0008388372654,-0.02626533552
4.91,-0.01051375079,-0.02394453415
4.92,-0.01858542491,-0.01821249327
4.93,-0.02391086236,-0.009926831555
4.94,-0.02575390443,-0.0003036281368
4.95,-0.0238870305,0.009261636329
4.96,-0.01861857285,0.01739712139
4.97,-0.01074222788,0.02295196669
4.98,-0.001417079029,0.02515940995
4.99,0.008003650126,0.02374247891
5,0.01616967426,0.01894769168
5.01,0.02192770549,0.01150284942
5.02,0.02448448599,0.002506077021
5.03,0.0235156985,-0.006736868287
5.04,0.01920585603,-0.01490276922
5.05,0.01221449997,-0.0208407649
5.06,0.003574763422,-0.0237344941
5.07,-0.005459988608,-0.0232137188
5.08,-0.01359853409,-0.01940027381
5.09,-0.01969653109,-0.01288291898
5.1,-0.02291713962,-0.004625982381
5.11,-0.0228450317,0.004173926065
5.12,-0.01953841633,0.01226171608
5.13,-0.01351287032,0.01850280979
5.14,-0.00566060676,0.02204179981
5.15,0.002882095528,0.02241868457
5.16,0.01089950981,0.01962708603
5.17,0.01726924126,0.01410739914
5.18,0.02111866233,0.00667715361
5.19,0.02194334126,-0.00159035149
5.2,0.01967161565,-0.009521068745
5.21,0.01466735126,-0.01600649805
5.22,0.007671731459,-0.02015779474
5.23,-0.0003066041239,-0.02142643664
5.24,-0.008136775584,-0.01967529965
5.25,-0.0147253786,-0.01519120871
5.26,-0.0191682689,-0.008638313679
5.27,-0.02087353029,-0.0009598258819
5.28,-0.01963912163,0.006757375116
5.29,-0.01567524889,0.01343591681
5.3,-0.009569289002,0.01815744895
5.31,-0.002199020609,0.02028793202
5.32,0.005393084701,0.01956179834
5.33,0.01214661781,0.01611399248
5.34,0.01713052336,0.01045620788
5.35,0.01967063226,0.003401338169
5.36,0.0194401195,-0.004052792186
5.37,0.01650087161,-0.01086390676
5.38,0.01129062488,-0.01609032565
5.39,0.004558237964,-0.01902053075
5.4,-0.002743433051,-0.01926952846
5.41,-0.009591846062,-0.01682902803
5.42,-0.01503745145,-0.01206493268
5.43,-0.01833492279,-0.005662962751
5.44,-0.01904486452,0.00146961187
5.45,-0.0170921421,0.008332142228
5.46,-0.01277309058,0.0139706454
5.47,-0.006711003974,0.01761017563
5.48,0.0002335023366,0.01876117401
5.49,0.007084430572,0.017285195
5.5,0.01288740327,0.01341116688
5.51,0.01684250992,0.007700303893
5.52,0.01841449394,0.0009649715801
5.53,0.01740507803,-0.005846796238
5.54,0.01397763738,-0.01178471324
5.55,0.008631177814,-0.01602879294
5.56,0.002127701038,-0.01800251772
5.57,-0.004616465835,-0.01745098094
5.58,-0.01065984727,-0.01447340985
5.59,-0.0151672502,-0.009505970244
5.6,-0.0175250662,-0.003257759139
5.61,-0.01742451639,0.003390585819
5.62,-0.01490157421,0.009511107916
5.63,-0.01032848817,0.0142580114
5.64,-0.004358646226,0.01698430909
5.65,0.002166993655,0.01732956673
5.66,0.00833844076,0.0152669097
5.67,0.01330342492,0.01110328064
5.68,0.01638470995,0.005433505713
5.69,0.0171718719,-0.0009448873718
5.7,0.0155752093,-0.007143836875
5.71,0.01183485338,-0.01230810143
5.72,0.006484407628,-0.01573270077
5.73,0.000274690179,-0.01695840886
5.74,-0.005931474463,-0.01583250523
5.75,-0.01127868047,-0.01252691666
5.76,-0.01503612655,-0.007511790269
5.77,-0.01669664063,-0.00148861396
5.78,-0.01604429354,0.004707581172
5.79,-0.0131817621,0.01022334918
5.8,-0.008514131099,0.01430353027
5.81,-0.002691716395,0.01639373068
5.82,0.003480035234,0.0162148568
5.83,0.009151175719,0.01379984778
5.84,0.01354337095,0.009487887987
5.85,0.01605582373,0.003877097191
5.86,0.0163467712,-0.002257758734
5.87,0.01437964277,-0.008071344683
5.88,0.01042771522,-0.0127632757
5.89,0.00503665989,-0.01568748447
5.9,-0.001049984153,-0.01644065846
5.91,-0.006992394553,-0.01491774672
5.92,-0.01196942146,-0.0113269212
5.93,-0.01529136293,-0.006161801448
5.94,-0.01649520854,-0.0001345088219
5.95,-0.01540926206,0.005921554648
5.96,-0.01217810269,0.01116612164
5.97,-0.007244162264,0.01486812229
5.98,-0.001288087982,0.0165074619
5.99,0.004864262729,0.01584836304
6,0.01035566315,0.01297386872
