"Freq [GHz]","re(S(Tx_p1,Tx_p1)) []","im(S(Tx_p1,Tx_p1)) []"
1,-0.006999117237,-0.2250123549
1.01,-0.01441672585,-0.2241518807
1.02,-0.02181629115,-0.2230367299
1.03,-0.0291868314,-0.2216663893
1.04,-0.03651738124,-0.2200409323
1.05,-0.04379702093,-0.218161009
1.06,-0.05101490471,-0.2160278358
1.07,-0.05816028829,-0.2136431836
1.08,-0.06522255537,-0.2110093648
1.09,-0.07219124317,-0.2081292196
1.1,-0.07905606701,-0.2050061015
1.11,-0.08580694381,-0.2016438614
1.12,-0.09243401457,-0.1980468317
1.13,-0.09892766572,-0.1942198088
1.14,-0.1052785494,-0.1901680353
1.15,-0.1114776027,-0.1858971817
1.16,-0.1175160654,-0.1814133269
1.17,-0.1233854972,-0.1767229386
1.18,-0.129077793,-0.1718328533
1.19,-0.1345851976,-0.1667502553
1.2,-0.139900319,-0.1614826559
1.21,-0.1450161404,-0.1560378718
1.22,-0.1499260312,-0.1504240035
1.23,-0.1546237565,-0.1446494136
1.24,-0.1591034859,-0.1387227045
1.25,-0.1633598006,-0.1326526962
1.26,-0.1673876996,-0.1264484045
1.27,-0.1711826046,-0.1201190185
1.28,-0.1747403641,-0.1136738787
1.29,-0.1780572557,-0.1071224546
1.3,-0.1811299879,-0.1004743235
1.31,-0.1839557007,-0.09373914854
1.32,-0.1865319647,-0.08692665753
1.33,-0.1888567796,-0.08004662193
1.34,-0.1909285719,-0.0731088363
1.35,-0.1927461908,-0.06612309815
1.36,-0.1943089039,-0.05909918822
1.37,-0.1956163917,-0.0520468513
1.38,-0.1966687416,-0.04497577757
1.39,-0.19746644,-0.03789558455
1.4,-0.1980103652,-0.03081579967
1.41,-0.1983017783,-0.02374584342
1.42,-0.1983423137,-0.01669501328
1.43,-0.1981339693,-0.009672468284
1.44,-0.197679096,-0.002687214321
1.45,-0.1969803861,0.004251909784
1.46,-0.1960408617,0.01113624546
1.47,-0.1948638629,0.01795732675
1.48,-0.1934530344,0.02470689194
1.49,-0.1918123135,0.03137689432
1.5,-0.1899459158,0.03795951214
1.51,-0.1878583223,0.04444715779
1.52,-0.1855542655,0.0508324861
1.53,-0.1830387151,0.05710840187
1.54,-0.1803168642,0.06326806652
1.55,-0.1773941148,0.06930490402
1.56,-0.1742760638,0.07521260592
1.57,-0.1709684888,0.08098513565
1.58,-0.1674773336,0.086616732
1.59,-0.1638086942,0.09210191186
1.6,-0.1599688051,0.09743547222
1.61,-0.155964025,0.1026124914
1.62,-0.1518008237,0.1076283297
1.63,-0.1474857683,0.112478629
1.64,-0.1430255103,0.1171593123
1.65,-0.1384267729,0.1216665822
1.66,-0.1336963385,0.1259969187
1.67,-0.1288410362,0.1301470769
1.68,-0.1238677311,0.1341140836
1.69,-0.1187833118,0.1378952337
1.7,-0.1135946806,0.1414880864
1.71,-0.1083087426,0.1448904601
1.72,-0.1029323957,0.148100428
1.73,-0.09747252159,0.1511163122
1.74,-0.09193597652,0.1539366785
1.75,-0.08632958302,0.1565603303
1.76,-0.08066012195,0.1589863022
1.77,-0.07493432521,0.1612138536
1.78,-0.06915886882,0.1632424623
1.79,-0.06334036669,0.1650718174
1.8,-0.0574853648,0.1667018123
1.81,-0.05160033595,0.1681325383
1.82,-0.04569167502,0.1693642768
1.83,-0.03976569475,0.1703974927
1.84,-0.03382862201,0.1712328272
1.85,-0.02788659455,0.1718710907
1.86,-0.02194565825,0.1723132563
1.87,-0.0160117648,0.1725604524
1.88,-0.01009076985,0.1726139566
1.89,-0.004188431563,0.1724751886
1.9,0.00168959043,0.1721457046
1.91,0.007537735672,0.1716271904
1.92,0.01335054319,0.1709214562
1.93,0.01912265145,0.1700304308
1.94,0.02484879802,0.168956156
1.95,0.03052381894,0.1677007818
1.96,0.03614264784,0.1662665617
1.97,0.04170031483,0.1646558479
1.98,0.04719194518,0.1628710879
1.99,0.05261275788,0.1609148198
2,0.05795806396,0.1587896699
2.01,0.06322326481,0.1564983487
2.02,0.06840385034,0.1540436488
2.03,0.07349539709,0.1514284422
2.04,0.07849356641,0.1486556783
2.05,0.08339410247,0.1457283825
2.06,0.08819283049,0.1426496544
2.07,0.09288565492,0.1394226672
2.08,0.09746855768,0.1360506668
2.09,0.1019375967,0.1325369712
2.1,0.1062889042,0.1288849708
2.11,0.1105186858,0.1250981287
2.12,0.114623219,0.1211799803
2.13,0.1185988525,0.1171341353
2.14,0.1224420058,0.1129642773
2.15,0.126149168,0.108674166
2.16,0.1297168984,0.1042676381
2.17,0.1331418264,0.09974860855
2.18,0.1364206518,0.09512107275
2.19,0.1395501456,0.09038910782
2.2,0.1425271512,0.0855568747
2.21,0.1453485854,0.08062861991
2.22,0.1480114407,0.07560867757
2.23,0.1505127867,0.07050147127
2.24,0.1528497731,0.06531151602
2.25,0.1550196321,0.06004342011
2.26,0.1570196814,0.05470188686
2.27,0.1588473281,0.04929171632
2.28,0.1605000721,0.0438178068
2.29,0.1619755103,0.03828515622
2.3,0.163271341,0.0326988633
2.31,0.1643853688,0.02706412852
2.32,0.1653155094,0.0213862548
2.33,0.1660597952,0.01567064793
2.34,0.1666163807,0.009922816717
2.35,0.1669835486,0.004148372793
2.36,0.1671597155,-0.001646969954
2.37,0.1671434386,-0.007457396275
2.38,0.166933422,-0.01327699087
2.39,0.1665285235,-0.01909974008
2.4,0.1659277611,-0.02491953407
2.41,0.1651303204,-0.03073016939
2.42,0.1641355611,-0.03652535199
2.43,0.1629430244,-0.04229870079
2.44,0.1615524399,-0.04804375166
2.45,0.1599637328,-0.05375396189
2.46,0.1581770311,-0.0594227152
2.47,0.156192672,-0.06504332726
2.48,0.1540112095,-0.07060905163
2.49,0.1516334207,-0.07611308636
2.5,0.1490603123,-0.08154858095
2.51,0.1462931274,-0.08690864391
2.52,0.1433333512,-0.0921863508
2.53,0.1401827171,-0.09737475273
2.54,0.1368432122,-0.1024668854
2.55,0.1333170825,-0.1074557786
2.56,0.1296068377,-0.1123344661
2.57,0.1257152559,-0.1170959961
2.58,0.1216453871,-0.121733442
2.59,0.1174005573,-0.1262399138
2.6,0.1129843712,-0.1306085692
2.61,0.1084007149,-0.1348326264
2.62,0.1036537578,-0.1389053757
2.63,0.09874795392,-0.1428201923
2.64,0.09368804284,-0.1465705495
2.65,0.08847904983,-0.1501500316
2.66,0.08312628536,-0.1535523471
2.67,0.07763534392,-0.1567713426
2.68,0.07201210226,-0.1598010164
2.69,0.06626271682,-0.1626355322
2.7,0.06039362051,-0.165269233
2.71,0.05441151873,-0.1676966553
2.72,0.04832338467,-0.1699125428
2.73,0.04213645388,-0.17191186
2.74,0.03585821806,-0.1736898066
2.75,0.02949641811,-0.175241831
2.76,0.02305903642,-0.1765636433
2.77,0.01655428846,-0.1776512293
2.78,0.009990613544,-0.1785008632
2.79,0.003376664891,-0.1791091203
2.8,-0.003278701027,-0.1794728896
2.81,-0.009966435889,-0.1795893858
2.82,-0.01667731162,-0.1794561608
2.83,-0.02340193319,-0.179071115
2.84,-0.03013075205,-0.1784325078
2.85,-0.0368540803,-0.177538968
2.86,-0.04356210535,-0.176389503
2.87,-0.05024490535,-0.174983508
2.88,-0.05689246507,-0.1733207741
2.89,-0.06349469237,-0.1714014959
2.9,-0.07004143517,-0.1692262783
2.91,-0.07652249897,-0.166796143
2.92,-0.08292766468,-0.1641125332
2.93,-0.089246707,-0.1611773186
2.94,-0.09546941308,-0.1579927986
2.95,-0.1015856015,-0.1545617057
2.96,-0.1075851417,-0.1508872068
2.97,-0.1134579733,-0.1469729047
2.98,-0.1191941259,-0.1428228377
2.99,-0.1247837393,-0.1384414792
3,-0.130217083,-0.1338337356
3.01,-0.1354845764,-0.1290049433
3.02,-0.140576809,-0.1239608656
3.03,-0.1454845603,-0.1187076872
3.04,-0.1501988197,-0.113252009
3.05,-0.1547108063,-0.107600841
3.06,-0.1590119885,-0.1017615949
3.07,-0.163094103,-0.09574207521
3.08,-0.1669491743,-0.08955046979
3.09,-0.1705695334,-0.08319533899
3.1,-0.1739478353,-0.07668560422
3.11,-0.1770770779,-0.07003053548
3.12,-0.1799506186,-0.06323973788
3.13,-0.1825621913,-0.05632313736
3.14,-0.1849059225,-0.04929096549
3.15,-0.1869763473,-0.04215374351
3.16,-0.1887684237,-0.0349222654
3.17,-0.1902775469,-0.02760758034
3.18,-0.191499563,-0.02022097428
3.19,-0.1924307812,-0.01277395088
3.2,-0.1930679858,-0.005278211706
3.21,-0.1934084468,0.002254364144
3.22,-0.1934499298,0.009811741068
3.23,-0.1931907053,0.01738174851
3.24,-0.1926295562,0.02495210304
3.25,-0.1917657854,0.03251043088
3.26,-0.190599221,0.04004429081
3.27,-0.1891302216,0.04754119753
3.28,-0.18735968,0.05498864522
3.29,-0.185289026,0.06237413143
3.3,-0.1829202276,0.06968518116
3.31,-0.1802557918,0.07690937105
3.32,-0.177298764,0.08403435374
3.33,-0.1740527254,0.09104788215
3.34,-0.1705217909,0.09793783391
3.35,-0.1667106044,0.1046922355
3.36,-0.1626243338,0.1112992865
3.37,-0.1582686641,0.1177473833
3.38,-0.1536497904,0.1240251432
3.39,-0.1487744084,0.1301214274
3.4,-0.1436497056,0.1360253639
3.41,-0.1382833491,0.1417263708
3.42,-0.1326834747,0.1472141778
3.43,-0.1268586731,0.1524788479
3.44,-0.120817976,0.1575107987
3.45,-0.1145708409,0.1623008225
3.46,-0.1081271351,0.1668401065
3.47,-0.1014971184,0.1711202511
3.48,-0.09469142537,0.1751332888
3.49,-0.0877210462,0.1788717012
3.5,-0.0805973072,0.1823284359
3.51,-0.07333185023,0.1854969216
3.52,-0.06593661142,0.1883710834
3.53,-0.05842379921,0.190945356
3.54,-0.05080587173,0.193214697
3.55,-0.04309551354,0.195174598
3.56,-0.03530561186,0.1968210953
3.57,-0.02744923223,0.1981507796
3.58,-0.01953959375,0.199160804
3.59,-0.01159004391,0.1998488918
3.6,-0.003614033112,0.2002133415
3.61,0.004374911169,0.2002530326
3.62,0.01236321039,0.1999674287
3.63,0.02033726112,0.19935658
3.64,0.02828346138,0.1984211246
3.65,0.03618823699,0.1971622881
3.66,0.04403806792,0.195581883
3.67,0.05181951456,0.1936823053
3.68,0.05951924391,0.1914665316
3.69,0.06712405556,0.1889381137
3.7,0.07462090739,0.1861011725
3.71,0.08199694101,0.1829603907
3.72,0.08923950686,0.1795210043
3.73,0.09633618885,0.175788793
3.74,0.1032748285,0.1717700692
3.75,0.1100435488,0.167471666
3.76,0.1166307768,0.1629009246
3.77,0.1230252668,0.1580656796
3.78,0.1292161214,0.1529742445
3.79,0.1351928131,0.1476353952
3.8,0.1409452042,0.1420583531
3.81,0.1464635662,0.1362527669
3.82,0.151738599,0.1302286942
3.83,0.1567614478,0.1239965814
3.84,0.1615237202,0.1175672435
3.85,0.1660175021,0.1109518426
3.86,0.1702353721,0.1041618663
3.87,0.1741704157,0.09720910496
3.88,0.1778162373,0.09010562874
3.89,0.1811669723,0.0828637637
3.9,0.1842172974,0.07549606783
3.91,0.1869624395,0.06801530636
3.92,0.1893981843,0.06043442688
3.93,0.1915208832,0.05276653397
3.94,0.1933274586,0.04502486375
3.95,0.1948154093,0.03722275809
3.96,0.1959828129,0.02937363874
3.97,0.1968283288,0.02149098136
3.98,0.1973511987,0.01358828952
3.99,0.1975512466,0.00567906873
4,0.1974288771,-0.002223199464
4.01,0.196985073,-0.01010508319
4.02,0.1962213917,-0.01795322582
4.03,0.1951399596,-0.02575437126
4.04,0.1937434666,-0.0334953889
4.05,0.1920351587,-0.04116329828
4.06,0.1900188294,-0.04874529323
4.07,0.1876988106,-0.05622876566
4.08,0.185079962,-0.06360132876
4.09,0.1821676594,-0.07085083964
4.1,0.1789677824,-0.07796542137
4.11,0.175486701,-0.08493348437
4.12,0.1717312609,-0.09174374712
4.13,0.1677087685,-0.09838525603
4.14,0.1634269743,-0.1048474047
4.15,0.1588940565,-0.1111199521
4.16,0.1541186029,-0.1171930403
4.17,0.1491095926,-0.1230572109
4.18,0.1438763767,-0.1287034207
4.19,0.1384286586,-0.1341230565
4.2,0.1327764737,-0.1393079489
4.21,0.1269301684,-0.1442503851
4.22,0.1209003789,-0.1489431204
4.23,0.1146980091,-0.1533793894
4.24,0.1083342085,-0.1575529153
4.25,0.1018203498,-0.1614579187
4.26,0.09516800608,-0.1650891251
4.27,0.08838892739,-0.1684417713
4.28,0.08149501793,-0.1715116111
4.29,0.07449831252,-0.1742949191
4.3,0.06741095318,-0.1767884945
4.31,0.06024516571,-0.1789896628
4.32,0.05301323628,-0.1808962771
4.33,0.04572748805,-0.182506718
4.34,0.03840025803,-0.1838198925
4.35,0.031043874,-0.1848352321
4.36,0.02367063177,-0.1855526894
4.37,0.01629277262,-0.1859727339
4.38,0.008922461131,-0.1860963474
4.39,0.001571763348,-0.1859250172
4.4,-0.005747374626,-0.1854607292
4.41,-0.0130231476,-0.1847059603
4.42,-0.02024391176,-0.1836636691
4.43,-0.02739820459,-0.1823372862
4.44,-0.03447476428,-0.1807307037
4.45,-0.04146254844,-0.1788482637
4.46,-0.04835075224,-0.1766947463
4.47,-0.05512882584,-0.1742753566
4.48,-0.0617864912,-0.1715957109
4.49,-0.06831375803,-0.1686618228
4.5,-0.0747009391,-0.1654800882
4.51,-0.08093866472,-0.1620572697
4.52,-0.08701789643,-0.1584004807
4.53,-0.0929299399,-0.154517169
4.54,-0.09866645695,-0.1504150997
4.55,-0.1042194767,-0.1461023381
4.56,-0.1095814061,-0.1415872316
4.57,-0.114745039,-0.1368783921
4.58,-0.1197035652,-0.1319846771
4.59,-0.1244505779,-0.1269151718
4.6,-0.1289800803,-0.1216791699
4.61,-0.133286492,-0.1162861547
4.62,-0.1373646536,-0.1107457804
4.63,-0.1412098312,-0.1050678526
4.64,-0.1448177193,-0.09926230957
4.65,-0.1481844434,-0.09333920294
4.66,-0.1513065616,-0.08730867875
4.67,-0.154181065,-0.08118095855
4.68,-0.1568053777,-0.07496632057
4.69,-0.1591773558,-0.06867508114
4.7,-0.1612952855,-0.06231757627
4.71,-0.1631578806,-0.05590414355
4.72,-0.1647642789,-0.04944510426
4.73,-0.1661140385,-0.04295074581
4.74,-0.1672071323,-0.0364313046
4.75,-0.168043943,-0.02989694915
4.76,-0.1686252566,-0.02335776375
4.77,-0.1689522556,-0.01682373245
4.78,-0.1690265112,-0.01030472357
4.79,-0.1688499754,-0.003810474682
4.8,-0.1684249725,0.002649421914
4.81,-0.1677541892,0.009065533151
4.82,-0.1668406655,0.01542859865
4.83,-0.1656877844,0.02172954356
4.84,-0.1642992606,0.02795949089
4.85,-0.1626791303,0.03410977315
4.86,-0.1608317391,0.04017194346
4.87,-0.1587617304,0.04613778602
4.88,-0.1564740332,0.05199932596
4.89,-0.15397385,0.05774883849
4.9,-0.1512666437,0.06337885755
4.91,-0.1483581248,0.06888218369
4.92,-0.1452542387,0.07425189136
4.93,-0.1419611521,0.07948133556
4.94,-0.1384852399,0.08456415786
4.95,-0.1348330715,0.08949429172
4.96,-0.1310113976,0.09426596728
4.97,-0.1270271368,0.09887371541
4.98,-0.1228873618,0.1033123712
4.99,-0.1185992858,0.1075770769
5,-0.1141702495,0.1116632842
5.01,-0.1096077078,0.1155667557
5.02,-0.104919216,0.1192835662
5.03,-0.1001124173,0.1228101035
5.04,-0.09519502968,0.1261430678
5.05,-0.09017483294,0.1292794718
5.06,-0.08505965653,0.1322166391
5.07,-0.07985736703,0.1349522031
5.08,-0.07457585606,0.1374841048
5.09,-0.06922302854,0.1398105904
5.1,-0.06380679113,0.1419302081
5.11,-0.05833504095,0.1438418053
5.12,-0.05281565467,0.1455445243
5.13,-0.04725647789,0.1470377987
5.14,-0.04166531485,0.1483213486
5.15,-0.03604991845,0.1493951759
5.16,-0.03041798068,0.1502595592
5.17,-0.02477712335,0.1509150485
5.18,-0.0191348892,0.1513624594
5.19,-0.01349873341,0.1516028672
5.2,-0.007876015441,0.1516376009
5.21,-0.002273991228,0.1514682368
5.22,0.00330019418,0.1510965917
5.23,0.008839513667,0.150524717
5.24,0.0143370647,0.1497548908
5.25,0.01978607561,0.1487896118
5.26,0.0251799115,0.147631592
5.27,0.03051207982,0.1462837496
5.28,0.03577623553,0.1447492016
5.29,0.04096618595,0.1430312569
5.3,0.04607589526,0.1411334088
5.31,0.05109948865,0.1390593279
5.32,0.05603125615,0.1368128545
5.33,0.06086565609,0.1343979919
5.34,0.06559731839,0.1318188986
5.35,0.07022104735,0.1290798815
5.36,0.07473182431,0.1261853886
5.37,0.07912480994,0.123140002
5.38,0.08339534634,0.1199484308
5.39,0.08753895878,0.1166155045
5.4,0.09155135728,0.1131461658
5.41,0.09542843797,0.1095454641
5.42,0.09916628411,0.105818549
5.43,0.1027611671,0.1019706635
5.44,0.106209547,0.09800713817
5.45,0.1095080733,0.09393338424
5.46,0.112653585,0.08975488797
5.47,0.1156431112,0.08547720449
5.48,0.1184738705,0.08110595192
5.49,0.1211432716,0.07664680565
5.5,0.1236489127,0.07210549275
5.51,0.1259885813,0.06748778643
5.52,0.1281602536,0.06279950074
5.53,0.1301620944,0.05804648527
5.54,0.131992456,0.05323462007
5.55,0.1336498779,0.0483698106
5.56,0.1351330859,0.04345798287
5.57,0.1364409914,0.0385050786
5.58,0.1375726905,0.03351705056
5.59,0.1385274631,0.02849985793
5.6,0.1393047722,0.02345946181
5.61,0.1399042625,0.01840182075
5.62,0.1403257601,0.01333288642
5.63,0.1405692708,0.008258599291
5.64,0.1406349796,0.003184884374
5.65,0.1405232496,-0.001882352932
5.66,0.1402346206,-0.006937231009
5.67,0.1397698085,-0.01197389612
5.68,0.139129704,-0.0169865265
5.69,0.1383153717,-0.02196933638
5.7,0.1373280485,-0.0269165801
5.71,0.1361691434,-0.03182255605
5.72,0.1348402354,-0.03668161077
5.73,0.1333430729,-0.04148814299
5.74,0.1316795726,-0.04623660763
5.75,0.1298518179,-0.05092151992
5.76,0.127862058,-0.05553745946
5.77,0.1257127064,-0.06007907433
5.78,0.1234063397,-0.06454108527
5.79,0.1209456962,-0.06891828983
5.8,0.1183336744,-0.07320556662
5.81,0.1155733315,-0.07739787956
5.82,0.1126678821,-0.08149028217
5.83,0.1096206962,-0.08547792195
5.84,0.1064352973,-0.08935604475
5.85,0.1031153612,-0.09311999926
5.86,0.09966471348,-0.09676524142
5.87,0.09608732763,-0.100287339
5.88,0.09238732287,-0.1036819762
5.89,0.08856896181,-0.1069449583
5.9,0.08463664799,-0.1100722159
5.91,0.08059492324,-0.1130598104
5.92,0.07644846498,-0.115903938
5.93,0.07220208321,-0.1186009345
5.94,0.06786071748,-0.1211472804
5.95,0.06342943352,-0.1235396055
5.96,0.05891341986,-0.1257746934
5.97,0.05431798407,-0.1278494866
5.98,0.04964854896,-0.1297610909
5.99,0.04491064847,-0.1315067801
6,0.04010992337,-0.1330840012
