"Freq [GHz]","re(S(Tx_p1,Tx_p1)) []","im(S(Tx_p1,Tx_p1)) []"
1,-0.04100548631,-0.3082998444
1.01,-0.05215413417,-0.3067556752
1.02,-0.06329496518,-0.3047874309
1.03,-0.07440907608,-0.3023923097
1.04,-0.08547740622,-0.299568471
1.05,-0.09648078378,-0.2963150369
1.06,-0.1073999718,-0.2926320905
1.07,-0.1182157138,-0.2885206737
1.08,-0.1289087792,-0.2839827824
1.09,-0.139460008,-0.2790213599
1.1,-0.1498503555,-0.2736402895
1.11,-0.1600609355,-0.2678443839
1.12,-0.1700730641,-0.2616393741
1.13,-0.1798683017,-0.2550318959
1.14,-0.1894284951,-0.2480294749
1.15,-0.1987358176,-0.2406405095
1.16,-0.20777281,-0.2328742532
1.17,-0.2165224184,-0.2247407938
1.18,-0.2249680333,-0.2162510326
1.19,-0.2330935255,-0.2074166608
1.2,-0.2408832821,-0.1982501351
1.21,-0.2483222413,-0.1887646517
1.22,-0.2553959251,-0.1789741189
1.23,-0.2620904713,-0.1688931282
1.24,-0.2683926641,-0.1585369245
1.25,-0.2742899632,-0.1479213745
1.26,-0.2797705309,-0.1370629345
1.27,-0.2848232587,-0.125978617
1.28,-0.2894377914,-0.1146859556
1.29,-0.29360455,-0.1032029701
1.3,-0.2973147529,-0.09154812967
1.31,-0.3005604352,-0.07974031568
1.32,-0.3033344669,-0.06779878375
1.33,-0.3056305685,-0.05574312505
1.34,-0.3074433254,-0.04359322697
1.35,-0.3087682003,-0.03136923338
1.36,-0.3096015441,-0.01909150437
1.37,-0.3099406042,-0.006780575616
1.38,-0.3097835319,0.005542882468
1.39,-0.3091293873,0.01785810585
1.4,-0.3079781427,0.03014427809
1.41,-0.3063306838,0.04238057158
1.42,-0.3041888095,0.05454618876
1.43,-0.3015552296,0.06662040322
1.44,-0.2984335603,0.0785826006
1.45,-0.2948283187,0.09041231916
1.46,-0.2907449151,0.1020892901
1.47,-0.2861896428,0.1135934772
1.48,-0.2811696678,0.1249051163
1.49,-0.2756930149,0.136004754
1.5,-0.2697685533,0.1468732855
1.51,-0.2634059806,0.157491992
1.52,-0.2566158041,0.1678425772
1.53,-0.2494093214,0.177907203
1.54,-0.2417985997,0.1876685238
1.55,-0.2337964524,0.1971097203
1.56,-0.2254164156,0.2062145323
1.57,-0.2166727221,0.2149672897
1.58,-0.2075802749,0.2233529427
1.59,-0.1981546187,0.2313570912
1.6,-0.1884119108,0.2389660119
1.61,-0.1783688905,0.2461666848
1.62,-0.168042847,0.252946818
1.63,-0.1574515874,0.259294871
1.64,-0.1466134024,0.2652000767
1.65,-0.1355470321,0.2706524617
1.66,-0.1242716301,0.2756428651
1.67,-0.112806728,0.2801629555
1.68,-0.1011721978,0.2842052467
1.69,-0.089388215,0.2877631113
1.7,-0.07747522003,0.2908307932
1.71,-0.0654538802,0.2934034177
1.72,-0.05334505057,0.2954770003
1.73,-0.04116973482,0.2970484539
1.74,-0.02894904585,0.2981155937
1.75,-0.01670416616,0.2986771409
1.76,-0.004456308241,0.2987327243
1.77,0.007773325072,0.2982828804
1.78,0.01996358017,0.2973290513
1.79,0.03209339207,0.2958735815
1.8,0.04414182357,0.2939197126
1.81,0.05608810408,0.291471576
1.82,0.06791166813,0.2885341846
1.83,0.07959219331,0.2851134222
1.84,0.09110963777,0.2812160316
1.85,0.1024442771,0.276849601
1.86,0.1135767403,0.2720225485
1.87,0.1244880457,0.2667441059
1.88,0.1351596349,0.2610242996
1.89,0.145573407,0.2548739315
1.9,0.1557117513,0.2483045574
1.91,0.1655575788,0.2413284644
1.92,0.1750943536,0.2339586472
1.93,0.1843061214,0.2262087825
1.94,0.1931775392,0.2180932026
1.95,0.2016939015,0.2096268679
1.96,0.2098411666,0.2008253377
1.97,0.2176059815,0.1917047408
1.98,0.2249757046,0.182281744
1.99,0.2319384278,0.172573521
2,0.238482997,0.1625977188
2.01,0.2445990306,0.1523724249
2.02,0.2502769375,0.1419161327
2.03,0.2555079323,0.1312477064
2.04,0.2602840501,0.1203863457
2.05,0.264598159,0.1093515495
2.06,0.2684439711,0.09816307943
2.07,0.271816052,0.08684092265
2.08,0.2747098289,0.07540525483
2.09,0.2771215963,0.06387640247
2.1,0.279048521,0.05227480515
2.11,0.2804886445,0.04062097775
2.12,0.2814408848,0.02893547257
2.13,0.2819050353,0.01723884153
2.14,0.2818817632,0.00555159846
2.15,0.2813726057,-0.006105818381
2.16,0.2803799643,-0.01771308358
2.17,0.2789070983,-0.02925002149
2.18,0.2769581161,-0.0406966427
2.19,0.2745379649,-0.05203318014
2.2,0.2716524194,-0.06324012456
2.21,0.2683080683,-0.07429825943
2.22,0.2645122997,-0.08518869522
2.23,0.2602732854,-0.09589290287
2.24,0.2555999628,-0.1063927465
2.25,0.2505020166,-0.1166705154
2.26,0.2449898582,-0.1267089547
2.27,0.2390746041,-0.1364912958
2.28,0.2327680537,-0.1460012848
2.29,0.2260826649,-0.1552232111
2.3,0.2190315292,-0.1641419334
2.31,0.2116283456,-0.172742906
2.32,0.203887393,-0.1810122027
2.33,0.1958235028,-0.1889365405
2.34,0.187452029,-0.1965033009
2.35,0.1787888187,-0.2037005509
2.36,0.1698501812,-0.210517062
2.37,0.1606528566,-0.2169423278
2.38,0.1512139835,-0.2229665808
2.39,0.1415510661,-0.2285808072
2.4,0.1316819412,-0.2337767601
2.41,0.1216247443,-0.2385469719
2.42,0.1113978749,-0.2428847645
2.43,0.1010199628,-0.2467842584
2.44,0.09050983228,-0.2502403801
2.45,0.07988646776,-0.253248868
2.46,0.06916897823,-0.2558062769
2.47,0.05837656205,-0.2579099809
2.48,0.04752847162,-0.2595581745
2.49,0.03664397815,-0.2607498725
2.5,0.02574233655,-0.2614849081
2.51,0.01484275043,-0.2617639303
2.52,0.003964337492,-0.2615883982
2.53,-0.006873904872,-0.2609605754
2.54,-0.01765313356,-0.2598835224
2.55,-0.02835469331,-0.2583610869
2.56,-0.03896014969,-0.2563978938
2.57,-0.0494513216,-0.2539993331
2.58,-0.05981031312,-0.2511715465
2.59,-0.07001954464,-0.2479214129
2.6,-0.08006178333,-0.2442565324
2.61,-0.0899201727,-0.2401852091
2.62,-0.09957826149,-0.2357164331
2.63,-0.1090200315,-0.2308598602
2.64,-0.1182299246,-0.2256257921
2.65,-0.1271928686,-0.2200251536
2.66,-0.1358943024,-0.2140694707
2.67,-0.1443201997,-0.2077708464
2.68,-0.1524570918,-0.2011419356
2.69,-0.1602920892,-0.1941959201
2.7,-0.1678129021,-0.1869464815
2.71,-0.1750078596,-0.1794077745
2.72,-0.1818659276,-0.1715943982
2.73,-0.1883767259,-0.1635213681
2.74,-0.1945305428,-0.1552040865
2.75,-0.2003183503,-0.1466583125
2.76,-0.2057318157,-0.137900132
2.77,-0.210763314,-0.1289459266
2.78,-0.2154059375,-0.1198123426
2.79,-0.2196535043,-0.1105162596
2.8,-0.2235005662,-0.1010747587
2.81,-0.226942414,-0.0915050905
2.82,-0.2299750822,-0.08182464316
2.83,-0.2325953524,-0.07205091023
2.84,-0.2348007546,-0.06220145853
2.85,-0.2365895677,-0.05229389605
2.86,-0.2379608187,-0.04234584001
2.87,-0.2389142801,-0.03237488499
2.88,-0.2394504659,-0.02239857142
2.89,-0.2395706272,-0.01243435422
2.9,-0.2392767448,-0.002499571893
2.91,-0.2385715226,0.007388584068
2.92,-0.2374583777,0.01721309927
2.93,-0.2359414305,0.02695716602
2.94,-0.2340254934,0.03660421239
2.95,-0.2317160579,0.04613793063
2.96,-0.2290192806,0.05554230498
2.97,-0.2259419687,0.06480163872
2.98,-0.2224915636,0.07390058049
2.99,-0.2186761239,0.08282414987
3,-0.214504307,0.09155776202
3.01,-0.2099853504,0.1000872515
3.02,-0.2051290513,0.1083988953
3.03,-0.1999457456,0.1164794345
3.04,-0.1944462865,0.1243160955
3.05,-0.1886420212,0.13189661
3.06,-0.1825447683,0.1392092335
3.07,-0.1761667932,0.1462427636
3.08,-0.1695207832,0.1529865563
3.09,-0.1626198227,0.159430542
3.1,-0.1554773671,0.1655652395
3.11,-0.148107216,0.1713817695
3.12,-0.1405234868,0.1768718668
3.13,-0.1327405872,0.1820278908
3.14,-0.1247731877,0.1868428356
3.15,-0.1166361935,0.1913103382
3.16,-0.1083447167,0.1954246857
3.17,-0.09991404754,0.1991808216
3.18,-0.09135962626,0.2025743501
3.19,-0.08269701442,0.2056015401
3.2,-0.0739418664,0.2082593271
3.21,-0.06510990081,0.2105453147
3.22,-0.05621687206,0.212457774
3.23,-0.04727854204,0.2139956424
3.24,-0.03831065202,0.2151585214
3.25,-0.02932889467,0.2159466722
3.26,-0.02034888653,0.2163610114
3.27,-0.01138614068,0.2164031046
3.28,-0.002456039857,0.2160751591
3.29,0.006426190005,0.2153800162
3.3,0.01524550578,0.214321141
3.31,0.02398707262,0.2129026126
3.32,0.03263628887,0.2111291121
3.33,0.04117881039,0.2090059105
3.34,0.04960057418,0.2065388552
3.35,0.05788782142,0.2037343552
3.36,0.0660271197,0.2005993665
3.37,0.07400538453,0.197141375
3.38,0.0818099001,0.1933683803
3.39,0.08942833911,0.1892888775
3.4,0.09684878191,0.1849118385
3.41,0.1040597346,0.180246693
3.42,0.1110501463,0.1753033084
3.43,0.1178094257,0.1700919692
3.44,0.124327456,0.1646233556
3.45,0.1305946098,0.1589085222
3.46,0.1366017621,0.1529588752
3.47,0.1423403033,0.1467861501
3.48,0.1478021498,0.1404023884
3.49,0.1529797552,0.1338199141
3.5,0.1578661189,0.12705131
3.51,0.1624547949,0.1201093933
3.52,0.1667398987,0.1130071916
3.53,0.1707161134,0.1057579182
3.54,0.174378695,0.09837494776
3.55,0.1777234765,0.09087179094
3.56,0.1807468704,0.08326207024
3.57,0.1834458709,0.07555949489
3.58,0.1858180547,0.0677778362
3.59,0.1878615808,0.05993090292
3.6,0.189575189,0.05203251669
3.61,0.1909581981,0.04409648774
3.62,0.192010502,0.03613659078
3.63,0.1927325659,0.02816654112
3.64,0.193125421,0.02019997115
3.65,0.1931906576,0.01225040712
3.66,0.1929304189,0.004331246355
3.67,0.1923473922,-0.003544265195
3.68,0.1914448,-0.01136305484
3.69,0.1902263904,-0.01911224464
3.7,0.188696426,-0.02677917228
3.71,0.1868596726,-0.03435141144
3.72,0.1847213867,-0.04181679159
3.73,0.1822873025,-0.04916341708
3.74,0.179563618,-0.05637968563
3.75,0.1765569805,-0.06345430618
3.76,0.1732744712,-0.07037631592
3.77,0.1697235895,-0.07713509673
3.78,0.1659122365,-0.08372039074
3.79,0.1618486982,-0.09012231519
3.8,0.1575416275,-0.09633137647
3.81,0.1530000266,-0.1023384834
3.82,0.148233228,-0.1081349596
3.83,0.1432508763,-0.1137125549
3.84,0.1380629081,-0.1190634564
3.85,0.1326795331,-0.1241802982
3.86,0.1271112135,-0.1290561698
3.87,0.1213686443,-0.1336846253
3.88,0.1154627326,-0.1380596895
3.89,0.1094045771,-0.1421758649
3.9,0.1032054473,-0.1460281366
3.91,0.09687676264,-0.1496119775
3.92,0.09043007143,-0.1529233511
3.93,0.08387703007,-0.1559587148
3.94,0.077229382,-0.1587150213
3.95,0.07049893674,-0.1611897202
3.96,0.0636975491,-0.1633807572
3.97,0.05683709838,-0.165286574
3.98,0.04992946789,-0.1669061062
3.99,0.04298652447,-0.168238781
4,0.03602009839,-0.1692845141
4.01,0.02904196338,-0.1700437048
4.02,0.02206381706,-0.1705172318
4.03,0.01509726162,-0.170706447
4.04,0.008153784862,-0.1706131693
4.05,0.001244741639,-0.170239677
4.06,-0.005618664301,-0.1695887001
4.07,-0.01242539803,-0.1686634113
4.08,-0.0191646107,-0.1674674169
4.09,-0.0258256563,-0.1660047467
4.1,-0.03239810789,-0.164279843
4.11,-0.03887177334,-0.16229755
4.12,-0.04523671042,-0.1600631011
4.13,-0.05148324142,-0.1575821071
4.14,-0.05760196708,-0.1548605431
4.15,-0.06358377993,-0.1519047348
4.16,-0.06941987703,-0.148721345
4.17,-0.07510177196,-0.1453173587
4.18,-0.08062130626,-0.1417000691
4.19,-0.08597066015,-0.1378770615
4.2,-0.09114236248,-0.1338561988
4.21,-0.09612930011,-0.1296456048
4.22,-0.1009247265,-0.1252536486
4.23,-0.1055222696,-0.1206889284
4.24,-0.1099159391,-0.1159602544
4.25,-0.1141001326,-0.1110766322
4.26,-0.1180696417,-0.1060472464
4.27,-0.1218196569,-0.1008814427
4.28,-0.1253457715,-0.0955887114
4.29,-0.1286439855,-0.09017866981
4.3,-0.1317107084,-0.0846610452
4.31,-0.1345427611,-0.07904565744
4.32,-0.1371373772,-0.07334240179
4.33,-0.1394922038,-0.06756123172
4.34,-0.1416053014,-0.06171214179
4.35,-0.1434751431,-0.05580515071
4.36,-0.1451006131,-0.04985028443
4.37,-0.1464810046,-0.04385755954
4.38,-0.1476160169,-0.03783696671
4.39,-0.1485057523,-0.0317984545
4.4,-0.1491507115,-0.02575191329
4.41,-0.1495517891,-0.01970715958
4.42,-0.1497102685,-0.01367392051
4.43,-0.1496278154,-0.007661818767
4.44,-0.149306472,-0.001680357758
4.45,-0.1487486493,0.00426109279
4.46,-0.14795712,0.01015331088
4.47,-0.1469350099,0.01598723589
4.48,-0.1456857897,0.0217539818
4.49,-0.1442132657,0.02744484995
4.5,-0.1425215702,0.03305134143
4.51,-0.1406151517,0.03856516887
4.52,-0.1384987644,0.04397826787
4.53,-0.1361774571,0.04928280785
4.54,-0.1336565626,0.05447120245
4.55,-0.1309416859,0.05953611934
4.56,-0.1280386922,0.0644704896
4.57,-0.1249536951,0.06926751644
4.58,-0.1216930442,0.07392068347
4.59,-0.1182633121,0.07842376235
4.6,-0.114671282,0.08277081995
4.61,-0.1109239343,0.08695622484
4.62,-0.1070284335,0.09097465335
4.63,-0.1029921151,0.0948210949
4.64,-0.09882247137,0.09849085691
4.65,-0.09452713859,0.101979569
4.66,-0.09011388281,0.1052831867
4.67,-0.08559058634,0.1083979946
4.68,-0.08096523395,0.111320609
4.69,-0.0762458991,0.1140479794
4.7,-0.0714407302,0.1165773907
4.71,-0.06655793692,0.1189064634
4.72,-0.06160577652,0.1210331541
4.73,-0.0565925403,0.1229557555
4.74,-0.05152654016,0.1246728954
4.75,-0.04641609525,0.1261835353
4.76,-0.04126951881,0.1274869689
4.77,-0.03609510514,0.1285828194
4.78,-0.03090111677,0.129471037
4.79,-0.02569577185,0.1301518953
4.8,-0.02048723173,0.1306259879
4.81,-0.0152835888,0.1308942236
4.82,-0.01009285456,0.1309578223
4.83,-0.00492294803,0.1308183093
4.84,0.0002183156689,0.1304775101
4.85,0.005323236321,0.1299375444
4.86,0.01038423937,0.1292008196
4.87,0.01539388634,0.1282700244
4.88,0.02034488488,0.127148121
4.89,0.02523009853,0.1258383386
4.9,0.03004255603,0.124344165
4.91,0.03477546036,0.1226693387
4.92,0.03942219731,0.1208178407
4.93,0.04397634372,0.1187938855
4.94,0.04843167529,0.1166019127
4.95,0.05278217404,0.1142465776
4.96,0.05702203526,0.1117327418
4.97,0.06114567417,0.1090654637
4.98,0.06514773206,0.106249989
4.99,0.06902308207,0.1032917403
5,0.07276683453,0.1001963077
5.01,0.07637434182,0.09696943817
5.02,0.07984120293,0.09361702521
5.03,0.08316326743,0.0901450988
5.04,0.08633663914,0.08655981467
5.05,0.08935767928,0.0828674439
5.06,0.0922230093,0.07907436227
5.07,0.09492951316,0.07518703972
5.08,0.09747433925,0.07121202971
5.09,0.09985490194,0.06715595861
5.1,0.1020688826,0.06302551517
5.11,0.1041142304,0.0588274399
5.12,0.1059891623,0.05456851465
5.13,0.1076921632,0.05025555217
5.14,0.1092219853,0.04589538574
5.15,0.1105776474,0.04149485897
5.16,0.111758433,0.03706081565
5.17,0.1127638894,0.03260008975
5.18,0.1135938251,0.02811949556
5.19,0.1142483078,0.02362581796
5.2,0.1147276614,0.01912580285
5.21,0.1150324631,0.01462614783
5.22,0.1151635398,0.01013349292
5.23,0.1151219646,0.005654411623
5.24,0.1149090528,0.001195402109
5.25,0.1145263574,-0.003237121375
5.26,0.1139756646,-0.007636836854
5.27,0.1132589887,-0.01199752274
5.28,0.1123785675,-0.01631306573
5.29,0.1113368563,-0.02057746843
5.3,0.1101365226,-0.02478485671
5.31,0.1087804402,-0.02892948688
5.32,0.1072716829,-0.03300575246
5.33,0.1056135184,-0.03700819082
5.34,0.1038094019,-0.04093148942
5.35,0.1018629691,-0.04477049187
5.36,0.09977802981,-0.04852020362
5.37,0.09755856047,-0.05217579738
5.38,0.09520869731,-0.05573261831
5.39,0.092732729,-0.05918618879
5.4,0.09013508923,-0.06253221305
5.41,0.08742034919,-0.06576658131
5.42,0.08459320998,-0.0688853738
5.43,0.08165849489,-0.07188486438
5.44,0.07862114164,-0.07476152384
5.45,0.07548619452,-0.07751202296
5.46,0.07225879652,-0.08013323524
5.47,0.06894418138,-0.08262223933
5.48,0.06554766561,-0.08497632115
5.49,0.06207464056,-0.0871929757
5.5,0.05853056436,-0.08926990864
5.51,0.05492095396,-0.09120503749
5.52,0.05125137716,-0.0929964926
5.53,0.04752744459,-0.09464261781
5.54,0.04375480187,-0.09614197077
5.55,0.03993912163,-0.09749332314
5.56,0.03608609575,-0.0986956603
5.57,0.03220142752,-0.09974818096
5.58,0.02829082394,-0.1006502964
5.59,0.02435998813,-0.1014016294
5.6,0.02041461169,-0.1020020133
5.61,0.01646036734,-0.1024514901
5.62,0.01250290148,-0.1027503088
5.63,0.008547826991,-0.1028989236
5.64,0.004600716072,-0.1028979916
5.65,0.0006670932336,-0.1027483702
5.66,-0.003247571587,-0.1024511145
5.67,-0.007137869777,-0.1020074742
5.68,-0.01099846066,-0.1014188909
5.69,-0.01482407794,-0.1006869944
5.7,-0.01860953606,-0.09981359926
5.71,-0.02234973629,-0.098800701
5.72,-0.02603967275,-0.09765047238
5.73,-0.02967443826,-0.09636525913
5.74,-0.03324922991,-0.09494757574
5.75,-0.03675935462,-0.093400101
5.76,-0.04020023437,-0.09172567341
5.77,-0.04356741134,-0.08992728642
5.78,-0.04685655282,-0.08800808355
5.79,-0.05006345593,-0.08597135332
5.8,-0.05318405218,-0.08382052409
5.81,-0.05621441177,-0.08155915877
5.82,-0.05915074778,-0.07919094942
5.83,-0.06198942006,-0.07671971165
5.84,-0.06472693898,-0.07414937909
5.85,-0.06735996897,-0.0714839976
5.86,-0.06988533181,-0.06872771943
5.87,-0.07230000979,-0.06588479739
5.88,-0.07460114856,-0.06295957881
5.89,-0.07678605982,-0.05995649951
5.9,-0.07885222385,-0.05688007769
5.91,-0.08079729173,-0.05373490776
5.92,-0.08261908739,-0.05052565415
5.93,-0.08431560946,-0.04725704498
5.94,-0.0858850329,-0.04393386584
5.95,-0.08732571039,-0.04056095344
5.96,-0.08863617352,-0.03714318926
5.97,-0.08981513382,-0.03368549316
5.98,-0.09086148345,-0.03019281708
5.99,-0.09177429582,-0.0266701386
6,-0.09255282592,-0.02312245459
