"Freq [GHz]","re(S(Tx_p1,Tx_p1)) []","im(S(Tx_p1,Tx_p1)) []"
1,-0.04173804248,-0.2188233446
1.01,-0.04970449046,-0.2169847914
1.02,-0.05762480603,-0.2148379499
1.03,-0.06548488289,-0.2123830085
1.04,-0.07327062173,-0.2096208909
1.05,-0.08096796643,-0.20655325
1.06,-0.08856293981,-0.2031824606
1.07,-0.09604167876,-0.1995116104
1.08,-0.1033904687,-0.1955444897
1.09,-0.1105957775,-0.1912855795
1.1,-0.1176442883,-0.1867400384
1.11,-0.1245229319,-0.1819136884
1.12,-0.1312189181,-0.1768129988
1.13,-0.1377197659,-0.1714450692
1.14,-0.1440133335,-0.1658176113
1.15,-0.1500878463,-0.1599389292
1.16,-0.1559319244,-0.153817899
1.17,-0.161534609,-0.1474639466
1.18,-0.1668853875,-0.1408870252
1.19,-0.1719742174,-0.1340975913
1.2,-0.176791549,-0.1271065799
1.21,-0.1813283467,-0.1199253788
1.22,-0.1855761095,-0.1125658019
1.23,-0.1895268892,-0.1050400622
1.24,-0.1931733084,-0.09736074319
1.25,-0.196508576,-0.08954077068
1.26,-0.199526502,-0.08159338312
1.27,-0.2022215107,-0.07353210192
1.28,-0.2045886521,-0.06537070107
1.29,-0.2066236125,-0.05712317649
1.3,-0.2083227227,-0.04880371495
1.31,-0.2096829657,-0.04042666286
1.32,-0.2107019819,-0.03200649474
1.33,-0.2113780738,-0.02355778164
1.34,-0.2117102081,-0.01509515953
1.35,-0.2116980175,-0.006633297685
1.36,-0.2113418001,0.00181313289
1.37,-0.2106425173,0.01022949078
1.38,-0.2096017912,0.01860119533
1.39,-0.2082218994,0.02691375749
1.4,-0.206505769,0.03515281032
1.41,-0.2044569689,0.04330413906
1.42,-0.2020797011,0.05135371072
1.43,-0.1993787904,0.0592877031
1.44,-0.1963596725,0.06709253326
1.45,-0.1930283814,0.07475488526
1.46,-0.189391535,0.08226173718
1.47,-0.1854563199,0.08960038741
1.48,-0.1812304748,0.09675848007
1.49,-0.1767222728,0.1037240295
1.5,-0.1719405027,0.110485444
1.51,-0.1668944492,0.1170315482
1.52,-0.1615938722,0.123351605
1.53,-0.1560489849,0.1294353359
1.54,-0.1502704314,0.1352729403
1.55,-0.1442692635,0.1408551142
1.56,-0.1380569162,0.1461730669
1.57,-0.1316451832,0.1512185373
1.58,-0.1250461909,0.1559838082
1.59,-0.1182723731,0.1604617199
1.6,-0.1113364438,0.1646456826
1.61,-0.1042513704,0.1685296868
1.62,-0.09703034619,0.1721083133
1.63,-0.08968676272,0.175376741
1.64,-0.08223418167,0.1783307541
1.65,-0.07468630666,0.1809667477
1.66,-0.06705695487,0.1832817315
1.67,-0.05936002862,0.1852733334
1.68,-0.05160948696,0.1869398006
1.69,-0.04381931719,0.1882799996
1.7,-0.0360035067,0.1892934157
1.71,-0.02817601479,0.1899801499
1.72,-0.02035074487,0.1903409158
1.73,-0.01254151688,0.190377034
1.74,-0.00476204012,0.190090426
1.75,0.002974113557,0.189483607
1.76,0.01065353601,0.1885596769
1.77,0.01826300862,0.1873223104
1.78,0.02578952744,0.1857757459
1.79,0.0332203278,0.1839247735
1.8,0.04054290814,0.1817747217
1.81,0.0477450532,0.1793314431
1.82,0.05481485636,0.1766012989
1.83,0.06174074119,0.1735911429
1.84,0.06851148215,0.1703083043
1.85,0.07511622438,0.1667605694
1.86,0.08154450257,0.1629561629
1.87,0.08778625878,0.1589037284
1.88,0.09383185941,0.1546123075
1.89,0.09967211099,0.1500913193
1.9,0.105298275,0.1453505384
1.91,0.1107020815,0.1404000728
1.92,0.1158757418,0.1352503408
1.93,0.1208119602,0.1299120481
1.94,0.1255039437,0.1243961641
1.95,0.1299454118,0.1187138978
1.96,0.1341306045,0.1128766736
1.97,0.1380542885,0.1068961066
1.98,0.141711764,0.1007839782
1.99,0.1450988682,0.09455221087
2,0.1482119792,0.08821284368
2.01,0.1510480182,0.08177800709
2.02,0.1536044501,0.07525989816
2.03,0.155879284,0.06867075581
2.04,0.1578710714,0.06202283616
2.05,0.1595789038,0.05532838816
2.06,0.1610024097,0.0485996294
2.07,0.1621417495,0.04184872226
2.08,0.1629976098,0.03508775045
2.09,0.163571197,0.02832869591
2.1,0.1638642293,0.02158341616
2.11,0.163878928,0.01486362222
2.12,0.163618008,0.008180856987
2.13,0.1630846666,0.001546474247
2.14,0.1622825725,-0.005028381693
2.15,0.1612158532,-0.01153279572
2.16,0.1598890816,-0.0179561009
2.17,0.1583072621,-0.02428789677
2.18,0.1564758161,-0.03051806684
2.19,0.1544005657,-0.03663679526
2.2,0.1520877186,-0.04263458273
2.21,0.1495438504,-0.04850226146
2.22,0.1467758878,-0.0542310094
2.23,0.1437910906,-0.05981236338
2.24,0.1405970332,-0.06523823152
2.25,0.1372015858,-0.07050090454
2.26,0.1336128954,-0.07559306625
2.27,0.1298393662,-0.08050780302
2.28,0.1258896394,-0.08523861226
2.29,0.1217725737,-0.08977940996
2.3,0.1174972246,-0.09412453726
2.31,0.113072824,-0.09826876597
2.32,0.1085087601,-0.1022073032
2.33,0.1038145562,-0.1059357948
2.34,0.09899985041,-0.1094503282
2.35,0.09407437513,-0.1127474339
2.36,0.08904793649,-0.1158240863
2.37,0.08393039405,-0.1186777032
2.38,0.07873164062,-0.1213061446
2.39,0.07346158232,-0.123707711
2.4,0.06813011885,-0.1258811398
2.41,0.06274712418,-0.1278256016
2.42,0.05732242745,-0.1295406958
2.43,0.05186579432,-0.1310264442
2.44,0.04638690873,-0.1322832853
2.45,0.0408953551,-0.1333120665
2.46,0.03540060102,-0.1341140366
2.47,0.02991198047,-0.1346908367
2.48,0.02443867757,-0.135044491
2.49,0.01898971094,-0.1351773967
2.5,0.01357391862,-0.1350923131
2.51,0.00819994368,-0.1347923504
2.52,0.002876220449,-0.1342809577
2.53,-0.002389038593,-0.133561911
2.54,-0.007587855185,-0.1326392996
2.55,-0.01271249697,-0.1315175133
2.56,-0.01775548845,-0.1302012284
2.57,-0.02270962115,-0.1286953933
2.58,-0.02756796314,-0.1270052146
2.59,-0.03232386763,-0.1251361417
2.6,-0.03697098096,-0.1230938522
2.61,-0.04150324967,-0.1208842361
2.62,-0.0459149269,-0.1185133809
2.63,-0.05020057793,-0.1159875557
2.64,-0.05435508497,-0.1133131957
2.65,-0.05837365119,-0.110496886
2.66,-0.06225180392,-0.1075453464
2.67,-0.06598539712,-0.1044654152
2.68,-0.06957061311,-0.1012640336
2.69,-0.07300396345,-0.09794823034
2.7,-0.07628228925,-0.09452510569
2.71,-0.07940276055,-0.0910018165
2.72,-0.08236287515,-0.08738556088
2.73,-0.08516045669,-0.08368356332
2.74,-0.08779365199,-0.07990305998
2.75,-0.09026092788,-0.07605128435
2.76,-0.09256106722,-0.07213545314
2.77,-0.09469316442,-0.06816275256
2.78,-0.09665662036,-0.064140325
2.79,-0.09845113668,-0.06007525606
2.8,-0.1000767096,-0.055974562
2.81,-0.1015336232,-0.05184517766
2.82,-0.1028224421,-0.04769394482
2.83,-0.103944004,-0.0435276011
2.84,-0.1048994114,-0.03935276925
2.85,-0.105690023,-0.03517594705
2.86,-0.1063174452,-0.03100349775
2.87,-0.1067835226,-0.02684164093
2.88,-0.1070903283,-0.0226964441
2.89,-0.1072401546,-0.01857381465
2.9,-0.1072355026,-0.01447949258
2.91,-0.1070790718,-0.01041904367
2.92,-0.10677375,-0.006397853235
2.93,-0.1063226027,-0.002421120562
2.94,-0.105728862,0.001506146183
2.95,-0.104995916,0.005379134393
2.96,-0.1041272981,0.00919323091
2.97,-0.1031266757,0.01294402532
2.98,-0.1019978398,0.0166273127
2.99,-0.1007446935,0.02023909576
3,-0.09937124178,0.02377558648
3.01,-0.09788158039,0.02723320715
3.02,-0.09627988537,0.03060859094
3.03,-0.09457040253,0.03389858186
3.04,-0.09275743715,0.03710023429
3.05,-0.09084534382,0.04021081197
3.06,-0.08883851653,0.04322778655
3.07,-0.086741379,0.04614883563
3.08,-0.08455837522,0.04897184039
3.09,-0.0822939603,0.0516948828
3.1,-0.07995259158,0.05431624243
3.11,-0.0775387201,0.05683439282
3.12,-0.07505678237,0.0592479976
3.13,-0.07251119243,0.06155590615
3.14,-0.06990633437,0.063757149
3.15,-0.06724655511,0.06585093298
3.16,-0.06453615763,0.06783663603
3.17,-0.06177939453,0.06971380176
3.18,-0.05898046206,0.07148213388
3.19,-0.05614349445,0.07314149031
3.2,-0.05327255874,0.07469187723
3.21,-0.05037164993,0.0761334429
3.22,-0.04744468665,0.0774664714
3.23,-0.04449550711,0.07869137625
3.24,-0.04152786559,0.07980869396
3.25,-0.03854542925,0.08081907756
3.26,-0.03555177538,0.08172329005
3.27,-0.03255038906,0.08252219786
3.28,-0.0295446612,0.08321676436
3.29,-0.02653788699,0.08380804339
3.3,-0.0235332647,0.08429717284
3.31,-0.02053389489,0.08468536832
3.32,-0.01754277994,0.08497391696
3.33,-0.014562824,0.08516417127
3.34,-0.01159683319,0.08525754324
3.35,-0.008647516214,0.08525549847
3.36,-0.005717485193,0.0851595506
3.37,-0.002809256895,0.08497125586
3.38,7.474583017E-05,0.08469220781
3.39,0.002932192316,0.08432403241
3.4,0.005760842108,0.08386838315
3.41,0.008558542755,0.0833269366
3.42,0.01132322739,0.08270138809
3.43,0.01405291214,0.08199344771
3.44,0.0167456933,0.08120483658
3.45,0.01939974443,0.08033728337
3.46,0.02201331326,0.07939252116
3.47,0.02458471852,0.07837228451
3.48,0.0271123466,0.07727830689
3.49,0.02959464825,0.0761123184
3.5,0.03203013511,0.07487604375
3.51,0.03441737628,0.07357120056
3.52,0.03675499481,0.07219949793
3.53,0.03904166429,0.07076263537
3.54,0.0412761053,0.06926230192
3.55,0.0434570821,0.06770017565
3.56,0.0455833992,0.06607792335
3.57,0.04765389813,0.06439720056
3.58,0.04966745419,0.06265965184
3.59,0.05162297346,0.06086691127
3.6,0.05351938978,0.05902060324
3.61,0.05535566196,0.05712234343
3.62,0.05713077115,0.05517374004
3.63,0.05884371832,0.05317639521
3.64,0.06049352196,0.05113190665
3.65,0.06207921602,0.04904186948
3.66,0.06359984794,0.04690787816
3.67,0.06505447702,0.04473152862
3.68,0.06644217292,0.04251442057
3.69,0.06776201445,0.04025815984
3.7,0.0690130886,0.03796436089
3.71,0.07019448977,0.03563464937
3.72,0.07130531928,0.03327066479
3.73,0.07234468519,0.03087406317
3.74,0.07331170225,0.02844651981
3.75,0.07420549226,0.02598973203
3.76,0.07502518457,0.02350542187
3.77,0.0757699169,0.02099533887
3.78,0.07643883643,0.01846126268
3.79,0.07703110112,0.01590500576
3.8,0.07754588126,0.01332841586
3.81,0.07798236135,0.01073337852
3.82,0.07833974211,0.008121819427
3.83,0.07861724286,0.005495706589
3.84,0.07881410398,0.002857052461
3.85,0.07892958972,0.0002079158486
3.86,0.07896299114,-0.002449596339
3.87,0.07891362926,-0.005113327525
3.88,0.07878085844,-0.007781070109
3.89,0.07856406989,-0.01045056432
3.9,0.07826269534,-0.0131194973
3.91,0.07787621089,-0.01578550242
3.92,0.07740414097,-0.01844615888
3.93,0.07684606243,-0.02109899149
3.94,0.07620160869,-0.02374147085
3.95,0.07547047407,-0.02637101365
3.96,0.07465241804,-0.02898498341
3.97,0.07374726968,-0.03158069139
3.98,0.07275493207,-0.03415539786
3.99,0.07167538669,-0.03670631367
4,0.07050869787,-0.03923060212
4.01,0.06925501722,-0.04172538107
4.02,0.06791458792,-0.0441877255
4.03,0.06648774906,-0.04661467022
4.04,0.06497493984,-0.04900321299
4.05,0.0633767037,-0.05135031791
4.06,0.06169369228,-0.05365291912
4.07,0.05992666929,-0.05590792475
4.08,0.05807651422,-0.05811222122
4.09,0.05614422586,-0.06026267782
4.1,0.0541309256,-0.06235615149
4.11,0.0520378606,-0.06438949194
4.12,0.04986640661,-0.06635954703
4.13,0.0476180707,-0.06826316831
4.14,0.04529449356,-0.0700972169
4.15,0.04289745167,-0.07185856952
4.16,0.04042885907,-0.07354412474
4.17,0.03789076891,-0.07515080942
4.18,0.03528537463,-0.07667558534
4.19,0.03261501078,-0.07811545599
4.2,0.0298821536,-0.07946747345
4.21,0.02708942116,-0.08072874549
4.22,0.02423957313,-0.08189644267
4.23,0.02133551026,-0.0829678056
4.24,0.01838027338,-0.08394015222
4.25,0.01537704213,-0.08481088517
4.26,0.01232913314,-0.08557749915
4.27,0.009239997974,-0.08623758829
4.28,0.006113220585,-0.08678885354
4.29,0.002952514379,-0.08722910993
4.3,-0.000238281107,-0.08755629388
4.31,-0.003455203944,-0.08776847037
4.32,-0.006694173942,-0.08786383998
4.33,-0.009950997184,-0.08784074585
4.34,-0.01322137096,-0.08769768051
4.35,-0.01650088908,-0.08743329245
4.36,-0.01978504758,-0.08704639257
4.37,-0.02306925081,-0.08653596041
4.38,-0.02634881786,-0.08590115012
4.39,-0.02961898941,-0.08514129618
4.4,-0.03287493482,-0.08425591886
4.41,-0.0361117597,-0.08324472936
4.42,-0.03932451365,-0.08210763466
4.43,-0.04250819843,-0.08084474199
4.44,-0.04565777635,-0.07945636301
4.45,-0.04876817899,-0.07794301757
4.46,-0.05183431613,-0.07630543709
4.47,-0.05485108493,-0.07454456758
4.48,-0.05781337941,-0.07266157217
4.49,-0.06071610001,-0.07065783328
4.5,-0.0635541634,-0.06853495426
4.51,-0.06632251251,-0.06629476071
4.52,-0.06901612655,-0.06393930118
4.53,-0.07163003128,-0.06147084746
4.54,-0.07415930933,-0.05889189446
4.55,-0.07659911055,-0.05620515942
4.56,-0.07894466247,-0.05341358079
4.57,-0.08119128075,-0.05052031654
4.58,-0.0833343796,-0.0475287419
4.59,-0.08536948224,-0.04444244671
4.6,-0.08729223119,-0.04126523216
4.61,-0.08909839864,-0.03800110707
4.62,-0.09078389655,-0.03465428363
4.63,-0.09234478672,-0.03122917264
4.64,-0.09377729066,-0.02773037827
4.65,-0.09507779931,-0.02416269227
4.66,-0.0962428825,-0.02053108774
4.67,-0.09726929822,-0.01684071236
4.68,-0.0981540016,-0.01309688121
4.69,-0.09889415362,-0.009305069082
4.7,-0.09948712953,-0.005470902328
4.71,-0.0999305269,-0.0016001503
4.72,-0.1002221733,0.002301283652
4.73,-0.1003601338,0.006227371593
4.74,-0.1003427176,0.01017197081
4.75,-0.1001684848,0.01412883399
4.76,-0.09983625251,0.01809161978
4.77,-0.09934510022,0.02205390363
4.78,-0.09869437515,0.02600918904
4.79,-0.09788369683,0.02995091899
4.8,-0.09691296124,0.03387248779
4.81,-0.09578234442,0.037767253
4.82,-0.09449230553,0.04162854776
4.83,-0.09304358938,0.04544969318
4.84,-0.0914372284,0.04922401095
4.85,-0.08967454397,0.05294483614
4.86,-0.08775714727,0.05660553007
4.87,-0.08568693942,0.06019949327
4.88,-0.08346611116,0.06372017857
4.89,-0.08109714177,0.0671611041
4.9,-0.07858279751,0.07051586649
4.91,-0.07592612939,0.07377815383
4.92,-0.07313047034,0.07694175877
4.93,-0.07019943177,0.08000059142
4.94,-0.06713689951,0.08294869219
4.95,-0.06394702919,0.08578024448
4.96,-0.06063424095,0.08848958725
4.97,-0.05720321359,0.09107122728
4.98,-0.05365887815,0.09351985134
4.99,-0.05000641092,0.09583033802
5,-0.04625122577,0.09799776933
5.01,-0.04239896612,0.1000174419
5.02,-0.03845549618,0.1018848781
5.03,-0.03442689175,0.1035958362
5.04,-0.03031943053,0.1051463211
5.05,-0.02613958186,0.1065325937
5.06,-0.02189399606,0.1077511805
5.07,-0.01758949323,0.1087988821
5.08,-0.01323305168,0.1096727819
5.09,-0.008831795907,0.1103702541
5.1,-0.004392984207,0.1108889706
5.11,7.600411987E-05,0.1112269082
5.12,0.004567681883,0.1113823548
5.13,0.009074467442,0.1113539149
5.14,0.01358869844,0.1111405147
5.15,0.01810264579,0.1107414069
5.16,0.02260852796,0.110156174
5.17,0.02709852533,0.1093847319
5.18,0.03156479491,0.1084273321
5.19,0.03599948506,0.1072845642
5.2,0.04039475039,0.1059573562
5.21,0.04474276677,0.1044469761
5.22,0.04903574634,0.1027550308
5.23,0.05326595257,0.100883466
5.24,0.05742571535,0.09883456423
5.25,0.061507446,0.09661094303
5.26,0.0655036522,0.09421555183
5.27,0.06940695287,0.09165166851
5.28,0.07321009287,0.08892289514
5.29,0.07690595758,0.08603315311
5.3,0.08048758719,0.08298667753
5.31,0.08394819093,0.07978801102
5.32,0.08728116083,0.07644199683
5.33,0.0904800854,0.07295377133
5.34,0.09353876284,0.06932875588
5.35,0.09645121397,0.06557264805
5.36,0.09921169478,0.06169141233
5.37,0.1018147086,0.05769127016
5.38,0.1042550176,0.05357868945
5.39,0.1065276545,0.04936037361
5.4,0.1086279327,0.04504324991
5.41,0.1105514573,0.04063445753
5.42,0.1122941341,0.03614133497
5.43,0.1138521792,0.03157140711
5.44,0.1152221276,0.0269323718
5.45,0.1164008409,0.02223208607
5.46,0.1173855152,0.01747855192
5.47,0.1181736875,0.01267990183
5.48,0.1187632417,0.007844383915
5.49,0.1191524147,0.002980346781
5.5,0.1193398004,-0.001903775848
5.51,0.1193243543,-0.006799480749
5.52,0.119105397,-0.01169821101
5.53,0.1186826164,-0.01659137201
5.54,0.11805607,-0.02147034751
5.55,0.1172261862,-0.02632651588
5.56,0.1161937649,-0.03115126635
5.57,0.114959977,-0.03593601531
5.58,0.1135263637,-0.04067222268
5.59,0.1118948349,-0.04535140807
5.6,0.1100676666,-0.0499651671
5.61,0.1080474982,-0.05450518743
5.62,0.1058373281,-0.05896326477
5.63,0.1034405098,-0.06333131868
5.64,0.100860746,-0.06760140816
5.65,0.09810208319,-0.07176574707
5.66,0.09516890485,-0.07581671921
5.67,0.092065924,-0.07974689318
5.68,0.08879817538,-0.08354903686
5.69,0.08537100677,-0.08721613153
5.7,0.08179006978,-0.09074138571
5.71,0.07806130995,-0.09411824844
5.72,0.07419095631,-0.09734042222
5.73,0.07018551035,-0.1004018755
5.74,0.06605173443,-0.1032968545
5.75,0.06179663963,-0.1060198948
5.76,0.05742747319,-0.1085658321
5.77,0.05295170534,-0.1109298129
5.78,0.04837701578,-0.1131073037
5.79,0.04371127966,-0.1150941004
5.8,0.03896255319,-0.1168863371
5.81,0.03413905887,-0.1184804935
5.82,0.02924917039,-0.1198734024
5.83,0.02430139716,-0.1210622562
5.84,0.01930436863,-0.1220446128
5.85,0.01426681831,-0.1228184007
5.86,0.009197567599,-0.1233819232
5.87,0.00410550937,-0.1237338627
5.88,-0.001000408531,-0.1238732831
5.89,-0.006111199959,-0.1237996327
5.9,-0.01121785721,-0.1235127451
5.91,-0.01631136783,-0.1230128401
5.92,-0.02138273145,-0.1223005244
5.93,-0.02642297659,-0.1213767898
5.94,-0.03142317744,-0.1202430127
5.95,-0.03637447056,-0.1189009516
5.96,-0.04126807148,-0.1173527438
5.97,-0.04609529111,-0.1156009024
5.98,-0.05084755207,-0.1136483113
5.99,-0.05551640469,-0.1114982205
6,-0.06009354286,-0.1091542404
