"Freq [GHz]","re(S(Tx_p1,Tx_p1)) []","im(S(Tx_p1,Tx_p1)) []"
1,-0.05627189175,-0.2697930221
1.01,-0.06632996015,-0.2676482318
1.02,-0.07634767256,-0.2651069231
1.03,-0.08630694405,-0.2621681478
1.04,-0.09618961894,-0.2588318808
1.05,-0.1059775155,-0.2550990178
1.06,-0.1156524701,-0.2509713714
1.07,-0.1251963814,-0.2464516657
1.08,-0.1345912534,-0.2415435286
1.09,-0.1438192389,-0.2362514827
1.1,-0.1528626812,-0.2305809343
1.11,-0.1617041561,-0.2245381609
1.12,-0.1703265127,-0.2181302965
1.13,-0.1787129133,-0.2113653158
1.14,-0.1868468731,-0.2042520165
1.15,-0.1947122977,-0.1967999997
1.16,-0.2022935211,-0.1890196492
1.17,-0.2095753415,-0.1809221091
1.18,-0.2165430561,-0.1725192595
1.19,-0.2231824956,-0.1638236915
1.2,-0.2294800561,-0.15484868
1.21,-0.2354227308,-0.1456081559
1.22,-0.2409981397,-0.1361166764
1.23,-0.2461945581,-0.1263893942
1.24,-0.2510009436,-0.1164420262
1.25,-0.2554069616,-0.1062908196
1.26,-0.2594030091,-0.09595251896
1.27,-0.262980237,-0.0854443303
1.28,-0.266130571,-0.07478388575
1.29,-0.2688467302,-0.06398920668
1.3,-0.2711222443,-0.05307866622
1.31,-0.2729514694,-0.04207095116
1.32,-0.2743296017,-0.03098502319
1.33,-0.2752526891,-0.01984007966
1.34,-0.2757176412,-0.008655513853
1.35,-0.2757222383,0.002549125032
1.36,-0.275265137,0.01375417224
1.37,-0.2743458751,0.024939888
1.38,-0.2729648743,0.03608649811
1.39,-0.2711234412,0.04717423467
1.4,-0.2688237659,0.05818337667
1.41,-0.2660689193,0.06909429048
1.42,-0.2628628486,0.07988747007
1.43,-0.2592103707,0.09054357706
1.44,-0.2551171636,0.1010434802
1.45,-0.2505897564,0.1113682946
1.46,-0.2456355178,0.1214994203
1.47,-0.2402626418,0.13141858
1.48,-0.2344801329,0.1411078566
1.49,-0.2282977889,0.1505497299
1.5,-0.2217261823,0.1597271116
1.51,-0.2147766403,0.1686233805
1.52,-0.2074612226,0.1772224164
1.53,-0.1997926985,0.1855086323
1.54,-0.1917845221,0.1934670066
1.55,-0.1834508064,0.201083113
1.56,-0.1748062955,0.2083431498
1.57,-0.1658663361,0.2152339681
1.58,-0.1566468479,0.221743098
1.59,-0.147164292,0.2278587736
1.6,-0.137435639,0.2335699571
1.61,-0.127478336,0.2388663609
1.62,-0.1173102723,0.2437384676
1.63,-0.1069497443,0.24817755
1.64,-0.09641541999,0.252175688
1.65,-0.0857263023,0.2557257842
1.66,-0.07490169192,0.2588215785
1.67,-0.06396114957,0.2614576604
1.68,-0.0529244578,0.2636294792
1.69,-0.04181158231,0.2653333536
1.7,-0.03064263295,0.2665664785
1.71,-0.01943782453,0.2673269304
1.72,-0.008217437335,0.2676136711
1.73,0.002998222338,0.2674265497
1.74,0.01418886173,0.2667663022
1.75,0.02533424109,0.2656345504
1.76,0.03641421295,0.2640337978
1.77,0.04740876125,0.2619674248
1.78,0.0582980401,0.2594396814
1.79,0.06906241219,0.2564556785
1.8,0.0796824867,0.2530213778
1.81,0.0901391567,0.2491435791
1.82,0.1004136359,0.2448299068
1.83,0.110487495,0.2400887946
1.84,0.1203426964,0.2349294684
1.85,0.1299616296,0.2293619275
1.86,0.1393271439,0.223396925
1.87,0.1484225817,0.2170459456
1.88,0.1572318099,0.2103211834
1.89,0.1657392505,0.203235517
1.9,0.1739299097,0.195802484
1.91,0.1817894064,0.1880362542
1.92,0.189303999,0.1799516012
1.93,0.1964606112,0.1715638735
1.94,0.2032468557,0.1628889638
1.95,0.2096510577,0.1539432777
1.96,0.215662276,0.1447437014
1.97,0.2212703226,0.1353075685
1.98,0.2264657819,0.1256526258
1.99,0.2312400264,0.1157969987
2,0.235585233,0.1057591555
2.01,0.239494396,0.09555787128
2.02,0.2429613392,0.08521219164
2.03,0.2459807262,0.0747413952
2.04,0.2485480693,0.06416495635
2.05,0.2506597361,0.05350250744
2.06,0.2523129549,0.04277380078
2.07,0.2535058184,0.03199867053
2.08,0.2542372851,0.02119699443
2.09,0.2545071803,0.01038865562
2.1,0.2543161934,-0.0004064954924
2.11,0.2536658756,-0.01116867925
2.12,0.2525586346,-0.02187822447
2.13,0.2509977279,-0.03251560587
2.14,0.2489872546,-0.04306148117
2.15,0.2465321459,-0.05349672768
2.16,0.2436381528,-0.06380247838
2.17,0.240311834,-0.07396015743
2.18,0.2365605406,-0.08395151499
2.19,0.2323924,-0.0937586613
2.2,0.227816299,-0.1033641
2.21,0.2228418638,-0.1127507604
2.22,0.2174794403,-0.1219020294
2.23,0.2117400722,-0.1308017816
2.24,0.2056354774,-0.1394344088
2.25,0.1991780245,-0.1477848487
2.26,0.1923807068,-0.1558386119
2.27,0.1852571155,-0.1635818079
2.28,0.1778214123,-0.1710011702
2.29,0.1700883006,-0.1780840791
2.3,0.1620729955,-0.1848185848
2.31,0.1537911933,-0.1911934275
2.32,0.14525904,-0.1971980567
2.33,0.1364930992,-0.2028226499
2.34,0.1275103188,-0.208058128
2.35,0.1183279977,-0.2128961711
2.36,0.1089637514,-0.2173292314
2.37,0.09943547753,-0.2213505453
2.38,0.08976132043,-0.2249541436
2.39,0.07995963601,-0.2281348604
2.4,0.07004895581,-0.2308883397
2.41,0.06004795107,-0.2332110415
2.42,0.04997539658,-0.2351002457
2.43,0.03985013454,-0.2365540537
2.44,0.02969103834,-0.2375713899
2.45,0.01951697645,-0.2381520005
2.46,0.009346776454,-0.2382964507
2.47,-0.0008008107138,-0.2380061213
2.48,-0.01090714624,-0.2372832022
2.49,-0.02095373856,-0.2361306859
2.5,-0.03092227805,-0.2345523585
2.51,-0.04079467122,-0.2325527894
2.52,-0.05055307442,-0.2301373195
2.53,-0.06017992682,-0.2273120483
2.54,-0.06965798283,-0.2240838193
2.55,-0.07897034364,-0.2204602036
2.56,-0.08810048813,-0.2164494831
2.57,-0.09703230272,-0.2120606316
2.58,-0.1057501105,-0.2073032948
2.59,-0.1142386993,-0.2021877695
2.6,-0.1224833486,-0.196724981
2.61,-0.1304698558,-0.1909264599
2.62,-0.1381845608,-0.1848043175
2.63,-0.1456143699,-0.1783712204
2.64,-0.1527467782,-0.1716403639
2.65,-0.159569891,-0.1646254447
2.66,-0.1660724438,-0.1573406325
2.67,-0.1722438208,-0.1498005414
2.68,-0.1780740724,-0.1420201996
2.69,-0.1835539311,-0.1340150196
2.7,-0.1886748265,-0.1258007664
2.71,-0.1934288977,-0.1173935268
2.72,-0.1978090058,-0.1088096767
2.73,-0.2018087437,-0.1000658488
2.74,-0.2054224452,-0.0911789001
2.75,-0.2086451923,-0.08216587849
2.76,-0.2114728208,-0.07304398959
2.77,-0.2139019253,-0.06383056331
2.78,-0.2159298614,-0.05454302034
2.79,-0.2175547477,-0.04519883859
2.8,-0.2187754654,-0.03581551975
2.81,-0.2195916568,-0.02641055595
2.82,-0.2200037224,-0.01700139652
2.83,-0.2200128164,-0.007605415122
2.84,-0.219620841,0.001760122886
2.85,-0.2188304387,0.01107809269
2.86,-0.2176449841,0.02033154182
2.87,-0.2160685734,0.02950372149
2.88,-0.2141060133,0.03857811732
2.89,-0.2117628082,0.0475384795
2.9,-0.2090451464,0.0563688523
2.91,-0.2059598844,0.06505360277
2.92,-0.202514531,0.07357744879
2.93,-0.1987172294,0.0819254862
2.94,-0.1945767385,0.09008321509
2.95,-0.190102413,0.09803656519
2.96,-0.1853041829,0.1057719203
2.97,-0.1801925312,0.1132761415
2.98,-0.1747784712,0.1205365898
2.99,-0.1690735231,0.1275411474
3,-0.1630896891,0.1342782374
3.01,-0.1568394281,0.1407368432
3.02,-0.15033563,0.1469065263
3.03,-0.1435915884,0.1527774429
3.04,-0.1366209736,0.1583403588
3.05,-0.1294378047,0.1635866643
3.06,-0.1220564205,0.1685083863
3.07,-0.1144914516,0.1730982004
3.08,-0.1067577902,0.1773494404
3.09,-0.098870561,0.181256108
3.1,-0.09084509091,0.1848128799
3.11,-0.08269687927,0.1880151139
3.12,-0.07444156732,0.1908588542
3.13,-0.06609490793,0.1933408344
3.14,-0.05767273519,0.1954584802
3.15,-0.04919093399,0.1972099097
3.16,-0.04066540974,0.1985939333
3.17,-0.03211205824,0.1996100519
3.18,-0.02354673568,0.2002584534
3.19,-0.01498522901,0.2005400084
3.2,-0.006443226508,0.2004562648
3.21,0.002063711197,0.2000094404
3.22,0.01052017971,0.1992024148
3.23,0.01891095898,0.1980387202
3.24,0.02722104088,0.1965225304
3.25,0.03543565617,0.1946586491
3.26,0.04354030091,0.1924524974
3.27,0.05152076211,0.1899100989
3.28,0.05936314274,0.1870380656
3.29,0.06705388588,0.1838435811
3.3,0.07457979817,0.1803343838
3.31,0.08192807234,0.1765187485
3.32,0.08908630885,0.1724054681
3.33,0.09604253668,0.1680038331
3.34,0.1027852331,0.1633236111
3.35,0.1093033424,0.1583750257
3.36,0.1155862937,0.153168734
3.37,0.121624018,0.1477158038
3.38,0.1274069632,0.1420276903
3.39,0.1329261092,0.136116212
3.4,0.1381729813,0.1299935259
3.41,0.1431396621,0.1236721028
3.42,0.1478188035,0.1171647014
3.43,0.1522036357,0.1104843429
3.44,0.156287977,0.1036442844
3.45,0.1600662406,0.09665799276
3.46,0.1635334419,0.0895391176
3.47,0.166685203,0.0823014648
3.48,0.1695177575,0.07495896941
3.49,0.1720279529,0.06752566863
3.5,0.1742132524,0.06001567485
3.51,0.1760717356,0.05244314872
3.52,0.1776020975,0.04482227225
3.53,0.1788036473,0.03716722217
3.54,0.1796763047,0.02949214336
3.55,0.180220596,0.02181112269
3.56,0.1804376494,0.01413816304
3.57,0.1803291878,0.006487157697
3.58,0.1798975219,-0.001128134811
3.59,0.1791455416,-0.008694115489
3.6,0.1780767064,-0.01619736913
3.61,0.1766950351,-0.02362468805
3.62,0.1750050939,-0.03096309528
3.63,0.173011984,-0.03819986707
3.64,0.1707213286,-0.04532255485
3.65,0.168139258,-0.0523190064
3.66,0.1652723951,-0.05917738636
3.67,0.162127839,-0.06588619598
3.68,0.1587131481,-0.07243429204
3.69,0.1550363234,-0.078810905
3.7,0.1511057895,-0.08500565625
3.71,0.1469303761,-0.09100857456
3.72,0.1425192986,-0.09681011154
3.73,0.137882138,-0.1024011562
3.74,0.1330288201,-0.1077730488
3.75,0.1279695948,-0.1129175932
3.76,0.1227150144,-0.1178270687
3.77,0.1172759118,-0.122494241
3.78,0.1116633779,-0.1269123715
3.79,0.1058887394,-0.1310752262
3.8,0.09996353593,-0.1349770835
3.81,0.09389949679,-0.1386127406
3.82,0.08770851786,-0.1419775191
3.83,0.08140263821,-0.1450672699
3.84,0.0749940167,-0.1478783764
3.85,0.06849490851,-0.1504077572
3.86,0.06191764167,-0.1526528675
3.87,0.05527459369,-0.1546116994
3.88,0.04857816826,-0.1562827817
3.89,0.04184077212,-0.1576651781
3.9,0.03507479207,-0.1587584846
3.91,0.02829257227,-0.159562826
3.92,0.0215063918,-0.1600788518
3.93,0.01472844246,-0.1603077298
3.94,0.007970807071,-0.1602511409
3.95,0.001245438,-0.1599112707
3.96,-0.005435863764,-0.1592908023
3.97,-0.01206146913,-0.1583929064
3.98,-0.0186199409,-0.1572212323
3.99,-0.02510005324,-0.1557798964
4,-0.03149081058,-0.1540734713
4.01,-0.03778146593,-0.1521069732
4.02,-0.04396153854,-0.1498858494
4.03,-0.05002083094,-0.1474159641
4.04,-0.05594944528,-0.1447035847
4.05,-0.06173779897,-0.1417553664
4.06,-0.06737663957,-0.138578337
4.07,-0.07285705897,-0.1351798805
4.08,-0.07817050675,-0.1315677211
4.09,-0.08330880283,-0.1277499055
4.1,-0.08826414917,-0.1237347855
4.11,-0.09302914086,-0.1195310004
4.12,-0.09759677614,-0.1151474585
4.13,-0.1019604658,-0.1105933183
4.14,-0.1061140415,-0.1058779699
4.15,-0.1100517635,-0.1010110154
4.16,-0.1137683272,-0.09600225013
4.17,-0.1172588691,-0.09086164225
4.18,-0.1205189718,-0.08559931367
4.19,-0.1235446678,-0.08022551997
4.2,-0.1263324432,-0.07475063057
4.21,-0.1288792395,-0.06918510882
4.22,-0.1311824555,-0.0635394921
4.23,-0.1332399478,-0.05782437198
4.24,-0.1350500302,-0.05205037453
4.25,-0.1366114732,-0.04622814059
4.26,-0.1379235017,-0.04036830644
4.27,-0.1389857923,-0.03448148443
4.28,-0.1397984697,-0.028578244
4.29,-0.1403621027,-0.02266909293
4.3,-0.1406776985,-0.01676445882
4.31,-0.1407466972,-0.01087467101
4.32,-0.1405709652,-0.005009942767
4.33,-0.1401527876,0.0008196460949
4.34,-0.1394948604,0.006604166174
4.35,-0.1386002815,0.01233385501
4.36,-0.1374725416,0.01799913311
4.37,-0.136115514,0.02359061954
4.38,-0.1345334441,0.02909914691
4.39,-0.1327309382,0.03451577587
4.4,-0.1307129516,0.03983180904
4.41,-0.1284847767,0.04503880431
4.42,-0.1260520299,0.05012858758
4.43,-0.1234206384,0.05509326487
4.44,-0.120596827,0.05992523377
4.45,-0.1175871034,0.06461719423
4.46,-0.1143982442,0.06916215876
4.47,-0.11103728,0.07355346183
4.48,-0.1075114806,0.07778476868
4.49,-0.103828339,0.08185008342
4.5,-0.09999555664,0.08574375636
4.51,-0.09602102683,0.08946049071
4.52,-0.09191281925,0.09299534853
4.53,-0.08767916361,0.09634375595
4.54,-0.08332843344,0.09950150771
4.55,-0.0788691297,0.1024647709
4.56,-0.07430986442,0.1052300881
4.57,-0.06965934426,0.1077943798
4.58,-0.06492635406,0.1101549459
4.59,-0.06011974049,0.1123094667
4.6,-0.05524839572,0.1142560031
4.61,-0.05032124122,0.1159929965
4.62,-0.04534721164,0.1175192671
4.63,-0.04033523887,0.1188340126
4.64,-0.03529423632,0.1199368055
4.65,-0.03023308333,0.1208275897
4.66,-0.02516060991,0.1215066776
4.67,-0.02008558161,0.1219747447
4.68,-0.01501668486,0.1222328254
4.69,-0.009962512405,0.1222823069
4.7,-0.004931549278,0.1221249237
4.71,6.784102465E-05,0.12176275
4.72,0.005027429916,0.1211981934
4.73,0.009939136717,0.1204339866
4.74,0.01479504123,0.1194731792
4.75,0.01958739591,0.1183191293
4.76,0.02430863753,0.1169754941
4.77,0.02895139843,0.1154462202
4.78,0.03350851728,0.1137355339
4.79,0.03797304931,0.1118479309
4.8,0.0423382761,0.109788165
4.81,0.04659771476,0.1075612377
4.82,0.05074512669,0.1051723864
4.83,0.0547745257,0.102627073
4.84,0.05868018568,0.0999309718
4.85,0.06245664759,0.0970899575
4.86,0.06609872608,0.09411009273
4.87,0.06960151533,0.09099761556
4.88,0.07296039451,0.08775892681
4.89,0.07617103255,0.08440057723
4.9,0.0792293924,0.08092925452
4.91,0.08213173469,0.07735177034
4.92,0.08487462086,0.07367504723
4.93,0.08745491566,0.06990610548
4.94,0.08986978917,0.06605205005
4.95,0.09211671817,0.06212005739
4.96,0.09419348702,0.05811736244
4.97,0.09609818798,0.05405124558
4.98,0.09782922095,0.04992901975
4.99,0.09938529273,0.04575801756
5,0.1007654157,0.04154557867
5.01,0.1019689061,0.03729903721
5.02,0.1029953816,0.03302570941
5.03,0.1038447585,0.02873288143
5.04,0.1045172486,0.02442779736
5.05,0.1050133552,0.02011764749
5.06,0.1053338692,0.01580955681
5.07,0.105479864,0.01151057373
5.08,0.1054526911,0.007227659166
5.09,0.1052539738,0.002967675813
5.1,0.1048856018,-0.001262622178
5.11,0.1043497251,-0.005456599261
5.12,0.1036487466,-0.0096077482
5.13,0.1027853162,-0.01370969943
5.14,0.1017623224,-0.01775623005
5.15,0.1005828855,-0.02174127246
5.16,0.09925034941,-0.02565892262
5.17,0.09776827323,-0.0295034479
5.18,0.09614042316,-0.03326929456
5.19,0.09437076364,-0.03695109479
5.2,0.09246344848,-0.04054367339
5.21,0.0904228118,-0.044042054
5.22,0.08825335868,-0.04744146492
5.23,0.08595975577,-0.05073734449
5.24,0.08354682171,-0.05392534608
5.25,0.0810195174,-0.0570013426
5.26,0.07838293618,-0.05996143065
5.27,0.07564229396,-0.06280193416
5.28,0.07280291923,-0.06551940766
5.29,0.06987024306,-0.06811063911
5.3,0.06684978904,-0.07057265226
5.31,0.06374716322,-0.07290270864
5.32,0.06056804404,-0.07509830911
5.33,0.05731817233,-0.07715719498
5.34,0.05400334127,-0.07907734874
5.35,0.05062938648,-0.08085699437
5.36,0.0472021761,-0.08249459721
5.37,0.04372760106,-0.08398886355
5.38,0.04021156535,-0.0853387397
5.39,0.03665997648,-0.08654341077
5.4,0.033078736,-0.08760229903
5.41,0.02947373026,-0.08851506194
5.42,0.02585082121,-0.08928158982
5.43,0.02221583751,-0.08990200314
5.44,0.01857456566,-0.09037664956
5.45,0.01493274149,-0.09070610056
5.46,0.01129604171,-0.09089114779
5.47,0.007670075783,-0.09093279918
5.48,0.004060377974,-0.09083227463
5.49,0.000472399629,-0.09059100158
5.5,-0.003088498276,-0.09021061019
5.51,-0.00661705235,-0.08969292832
5.52,-0.01010810374,-0.08903997631
5.53,-0.01355660482,-0.08825396142
5.54,-0.0169576256,-0.08733727222
5.55,-0.02030635985,-0.08629247261
5.56,-0.02359813097,-0.08512229577
5.57,-0.02682839756,-0.08382963789
5.58,-0.02999275865,-0.08241755175
5.59,-0.03308695871,-0.08088924016
5.6,-0.03610689234,-0.07924804923
5.61,-0.03904860859,-0.07749746155
5.62,-0.04190831512,-0.07564108931
5.63,-0.04468238188,-0.07368266717
5.64,-0.04736734465,-0.07162604524
5.65,-0.04995990817,-0.06947518187
5.66,-0.05245694903,-0.06723413639
5.67,-0.05485551821,-0.06490706186
5.68,-0.05715284332,-0.06249819773
5.69,-0.05934633064,-0.06001186252
5.7,-0.06143356669,-0.05745244649
5.71,-0.06341231968,-0.05482440426
5.72,-0.06528054055,-0.05213224752
5.73,-0.06703636378,-0.04938053771
5.74,-0.06867810791,-0.04657387877
5.75,-0.0702042758,-0.04371690989
5.76,-0.07161355453,-0.04081429839
5.77,-0.07290481519,-0.03787073258
5.78,-0.07407711223,-0.03489091476
5.79,-0.07512968272,-0.03187955429
5.8,-0.07606194519,-0.02884136071
5.81,-0.07687349842,-0.02578103703
5.82,-0.07756411981,-0.0227032731
5.83,-0.07813376363,-0.01961273905
5.84,-0.07858255902,-0.01651407894
5.85,-0.07891080776,-0.01341190446
5.86,-0.07911898183,-0.01031078886
5.87,-0.07920772082,-0.007215260893
5.88,-0.07917782905,-0.004129799051
5.89,-0.0790302726,-0.00105882585
5.9,-0.0787661761,0.001993297676
5.91,-0.07838681939,0.005022277329
5.92,-0.07789363395,0.008023890935
5.93,-0.07728819928,0.01099399335
5.94,-0.07657223906,0.0139285213
5.95,-0.07574761715,0.01682349805
5.96,-0.07481633354,0.01967503784
5.97,-0.07378052011,0.02247935022
5.98,-0.07264243631,0.02523274414
5.99,-0.07140446471,0.02793163185
6,-0.07006910648,0.03057253262
