"Freq [GHz]","re(S(Tx_p1,Tx_p1)) []","im(S(Tx_p1,Tx_p1)) []"
1,-0.007007011119,-0.2250104377
1.01,-0.01442461076,-0.2241497058
1.02,-0.02182415582,-0.2230342967
1.03,-0.02919466464,-0.2216636977
1.04,-0.03652517197,-0.2200379827
1.05,-0.04380475822,-0.2181578026
1.06,-0.05102257782,-0.2160243744
1.07,-0.05816788672,-0.2136394695
1.08,-0.06523006885,-0.2110054009
1.09,-0.07219866173,-0.2081250092
1.1,-0.07906338098,-0.2050016484
1.11,-0.08581414388,-0.20163917
1.12,-0.09244109179,-0.1980419067
1.13,-0.09893461151,-0.1942146553
1.14,-0.1052853556,-0.1901626589
1.15,-0.1114842615,-0.1858915881
1.16,-0.1175225696,-0.1814075222
1.17,-0.1233918399,-0.1767169292
1.18,-0.1290839677,-0.1718266457
1.19,-0.1345911984,-0.1667438562
1.2,-0.1399061404,-0.1614760722
1.21,-0.1450217773,-0.1560311105
1.22,-0.149931479,-0.1504170717
1.23,-0.154629011,-0.1446423183
1.24,-0.1591085435,-0.1387154527
1.25,-0.1633646579,-0.1326452951
1.26,-0.1673923537,-0.126440861
1.27,-0.1711870531,-0.1201113395
1.28,-0.1747446048,-0.1136660709
1.29,-0.1780612868,-0.1071145246
1.3,-0.181133808,-0.1004662777
1.31,-0.1839593087,-0.09373099321
1.32,-0.1865353596,-0.08691839862
1.33,-0.188859961,-0.08003826517
1.34,-0.1909315393,-0.07310038717
1.35,-0.1927489439,-0.06611456186
1.36,-0.1943114428,-0.0590905697
1.37,-0.1956187164,-0.05203815518
1.38,-0.1966708522,-0.04496700818
1.39,-0.1974683368,-0.03788674593
1.4,-0.1980120485,-0.03080689554
1.41,-0.1983032481,-0.02373687723
1.42,-0.1983435703,-0.01668598817
1.43,-0.1981350128,-0.00966338712
1.44,-0.1976799263,-0.002678079701
1.45,-0.196981003,0.004261095517
1.46,-0.1960412649,0.0111454802
1.47,-0.1948640518,0.0179666086
1.48,-0.1934530082,0.02471621921
1.49,-0.1918120711,0.03138626547
1.5,-0.1899454558,0.03796892578
1.51,-0.1878576431,0.04445661263
1.52,-0.185553365,0.05084198093
1.53,-0.183037591,0.05711793551
1.54,-0.1803155137,0.06327763782
1.55,-0.1773925349,0.06931451177
1.56,-0.174274251,0.07522224884
1.57,-0.1709664392,0.08099481235
1.58,-0.1674750429,0.08662644092
1.59,-0.1638061578,0.09211165126
1.6,-0.1599660178,0.0974452401
1.61,-0.1559609815,0.1026222855
1.62,-0.1517975182,0.1076381473
1.63,-0.1474821945,0.1124884672
1.64,-0.1430216618,0.1171691678
1.65,-0.1384226428,0.121676451
1.66,-0.1336919196,0.1260067965
1.67,-0.1288363213,0.1301569587
1.68,-0.1238627124,0.1341239639
1.69,-0.1187779815,0.1379051065
1.7,-0.1135890308,0.1414979448
1.71,-0.1083027651,0.1449002967
1.72,-0.1029260823,0.1481102345
1.73,-0.09746586418,0.1511260797
1.74,-0.09192896689,0.1539463974
1.75,-0.08632221306,0.15656999
1.76,-0.08065238371,0.1589958914
1.77,-0.07492621091,0.1612233602
1.78,-0.06915037096,0.1632518732
1.79,-0.06333147807,0.1650811188
1.8,-0.0574760786,0.1667109896
1.81,-0.05159064579,0.1681415758
1.82,-0.04568157505,0.1693731581
1.83,-0.03975517968,0.1704062006
1.84,-0.0338176872,0.1712413436
1.85,-0.02787523608,0.1718793968
1.86,-0.02193387297,0.1723213324
1.87,-0.01599955042,0.1725682782
1.88,-0.01007812499,0.1726215108
1.89,-0.004175355804,0.1724824495
1.9,0.001703096449,0.1721526497
1.91,0.007551670212,0.1716337967
1.92,0.01336490335,0.1709277001
1.93,0.0191374331,0.1700362882
1.94,0.02486399577,0.1689616024
1.95,0.03053942605,0.1677057924
1.96,0.03615865621,0.1662711113
1.97,0.04171671493,0.1646599112
1.98,0.04720872602,0.1628746393
1.99,0.05262990697,0.1609178339
2,0.05797556728,0.1587921211
2.01,0.06324110678,0.1565002117
2.02,0.06842201378,0.1540448982
2.03,0.07351386326,0.1514290532
2.04,0.0785123149,0.1486556265
2.05,0.0834131113,0.1457276438
2.06,0.08821207605,0.1426482054
2.07,0.09290511195,0.1394204852
2.08,0.09748819936,0.1360477298
2.09,0.1019573946,0.1325332582
2.1,0.1063088283,0.1288804619
2.11,0.1105387046,0.1250928048
2.12,0.1146432995,0.1211738238
2.13,0.1186189603,0.1171271297
2.14,0.1224621049,0.1129564077
2.15,0.1261692212,0.1086654189
2.16,0.1297368672,0.1042580015
2.17,0.1331616711,0.09973807233
2.18,0.1364403315,0.09510962848
2.19,0.1395696184,0.09037674898
2.2,0.1425463742,0.0855435967
2.21,0.1453675148,0.08061442021
2.22,0.1480300318,0.07559355573
2.23,0.1505309944,0.07048542905
2.24,0.1528675515,0.06529455742
2.25,0.1550369348,0.06002555144
2.26,0.157036462,0.05468311679
2.27,0.1588635396,0.04927205593
2.28,0.1605156677,0.04379726963
2.29,0.161990443,0.03826375828
2.3,0.163285564,0.03267662312
2.31,0.1643988358,0.02704106717
2.32,0.1653281743,0.02136239587
2.33,0.1660716127,0.01564601759
2.34,0.1666273062,0.009897443677
2.35,0.1669935382,0.004122288293
2.36,0.1671687264,-0.001673732153
2.37,0.1671514293,-0.007484799919
2.38,0.1669403521,-0.01330499725
2.39,0.1665343542,-0.01912830808
2.4,0.1659324551,-0.02494862022
2.41,0.1651338422,-0.0307597279
2.42,0.1641378769,-0.03655533485
2.43,0.1629441026,-0.04232905786
2.44,0.1615522509,-0.04807443069
2.45,0.1599622494,-0.05378490868
2.46,0.1581742284,-0.05945387368
2.47,0.1561885276,-0.06507463958
2.48,0.1540057035,-0.0706404583
2.49,0.1516265361,-0.07614452635
2.5,0.1490520349,-0.08157999185
2.51,0.1462834459,-0.08693996204
2.52,0.1433222574,-0.09221751135
2.53,0.1401702057,-0.09740568995
2.54,0.1368292813,-0.1024975327
2.55,0.1333017333,-0.1074860687
2.56,0.1295900747,-0.1123643313
2.57,0.125697087,-0.1171253683
2.58,0.1216258236,-0.1217622531
2.59,0.1173796138,-0.1262680954
2.6,0.1129620659,-0.1306360535
2.61,0.1083770694,-0.1348593456
2.62,0.1036287971,-0.1389312628
2.63,0.09872170652,-0.142845181
2.64,0.09366054071,-0.1465945744
2.65,0.08845032833,-0.1501730284
2.66,0.0830963832,-0.1535742528
2.67,0.07760430316,-0.1567920957
2.68,0.07197996822,-0.1598205569
2.69,0.06622953803,-0.1626538022
2.7,0.06035944862,-0.1652861764
2.71,0.05437640845,-0.1677122183
2.72,0.04828739364,-0.1699266738
2.73,0.04209964258,-0.17192451
2.74,0.0358206497,-0.1737009294
2.75,0.02945815849,-0.1752513829
2.76,0.02302015383,-0.1765715839
2.77,0.0165148535,-0.1776575211
2.78,0.009950699002,-0.178505472
2.79,0.003336345573,-0.1791120153
2.8,-0.003319348454,-0.1794740434
2.81,-0.01000733307,-0.1795887747
2.82,-0.01671837869,-0.1794537647
2.83,-0.02344308896,-0.1790669177
2.84,-0.03017191419,-0.1784264969
2.85,-0.03689516552,-0.177531135
2.86,-0.04360302964,-0.1763798434
2.87,-0.05028558414,-0.1749720215
2.88,-0.05693281344,-0.1733074643
2.89,-0.06353462527,-0.1713863706
2.9,-0.07008086765,-0.1692093496
2.91,-0.07656134634,-0.1667774269
2.92,-0.08296584276,-0.16409205
2.93,-0.08928413232,-0.1611550926
2.94,-0.09550600309,-0.1579688585
2.95,-0.1016212748,-0.1545360839
2.96,-0.1076198182,-0.15085994
2.97,-0.1134915745,-0.1469440334
2.98,-0.1192265751,-0.1427924065
2.99,-0.1248149616,-0.1384095362
3,-0.1302470058,-0.1338003328
3.01,-0.1355131294,-0.1289701364
3.02,-0.1406039244,-0.1239247136
3.03,-0.1455101731,-0.1186702526
3.04,-0.1502228677,-0.1132133574
3.05,-0.1547332304,-0.1075610414
3.06,-0.1590327326,-0.101720719
3.07,-0.1631131148,-0.0957001976
3.08,-0.1669664047,-0.08950766764
3.09,-0.1705849369,-0.08315169192
3.1,-0.1739613704,-0.07664119416
3.11,-0.1770887069,-0.06998544639
3.12,-0.1799603076,-0.06319405562
3.13,-0.1825699107,-0.05627694946
3.14,-0.1849116468,-0.04924436099
3.15,-0.1869800553,-0.04210681266
3.16,-0.1887700983,-0.03487509955
3.17,-0.1902771757,-0.02756027164
3.18,-0.1914971377,-0.02017361552
3.19,-0.1924262982,-0.01272663521
3.2,-0.1930614456,-0.005231032485
3.21,-0.1933998545,0.002301313631
3.22,-0.1934392951,0.009858367806
3.23,-0.1931780421,0.01742795999
3.24,-0.1926148829,0.02499780745
3.25,-0.1917491247,0.03255553736
3.26,-0.1905805999,0.04008870965
3.27,-0.1891096714,0.04758484039
3.28,-0.1873372361,0.05503142534
3.29,-0.1852647277,0.06241596381
3.3,-0.1828941185,0.0697259828
3.31,-0.1802279192,0.07694906111
3.32,-0.1772691788,0.08407285374
3.33,-0.1740214824,0.09108511616
3.34,-0.1704889481,0.0979737287
3.35,-0.1666762234,0.1047267207
3.36,-0.1625884792,0.1113322948
3.37,-0.1582314036,0.1177788507
3.38,-0.1536111944,0.1240550089
3.39,-0.1487345502,0.1301496339
3.4,-0.1436086608,0.1360518576
3.41,-0.1382411959,0.1417511016
3.42,-0.1326402931,0.1472370994
3.43,-0.1268145452,0.1524999179
3.44,-0.1207729856,0.1575299787
3.45,-0.1145250733,0.1623180781
3.46,-0.1080806769,0.1668554073
3.47,-0.1014500574,0.1711335711
3.48,-0.09464385005,0.1751446058
3.49,-0.08767304591,0.1788809976
3.5,-0.08054897174,0.1823356978
3.51,-0.07328326965,0.1855021398
3.52,-0.06588787581,0.1883742525
3.53,-0.05837499854,0.1909464752
3.54,-0.05075709559,0.1932137692
3.55,-0.043046851,0.1951716305
3.56,-0.0352571512,0.1968160993
3.57,-0.0274010608,0.1981437704
3.58,-0.01949179776,0.1991518008
3.59,-0.01154270826,0.1998379175
3.6,-0.003567241192,0.2002004229
3.61,0.004421077642,0.2002382001
3.62,0.01240867153,0.1999507163
3.63,0.02038193905,0.199338025
3.64,0.02832728036,0.1984007676
3.65,0.03623112358,0.1971401731
3.66,0.04407995111,0.1955580567
3.67,0.05186032589,0.1936568175
3.68,0.0595589176,0.1914394348
3.69,0.06716252861,0.188909463
3.7,0.07465811969,0.1860710254
3.71,0.08203283544,0.182928807
3.72,0.08927402935,0.1794880459
3.73,0.09636928845,0.1757545237
3.74,0.1033064575,0.1717345546
3.75,0.1100736626,0.1674349734
3.76,0.1166593343,0.1628631225
3.77,0.1230522301,0.158026838
3.78,0.129241456,0.1529344343
3.79,0.1352164878,0.1475946883
3.8,0.1409671912,0.1420168221
3.81,0.1464838412,0.136210485
3.82,0.1517571408,0.130185735
3.83,0.1567782387,0.1239530188
3.84,0.1615387458,0.1175231513
3.85,0.1660307512,0.1109072946
3.86,0.1702468369,0.1041169362
3.87,0.1741800913,0.09716386597
3.88,0.1778241221,0.09006015355
3.89,0.1811730677,0.08281812437
3.9,0.1842216077,0.07545033561
3.91,0.1869649719,0.0679695516
3.92,0.1893989489,0.06038871888
3.93,0.1915198927,0.0527209409
3.94,0.1933247284,0.0449794525
3.95,0.1948109572,0.03717759421
3.96,0.1959766592,0.02932878634
3.97,0.1968204962,0.021446503
3.98,0.1973417119,0.01354424616
3.99,0.1975401324,0.005635519652
4,0.1974161644,-0.002266196719
4.01,0.1969707925,-0.01014747288
4.02,0.1962055758,-0.01799495405
4.03,0.1951226424,-0.02579538601
4.04,0.1937246837,-0.03353564008
4.05,0.192014947,-0.04120273772
4.06,0.1899972273,-0.04878387475
4.07,0.1876758574,-0.05626644504
4.08,0.1850556982,-0.06363806375
4.09,0.1821421265,-0.07088658997
4.1,0.1789410227,-0.07800014875
4.11,0.1754587575,-0.08496715245
4.12,0.1717021774,-0.09177632149
4.13,0.1676785891,-0.09841670419
4.14,0.1633957438,-0.104877696
4.15,0.15886182,-0.1111490579
4.16,0.1540854059,-0.1172209335
4.17,0.1490754807,-0.1230838664
4.18,0.1438413956,-0.1287288149
4.19,0.1383928542,-0.1341471677
4.2,0.1327398919,-0.1393307569
4.21,0.1268928552,-0.1442718713
4.22,0.12086238,-0.1489632677
4.23,0.1146593702,-0.1533981822
4.24,0.1082949751,-0.1575703394
4.25,0.1017805674,-0.1614739612
4.26,0.09512771965,-0.1651037744
4.27,0.08834818188,-0.168455017
4.28,0.08145385799,-0.171523444
4.29,0.07445678252,-0.1743053312
4.3,0.06736909724,-0.1767974788
4.31,0.06020302768,-0.1789972134
4.32,0.05297085972,-0.180902389
4.33,0.04568491629,-0.182511387
4.34,0.03835753414,-0.1838231156
4.35,0.03100104083,-0.1848370068
4.36,0.02362773194,-0.1855530142
4.37,0.01624984858,-0.1859716082
4.38,0.008879555161,-0.1860937712
4.39,0.001528917588,-0.1859209911
4.4,-0.005790118141,-0.1854552549
4.41,-0.01306574691,-0.1846990399
4.42,-0.02028632495,-0.1836553054
4.43,-0.02744038977,-0.1823274829
4.44,-0.03451667952,-0.180719465
4.45,-0.04150415176,-0.1788355946
4.46,-0.04839200157,-0.1766806526
4.47,-0.05516967901,-0.1742598446
4.48,-0.06182690588,-0.1715787878
4.49,-0.06835369172,-0.1686434967
4.5,-0.07474034909,-0.1654603678
4.51,-0.08097750808,-0.1620361647
4.52,-0.08705613,-0.1583780017
4.53,-0.09296752026,-0.1544933274
4.54,-0.09870334038,-0.1503899082
4.55,-0.1042556193,-0.1460758101
4.56,-0.1096167635,-0.1415593819
4.57,-0.1147795667,-0.1368492363
4.58,-0.1197372184,-0.1319542324
4.59,-0.1244833114,-0.1268834566
4.6,-0.1290118489,-0.1216462037
4.61,-0.1333172502,-0.1162519588
4.62,-0.1373943557,-0.1107103773
4.63,-0.1412384312,-0.1050312665
4.64,-0.1448451713,-0.09922456631
4.65,-0.1482107014,-0.09330033002
4.66,-0.1513315795,-0.08726870546
4.67,-0.1542047968,-0.08113991601
4.68,-0.1568277777,-0.07492424181
4.69,-0.1591983782,-0.06863200114
4.7,-0.1613148851,-0.06227353204
4.71,-0.1631760124,-0.05585917419
4.72,-0.1647808984,-0.04939925097
4.73,-0.1661291018,-0.042904052
4.74,-0.1672205963,-0.03638381588
4.75,-0.1680557653,-0.0298487134
4.76,-0.1686353958,-0.02330883113
4.77,-0.1689606712,-0.01677415542
4.78,-0.1690331641,-0.01025455693
4.79,-0.1688548276,-0.003759775566
4.8,-0.1684279876,0.002700594033
4.81,-0.1677553323,0.009117116466
4.82,-0.1668399036,0.01548052903
4.83,-0.1656850862,0.0217817546
4.84,-0.1642945969,0.02801191389
4.85,-0.1626724742,0.03416233722
4.86,-0.1608230658,0.04022457552
4.87,-0.1587510178,0.0461904109
4.88,-0.1564612619,0.05205186643
4.89,-0.1539590032,0.05780121539
4.9,-0.1512497075,0.06343098984
4.91,-0.1483390885,0.06893398857
4.92,-0.1452330949,0.07430328438
4.93,-0.1419378967,0.07953223074
4.94,-0.1384598721,0.08461446783
4.95,-0.1348055945,0.08954392786
4.96,-0.1309818182,0.09431483985
4.97,-0.1269954657,0.09892173373
4.98,-0.1228536135,0.1033594439
4.99,-0.1185634791,0.1076231118
5,-0.1141324074,0.1117081889
5.01,-0.1095678574,0.1156104376
5.02,-0.104877389,0.1193259327
5.03,-0.1000686496,0.122851062
5.04,-0.09514936167,0.1261825264
5.05,-0.09012730966,0.129317339
5.06,-0.08501032751,0.1322528245
5.07,-0.07980628636,0.1349866173
5.08,-0.07452308245,0.1375166598
5.09,-0.06916862526,0.1398411997
5.1,-0.06375082601,0.1419587872
5.11,-0.05827758637,0.1438682716
5.12,-0.05275678749,0.1455687977
5.13,-0.04719627941,0.1470598016
5.14,-0.04160387072,0.1483410063
5.15,-0.0359873186,0.1494124167
5.16,-0.0303543192,0.1502743149
5.17,-0.02471249839,0.1509272543
5.18,-0.01906940284,0.1513720545
5.19,-0.0134324915,0.1516097947
5.2,-0.007809127453,0.1516418083
5.21,-0.00220657008,0.151469676
5.22,0.003368032313,0.1510952196
5.23,0.008907649553,0.1505204952
5.24,0.01440537626,0.1497477861
5.25,0.01985443816,0.1487795964
5.26,0.02524819797,0.1476186437
5.27,0.03058016103,0.1462678517
5.28,0.03584398043,0.1447303434
5.29,0.04103346191,0.1430094337
5.3,0.04614256835,0.141108622
5.31,0.05116542394,0.1390315851
5.32,0.05609631799,0.1367821699
5.33,0.06092970847,0.1343643859
5.34,0.06566022521,0.1317823983
5.35,0.07028267277,0.1290405206
5.36,0.07479203308,0.1261432073
5.37,0.07918346774,0.1230950472
5.38,0.0834523201,0.1199007562
5.39,0.08759411705,0.1165651702
5.4,0.09160457057,0.1130932386
5.41,0.09547957906,0.1094900176
5.42,0.09921522845,0.105760663
5.43,0.1028077931,0.1019104244
5.44,0.1062537365,0.09794463854
5.45,0.1095497116,0.09386872295
5.46,0.1126925617,0.08968816991
5.47,0.11567932,0.08540854042
5.48,0.1185072099,0.0810354583
5.49,0.121173645,0.07657460445
5.5,0.1236762288,0.07203171121
5.51,0.1260127543,0.06741255687
5.52,0.1281812038,0.06272296026
5.53,0.130179748,0.05796877552
5.54,0.1320067457,0.05315588694
5.55,0.1336607431,0.04829020393
5.56,0.1351404729,0.04337765615
5.57,0.1364448535,0.03842418863
5.58,0.1375729884,0.03343575709
5.59,0.138524165,0.02841832335
5.6,0.1392978539,0.02337785073
5.61,0.1398937078,0.01832029969
5.62,0.1403115605,0.01325162336
5.63,0.140551426,0.008177763295
5.64,0.1406134975,0.003104645221
5.65,0.1404981462,-0.001961825191
5.66,0.1402059203,-0.007015766456
5.67,0.1397375439,-0.01205132539
5.68,0.1390939161,-0.01706268119
5.69,0.1382761097,-0.02204404951
5.7,0.13728537,-0.02698968647
5.71,0.1361231139,-0.03189389275
5.72,0.1347909287,-0.03675101753
5.73,0.1332905709,-0.04155546263
5.74,0.1316239649,-0.04630168649
5.75,0.1297932019,-0.05098420823
5.76,0.1278005386,-0.05559761176
5.77,0.1256483958,-0.0601365499
5.78,0.1233393573,-0.06459574847
5.79,0.1208761682,-0.0689700105
5.8,0.1182617338,-0.07325422043
5.81,0.1154991177,-0.07744334836
5.82,0.1125915403,-0.08153245436
5.83,0.1095423774,-0.08551669276
5.84,0.106355158,-0.0893913166
5.85,0.103033563,-0.09315168198
5.86,0.0995814226,-0.09679325259
5.87,0.09600271457,-0.1003116042
5.88,0.09230156208,-0.1037024292
5.89,0.08848223122,-0.1069615411
5.9,0.08454912861,-0.1100848795
5.91,0.08050679875,-0.1130685144
5.92,0.07635992122,-0.1159086507
5.93,0.07211330781,-0.1186016337
5.94,0.06777189933,-0.1211439528
5.95,0.06334076237,-0.1235322471
5.96,0.05882508579,-0.1257633095
5.97,0.05423017706,-0.1278340918
5.98,0.04956145839,-0.1297417091
5.99,0.04482446265,-0.1314834447
6,0.04002482909,-0.1330567546
