"Freq [GHz]","re(S(Tx_p1,Tx_p1)) []","im(S(Tx_p1,Tx_p1)) []"
1,-0.02282617999,-0.2451330101
1.01,-0.03129943769,-0.2438439324
1.02,-0.03974752459,-0.2422460317
1.03,-0.0481567255,-0.2403385798
1.04,-0.05651330735,-0.2381215708
1.05,-0.06480355501,-0.2355957138
1.06,-0.07301380634,-0.2327624245
1.07,-0.08113048661,-0.2296238162
1.08,-0.08914014207,-0.2261826881
1.09,-0.09702947276,-0.2224425134
1.1,-0.1047853644,-0.218407426
1.11,-0.1123949195,-0.214082205
1.12,-0.1198454872,-0.2094722594
1.13,-0.1271246925,-0.2045836108
1.14,-0.1342204642,-0.1994228748
1.15,-0.1411210619,-0.1939972421
1.16,-0.1478151017,-0.1883144578
1.17,-0.1542915807,-0.1823828005
1.18,-0.1605399007,-0.1762110594
1.19,-0.1665498903,-0.1698085119
1.2,-0.1723118258,-0.1631848992
1.21,-0.1778164508,-0.1563504019
1.22,-0.1830549949,-0.1493156144
1.23,-0.1880191902,-0.1420915191
1.24,-0.1927012872,-0.1346894601
1.25,-0.1970940694,-0.1271211154
1.26,-0.2011908655,-0.1193984703
1.27,-0.2049855617,-0.111533789
1.28,-0.2084726114,-0.1035395865
1.29,-0.2116470436,-0.09542860042
1.3,-0.2145044711,-0.08721376219
1.31,-0.2170410956,-0.07890816847
1.32,-0.2192537126,-0.07052505239
1.33,-0.2211397143,-0.0620777548
1.34,-0.2226970917,-0.0535796957
1.35,-0.2239244345,-0.04504434564
1.36,-0.2248209306,-0.03648519752
1.37,-0.2253863634,-0.02791573853
1.38,-0.2256211085,-0.01934942246
1.39,-0.2255261288,-0.0107996424
1.4,-0.2251029682,-0.002279703854
1.41,-0.2243537442,0.006197201597
1.42,-0.2232811396,0.01461802213
1.43,-0.221888393,0.02296987088
1.44,-0.2201792872,0.03124005051
1.45,-0.2181581382,0.03941607707
1.46,-0.2158297818,0.04748570308
1.47,-0.2131995598,0.05543693989
1.48,-0.2102733053,0.06325807916
1.49,-0.2070573269,0.07093771348
1.5,-0.2035583917,0.07846475611
1.51,-0.1997837089,0.08582845975
1.52,-0.1957409105,0.09301843436
1.53,-0.1914380333,0.100024664
1.54,-0.1868834994,0.1068375227
1.55,-0.1820860957,0.113447789
1.56,-0.1770549536,0.1198466601
1.57,-0.171799528,0.1260257639
1.58,-0.166329576,0.1319771712
1.59,-0.1606551345,0.1376934055
1.6,-0.1547864988,0.1431674529
1.61,-0.1487341995,0.1483927699
1.62,-0.1425089805,0.1533632909
1.63,-0.1361217761,0.1580734337
1.64,-0.129583688,0.1625181048
1.65,-0.1229059628,0.1666927032
1.66,-0.116099969,0.1705931228
1.67,-0.1091771743,0.1742157541
1.68,-0.1021491231,0.1775574849
1.69,-0.09502741371,0.1806156995
1.7,-0.08782367686,0.1833882774
1.71,-0.08054955318,0.1858735907
1.72,-0.07321667185,0.1880705002
1.73,-0.06583662935,0.1899783513
1.74,-0.05842096868,0.1915969685
1.75,-0.05098115898,0.1929266485
1.76,-0.04352857565,0.1939681537
1.77,-0.03607448108,0.1947227034
1.78,-0.02863000582,0.1951919655
1.79,-0.02120613047,0.1953780463
1.8,-0.01381366811,0.1952834805
1.81,-0.006463247461,0.1949112196
1.82,0.0008347033366,0.1942646207
1.83,0.00806997216,0.1933474335
1.84,0.01523257765,0.1921637877
1.85,0.02231278321,0.1907181796
1.86,0.02930111017,0.1890154576
1.87,0.03618835026,0.1870608081
1.88,0.04296557718,0.1848597405
1.89,0.04962415741,0.1824180722
1.9,0.05615576023,0.1797419127
1.91,0.06255236684,0.176837648
1.92,0.06880627868,0.1737119247
1.93,0.07491012495,0.1703716333
1.94,0.08085686926,0.1668238923
1.95,0.08663981545,0.1630760314
1.96,0.09225261261,0.1591355752
1.97,0.09768925928,0.1550102264
1.98,0.1029441068,0.1507078494
1.99,0.1080118621,0.146236454
2,0.112887589,0.1416041787
2.01,0.11756671,0.1368192746
2.02,0.1220450058,0.1318900894
2.03,0.1263186156,0.1268250515
2.04,0.1303840353,0.1216326544
2.05,0.1342381162,0.1163214415
2.06,0.1378780619,0.1108999908
2.07,0.141301426,0.1053769004
2.08,0.1445061073,0.09976077414
2.09,0.1474903466,0.09406020758
2.1,0.1502527208,0.08828377462
2.11,0.1527921379,0.08244001426
2.12,0.1551078313,0.07653741802
2.13,0.1571993528,0.07058441772
2.14,0.1590665663,0.06458937385
2.15,0.1607096402,0.05856056431
2.16,0.1621290399,0.05250617382
2.17,0.1633255199,0.04643428372
2.18,0.1643001154,0.04035286235
2.19,0.1650541336,0.03426975605
2.2,0.1655891452,0.02819268057
2.21,0.1659069751,0.02212921313
2.22,0.1660096935,0.016086785
2.23,0.165899606,0.01007267463
2.24,0.1655792447,0.004094001355
2.25,0.1650513582,-0.001842280418
2.26,0.1643189025,-0.007729386405
2.27,0.1633850306,-0.01356070715
2.28,0.1622530833,-0.01932981221
2.29,0.1609265798,-0.02503045377
2.3,0.1594092076,-0.03065656986
2.31,0.1577048132,-0.03620228696
2.32,0.1558173928,-0.0416619222
2.33,0.153751083,-0.04702998511
2.34,0.1515101518,-0.05230117888
2.35,0.1490989892,-0.0574704012
2.36,0.1465220992,-0.06253274474
2.37,0.1437840905,-0.06748349717
2.38,0.1408896687,-0.07231814088
2.39,0.1378436281,-0.07703235231
2.4,0.1346508436,-0.08162200094
2.41,0.1313162638,-0.08608314806
2.42,0.1278449029,-0.09041204513
2.43,0.1242418346,-0.09460513201
2.44,0.1205121845,-0.09865903486
2.45,0.1166611248,-0.1025705639
2.46,0.1126938671,-0.1063367109
2.47,0.1086156574,-0.1099546466
2.48,0.1044317707,-0.1134217179
2.49,0.1001475051,-0.116735445
2.5,0.09576817801,-0.1198935185
2.51,0.09129912087,-0.1228937961
2.52,0.08674567534,-0.1257342998
2.53,0.08211318929,-0.1284132125
2.54,0.07740701322,-0.1309288751
2.55,0.07263249697,-0.1332797831
2.56,0.06779498666,-0.1354645836
2.57,0.06289982196,-0.1374820724
2.58,0.05795233355,-0.1393311909
2.59,0.05295784092,-0.141011023
2.6,0.04792165028,-0.1425207927
2.61,0.0428490528,-0.143859861
2.62,0.03774532297,-0.1450277235
2.63,0.0326157172,-0.1460240083
2.64,0.02746547259,-0.1468484729
2.65,0.0222998058,-0.147501003
2.66,0.01712391212,-0.14798161
2.67,0.01194296462,-0.1482904294
2.68,0.006762113439,-0.148427719
2.69,0.001586485077,-0.148393858
2.7,-0.003578818147,-0.1481893453
2.71,-0.008728718668,-0.1478147986
2.72,-0.01385816419,-0.1472709536
2.73,-0.0189621282,-0.1465586635
2.74,-0.0240356105,-0.1456788985
2.75,-0.02907363776,-0.1446327453
2.76,-0.03407126414,-0.1434214072
2.77,-0.03902357193,-0.1420462045
2.78,-0.04392567233,-0.1405085741
2.79,-0.0487727063,-0.1388100707
2.8,-0.05355984552,-0.1369523666
2.81,-0.05828229349,-0.1349372533
2.82,-0.06293528681,-0.1327666414
2.83,-0.06751409653,-0.1304425625
2.84,-0.07201402976,-0.1279671696
2.85,-0.07643043144,-0.1253427387
2.86,-0.08075868626,-0.1225716696
2.87,-0.08499422086,-0.1196564878
2.88,-0.08913250618,-0.1165998453
2.89,-0.09316906005,-0.1134045223
2.9,-0.09709945004,-0.1100734283
2.91,-0.1009192965,-0.1066096039
2.92,-0.1046242758,-0.1030162216
2.93,-0.1082101239,-0.09929658742
2.94,-0.1116726402,-0.09545414211
2.95,-0.1150076913,-0.09149246213
2.96,-0.1182112158,-0.08741526072
2.97,-0.1212792278,-0.08322638881
2.98,-0.1242078228,-0.07892983572
2.99,-0.1269931818,-0.07452972973
3,-0.1296315765,-0.07003033848
3.01,-0.1321193753,-0.06543606909
3.02,-0.1344530483,-0.06075146817
3.03,-0.1366291731,-0.05598122147
3.04,-0.1386444411,-0.0511301533
3.05,-0.1404956632,-0.04620322576
3.06,-0.1421797765,-0.04120553753
3.07,-0.1436938503,-0.03614232245
3.08,-0.1450350928,-0.03101894777
3.09,-0.1462008578,-0.02584091199
3.1,-0.1471886513,-0.02061384243
3.11,-0.1479961384,-0.01534349237
3.12,-0.14862115,-0.01003573788
3.13,-0.1490616896,-0.004696574203
3.14,-0.1493159405,0.0006678881961
3.15,-0.1493822721,0.006051428045
3.16,-0.1492592472,0.01144771803
3.17,-0.1489456283,0.01685032998
3.18,-0.1484403844,0.02225274051
3.19,-0.1477426977,0.027648337
3.2,-0.1468519696,0.03303042407
3.21,-0.1457678272,0.03839223038
3.22,-0.1444901291,0.04372691593
3.23,-0.1430189713,0.04902757973
3.24,-0.1413546928,0.05428726783
3.25,-0.1394978806,0.05949898177
3.26,-0.137449375,0.06465568749
3.27,-0.1352102742,0.06975032445
3.28,-0.1327819385,0.07477581527
3.29,-0.1301659942,0.07972507565
3.3,-0.1273643377,0.08459102459
3.31,-0.1243791377,0.08936659499
3.32,-0.1212128389,0.09404474454
3.33,-0.1178681637,0.09861846682
3.34,-0.1143481141,0.1030808028
3.35,-0.1106559729,0.1074248524
3.36,-0.106795305,0.1116437864
3.37,-0.1027699568,0.1157308586
3.38,-0.09858405677,0.1196794178
3.39,-0.09424201397,0.1234829205
3.4,-0.08974851696,0.1271349432
3.41,-0.08510853165,0.1306291949
3.42,-0.08032729877,0.1339595299
3.43,-0.07541033059,0.1371199602
3.44,-0.07036340715,0.1401046687
3.45,-0.06519257179,0.142908021
3.46,-0.0599041261,0.1455245788
3.47,-0.0545046242,0.1479491119
3.48,-0.04900086644,0.1501766103
3.49,-0.04339989248,0.152202297
3.5,-0.03770897365,0.1540216396
3.51,-0.03193560484,0.1556303619
3.52,-0.02608749565,0.1570244557
3.53,-0.020172561,0.1582001919
3.54,-0.01419891111,0.1591541314
3.55,-0.008174840909,0.1598831353
3.56,-0.002108818904,0.1603843756
3.57,0.003990524583,0.1606553442
3.58,0.01011440966,0.1606938629
3.59,0.01625391964,0.1604980915
3.6,0.02240001438,0.1600665365
3.61,0.02854354398,0.1593980588
3.62,0.03467526308,0.1584918804
3.63,0.04078584551,0.1573475915
3.64,0.04686589936,0.1559651562
3.65,0.05290598245,0.1543449179
3.66,0.05889661814,0.1524876037
3.67,0.06482831147,0.1503943287
3.68,0.0706915656,0.1480665989
3.69,0.07647689849,0.1455063139
3.7,0.08217485981,0.1427157688
3.71,0.08777604807,0.1396976547
3.72,0.09327112786,0.1364550597
3.73,0.09865084727,0.1329914677
3.74,0.1039060553,0.1293107575
3.75,0.1090277195,0.1254172002
3.76,0.1140069432,0.1213154569
3.77,0.1188349835,0.1170105743
3.78,0.1235032681,0.1125079804
3.79,0.128003413,0.1078134793
3.8,0.1323272396,0.1029332447
3.81,0.1364667916,0.09787381274
3.82,0.1404143515,0.0926420747
3.83,0.1441624577,0.08724526789
3.84,0.14770392,0.08169096642
3.85,0.1510318357,0.07598707096
3.86,0.154139605,0.07014179777
3.87,0.157020946,0.06416366698
3.88,0.1596699093,0.05806149009
3.89,0.1620808916,0.05184435687
3.9,0.1642486498,0.04552162142
3.91,0.1661683137,0.03910288764
3.92,0.167835398,0.03259799408
3.93,0.1692458144,0.02601699806
3.94,0.1703958824,0.01937015931
3.95,0.1712823397,0.01266792301
3.96,0.1719023515,0.005920902224
3.97,0.1722535198,-0.000860140042
3.98,0.172333891,-0.00766430934
3.99,0.1721419633,-0.01448059867
4,0.1716766931,-0.02129790779
4.01,0.1709375004,-0.02810506284
4.02,0.1699242737,-0.03489083632
4.03,0.1686373735,-0.04164396733
4.04,0.1670776355,-0.04835318205
4.05,0.1652463721,-0.05500721441
4.06,0.163145374,-0.06159482691
4.07,0.1607769096,-0.06810483151
4.08,0.1581437247,-0.07452611068
4.09,0.1552490404,-0.08084763836
4.1,0.1520965504,-0.08705850098
4.11,0.1486904173,-0.0931479183
4.12,0.1450352676,-0.09910526429
4.13,0.1411361867,-0.1049200877
4.14,0.1369987116,-0.1105821325
4.15,0.1326288238,-0.1160813581
4.16,0.1280329407,-0.1214079591
4.17,0.1232179064,-0.126552385
4.18,0.118190981,-0.1315053592
4.19,0.1129598298,-0.1362578978
4.2,0.1075325113,-0.140801328
4.21,0.101917464,-0.1451273054
4.22,0.09612349308,-0.1492278318
4.23,0.0901597554,-0.1530952713
4.24,0.08403574469,-0.1567223666
4.25,0.07776127528,-0.1601022541
4.26,0.07134646538,-0.1632284789
4.27,0.0648017197,-0.1660950081
4.28,0.05813771129,-0.1686962443
4.29,0.05136536293,-0.1710270378
4.3,0.04449582777,-0.1730826982
4.31,0.03754046956,-0.1748590049
4.32,0.03051084232,-0.176352217
4.33,0.02341866956,-0.1775590817
4.34,0.01627582305,-0.178476843
4.35,0.009094301267,-0.1791032478
4.36,0.001886207485,-0.1794365527
4.37,-0.005336272447,-0.1794755282
4.38,-0.01256089254,-0.1792194634
4.39,-0.01977536929,-0.1786681688
4.4,-0.02696740451,-0.1778219781
4.41,-0.03412470817,-0.1766817494
4.42,-0.04123502141,-0.1752488648
4.43,-0.04828613944,-0.17352523
4.44,-0.05526593449,-0.1715132714
4.45,-0.06216237863,-0.1692159332
4.46,-0.06896356648,-0.1666366735
4.47,-0.07565773769,-0.1637794587
4.48,-0.08223329925,-0.1606487574
4.49,-0.08867884749,-0.1572495334
4.5,-0.09498318974,-0.1535872369
4.51,-0.1011353657,-0.1496677961
4.52,-0.1071246681,-0.1454976063
4.53,-0.1129406637,-0.1410835194
4.54,-0.1185732125,-0.1364328314
4.55,-0.1240124876,-0.1315532698
4.56,-0.129248994,-0.12645298
4.57,-0.1342735866,-0.1211405101
4.58,-0.1390774878,-0.1156247962
4.59,-0.1436523044,-0.1099151456
4.6,-0.1479900435,-0.1040212202
4.61,-0.152083128,-0.09795301891
4.62,-0.1559244111,-0.09172085894
4.63,-0.1595071901,-0.08533535717
4.64,-0.1628252186,-0.07880741047
4.65,-0.1658727195,-0.07214817555
4.66,-0.1686443951,-0.06536904835
4.67,-0.1711354377,-0.05848164286
4.68,-0.1733415385,-0.05149776963
4.69,-0.1752588959,-0.04442941376
4.7,-0.1768842227,-0.03728871263
4.71,-0.1782147521,-0.03008793335
4.72,-0.1792482432,-0.02283944983
4.73,-0.1799829847,-0.01555571985
4.74,-0.1804177982,-0.00824926174
4.75,-0.1805520404,-0.0009326311717
4.76,-0.1803856038,0.006381602276
4.77,-0.1799189169,0.01368087848
4.78,-0.1791529431,0.02095267012
4.79,-0.1780891783,0.02818450596
4.8,-0.1767296482,0.03536399397
4.81,-0.1750769038,0.0424788443
4.82,-0.1731340163,0.04951689202
4.83,-0.1709045707,0.05646611956
4.84,-0.1683926589,0.0633146789
4.85,-0.1656028714,0.07005091335
4.86,-0.1625402882,0.07666337893
4.87,-0.1592104686,0.08314086531
4.88,-0.1556194403,0.08947241629
4.89,-0.1517736877,0.0956473497
4.9,-0.1476801387,0.1016552768
4.91,-0.1433461517,0.1074861209
4.92,-0.138779501,0.1131301358
4.93,-0.1339883614,0.1185779226
4.94,-0.1289812927,0.1238204473
4.95,-0.1237672228,0.1288490559
4.96,-0.1183554308,0.1336554901
4.97,-0.1127555285,0.1382319017
4.98,-0.1069774425,0.142570866
4.99,-0.1010313949,0.1466653944
5,-0.09492788345,0.1505089468
5.01,-0.0886776621,0.1540954418
5.02,-0.08229171998,0.1574192672
5.03,-0.07578126076,0.160475289
5.04,-0.06915768138,0.1632588595
5.05,-0.06243255053,0.1657658245
5.06,-0.05561758685,0.1679925296
5.07,-0.04872463696,0.1699358249
5.08,-0.04176565323,0.1715930702
5.09,-0.03475267157,0.1729621374
5.1,-0.027697789,0.174041413
5.11,-0.02061314126,0.1748297995
5.12,-0.01351088045,0.1753267156
5.13,-0.00640315264,0.1755320952
5.14,0.0006979242901,0.1754463861
5.15,0.007780282786,0.1750705471
5.16,0.01483192749,0.1744060441
5.17,0.02184095691,0.1734548461
5.18,0.0287955848,0.172219419
5.19,0.03568416122,0.1707027196
5.2,0.04249519327,0.1689081879
5.21,0.04921736541,0.166839739
5.22,0.05583955929,0.1645017538
5.23,0.06235087321,0.1618990695
5.24,0.06874064102,0.1590369681
5.25,0.07499845043,0.1559211654
5.26,0.08111416085,0.1525577982
5.27,0.08707792051,0.1489534117
5.28,0.09288018302,0.1451149452
5.29,0.09851172322,0.1410497181
5.3,0.1039636524,0.1367654144
5.31,0.1092274326,0.1322700674
5.32,0.1142948905,0.1275720429
5.33,0.1191582303,0.1226800231
5.34,0.1238100456,0.1176029885
5.35,0.1282433314,0.1123502006
5.36,0.1324514937,0.1069311838
5.37,0.1364283599,0.1013557064
5.38,0.1401681874,0.09563376205
5.39,0.1436656714,0.08977555032
5.4,0.1469159522,0.08379145732
5.41,0.1499146213,0.07769203594
5.42,0.1526577267,0.07148798593
5.43,0.1551417773,0.06519013393
5.44,0.1573637465,0.05880941326
5.45,0.1593210749,0.05235684377
5.46,0.1610116718,0.04584351158
5.47,0.1624339163,0.0392805489
5.48,0.1635866573,0.03267911385
5.49,0.1644692122,0.02605037046
5.5,0.1650813657,0.0194054687
5.51,0.1654233667,0.01275552478
5.52,0.1654959251,0.006111601591
5.53,0.1653002074,-0.0005153105618
5.54,0.1648378319,-0.007114312972
5.55,0.164110862,-0.01367461721
5.56,0.1631218004,-0.02018556347
5.57,0.1618735813,-0.02663663849
5.58,0.1603695621,-0.03301749315
5.59,0.1586135145,-0.03931795948
5.6,0.1566096154,-0.04552806736
5.61,0.1543624359,-0.05163806057
5.62,0.1518769309,-0.05763841244
5.63,0.1491584277,-0.06351984082
5.64,0.1462126134,-0.06927332259
5.65,0.1430455229,-0.07489010746
5.66,0.139663525,-0.0803617313
5.67,0.1360733094,-0.08568002862
5.68,0.1322818723,-0.0908371446
5.69,0.1282965019,-0.09582554632
5.7,0.1241247631,-0.1006380333
5.71,0.1197744829,-0.1052677476
5.72,0.115253734,-0.1097081825
5.73,0.1105708195,-0.1139531914
5.74,0.105734256,-0.1179969955
5.75,0.1007527578,-0.1218341904
5.76,0.09563521993,-0.1254597526
5.77,0.09039070124,-0.1288690452
5.78,0.08502840772,-0.132057822
5.79,0.07955767534,-0.135022232
5.8,0.07398795295,-0.1377588227
5.81,0.06832878515,-0.140264542
5.82,0.0625897952,-0.1425367406
5.83,0.05678066792,-0.1445731724
5.84,0.05091113264,-0.1463719955
5.85,0.04499094634,-0.1479317711
5.86,0.03902987679,-0.1492514625
5.87,0.03303768598,-0.1503304335
5.88,0.02702411363,-0.1511684457
5.89,0.020998861,-0.1517656551
5.9,0.0149715749,-0.1521226086
5.91,0.008951831967,-0.152240239
5.92,0.002949123282,-0.1521198603
5.93,-0.003027160734,-0.1517631616
5.94,-0.008967745053,-0.1511722009
5.95,-0.01486348441,-0.1503493981
5.96,-0.0207053773,-0.1492975277
5.97,-0.0264845795,-0.1480197104
5.98,-0.03219241725,-0.1465194049
5.99,-0.03782039994,-0.144800399
6,-0.04336023228,-0.1428667997
