"Freq [GHz]","re(S(Tx_p1,Tx_p1)) []","im(S(Tx_p1,Tx_p1)) []"
1,0.01387533395,-0.1429903993
1.01,0.00955810184,-0.143025668
1.02,0.005233127149,-0.1429323541
1.03,0.0009053799796,-0.142709541
1.04,-0.003420173694,-0.1423565776
1.05,-0.007738584894,-0.1418730713
1.06,-0.01204493381,-0.1412588802
1.07,-0.01633434124,-0.1405141046
1.08,-0.02060197934,-0.139639079
1.09,-0.02484308165,-0.1386343631
1.1,-0.0290529524,-0.1375007328
1.11,-0.03322697515,-0.1362391716
1.12,-0.03736062065,-0.134850861
1.13,-0.04144945408,-0.1333371712
1.14,-0.04548914157,-0.1316996519
1.15,-0.04947545606,-0.1299400224
1.16,-0.05340428245,-0.1280601627
1.17,-0.05727162217,-0.1260621039
1.18,-0.06107359705,-0.1239480187
1.19,-0.06480645263,-0.1217202121
1.2,-0.06846656078,-0.1193811127
1.21,-0.07205042188,-0.1169332632
1.22,-0.07555466629,-0.114379312
1.23,-0.0789760554,-0.1117220044
1.24,-0.08231148211,-0.1089641746
1.25,-0.08555797087,-0.1061087371
1.26,-0.08871267719,-0.1031586795
1.27,-0.09177288683,-0.1001170547
1.28,-0.09473601448,-0.096986974
1.29,-0.09759960216,-0.0937716
1.3,-0.1003613172,-0.09047414051
1.31,-0.1030189501,-0.08709784232
1.32,-0.1055704117,-0.08364598564
1.33,-0.1080137306,-0.08012187876
1.34,-0.1103470502,-0.07652885327
1.35,-0.1125686253,-0.0728702596
1.36,-0.114676819,-0.06914946295
1.37,-0.116670099,-0.06536983972
1.38,-0.1185470344,-0.06153477428
1.39,-0.1203062919,-0.05764765618
1.4,-0.1219466322,-0.05371187776
1.41,-0.1234669067,-0.04973083214
1.42,-0.1248660537,-0.04570791161
1.43,-0.1261430951,-0.04164650642
1.44,-0.127297133,-0.03755000388
1.45,-0.1283273465,-0.03342178784
1.46,-0.1292329887,-0.02926523852
1.47,-0.1300133838,-0.02508373258
1.48,-0.1306679242,-0.02088064357
1.49,-0.1311960684,-0.01665934262
1.5,-0.1315973387,-0.01242319934
1.51,-0.1318713191,-0.008175583003
1.52,-0.1320176535,-0.003919863894
1.53,-0.1320360448,0.0003405851422
1.54,-0.1319262534,0.004602387023
1.55,-0.1316880967,0.008862158622
1.56,-0.1313214484,0.01311650886
1.57,-0.1308262385,0.01736203677
1.58,-0.1302024538,0.02159532943
1.59,-0.1294501379,0.02581296004
1.6,-0.1285693926,0.03001148586
1.61,-0.1275603789,0.0341874463
1.62,-0.1264233185,0.03833736109
1.63,-0.1251584959,0.04245772846
1.64,-0.1237662604,0.04654502361
1.65,-0.1222470289,0.05059569719
1.66,-0.1206012882,0.05460617408
1.67,-0.1188295987,0.0585728523
1.68,-0.1169325974,0.06249210227
1.69,-0.1149110014,0.06636026622
1.7,-0.1127656121,0.07017365793
1.71,-0.110497319,0.07392856283
1.72,-0.1081071041,0.07762123836
1.73,-0.1055960461,0.08124791469
1.74,-0.102965325,0.08480479582
1.75,-0.1002162271,0.08828806107
1.76,-0.09735014905,0.09169386694
1.77,-0.09436860342,0.09501834937
1.78,-0.09127322296,0.09825762643
1.79,-0.08806576573,0.1014078014
1.8,-0.08474811977,0.1044649664
1.81,-0.0813223079,0.1074252062
1.82,-0.07779049234,0.1102846027
1.83,-0.07415497922,0.1130392398
1.84,-0.07041822296,0.1156852086
1.85,-0.06658283042,0.118218613
1.86,-0.0626515649,0.1206355761
1.87,-0.05862734977,0.1229322462
1.88,-0.05451327193,0.1251048042
1.89,-0.05031258491,0.1271494706
1.9,-0.04602871163,0.1290625132
1.91,-0.04166524678,0.1308402552
1.92,-0.03722595881,0.1324790835
1.93,-0.03271479153,0.1339754573
1.94,-0.02813586516,0.1353259169
1.95,-0.023493477,0.1365270933
1.96,-0.01879210161,0.1375757172
1.97,-0.01403639032,0.1384686288
1.98,-0.00923117044,0.1392027879
1.99,-0.004381443672,0.1397752832
2,0.0005076158799,0.1401833433
2.01,0.005430664367,0.1404243458
2.02,0.01038219143,0.1404958285
2.03,0.01535652407,0.1403954989
2.04,0.02034783105,0.1401212447
2.05,0.02535012807,0.1396711441
2.06,0.03035728341,0.1390434753
2.07,0.0353630243,0.1382367269
2.08,0.04036094387,0.1372496074
2.09,0.04534450879,0.1360810548
2.1,0.05030706739,0.1347302455
2.11,0.05524185856,0.1331966038
2.12,0.06014202109,0.13147981
2.13,0.06500060373,0.129579809
2.14,0.0698105757,0.127496818
2.15,0.07456483786,0.1252313337
2.16,0.07925623429,0.1227841398
2.17,0.08387756455,0.1201563126
2.18,0.08842159621,0.1173492278
2.19,0.09288107804,0.1143645647
2.2,0.09724875351,0.1112043118
2.21,0.1015173747,0.1078707705
2.22,0.1056797168,0.1043665581
2.23,0.1097285922,0.100694611
2.24,0.1136568663,0.09685818652
2.25,0.1174574717,0.09286086379
2.26,0.1211234246,0.08870654453
2.27,0.1246478396,0.0843994526
2.28,0.1280239458,0.07994413285
2.29,0.1312451028,0.07534544917
2.3,0.1343048163,0.07060858179
2.31,0.137196754,0.06573902362
2.32,0.1399147615,0.06074257586
2.33,0.1424528786,0.05562534268
2.34,0.1448053539,0.0503937252
2.35,0.1469666613,0.04505441442
2.36,0.1489315148,0.03961438354
2.37,0.1506948834,0.03408087925
2.38,0.1522520061,0.02846141237
2.39,0.1535984061,0.02276374753
2.4,0.1547299046,0.01699589217
2.41,0.1556426344,0.0111660847
2.42,0.1563330529,0.005282781923
2.43,0.1567979545,-0.0006453542928
2.44,0.1570344824,-0.006609471031
2.45,0.1570401402,-0.01260053905
2.46,0.1568128019,-0.01860936817
2.47,0.1563507223,-0.02462662322
2.48,0.155652546,-0.0306428407
2.49,0.1547173157,-0.03664844586
2.5,0.1535444801,-0.04263377039
2.51,0.1521339002,-0.04858907056
2.52,0.1504858555,-0.05450454579
2.53,0.1486010492,-0.06037035759
2.54,0.1464806119,-0.06617664892
2.55,0.144126105,-0.0719135638
2.56,0.1415395231,-0.07757126714
2.57,0.1387232947,-0.08313996487
2.58,0.1356802832,-0.08860992415
2.59,0.1324137856,-0.09397149372
2.6,0.1289275311,-0.09921512427
2.61,0.1252256782,-0.1043313889
2.62,0.1213128113,-0.1093110033
2.63,0.1171939352,-0.1141448464
2.64,0.1128744702,-0.1188239798
2.65,0.1083602449,-0.1233396684
2.66,0.1036574882,-0.1276833995
2.67,0.09877282109,-0.1318469021
2.68,0.0937132465,-0.1358221664
2.69,0.08848613878,-0.1396014617
2.7,0.08309923204,-0.1431773548
2.71,0.07756060761,-0.1465427274
2.72,0.07187868058,-0.1496907933
2.73,0.06606218555,-0.1526151146
2.74,0.06012016146,-0.1553096175
2.75,0.05406193565,-0.1577686074
2.76,0.04789710716,-0.1599867829
2.77,0.04163552931,-0.1619592499
2.78,0.03528729152,-0.1636815335
2.79,0.02886270057,-0.1651495905
2.8,0.02237226117,-0.1663598202
2.81,0.01582665603,-0.1673090742
2.82,0.009236725346,-0.1679946656
2.83,0.00261344586,-0.1684143773
2.84,-0.004032090511,-0.1685664686
2.85,-0.01068869843,-0.1684496819
2.86,-0.01734512118,-0.1680632472
2.87,-0.02399005306,-0.1674068864
2.88,-0.03061216187,-0.166480816
2.89,-0.03720011162,-0.1652857489
2.9,-0.04374258541,-0.1638228953
2.91,-0.05022830821,-0.1620939621
2.92,-0.05664606975,-0.1601011514
2.93,-0.06298474731,-0.157847158
2.94,-0.06923332841,-0.1553351659
2.95,-0.07538093327,-0.152568843
2.96,-0.08141683713,-0.1495523356
2.97,-0.08733049222,-0.1462902615
2.98,-0.0931115494,-0.1427877016
2.99,-0.09874987949,-0.1390501914
3,-0.104235594,-0.1350837106
3.01,-0.1095590656,-0.130894672
3.02,-0.1147109477,-0.1264899096
3.03,-0.1196821939,-0.1218766657
3.04,-0.1244640765,-0.1170625768
3.05,-0.1290482043,-0.1120556592
3.06,-0.1334265398,-0.106864293
3.07,-0.1375914156,-0.1014972059
3.08,-0.1415355501,-0.09596345588
3.09,-0.1452520621,-0.09027241364
3.1,-0.148734485,-0.08443374363
3.11,-0.1519767792,-0.07845738502
3.12,-0.1549733448,-0.07235353186
3.13,-0.1577190323,-0.06613261274
3.14,-0.1602091528,-0.0598052699
3.15,-0.162439487,-0.05338233798
3.16,-0.1644062932,-0.04687482235
3.17,-0.1661063146,-0.04029387702
3.18,-0.167536785,-0.03365078243
3.19,-0.1686954335,-0.02695692281
3.2,-0.1695804886,-0.02022376353
3.21,-0.1701906808,-0.01346282825
3.22,-0.170525244,-0.006685675946
3.23,-0.1705839164,9.612194884E-05
3.24,-0.1703669394,0.00687100448
3.25,-0.1698750564,0.01362744396
3.26,-0.1691095096,0.02035396863
3.27,-0.1680720368,0.02703918509
3.28,-0.1667648659,0.03367180057
3.29,-0.1651907093,0.04024064477
3.3,-0.1633527572,0.04673469143
3.31,-0.1612546692,0.05314307953
3.32,-0.1589005659,0.05945513392
3.33,-0.1562950186,0.0656603856
3.34,-0.153443039,0.07174859138
3.35,-0.1503500673,0.07770975292
3.36,-0.1470219598,0.08353413528
3.37,-0.1434649756,0.08921228466
3.38,-0.1396857625,0.09473504553
3.39,-0.135691342,0.100093577
3.4,-0.1314890941,0.1052793685
3.41,-0.1270867409,0.1102842544
3.42,-0.1224923296,0.1151004281
3.43,-0.1177142154,0.1197204553
3.44,-0.1127610434,0.1241372858
3.45,-0.1076417301,0.1283442654
3.46,-0.1023654449,0.1323351458
3.47,-0.09694159014,0.1361040946
3.48,-0.09137978227,0.1396457033
3.49,-0.08568983143,0.1429549952
3.5,-0.07988172152,0.1460274321
3.51,-0.07396558977,0.1488589194
3.52,-0.06795170628,0.1514458114
3.53,-0.0618504534,0.1537849145
3.54,-0.05567230512,0.15587349
3.55,-0.04942780638,0.157709256
3.56,-0.04312755248,0.1592903876
3.57,-0.03678216857,0.1606155174
3.58,-0.03040228929,0.1616837336
3.59,-0.02399853857,0.1624945783
3.6,-0.01758150965,0.1630480444
3.61,-0.01116174544,0.1633445715
3.62,-0.004749719114,0.1633850412
3.63,0.00164418488,0.1631707711
3.64,0.008009689448,0.1627035088
3.65,0.01433664303,0.161985424
3.66,0.02061503731,0.1610191005
3.67,0.02683502441,0.1598075276
3.68,0.03298693359,0.1583540899
3.69,0.0390612873,0.1566625575
3.7,0.04504881672,0.1547370748
3.71,0.05094047658,0.1525821487
3.72,0.05672745943,0.1502026366
3.73,0.06240120916,0.1476037337
3.74,0.06795343384,0.1447909594
3.75,0.07337611785,0.1417701439
3.76,0.07866153331,0.1385474137
3.77,0.08380225068,0.1351291773
3.78,0.08879114869,0.1315221098
3.79,0.09362142344,0.1277331382
3.8,0.09828659675,0.1237694253
3.81,0.1027805237,0.1196383542
3.82,0.1070973994,0.1153475122
3.83,0.1112317651,0.1109046748
3.84,0.1151785131,0.1063177892
3.85,0.1189328914,0.1015949582
3.86,0.1224905071,0.0967444235
3.87,0.1258473295,0.09177454969
3.88,0.128999692,0.08669380764
3.89,0.1319442935,0.08151075835
3.9,0.1346781988,0.07623403673
3.91,0.1371988386,0.07087233565
3.92,0.1395040086,0.06543439005
3.93,0.1415918678,0.05992896138
3.94,0.1434609366,0.05436482217
3.95,0.1451100932,0.04875074097
3.96,0.1465385707,0.04309546755
3.97,0.1477459526,0.03740771843
3.98,0.1487321682,0.03169616275
3.99,0.149497487,0.0259694086
4,0.1500425129,0.02023598963
4.01,0.1503681782,0.01450435221
4.02,0.1504757361,0.008782842943
4.03,0.1503667536,0.003079696669
4.04,0.1500431041,-0.002596975026
4.05,0.1495069585,-0.008239194848
4.06,0.1487607772,-0.01383913032
4.07,0.1478073012,-0.01938910376
4.08,0.1466495424,-0.0248816018
4.09,0.1452907748,-0.03030928429
4.1,0.1437345242,-0.03566499277
4.11,0.1419845586,-0.04094175825
4.12,0.1400448778,-0.04613280865
4.13,0.1379197032,-0.05123157547
4.14,0.1356134675,-0.05623170014
4.15,0.1331308039,-0.06112703965
4.16,0.1304765356,-0.06591167173
4.17,0.1276556651,-0.0705798995
4.18,0.1246733636,-0.07512625561
4.19,0.1215349602,-0.07954550578
4.2,0.1182459311,-0.08383265193
4.21,0.1148118894,-0.08798293479
4.22,0.1112385742,-0.09199183599
4.23,0.1075318402,-0.09585507973
4.24,0.1036976477,-0.09956863397
4.25,0.09974205194,-0.1031287112
4.26,0.09567119346,-0.1065317687
4.27,0.09149128809,-0.1097745086
4.28,0.08720861733,-0.1128538773
4.29,0.0828295189,-0.1157670647
4.3,0.07836037752,-0.1185115028
4.31,0.07380761587,-0.1210848646
4.32,0.06917768589,-0.1234850618
4.33,0.06447706025,-0.1257102431
4.34,0.0597122241,-0.1277587914
4.35,0.05488966714,-0.1296293213
4.36,0.05001587585,-0.1313206763
4.37,0.04509732612,-0.1328319253
4.38,0.0401404761,-0.1341623601
4.39,0.03515175932,-0.1353114907
4.4,0.03013757815,-0.1362790429
4.41,0.02510429747,-0.1370649535
4.42,0.02005823867,-0.1376693671
4.43,0.01500567394,-0.1380926317
4.44,0.009952820763,-0.1383352947
4.45,0.004905836783,-0.1383980989
4.46,-0.0001291851629,-0.1382819779
4.47,-0.005146221698,-0.1379880522
4.48,-0.01013932332,-0.1375176249
4.49,-0.01510261861,-0.1368721772
4.5,-0.02003031811,-0.1360533642
4.51,-0.02491671813,-0.1350630109
4.52,-0.02975620421,-0.1339031075
4.53,-0.03454325445,-0.1325758055
4.54,-0.03927244261,-0.1310834137
4.55,-0.04393844109,-0.1294283937
4.56,-0.04853602369,-0.1276133561
4.57,-0.05306006822,-0.1256410565
4.58,-0.05750555903,-0.1235143916
4.59,-0.06186758931,-0.1212363955
4.6,-0.06614136337,-0.1188102357
4.61,-0.07032219878,-0.1162392095
4.62,-0.07440552838,-0.1135267408
4.63,-0.0783869023,-0.1106763761
4.64,-0.08226198981,-0.1076917813
4.65,-0.0860265812,-0.1045767386
4.66,-0.08967658957,-0.1013351428
4.67,-0.09320805262,-0.09797099833
4.68,-0.09661713438,-0.09448841627
4.69,-0.09990012692,-0.09089161107
4.7,-0.1030534522,-0.08718489768
4.71,-0.1060736635,-0.08337268855
4.72,-0.1089574477,-0.07945949073
4.73,-0.1117016265,-0.07544990302
4.74,-0.1143031586,-0.07134861308
4.75,-0.1167591413,-0.06716039463
4.76,-0.1190668124,-0.06289010457
4.77,-0.1212235524,-0.05854268022
4.78,-0.1232268858,-0.0541231364
4.79,-0.125074484,-0.04963656257
4.8,-0.1267641664,-0.04508811996
4.81,-0.1282939032,-0.04048303855
4.82,-0.1296618172,-0.03582661408
4.83,-0.1308661859,-0.03112420497
4.84,-0.131905444,-0.02638122914
4.85,-0.1327781855,-0.02160316073
4.86,-0.1334831659,-0.0167955268
4.87,-0.1340193047,-0.01196390378
4.88,-0.1343856876,-0.007113913934
4.89,-0.1345815689,-0.002251221614
4.9,-0.1346063738,0.002618470607
4.91,-0.1344597007,0.007489425941
4.92,-0.1341413238,0.01235587755
4.93,-0.1336511951,0.0172120329
4.94,-0.1329894468,0.02205207823
4.95,-0.1321563936,0.02687018324
4.96,-0.1311525346,0.03166050598
4.97,-0.1299785557,0.03641719782
4.98,-0.1286353315,0.04113440876
4.99,-0.1271239271,0.04580629278
5,-0.1254456001,0.0504270135
5.01,-0.1236018018,0.05499074994
5.02,-0.1215941795,0.05949170254
5.03,-0.1194245771,0.06392409931
5.04,-0.1170950366,0.06828220224
5.05,-0.1146077992,0.0725603138
5.06,-0.1119653058,0.07675278369
5.07,-0.1091701978,0.08085401573
5.08,-0.1062253173,0.08485847493
5.09,-0.1031337074,0.0887606947
5.1,-0.09989861155,0.09255528421
5.11,-0.09652347368,0.09623693588
5.12,-0.09301193696,0.09980043305
5.13,-0.08936784298,0.1032406577
5.14,-0.08559523031,0.1065525982
5.15,-0.08169833281,0.1097313574
5.16,-0.07768157754,0.1127721606
5.17,-0.07354958243,0.1156703633
5.18,-0.06930715343,0.1184214598
5.19,-0.06495928145,0.121021091
5.2,-0.06051113881,0.1234650524
5.21,-0.05596807537,0.1257493025
5.22,-0.05133561421,0.1278699706
5.23,-0.04661944699,0.1298233651
5.24,-0.04182542884,0.1316059809
5.25,-0.03695957289,0.1332145079
5.26,-0.0320280444,0.1346458381
5.27,-0.02703715445,0.1358970736
5.28,-0.02199335326,0.1369655337
5.29,-0.01690322312,0.1378487623
5.3,-0.01177347088,0.1385445347
5.31,-0.006610920108,0.1390508646
5.32,-0.001422502799,0.1393660103
5.33,0.003784749225,0.1394884815
5.34,0.009003713335,0.1394170445
5.35,0.01422718544,0.1391507284
5.36,0.0194478897,0.1386888299
5.37,0.02465848856,0.1380309188
5.38,0.02985159309,0.1371768418
5.39,0.03501977365,0.1361267272
5.4,0.04015557085,0.1348809885
5.41,0.04525150675,0.1334403273
5.42,0.05030009629,0.1318057365
5.43,0.05529385905,0.1299785025
5.44,0.06022533108,0.1279602067
5.45,0.06508707703,0.1257527274
5.46,0.06987170241,0.1233582402
5.47,0.07457186594,0.1207792185
5.48,0.07918029209,0.1180184327
5.49,0.08368978364,0.1150789501
5.5,0.08809323439,0.1119641331
5.51,0.09238364181,0.1086776372
5.52,0.09655411975,0.1052234084
5.53,0.1005979111,0.1016056804
5.54,0.1045084006,0.0978289706
5.55,0.108279127,0.09389807571
5.56,0.1119037959,0.08981806711
5.57,0.115376292,0.08559428521
5.58,0.118690691,0.0812323334
5.59,0.1218412718,0.07673807137
5.6,0.1248225283,0.07211760791
5.61,0.1276291805,0.06737729311
5.62,0.130256186,0.06252370997
5.63,0.132698751,0.05756366551
5.64,0.1349523404,0.0525041813
5.65,0.1370126884,0.04735248354
5.66,0.1388758082,0.04211599252
5.67,0.140538001,0.03680231165
5.68,0.1419958656,0.03141921606
5.69,0.143246306,0.02597464063
5.7,0.1442865403,0.0204766677
5.71,0.1451141072,0.01493351428
5.72,0.1457268736,0.009353518916
5.73,0.1461230404,0.003745128192
5.74,0.1463011488,-0.001883117147
5.75,0.1462600849,-0.007522596346
5.76,0.1459990845,-0.0131646231
5.77,0.1455177368,-0.01880046025
5.78,0.1448159881,-0.02442133475
5.79,0.1438941438,-0.03001845277
5.8,0.1427528705,-0.03558301502
5.81,0.1413931976,-0.04110623219
5.82,0.1398165171,-0.04657934049
5.83,0.1380245841,-0.05199361723
5.84,0.1360195156,-0.05734039652
5.85,0.1338037887,-0.06261108488
5.86,0.1313802389,-0.06779717689
5.87,0.1287520565,-0.07289027071
5.88,0.1259227833,-0.07788208356
5.89,0.1228963078,-0.08276446705
5.9,0.1196768604,-0.08752942231
5.91,0.1162690074,-0.09216911498
5.92,0.1126776446,-0.09667588989
5.93,0.1089079899,-0.1010422855
5.94,0.1049655758,-0.1052610483
5.95,0.1008562405,-0.1093251461
5.96,0.09658611907,-0.113227782
5.97,0.09216163362,-0.1169624073
5.98,0.08758948284,-0.1205227341
5.99,0.08287663114,-0.1239027473
6,0.07803029712,-0.1270967169
