"Freq [GHz]","re(S(Antenna1_1_p1,Antenna1_1_p1)) []","im(S(Antenna1_1_p1,Antenna1_1_p1)) []"
3,0.0864543089013872,-0.094849632666587
3.002,0.0854839358245748,-0.0958093399037952
3.004,0.0845070768228189,-0.096752805661127
3.006,0.0835243567416895,-0.0976803814098024
3.008,0.0825363598335011,-0.0985924598170589
3.01,0.0815436263765926,-0.0994894709898221
3.012,0.0805466496672831,-0.100371878408355
3.014,0.0795458734185281,-0.101240174583892
3.016,0.0785416895693098,-0.102094876494367
3.018,0.07753443655179,-0.102936520835328
3.02,0.0765243980132532,-0.103765659135964
3.022,0.0755118020158709,-0.104582852787432
3.024,0.0744968207053131,-0.105388668034604
3.026,0.0734795704672341,-0.106183670978094
3.028,0.0724601125456618,-0.106968422637307
3.03,0.071438454131312,-0.107743474121298
3.032,0.0704145498848584,-0.108509361953574
3.034,0.0693883038941778,-0.109266603594419
3.036,0.0683595720225995,-0.110015693202291
3.038,0.0673281646301779,-0.11075709767137
3.04,0.0662938496300148,-0.111491252978991
3.042,0.0652563558446501,-0.112218560873915
3.044,0.0642153766245446,-0.112939385932711
3.046,0.0631705736816749,-0.11365405299429
3.048,0.06212158110326,-0.114362845011701
3.05,0.0610680094936383,-0.115066001303192
3.052,0.0600094502081153,-0.115763716234562
3.054,0.0589454796223981,-0.116456138313621
3.056,0.0578756634083351,-0.117143369709765
3.058,0.0567995607595758,-0.117825466180686
3.06,0.0557167285348678,-0.118502437387232
3.062,0.0546267252760063,-0.119174247598445
3.064,0.0535291150660479,-0.119840816745768
3.066,0.0524234711939059,-0.120502021811463
3.068,0.0513093795958569,-0.121157698522246
3.07,0.0501864420485138,-0.121807643311152
3.072,0.049054279090234,-0.122451615526655
3.074,0.0479125326549556,-0.123089339841055
3.076,0.0467608684031733,-0.123720508835149
3.078,0.0455989777434383,-0.124344785701208
3.08,0.044426579537258,-0.124961807062271
3.082,0.0432434214891397,-0.125571185829772
3.084,0.0420492812243072,-0.126172514100525
3.086,0.0408439670640979,-0.126765366037076
3.088,0.0396273185074461,-0.12734930069944
3.09,0.0383992064376617,-0.127923864817245
3.092,0.037159533069403,-0.128488595442291
3.094,0.0359082316590579,-0.129043022498547
3.096,0.0346452660029303,-0.129586671159497
3.098,0.0333706297467398,-0.130119064082757
3.1,0.0320843455305359,-0.130639723450474
3.102,0.0307864640070327,-0.131148172826221
3.104,0.029477062753362,-0.131643938812209
3.106,0.0281562451002533,-0.132126552506628
3.108,0.0268241389276343,-0.13259555076103
3.11,0.0254808954256617,-0.133050477241775
3.112,0.0241266878691759,-0.133490883302843
3.114,0.0227617104235852,-0.133916328681511
3.116,0.0213861769981762,-0.134326382029274
3.118,0.0200003201738522,-0.134720621295213
3.12,0.0186043902222978,-0.135098633979646
3.122,0.0171986542285688,-0.135460017278857
3.124,0.0157833953251074,-0.135804378141922
3.126,0.0143565196721795,-0.136130525651543
3.128,0.0129184995007332,-0.13643766137913
3.13,0.0114721475086756,-0.136726103049677
3.132,0.0100178522005672,-0.136995517812431
3.134,0.00855601490773026,-0.137245585451884
3.136,0.00708704961876528,-0.137475998394779
3.138,0.00561138289848032,-0.137686461787252
3.14,0.00412945387222073,-0.137876693657319
3.142,0.00264171427560387,-0.138046425171916
3.144,0.00114862852994835,-0.138195400999803
3.146,-0.000349326161799639,-0.138323379798737
3.148,-0.00185165972305069,-0.138430134801531
3.15,-0.00335786914227228,-0.138515454537898
3.152,-0.00486743845650324,-0.1385791436651
3.154,-0.00637983880529267,-0.138621023912395
3.156,-0.00789452857266408,-0.138640935124307
3.158,-0.00941095363841026,-0.138638736405708
3.16,-0.010928547754324,-0.138614307338739
3.162,-0.0124467330625477,-0.138567549266556
3.164,-0.0139649207687365,-0.138498386618926
3.166,-0.0154825119822715,-0.138406768270669
3.168,-0.016998898731476,-0.138292668894951
3.17,-0.018513465159288,-0.138156090305441
3.172,-0.0200255889041676,-0.137997062746331
3.174,-0.0215346426632493,-0.137815646127229
3.176,-0.0230399959378183,-0.137611931154925
3.178,-0.0245410169510602,-0.137386040360039
3.18,-0.0260370747325945,-0.13713812897355
3.182,-0.0275275413538917,-0.136868385654219
3.184,-0.0290117943021809,-0.136577033022904
3.186,-0.0304892189716508,-0.136264328001765
3.188,-0.0319592112590506,-0.135930561930375
3.19,-0.0334211802268929,-0.135576060448738
3.192,-0.0348745508277635,-0.135201183135599
3.194,-0.0363187666506439,-0.13480632288758
3.196,-0.0377532926649475,-0.134391905037517
3.198,-0.0391776179402764,-0.133958386205115
3.2,-0.0405912583039008,-0.133506252882121
3.202,-0.0419937589159655,-0.13303601975341
3.204,-0.0433846967234276,-0.132548227759703
3.206,-0.0447636827817277,-0.132043441914394
3.208,-0.0461303643962011,-0.131522248882524
3.21,-0.0474844270792268,-0.13098525434197
3.212,-0.0488255962761252,-0.130433080141963
3.214,-0.0501536388657996,-0.129866361281523
3.216,-0.0514683643901314,-0.129285742731082
3.218,-0.052769626012128,-0.128691876122373
3.22,-0.0540573211838261,-0.128085416333606
3.222,-0.0553313920089571,-0.127467017999231
3.224,-0.0565918253033714,-0.126837331974337
3.226,-0.057838652335229,-0.126197001782487
3.228,-0.0590719482489553,-0.125546660079883
3.23,-0.0602918311859666,-0.124886925167871
3.232,-0.0614984610821669,-0.124218397575778
3.234,-0.062692038176217,-0.123541656759086
3.236,-0.0638728012285767,-0.122857257928245
3.238,-0.0650410254579281,-0.122165729039916
3.24,-0.0661970202307717,-0.121467567977159
3.242,-0.0673411265070051,-0.120763239945551
3.244,-0.0684737140721823,-0.120053175093246
3.246,-0.0695951785769538,-0.119337766391967
3.248,-0.0707059384112922,-0.118617367780945
3.25,-0.0718064314385992,-0.117892292597781
3.252,-0.0728965447208007,-0.117168004667262
3.254,-0.0739779902744659,-0.1164395945701
3.256,-0.0750512466435539,-0.115707180186619
3.258,-0.0761167919255671,-0.114970835568376
3.26,-0.0771751002939931,-0.11423059138972
3.262,-0.0782266385984336,-0.113486435685287
3.264,-0.0792718630684816,-0.112738314866441
3.266,-0.0803112161422493,-0.111986134993644
3.268,-0.0813451234445615,-0.111229763296768
3.27,-0.0823739909303399,-0.110469029918354
3.272,-0.0833982022147744,-0.109703729868795
3.274,-0.0844181160991841,-0.108933625164469
3.276,-0.0854340643154656,-0.108158447132814
3.278,-0.0864463494834283,-0.107377898862331
3.28,-0.0874552433059189,-0.106591657765541
3.282,-0.0884609849939315,-0.105799378247875
3.284,-0.0894637799305039,-0.105000694439709
3.286,-0.0904637985704006,-0.104195222993741
3.288,-0.0914611755785793,-0.103382565897508
3.29,-0.092456009197444,-0.10256231330405
3.292,-0.0934483608398795,-0.101734046348522
3.294,-0.0944382549010694,-0.100897339934438
3.296,-0.0954256787760973,-0.10005176547398
3.298,-0.0964105830783266,-0.0991968935654365
3.3,-0.0973928820415629,-0.09833229659406
3.302,-0.098372454092993,-0.097457551245112
3.304,-0.0993491425919046,-0.0965722409170552
3.306,-0.100322756704181,-0.0956759580281012
3.308,-0.101293072418572,-0.0947683062082094
3.31,-0.102259833672744,-0.0938489023717804
3.312,-0.103222753586094,-0.0929173786683664
3.314,-0.104181515783349,-0.0919733843085382
3.316,-0.10513577578993,-0.0910165872655124
3.318,-0.106085162504085,-0.0900466758533381
3.32,-0.107029279707797,-0.0890633601833473
3.322,-0.107967707636455,-0.0880663735039701
3.324,-0.1089000045723,-0.0870554734241142
3.326,-0.109825708468629,-0.0860304430291155
3.328,-0.110744338598268,-0.0849910918955573
3.33,-0.111655397210411,-0.0839372569970623
3.332,-0.11255837120122,-0.0828688035320608
3.334,-0.113452733791287,-0.0817856256485328
3.336,-0.114337946207958,-0.0806876470997337
3.338,-0.11521345937252,-0.0795748218128975
3.34,-0.116078715590042,-0.078447134385927
3.342,-0.116933150244979,-0.0773046005180695
3.344,-0.117776193501212,-0.0761472673695824
3.346,-0.118607272010719,-0.0749752138573901
3.348,-0.119425810630392,-0.0737885508827366
3.35,-0.120231234150975,-0.0725874215028331
3.352,-0.121022969039439,-0.0713720010235101
3.354,-0.121800445196602,-0.0701424970398676
3.356,-0.122563097732063,-0.0688991493929343
3.358,-0.123310368756952,-0.0676422300613357
3.36,-0.124041709195731,-0.0663720429689727
3.362,-0.124756580615543,-0.0650889237157166
3.364,-0.125454457072618,-0.0637932392091205
3.366,-0.12613482697423,-0.0624853872081548
3.368,-0.126797194948806,-0.0611657957669632
3.37,-0.127441083728784,-0.0598349225636493
3.372,-0.12806603602693,-0.0584932541160925
3.374,-0.128671616412699,-0.0571413048867992
3.376,-0.129255326747352,-0.0557782036009892
3.378,-0.129816515323825,-0.0544049219792248
3.38,-0.130356864248354,-0.0530236271453835
3.382,-0.130876097998841,-0.051634963575376
3.384,-0.13137397450499,-0.0502395926656174
3.386,-0.131850286434183,-0.0488381907851518
3.388,-0.132304862373118,-0.047431447212332
3.39,-0.132737567886197,-0.0460200619602639
3.392,-0.133148306449675,-0.0446047434964113
3.394,-0.133537020236561,-0.043186206365271
3.396,-0.133903690755279,-0.0417651687204168
3.398,-0.134248339322084,-0.0403423497789188
3.4,-0.134571027351242,-0.038918467207841
3.402,-0.134871856471967,-0.0374942344567183
3.404,-0.135150968444123,-0.0360703580503195
3.406,-0.135408544877681,-0.0346475348573965
3.408,-0.135644806747951,-0.0332264493505271
3.41,-0.135860013697573,-0.0318077708755482
3.412,-0.136054463136275,-0.0303921509513908
3.414,-0.136228489113402,-0.028980220607613
3.416,-0.136382460996213,-0.0275725877980389
3.418,-0.136516781932956,-0.0261698348862035
3.42,-0.136631887109706,-0.024772516241909
3.422,-0.136728241821887,-0.0233811559548942
3.424,-0.136806339350873,-0.0219962456826215
3.426,-0.136866698670558,-0.0206182426651821
3.428,-0.13690986198732,-0.0192475678963253
3.43,-0.13693639213306,-0.0178846044976132
3.432,-0.13694686982443,-0.0165296962787041
3.434,-0.13694189080535,-0.0151831465207668
3.436,-0.136922062892804,-0.0138452169770308
3.438,-0.13688800294269,-0.0125161271084724
3.44,-0.13684033375841,-0.0111960535566401
3.442,-0.136779680961269,-0.00988512985862443
3.444,-0.136706669844811,-0.00858344641617201
3.446,-0.136621922234526,-0.00729105070094661
3.448,-0.136526053373752,-0.00600794771594136
3.45,-0.136419668857778,-0.00473410069304313
3.452,-0.13630336163667,-0.00346943203175329
3.454,-0.136177709107099,-0.00221382446806255
3.456,-0.136043270309792,-0.000967122457489031
3.458,-0.135900583260099,0.00027086622172448
3.46,-0.135750162410083,0.00150036867424778
3.462,-0.135592496282938,0.00272164491513605
3.464,-0.13542804526543,0.00393498571713367
3.466,-0.135257239601171,0.0051407103208084
3.468,-0.135080477564729,0.00633916400341508
3.47,-0.134898123849573,0.00753071553258481
3.472,-0.134710508161857,0.00871575452943903
3.474,-0.134517924033052,0.00989468875022811
3.476,-0.134320627852415,0.0110679413117903
3.478,-0.134118838113321,0.0122359478789321
3.48,-0.133912734882433,0.0133991538321271
3.482,-0.133702459492739,0.014558011433632
3.484,-0.133488114433443,0.0157129770113304
3.486,-0.133269763458717,0.0168645081752298
3.488,-0.13304743189432,0.018013061083824
3.49,-0.132821107125088,0.019159087774469
3.492,-0.132590739278289,0.0203030335721182
3.494,-0.132356242062861,0.0214453345869133
3.496,-0.132117493776518,0.0225864153132902
3.498,-0.13187433845775,0.0237266863389995
3.5,-0.131626587164695,0.0248665421719327
3.502,-0.131379656383905,0.0260109747651582
3.504,-0.131127046771001,0.0271564192650634
3.506,-0.130868416644225,0.0283031499447078
3.508,-0.13060340277288,0.0294514127789778
3.51,-0.130331622454682,0.030601424336654
3.512,-0.130052675617008,0.031753370833278
3.514,-0.129766146938446,0.0329074073238331
3.516,-0.129471607974168,0.0340636570332238
3.518,-0.129168619282199,0.0352222108385659
3.52,-0.128856732538112,0.0363831268592817
3.522,-0.12853549263274,0.037546430195998
3.524,-0.128204439747503,0.0387121127682565
3.526,-0.127863111402566,0.039880133280022
3.528,-0.127511044472299,0.0410504172790064
3.53,-0.127147777167171,0.0422228573257908
3.532,-0.126772850977892,0.0433973132587607
3.534,-0.126385812581491,0.0445736125348467
3.536,-0.125986215707837,0.0457515506770712
3.538,-0.125573622966615,0.0469308917829079
3.54,-0.125147607634247,0.0481113691244435
3.542,-0.124707755401737,0.0492926858153578
3.544,-0.124253666082871,0.0504745155557045
3.546,-0.12378495528466,0.0516565034455085
3.548,-0.12330125603934,0.052838266868176
3.55,-0.122802220396527,0.0540193964447089
3.552,-0.122287520982233,0.0551994570647433
3.554,-0.121756852509937,0.0563779889803888
3.556,-0.121209933263626,0.0575545089768966
3.558,-0.12064650652559,0.0587285116251298
3.56,-0.1200663419732,0.0598994705984585
3.562,-0.119469237016638,0.0610668400786709
3.564,-0.118855018090611,0.0622300562399981
3.566,-0.118223541892032,0.063388538814565
3.568,-0.117574696550681,0.0645416927439543
3.57,-0.116908402733837,0.0656889099158977
3.572,-0.116224614674895,0.0668295709869848
3.574,-0.115523321122959,0.0679630472921794
3.576,-0.114804546197424,0.069088702838845
3.578,-0.114068350140535,0.0702058963845808
3.58,-0.113314829968937,0.0713139835957314
3.582,-0.112544119995214,0.0724123192828234
3.584,-0.111756392236408,0.0735002597072036
3.586,-0.110951856668542,0.074577164954063
3.588,-0.110130761346126,0.0756424013629656
3.59,-0.109293392362656,0.0766953440076052
3.592,-0.108440073644119,0.0777353792150983
3.594,-0.107571166573476,0.0787619071136098
3.596,-0.106687069432162,0.0797743441957132
3.598,-0.10578821666157,0.0807721258839888
3.6,-0.104875077931546,0.0817547090817564
3.602,-0.103948157010871,0.08272157470475
3.604,-0.103007990448764,0.0836722301556279
3.606,-0.102055146053872,0.0846062117513261
3.608,-0.101090221180769,0.0855230870642533
3.61,-0.100113840819267,0.0864224571713241
3.612,-0.0991266554974243,0.0873039587868421
3.614,-0.0981293389992618,0.0881672662692209
3.616,-0.097122585908193,0.0890120934775552
3.618,-0.0961071089839566,0.0898381954580352
3.62,-0.0950836363856619,0.0906453699582084
3.622,-0.0940529087537907,0.0914334587380922
3.624,-0.0930156761655161,0.0922023486681293
3.626,-0.0919726949804744,0.0929519726130004
3.628,-0.0909247245948582,0.0936823100642785
3.63,-0.0898725241216641,0.0943933875389435
3.632,-0.0888168490196603,0.0950852787227395
3.634,-0.0877584476900131,0.0957581043383919
3.636,-0.0866980580641297,0.0964120317686742
3.638,-0.0856364042054194,0.097047274392327
3.64,-0.0845741929452619,0.0976640906648366
3.642,-0.0835121105844018,0.0982627829200615
3.644,-0.0824508196684503,0.0988436959197213
3.646,-0.0813909558758104,0.0994072151367356
3.648,-0.0803331250324168,0.0999537647954223
3.65,-0.0792779002734909,0.100483805668553
3.652,-0.0782258193763206,0.100997832654964
3.654,-0.077177382287052,0.101496372135724
3.656,-0.0761330488455042,0.10197997914356
3.658,-0.0750932367470014,0.102449234349547
3.66,-0.0740583197322265,0.102904740892644
3.662,-0.0730286260350947,0.103347121071198
3.664,-0.0720044370936441,0.103777012918704
3.666,-0.0709859865319546,0.104195066685992
3.668,-0.0699734594230804,0.104601941253253
3.67,-0.0689669918320117,0.104998300496778
3.672,-0.067966670652651,0.105384809633646
3.674,-0.0669725337228206,0.105762131568932
3.676,-0.0659845702282868,0.106130923269347
3.678,-0.0650027213878103,0.106491832187706
3.68,-0.0640268814102224,0.106845492760456
3.682,-0.0630568987155222,0.107192523000566
3.684,-0.0620925774160035,0.107533521205565
3.686,-0.0611336790354032,0.10786906280955
3.688,-0.0601799244600814,0.108199697377339
3.69,-0.0592309961062222,0.108525945786492
3.692,-0.0582865402760679,0.10884829758238
3.694,-0.0573461697051793,0.109167208551117
3.696,-0.056409466262823,0.109483098488344
3.698,-0.0554759837944937,0.10979634921087
3.7,-0.0545452510911605,0.110107302782167
3.702,-0.0536167749538519,0.11041625998972
3.704,-0.0526900433431656,0.110723479058235
3.706,-0.0517645285869177,0.111029174610693
3.708,-0.0508396906297224,0.111333516871263
3.71,-0.0499149803024763,0.111636631118066
3.712,-0.0489898425934025,0.111938597373791
3.714,-0.0480637199027362,0.112239450334161
3.716,-0.0471360552625538,0.112539179527253
3.718,-0.0462062955061866,0.112837729698665
3.72,-0.0452738943711592,0.113135001412533
3.722,-0.044338315521496,0.113430851853401
3.724,-0.0433990354767115,0.113725095830932
3.726,-0.0424555464358473,0.114017506969477
3.728,-0.0415073589852503,0.114307819064476
3.73,-0.0405540046831024,0.114595727604726
3.732,-0.0395950385082942,0.114880891449475
3.734,-0.0386300411735539,0.115162934628371
3.736,-0.037658621293523,0.11544144828126
3.738,-0.0366804174038875,0.115715992702815
3.74,-0.0356950998265638,0.115986099486021
3.742,-0.0347023723859404,0.116251273762496
3.744,-0.0337019739641805,0.116510996512557
3.746,-0.0326936799095796,0.116764726951926
3.748,-0.0316773032779922,0.117011904968179
3.75,-0.030652695931317,0.117251953611133
3.752,-0.0296099178390486,0.117486132972179
3.754,-0.0285585411259028,0.117710716144146
3.756,-0.0274986613525031,0.117925077341775
3.758,-0.0264304164531489,0.118128594479561
3.76,-0.0253539863026498,0.118320651805342
3.762,-0.0242695921332448,0.118500642485423
3.764,-0.0231774958115936,0.118667971136639
3.766,-0.0220779989878521,0.118822056300493
3.768,-0.0209714421078343,0.118962332854194
3.77,-0.019858203304255,0.119088254355136
3.772,-0.0187386971620677,0.119199295315004
3.774,-0.0176133733668869,0.119294953398929
3.776,-0.0164827152375115,0.119374751542872
3.778,-0.0153472381435383,0.119438239992051
3.78,-0.0142074878160784,0.119484998252997
3.782,-0.0130640385485759,0.119514636943659
3.784,-0.0119174912967272,0.119526799560338
3.786,-0.0107684716725144,0.11952116413446
3.788,-0.00961762784214105,0.119497444785191
3.79,-0.00846562833298793,0.11945539315689
3.792,-0.00731315974078171,0.119394799744396
3.794,-0.00616092435548024,0.119315495084159
3.796,-0.00500963770188625,0.119217350822217
3.798,-0.00386002600277806,0.119100280639997
3.8,-0.00271282356957563,0.118964241036979
3.802,-0.00156877012757058,0.118809231961182
3.804,-0.000428608082455798,0.118635297284513
3.806,0.000706920263611213,0.118442525103944
3.808,0.00183707553770535,0.11823104788354
3.81,0.00296112415288354,0.118001042410342
3.812,0.00407834118723444,0.117752729572084
3.814,0.00518801327143297,0.117486373938766
3.816,0.00628944147414636,0.117202283164079
3.818,0.00738194417138176,0.116900807179679
3.82,0.00846485988767835,0.116582337199314
3.822,0.00953755008893392,0.116247304513807
3.824,0.0105994019188686,0.115896179093898
3.826,0.0116498308642218,0.115529467993939
3.828,0.0126882833187737,0.115147713550457
3.83,0.0137142390521985,0.114751491394572
3.832,0.0147272135487332,0.114341408276281
3.834,0.0157267602096734,0.113918099702817
3.836,0.0167124723966793,0.113482227410164
3.838,0.0176839853178986,0.113034476665451
3.84,0.0186409777089014,0.112575553422118
3.842,0.0195831733374172,0.112106181333759
3.844,0.0205103422758833,0.111627098645042
3.846,0.0214223019677885,0.111139054972011
3.848,0.0223189180478216,0.110642807991783
3.85,0.0232001049238116,0.110139120057869
3.852,0.0240658261084632,0.10962875476094
3.854,0.0249160942858837,0.109112473454882
3.856,0.0257509711308946,0.108591031769099
3.858,0.0265705668481329,0.10806517612805
3.86,0.02737503945993,0.107535640300312
3.862,0.0281645938199775,0.10700314199813
3.864,0.0289394803787627,0.106468379550595
3.866,0.0296999936837863,0.105932028669219
3.868,0.0304464706385498,0.105394739334539
3.87,0.0311792885253137,0.104857132811332
3.872,0.0318988627996261,0.104319798825459
3.874,0.032605644668615,0.103783292913938
3.876,0.0333001184780479,0.10324813396694
3.878,0.0339827989135517,0.102714801979732
3.88,0.0346542280363941,0.102183736023551
3.882,0.0353149721781249,0.101655332456426
3.884,0.0359656187089714,0.101129943379946
3.886,0.0366067727030924,0.100607875354981
3.888,0.0372390535228834,0.100089388369357
3.89,0.037863091343838,0.0995746950934971
3.892,0.0384795236444647,0.0990639603870203
3.894,0.0390889916821197,0.0985573010933167
3.896,0.0396921369788148,0.0980547860970908
3.898,0.0402895978390728,0.0975564366548884
3.9,0.0408820059220828,0.0970622269816021
3.902,0.0414699828884362,0.0965720850989685
