"Freq [GHz]","re(S(Antenna1_1_p1,Antenna1_1_p1)) []","im(S(Antenna1_1_p1,Antenna1_1_p1)) []"
3,0.0947077236603872,-0.102329219944587
3.002,0.0930898947525749,-0.103977601763795
3.004,0.0914064434428189,-0.105553049253127
3.006,0.0896630253156895,-0.107050678909802
3.008,0.0878657331375011,-0.108466101005059
3.01,0.0860210522055926,-0.109795460769222
3.012,0.0841358117442831,-0.111035475359655
3.014,0.0822171327152281,-0.112183466381592
3.016,0.0802723724765848,-0.113237387567867
3.018,0.07830906674689,-0.114195847197528
3.02,0.0763348693712532,-0.115058125173364
3.022,0.0743574904028709,-0.115824184328332
3.024,0.0723846330503131,-0.116494676020904
3.026,0.0704239300372341,-0.117070939709344
3.028,0.0684828799546618,-0.117554996504907
3.03,0.066568784183312,-0.117949536722998
3.032,0.0646886849558584,-0.118257901534274
3.034,0.0628493051471778,-0.118484058634719
3.036,0.0610569903455995,-0.118632572300691
3.038,0.059317653762178,-0.11870856793497
3.04,0.0576367245060148,-0.118717691399791
3.042,0.0560190997086501,-0.118666063463915
3.044,0.0544691010215446,-0.118560229737711
3.046,0.0529904358596749,-0.11840710650429
3.048,0.05158616379326,-0.118213922916701
3.05,0.0502586685016383,-0.117988160055192
3.052,0.0490096355273153,-0.117737487381762
3.054,0.0478400360301981,-0.117469697151621
3.056,0.0467501169220351,-0.117192637369765
3.058,0.0457393972610758,-0.116914143897686
3.06,0.0448066712269678,-0.116641972327232
3.062,0.0439500174759063,-0.116383730248445
3.064,0.0431668150160479,-0.116146810539768
3.066,0.0424537653732059,-0.115938326294463
3.068,0.0418069209128369,-0.115765048004246
3.07,0.0412217191353338,-0.115633343587152
3.072,0.040693022570634,-0.115549121823655
3.074,0.0402151640181556,-0.115517779761055
3.076,0.0397819966850733,-0.115544154574149
3.078,0.0393869488029383,-0.115632480360208
3.08,0.039023082225658,-0.115786350285271
3.082,0.0386831544808397,-0.116008684490772
3.084,0.0383596837105072,-0.116301704004525
3.086,0.0380450159071979,-0.116666911016076
3.088,0.0377313938230461,-0.11710507564444
3.09,0.0374110269081517,-0.117616229435245
3.092,0.037076161630403,-0.118199665567291
3.094,0.0367191515130579,-0.118853945808547
3.096,0.0363325262319303,-0.119576914321597
3.098,0.0359090591177398,-0.120365717898557
3.1,0.0354418324195359,-0.121216832835474
3.102,0.0349242997050327,-0.122126097866221
3.104,0.034350344812362,-0.123088753036909
3.106,0.0337143367662533,-0.124099484155828
3.108,0.0330111801496343,-0.12515247232793
3.11,0.0322363604296617,-0.126241448182875
3.112,0.0313859838011759,-0.127359750236643
3.114,0.0304568111645852,-0.128500386865741
3.116,0.0294462859021762,-0.129656101287004
3.118,0.0283525551788522,-0.130819438914013
3.12,0.0271744845592978,-0.131982816469146
3.122,0.0259116658005688,-0.133138592158257
3.124,0.0245644177191074,-0.134279136241022
3.126,0.0231159499281796,-0.135396825224043
3.128,0.0215687909597332,-0.13647997552813
3.13,0.0199440552016756,-0.137520266418177
3.132,0.0182455104965672,-0.138511126122231
3.134,0.0164775057417303,-0.139446404058784
3.136,0.0146449245897653,-0.140320423170679
3.138,0.0127531343464803,-0.141128027295252
3.14,0.0108079306142207,-0.141864623139319
3.142,0.00881547823660387,-0.142526216469916
3.144,0.00678224915164835,-0.143109442182803
3.146,0.00471495776830036,-0.143611587996737
3.148,0.00262049452234931,-0.144030611550531
3.15,0.000505858283727716,-0.144365150779898
3.152,-0.00162191170780324,-0.1446145274961
3.154,-0.00375580371359267,-0.144778744165395
3.156,-0.00588890046366407,-0.144858473950307
3.158,-0.00801444458491026,-0.144855044161708
3.16,-0.010125901818224,-0.144770413296739
3.162,-0.0122170214134677,-0.144607141949556
3.164,-0.0142818930874865,-0.144368357902926
3.166,-0.0163149999989715,-0.144057715797669
3.168,-0.018311267213376,-0.143679351804951
3.17,-0.020266105186688,-0.143237833801441
3.172,-0.0221754478466676,-0.142738107561331
3.174,-0.0240357849053493,-0.142185439570229
3.176,-0.0258441881035183,-0.141585357021925
3.178,-0.0275983311314602,-0.140943585677039
3.18,-0.0292965030693945,-0.14026598620155
3.182,-0.0309376152115917,-0.139558489674219
3.184,-0.0325212012591809,-0.138827032935904
3.186,-0.0340474108866508,-0.138077494455765
3.188,-0.0355169967900506,-0.137315631374375
3.19,-0.0369312953778929,-0.136547018409738
3.192,-0.0382922013267635,-0.135776989229199
3.194,-0.0396021363066439,-0.13501058092228
3.196,-0.0408640122169475,-0.134252482142817
3.198,-0.0420811893452764,-0.133506985458015
3.2,-0.0432574299219008,-0.132777944406121
3.202,-0.0443968475639655,-0.13206873569861
3.204,-0.0455038531764276,-0.131382226964503
3.206,-0.0465830978997277,-0.130720750364794
3.208,-0.0476394137102011,-0.130086082349814
3.21,-0.0486777523402268,-0.12947942976231
3.212,-0.0497031231721252,-0.128901422426863
3.214,-0.0507205307717996,-0.128352112299023
3.216,-0.0517349127661314,-0.127830979160282
3.218,-0.052751078709128,-0.127336942813973
3.22,-0.0537736506278261,-0.126868381619106
3.222,-0.0548070058819571,-0.126423157175131
3.224,-0.0558552229704714,-0.125998644876637
3.226,-0.056922030874529,-0.125591770009987
3.228,-0.0580107624926553,-0.125199048994883
3.23,-0.0591243126906666,-0.124816635319871
3.232,-0.0602651014258769,-0.124440369684278
3.234,-0.061435042362917,-0.124065833781186
3.236,-0.0626355173346767,-0.123688407153145
3.238,-0.0638673569449281,-0.123303326491216
3.24,-0.0651308275405717,-0.122905746731129
3.242,-0.0664256247164051,-0.122490803277451
3.244,-0.0677508734449022,-0.122053674672846
3.246,-0.0691051348530738,-0.121589645020167
3.248,-0.0704864195981922,-0.121094165468045
3.25,-0.0718922077219992,-0.120562914077281
3.252,-0.0733189595099007,-0.119989190367262
3.254,-0.0747623614227259,-0.1193710902581
3.256,-0.0762182709684739,-0.118705588644619
3.258,-0.0776821997584671,-0.117990131044376
3.26,-0.0791493660037931,-0.11722266956272
3.262,-0.0806147505784336,-0.116401693172287
3.264,-0.0820731560598816,-0.115526251937441
3.266,-0.0835192680909493,-0.114595974923044
3.268,-0.0849477184113615,-0.113611081555368
3.27,-0.0863531488661399,-0.112572386306054
3.272,-0.0877302757007744,-0.111481296610695
3.274,-0.0890739534371841,-0.110339804026279
3.276,-0.0903792376374656,-0.109150468692714
3.278,-0.0916414458644283,-0.107916397239231
3.28,-0.0928562161659189,-0.106641214343541
3.282,-0.0940195624419315,-0.105329028223875
3.284,-0.0951279260675039,-0.103984390396509
3.286,-0.0961782232014006,-0.102612250120141
3.288,-0.0971678872455793,-0.101217903969708
3.29,-0.098094905958444,-0.0998069410630502
3.292,-0.0989578527988796,-0.0983851845055215
3.294,-0.0997559121200694,-0.0969586296515384
3.296,-0.100488897913097,-0.0955333798240802
3.298,-0.101157265842327,-0.0941155801621365
3.3,-0.101762118406563,-0.0927113502961
3.302,-0.102305203115993,-0.091326716547112
3.304,-0.102788903655905,-0.0899675443723552
3.306,-0.103216224083181,-0.0886394717813011
3.308,-0.103590766150772,-0.0873478444199094
3.31,-0.103916699972024,-0.0860976530357804
3.312,-0.104198728257994,-0.0848934739842664
3.314,-0.104442044464349,-0.0837394134405382
3.316,-0.10465228523393,-0.0826390559206124
3.318,-0.104835477576085,-0.0815954176893381
3.32,-0.104997981308797,-0.0806109055793473
3.322,-0.105146427298455,-0.0796872816929701
3.324,-0.1052876521163,-0.0788256344071142
3.326,-0.105428629757629,-0.0780263560261155
3.328,-0.105576401088768,-0.0772891273765573
3.33,-0.105738001745811,-0.0766129095630623
3.332,-0.10592038919612,-0.0759959430240608
3.334,-0.106130369710587,-0.0754357539615328
3.336,-0.106374525983658,-0.0749291681487337
3.338,-0.10665914615412,-0.0744723320348975
3.34,-0.106990154945642,-0.074060740991927
3.342,-0.107373047653079,-0.0736892744840695
3.344,-0.107812827661532,-0.0733522378655824
3.346,-0.108313948141169,-0.0730434104288901
3.348,-0.108880258603792,-0.0727560992968366
3.35,-0.109514956789175,-0.0724831986438331
3.352,-0.110220546491139,-0.0722172537145101
3.354,-0.110998801799402,-0.0719505290328676
3.356,-0.111850738101163,-0.0716750801659343
3.358,-0.112776590202452,-0.0713828283473357
3.36,-0.113775797946231,-0.0710656372519727
3.362,-0.114846999346243,-0.0707153911857166
3.364,-0.115988031530618,-0.0703240739121205
3.366,-0.11719593945223,-0.0698838473701548
3.368,-0.118466992373806,-0.0693871294819632
3.37,-0.119796708027784,-0.0688266703086493
3.372,-0.12117988425193,-0.0681956257830925
3.374,-0.122610637875699,-0.0674876282597992
3.376,-0.124087964521352,-0.0666814002967892
3.378,-0.125601023390825,-0.0657701374245248
3.38,-0.127135177914354,-0.0647647351948835
3.382,-0.128682106772641,-0.063662016370176
3.384,-0.13023317547069,-0.0624595917222174
3.386,-0.131779512888183,-0.0611558891314518
3.388,-0.133312090462118,-0.059750175136132
3.39,-0.134821803245197,-0.0582425687615639
3.392,-0.136299552070675,-0.0566340473694113
3.394,-0.137736326037561,-0.054926444457071
3.396,-0.139123284536279,-0.0531224395071168
3.398,-0.140451838021084,-0.0512255398868188
3.4,-0.141713726766242,-0.049240054899741
3.402,-0.142901096839967,-0.0471710623894183
3.404,-0.144006572587123,-0.0450243679871195
3.406,-0.145023324900681,-0.0428064575436965
3.408,-0.145945134646951,-0.0405244430925271
3.41,-0.146766450644573,-0.0381860028885482
3.412,-0.147482441594275,-0.0357993160523908
3.414,-0.148089041503402,-0.033372992456613
3.416,-0.148582988210213,-0.0309159984960389
3.418,-0.148961854477956,-0.0284375794376035
3.42,-0.149224071578706,-0.025947179094309
3.422,-0.149368944926987,-0.0234543575578942
3.424,-0.149396661843173,-0.0209687077836215
3.426,-0.149308291076658,-0.0184997717921821
3.428,-0.14910577443882,-0.0160569573003253
3.43,-0.14879191026576,-0.0136494555386132
3.432,-0.14837032922083,-0.0112861610447041
3.434,-0.14784546235695,-0.00897559417976684
3.436,-0.147222501918714,-0.00672582709303077
3.438,-0.14650735530229,-0.0045444138244724
3.44,-0.14570659239111,-0.00243832519864005
3.442,-0.144827387008369,-0.000413889116624435
3.444,-0.143877452897311,0.00152326318982799
3.446,-0.142864974890326,0.00336824450405339
3.448,-0.141798535905852,0.00511695203305864
3.45,-0.140687040473078,0.00676610063495687
3.452,-0.13953963550147,0.00831324842624671
3.454,-0.138365629042099,0.00975681472893745
3.456,-0.137174407818812,0.011096090017511
3.458,-0.135975354287099,0.0123312379457245
3.46,-0.134777764013083,0.0134632893232478
3.462,-0.133590764142938,0.014494128232136
3.464,-0.13242323372143,0.0154264704331337
3.466,-0.131283726601171,0.0162638341218084
3.468,-0.130180397658729,0.0170105036145151
3.47,-0.129120933002573,0.0176714861041848
3.472,-0.128112484801857,0.018252461935939
3.474,-0.127161611346052,0.0187597290985281
3.476,-0.126274222857415,0.0192001421865903
3.478,-0.125455533569321,0.0195810466657321
3.48,-0.124710020458433,0.0199102089444271
3.482,-0.124041389027739,0.020195743000732
3.484,-0.123452546404443,0.0204460342258204
3.486,-0.122945581969717,0.0206696612553298
3.488,-0.12252175568632,0.020875316503524
3.49,-0.122181494176088,0.021071726183269
3.492,-0.121924394547289,0.0212675705570182
3.494,-0.12174923587186,0.0214714051734133
3.496,-0.121653998262518,0.0216915838386902
3.498,-0.12163588912975,0.0219361840338995
3.5,-0.121691376548695,0.0222129354839327
3.502,-0.121856496445905,0.0225458336011582
3.504,-0.122082311546001,0.0229309595800634
3.506,-0.122362674186225,0.0233740105927078
3.508,-0.12269097463588,0.0238800281759778
3.51,-0.123060209071682,0.024453361814654
3.512,-0.123463050335008,0.025097639469278
3.514,-0.123891920776046,0.0258157452568331
3.516,-0.124339066467868,0.0266098044062238
3.518,-0.124796632075399,0.0274811755645659
3.52,-0.125256735642312,0.0284304504332817
3.522,-0.12571154259584,0.029457460656998
3.524,-0.126153338256503,0.0305612918162565
3.526,-0.126574598189766,0.031740304312022
3.528,-0.126968055728619,0.0329921608430064
3.53,-0.127326766068191,0.0343138601617908
3.532,-0.127644166341692,0.0357017766737607
3.534,-0.127914131150791,0.0371517054638466
3.536,-0.128131023064937,0.0386589122130712
3.538,-0.128289737658115,0.0402181874929079
3.54,-0.128385742715947,0.0418239048294435
3.542,-0.128415111295837,0.0434700819443578
3.544,-0.128374548396071,0.0451504445237045
3.546,-0.12826141105086,0.0468584918635085
3.548,-0.12807372172934,0.048587563726176
3.55,-0.127810175002527,0.0503309077307089
3.552,-0.127470137475233,0.0520817466057433
3.554,-0.127053641089937,0.0538333446533888
3.556,-0.126561369931626,0.0555790727518966
3.558,-0.12599464075659,0.0573124713021298
3.56,-0.1253553775062,0.0590273104888585
3.562,-0.124646080148638,0.0607176473018709
3.564,-0.123869788210611,0.0623778787872981
3.566,-0.123030039449032,0.064002791040335
3.568,-0.122130824117681,0.0655876034979543
3.57,-0.121176535358837,0.0671280081459977
3.572,-0.120171916254895,0.0686202033026848
3.574,-0.119122004121959,0.0700609217120994
3.576,-0.118032072641424,0.071447452714075
3.578,-0.116907572435535,0.0727776583538808
3.58,-0.115754070721937,0.0740499833317314
3.582,-0.114577190663214,0.0752634587531234
3.584,-0.113382551032408,0.0764176997310036
3.586,-0.112175706822542,0.077512896922763
3.588,-0.110962091379126,0.0785498021530656
3.59,-0.109746960652656,0.0795297083575052
3.592,-0.108535340100119,0.0804544240820983
3.594,-0.107331974779476,0.0813262428956098
3.596,-0.106141283095062,0.0821479080617132
3.598,-0.10496731465177,0.0829225728889888
3.6,-0.103813712602346,0.0836537572277564
3.602,-0.102683680839171,0.08434530058775
3.604,-0.101579956321164,0.0850013124106279
3.606,-0.100504786775372,0.0856261200273261
3.608,-0.0994599139554686,0.0862242148882533
3.61,-0.0984465625801674,0.0868001976183241
3.612,-0.0974654350164243,0.0873587224998421
3.614,-0.0965167117135618,0.0879044419662209
3.616,-0.095600057333793,0.0884419516745552
3.618,-0.0947146324685566,0.0889757367520352
3.62,-0.0938591107778619,0.0895101197535084
3.622,-0.0930317013158407,0.0900492108648922
3.624,-0.0922301757913161,0.0905968608723293
3.626,-0.0914519004257744,0.0911566173561303
3.628,-0.0906938720409582,0.0917316845589785
3.63,-0.0899527579814641,0.0923248873222435
3.632,-0.0892249394145603,0.0929386394465395
3.634,-0.0885065575388131,0.0935749167813919
3.636,-0.0877935621947297,0.0942352353014742
3.638,-0.0870817623546194,0.094920634373927
3.64,-0.0863668779498619,0.0956316653643366
3.642,-0.0856445924839018,0.0963683856768615
3.644,-0.0849106058744503,0.0971303582671213
3.646,-0.0841606869708104,0.0979166566078356
3.648,-0.0833907251894168,0.0987258750356223
3.65,-0.0825967807384909,0.0995561443494533
3.652,-0.0817751329083206,0.100405152480264
3.654,-0.080922325915052,0.101270169999924
3.656,-0.0800352118495042,0.10214808018836
3.658,-0.0791109902670014,0.103035413335847
3.66,-0.0781472440282265,0.103928384908444
3.662,-0.0771419710190947,0.104822937180698
3.664,-0.0760936114256441,0.105714783888104
3.666,-0.0750010702999546,0.106599457433922
3.668,-0.0738637351730804,0.107472358165953
3.67,-0.0726814885490117,0.108328805204178
3.672,-0.071454715149651,0.109164088296246
3.674,-0.0701843038458206,0.109973520172832
3.676,-0.0688716442492868,0.110752488857847
3.678,-0.0675186180037103,0.111496509404506
3.68,-0.0661275848664224,0.112201274528256
3.682,-0.0647013637160622,0.112862703617566
3.684,-0.0632432086808035,0.113476989635565
3.686,-0.0617567806235032,0.11404064341355
3.688,-0.0602461142690814,0.114550534924339
3.69,-0.0587155813012222,0.115003931076492
3.692,-0.0571698497920679,0.11539852968038
3.694,-0.0556138403691793,0.115732489222117
3.696,-0.054052679553723,0.116004454150344
3.698,-0.0524916507167938,0.11621357542487
3.7,-0.0509361431617605,0.116359526099167
3.702,-0.0493915998016519,0.11644251179172
3.704,-0.0478634639685656,0.116463275934235
3.706,-0.0463571258571177,0.116423099721693
3.708,-0.0448778691419224,0.116323796770263
3.71,-0.0434308182671063,0.116167702520066
3.712,-0.0420208869488625,0.115957658477791
3.714,-0.0406527283570362,0.115696991432161
3.716,-0.0393306874937538,0.115389487852153
3.718,-0.0380587562000866,0.115039363683465
3.72,-0.0368405312517592,0.114651229838633
3.722,-0.035679175925896,0.114230053692401
3.724,-0.0345773854308115,0.113781116947932
3.726,-0.0335373565178473,0.113309970253477
3.728,-0.0325607615792503,0.112822385009476
3.73,-0.0316487274791024,0.112324302797726
3.732,-0.0308018193262942,0.111821782907475
3.734,-0.0300200293415539,0.111320948449371
3.736,-0.029302770944523,0.11082793154226
3.738,-0.0286488781118875,0.110348818101815
3.74,-0.0280566100255638,0.109889592711021
3.742,-0.0275236609739404,0.109456084103496
3.744,-0.0270471754241805,0.109053911747657
3.746,-0.0266237681305796,0.108688434023726
3.748,-0.0262495491109922,0.108364698466579
3.75,-0.025920153259317,0.108087394525433
3.752,-0.0256422872820486,0.107904483800379
3.754,-0.0253926455679028,0.107778620865746
3.756,-0.0251652885962031,0.107712386800315
3.758,-0.0249540474697489,0.107707803084361
3.76,-0.0247525771356498,0.107766312218542
3.762,-0.0245544111402448,0.107888763382623
3.764,-0.0243530174115936,0.108075403397039
3.766,-0.0241418545808521,0.108325872924293
3.768,-0.0239144283248343,0.108639208014194
3.77,-0.023664347235255,0.109013846858936
3.772,-0.0233853777320677,0.109447641784004
3.774,-0.0230714975278869,0.109937876257929
3.776,-0.0227169471845115,0.110481286785872
3.778,-0.0223162793195383,0.111074089469051
3.78,-0.0218644050520784,0.111712010963997
3.782,-0.0213566372845759,0.112390323555659
3.784,-0.0207887304557272,0.113103884021338
3.786,-0.0201569164985144,0.11384717591546
3.788,-0.019457936564341,0.114614354900191
3.79,-0.0186890684912879,0.11539929671589
3.792,-0.0178481495934817,0.116195647349396
3.794,-0.0169335947095802,0.116996874973159
3.796,-0.0159444093913863,0.117796323189517
3.798,-0.0148801980725781,0.118587265116997
3.8,-0.0137411672975756,0.119362957860979
3.802,-0.0125281239305306,0.120116696894182
3.804,-0.0112424683944558,0.120841869896513
3.806,-0.00988618305048879,0.121532009594944
3.808,-0.00846181593329465,0.12218084516754
3.81,-0.00697245983461646,0.122782351801342
3.812,-0.00542172710196556,0.123330797979084
3.814,-0.00381372033146703,0.123820790143766
3.816,-0.00215299923485364,0.124247314369079
3.818,-0.000444544002618242,0.124605774724679
3.82,0.00130628452567835,0.124892028037314
3.822,0.00309378749793392,0.125102414796807
3.824,0.00491197314986856,0.125233785972898
3.826,0.00675460394322176,0.125283525588939
3.828,0.00861524535777371,0.125249568866457
3.83,0.0104873159171985,0.125130415809572
3.832,0.0123641380154332,0.124925140301281
3.834,0.0142389891387734,0.124633394489617
3.836,0.0161051530476793,0.124255408533664
3.838,0.0179559705098986,0.123791985949451
3.84,0.0197848891729014,0.123244494255718
3.842,0.0215855121844172,0.122614851409559
3.844,0.0233516451778833,0.121905508031942
3.846,0.0250773412587885,0.121119425503111
3.848,0.0267569436598216,0.120260050400873
3.85,0.0283851257348116,0.119331285305769
3.852,0.0299569280084632,0.11833745633814
3.854,0.0314677920218837,0.117283277742082
3.856,0.0329135907238946,0.116173813785299
3.858,0.0342906552251329,0.11501443834585
3.86,0.03559579773693,0.113810792507812
3.862,0.0368263305309775,0.11256874055383
3.864,0.0379800809227627,0.111294324695595
3.866,0.0390554019837863,0.109993718942219
3.868,0.0400511792755498,0.108673182462539
3.87,0.0409668332843137,0.107339012829332
3.872,0.0418023177856261,0.105997499503059
3.874,0.042558114168615,0.104654877932538
3.876,0.0432352217600479,0.10331728461194
3.878,0.0438351443381517,0.101990713440732
3.88,0.0443598729861941,0.100680973714551
3.882,0.0448118653858249,0.0993936500424263
3.884,0.0451940219471714,0.0981340644869465
3.886,0.0455096587616924,0.096907241189981
3.888,0.0457624778487834,0.0957178737193574
3.89,0.045956534831138,0.0945702953634971
3.892,0.0460962043848547,0.0934684525440203
3.894,0.0461861437512997,0.0924158815313167
3.896,0.0462312546167148,0.0914156885800908
3.898,0.0462366436845728,0.0904705335858884
3.9,0.0462075822656828,0.0895826173536021
3.902,0.0461494652000362,0.0887536725069685
3.904,0.0460677694614038,0.0879849580630537
