"Freq [GHz]","re(S(Tx_p1,Tx_p1)) []","im(S(Tx_p1,Tx_p1)) []"
1,0.5778648449,-0.2987659159
1.01,0.5729680706,-0.299421842
1.02,0.5682077595,-0.3003376047
1.03,0.5635683492,-0.3015049605
1.04,0.5590349914,-0.3029157401
1.05,0.5545935189,-0.304561844
1.06,0.5502304147,-0.3064352395
1.07,0.5459327836,-0.3085279579
1.08,0.5416883248,-0.3108320912
1.09,0.5374853075,-0.3133397901
1.1,0.5333125464,-0.3160432621
1.11,0.5291593802,-0.3189347693
1.12,0.5250156509,-0.322006627
1.13,0.5208716839,-0.3252512025
1.14,0.51671827,-0.3286609137
1.15,0.512546648,-0.3322282286
1.16,0.5083484887,-0.3359456643
1.17,0.5041158795,-0.3398057866
1.18,0.4998413098,-0.3438012098
1.19,0.4955176577,-0.3479245963
1.2,0.4911381772,-0.3521686566
1.21,0.4866964855,-0.3565261496
1.22,0.4821865522,-0.3609898826
1.23,0.4776026879,-0.3655527121
1.24,0.4729395338,-0.3702075438
1.25,0.4681920524,-0.3749473334
1.26,0.4633555176,-0.3797650875
1.27,0.458425506,-0.384653864
1.28,0.4533978884,-0.3896067734
1.29,0.4482688218,-0.3946169796
1.3,0.4430347415,-0.3996777007
1.31,0.4376923538,-0.4047822107
1.32,0.4322386288,-0.40992384
1.33,0.4266707936,-0.4150959772
1.34,0.4209863261,-0.4202920702
1.35,0.4151829483,-0.4255056274
1.36,0.4092586201,-0.4307302193
1.37,0.4032115342,-0.43595948
1.38,0.3970401097,-0.4411871083
1.39,0.3907429868,-0.4464068698
1.4,0.384319022,-0.451612598
1.41,0.3777672823,-0.4567981957
1.42,0.3710870404,-0.4619576375
1.43,0.3642777703,-0.4670849701
1.44,0.3573391419,-0.4721743152
1.45,0.3502710167,-0.4772198702
1.46,0.3430734434,-0.4822159103
1.47,0.3357466532,-0.4871567903
1.48,0.3282910557,-0.4920369456
1.49,0.3207072344,-0.4968508945
1.5,0.3129959429,-0.5015932398
1.51,0.3051581004,-0.5062586699
1.52,0.2971947881,-0.510841961
1.53,0.2891072445,-0.5153379787
1.54,0.2808968624,-0.519741679
1.55,0.2725651842,-0.5240481109
1.56,0.2641138986,-0.5282524168
1.57,0.2555448364,-0.5323498353
1.58,0.2468599673,-0.5363357015
1.59,0.2380613953,-0.5402054494
1.6,0.229151356,-0.5439546131
1.61,0.2201322122,-0.5475788281
1.62,0.2110064504,-0.5510738328
1.63,0.2017766775,-0.5544354699
1.64,0.192445617,-0.5576596879
1.65,0.1830161051,-0.5607425419
1.66,0.1734910878,-0.5636801955
1.67,0.1638736168,-0.5664689214
1.68,0.1541668462,-0.5691051033
1.69,0.144374029,-0.5715852362
1.7,0.1344985137,-0.573905928
1.71,0.1245437404,-0.5760639007
1.72,0.1145132379,-0.5780559907
1.73,0.1044106199,-0.5798791506
1.74,0.09423958152,-0.5815304492
1.75,0.08400389613,-0.583007073
1.76,0.07370741173,-0.5843063269
1.77,0.06335404761,-0.5854256346
1.78,0.05294779098,-0.5863625396
1.79,0.04249269359,-0.5871147054
1.8,0.03199286835,-0.5876799167
1.81,0.02145248601,-0.5880560794
1.82,0.01087577183,-0.5882412212
1.83,0.0002670022462,-0.588233492
1.84,-0.0103694984,-0.5880311643
1.85,-0.02102936116,-0.5876326335
1.86,-0.03170817572,-0.5870364177
1.87,-0.04240149364,-0.5862411585
1.88,-0.05310483163,-0.5852456209
1.89,-0.06381367467,-0.5840486928
1.9,-0.07452347926,-0.582649386
1.91,-0.08522967653,-0.5810468351
1.92,-0.09592767542,-0.5792402982
1.93,-0.1066128658,-0.5772291561
1.94,-0.1172806214,-0.5750129125
1.95,-0.1279263031,-0.5725911936
1.96,-0.1385452621,-0.5699637474
1.97,-0.1491328422,-0.5671304438
1.98,-0.1596843836,-0.564091274
1.99,-0.1701952257,-0.5608463495
2,-0.1806607094,-0.5573959024
2.01,-0.1910761809,-0.553740284
2.02,-0.2014369939,-0.5498799645
2.03,-0.2117385127,-0.5458155323
2.04,-0.221976115,-0.541547693
2.05,-0.2321451944,-0.5370772686
2.06,-0.2422411637,-0.5324051971
2.07,-0.2522594571,-0.5275325307
2.08,-0.2621955328,-0.5224604358
2.09,-0.2720448762,-0.517190191
2.1,-0.2818030018,-0.5117231869
2.11,-0.2914654564,-0.5060609245
2.12,-0.3010278211,-0.5002050141
2.13,-0.310485714,-0.4941571742
2.14,-0.3198347926,-0.4879192302
2.15,-0.3290707564,-0.4814931131
2.16,-0.3381893489,-0.4748808582
2.17,-0.3471863602,-0.4680846038
2.18,-0.3560576291,-0.4611065896
2.19,-0.3647990456,-0.4539491556
2.2,-0.3734065527,-0.44661474
2.21,-0.3818761491,-0.4391058786
2.22,-0.3902038907,-0.4314252022
2.23,-0.3983858933,-0.423575436
2.24,-0.4064183341,-0.4155593972
2.25,-0.414297454,-0.4073799937
2.26,-0.4220195596,-0.3990402225
2.27,-0.4295810248,-0.3905431678
2.28,-0.436978293,-0.3818919993
2.29,-0.4442078787,-0.3730899703
2.3,-0.4512663693,-0.3641404161
2.31,-0.4581504271,-0.3550467522
2.32,-0.4648567907,-0.3458124721
2.33,-0.4713822765,-0.3364411457
2.34,-0.477723781,-0.3269364172
2.35,-0.4838782815,-0.3173020035
2.36,-0.4898428383,-0.3075416918
2.37,-0.4956145956,-0.2976593377
2.38,-0.5011907836,-0.2876588635
2.39,-0.5065687193,-0.2775442556
2.4,-0.5117458079,-0.2673195633
2.41,-0.5167195445,-0.2569888956
2.42,-0.521487515,-0.2465564202
2.43,-0.5260473974,-0.2360263605
2.44,-0.5303969627,-0.225402994
2.45,-0.5345340768,-0.2146906499
2.46,-0.5384567004,-0.203893707
2.47,-0.542162891,-0.1930165917
2.48,-0.5456508034,-0.1820637752
2.49,-0.5489186907,-0.1710397721
2.5,-0.5519649054,-0.1599491372
2.51,-0.5547878998,-0.1487964643
2.52,-0.557386227,-0.1375863831
2.53,-0.5597585418,-0.1263235572
2.54,-0.5619036011,-0.115012682
2.55,-0.5638202649,-0.103658482
2.56,-0.5655074963,-0.09226570889
2.57,-0.5669643627,-0.08083913899
2.58,-0.5681900358,-0.06938357092
2.59,-0.5691837924,-0.05790382337
2.6,-0.5699450144,-0.04640473263
2.61,-0.5704731896,-0.03489115033
2.62,-0.5707679116,-0.02336794105
2.63,-0.5708288803,-0.01183997994
2.64,-0.5706559019,-0.0003121503635
2.65,-0.5702488891,0.01121065848
2.66,-0.5696078613,0.02272355389
2.67,-0.5687329446,0.03422164211
2.68,-0.5676243718,0.04570003063
2.69,-0.566282482,0.05715383059
2.7,-0.5647077211,0.06857815916
2.71,-0.5629006411,0.07996814186
2.72,-0.5608619003,0.09131891499
2.73,-0.5585922626,0.1026256279
2.74,-0.5560925975,0.1138834455
2.75,-0.5533638797,0.1250875504
2.76,-0.5504071886,0.1362331452
2.77,-0.5472237078,0.1473154553
2.78,-0.5438147247,0.1583297305
2.79,-0.5401816296,0.169271248
2.8,-0.5363259157,0.180135314
2.81,-0.5322491778,0.1909172665
2.82,-0.5279531118,0.2016124775
2.83,-0.523439514,0.2122163549
2.84,-0.5187102802,0.2227243451
2.85,-0.5137674049,0.2331319348
2.86,-0.5086129801,0.2434346538
2.87,-0.5032491948,0.2536280766
2.88,-0.4976783336,0.2637078245
2.89,-0.4919027755,0.2736695684
2.9,-0.4859249933,0.2835090301
2.91,-0.4797475521,0.2932219847
2.92,-0.473373108,0.3028042628
2.93,-0.466804407,0.3122517523
2.94,-0.4600442838,0.3215604002
2.95,-0.4530956601,0.330726215
2.96,-0.4459615437,0.3397452684
2.97,-0.4386450264,0.3486136969
2.98,-0.4311492833,0.357327704
2.99,-0.4234775707,0.3658835622
3,-0.4156332248,0.374277614
3.01,-0.4076196598,0.3825062744
3.02,-0.3994403668,0.3905660325
3.03,-0.3910989117,0.3984534526
3.04,-0.3825989335,0.4061651764
3.05,-0.3739441429,0.4136979246
3.06,-0.36513832,0.4210484978
3.07,-0.3561853131,0.4282137787
3.08,-0.3470890361,0.4351907333
3.09,-0.3378534673,0.4419764121
3.1,-0.3284826473,0.4485679519
3.11,-0.3189806768,0.4549625767
3.12,-0.3093517149,0.4611575992
3.13,-0.299599977,0.467150422
3.14,-0.289729733,0.4729385387
3.15,-0.2797453047,0.478519535
3.16,-0.2696510645,0.4838910901
3.17,-0.2594514328,0.4890509772
3.18,-0.2491508759,0.4939970652
3.19,-0.2387539041,0.4987273188
3.2,-0.2282650696,0.5032398001
3.21,-0.2176889639,0.507532669
3.22,-0.2070302161,0.5116041841
3.23,-0.1962934905,0.5154527037
3.24,-0.1854834846,0.519076686
3.25,-0.1746049265,0.5224746901
3.26,-0.1636625729,0.5256453766
3.27,-0.152661207,0.5285875078
3.28,-0.1416056361,0.5312999486
3.29,-0.1305006894,0.5337816665
3.3,-0.1193512157,0.5360317324
3.31,-0.1081620812,0.5380493206
3.32,-0.09693816724,0.5398337094
3.33,-0.08568436801,0.5413842811
3.34,-0.07440558831,0.5427005221
3.35,-0.06310674132,0.5437820233
3.36,-0.05179274628,0.54462848
3.37,-0.04046852628,0.5452396919
3.38,-0.02913900602,0.5456155635
3.39,-0.01780910952,0.5457561032
3.4,-0.006483757911,0.545661424
3.41,0.004832132787,0.545331743
3.42,0.01613365392,0.5447673812
3.43,0.02741590639,0.5439687631
3.44,0.03867400287,0.5429364167
3.45,0.04990307,0.541670973
3.46,0.06109825056,0.5401731655
3.47,0.07225470565,0.53844383
3.48,0.08336761683,0.5364839038
3.49,0.09443218829,0.5342944254
3.5,0.1054436489,0.5318765341
3.51,0.1163972545,0.5292314687
3.52,0.1272882897,0.5263605677
3.53,0.1381120703,0.523265268
3.54,0.148863945,0.5199471042
3.55,0.1595392978,0.5164077082
3.56,0.1701335496,0.512648808
3.57,0.1806421605,0.5086722269
3.58,0.1910606319,0.5044798828
3.59,0.201384508,0.5000737869
3.6,0.211609378,0.495456043
3.61,0.2217308782,0.4906288464
3.62,0.2317446934,0.4855944827
3.63,0.2416465592,0.480355327
3.64,0.2514322635,0.4749138424
3.65,0.2610976489,0.4692725793
3.66,0.2706386134,0.4634341734
3.67,0.2800511134,0.4574013456
3.68,0.2893311646,0.4511768995
3.69,0.2984748438,0.4447637211
3.7,0.3074782909,0.4381647767
3.71,0.3163377104,0.4313831123
3.72,0.3250493728,0.4244218512
3.73,0.3336096165,0.4172841936
3.74,0.342014849,0.4099734143
3.75,0.3502615489,0.4024928619
3.76,0.3583462668,0.3948459566
3.77,0.3662656274,0.387036189
3.78,0.3740163303,0.3790671187
3.79,0.3815951519,0.3709423723
3.8,0.3889989465,0.3626656418
3.81,0.3962246476,0.3542406834
3.82,0.4032692693,0.3456713151
3.83,0.4101299075,0.3369614155
3.84,0.4168037413,0.3281149219
3.85,0.4232880336,0.3191358285
3.86,0.4295801332,0.3100281847
3.87,0.4356774751,0.3007960931
3.88,0.4415775817,0.2914437078
3.89,0.4472780643,0.2819752326
3.9,0.4527766236,0.2723949191
3.91,0.458071051,0.2627070644
3.92,0.463159229,0.2529160099
3.93,0.4680391329,0.2430261389
3.94,0.4727088308,0.2330418746
3.95,0.477166485,0.2229676783
3.96,0.4814103525,0.2128080474
3.97,0.4854387857,0.2025675133
3.98,0.4892502332,0.1922506396
3.99,0.4928432402,0.1818620197
4,0.4962164494,0.1714062749
4.01,0.4993686013,0.1608880527
4.02,0.5022985349,0.1503120242
4.03,0.5050051881,0.1396828821
4.04,0.5074875979,0.1290053391
4.05,0.5097449011,0.118284125
4.06,0.5117763344,0.1075239855
4.07,0.5135812348,0.09672967912
4.08,0.5151590399,0.08590597593
4.09,0.5165092879,0.07505765489
4.1,0.5176316177,0.06418950188
4.11,0.5185257695,0.05330630759
4.12,0.5191915842,0.04241286531
4.13,0.519629004,0.03151396887
4.14,0.5198380718,0.02061441041
4.15,0.5198189316,0.009718978297
4.16,0.5195718282,-0.001167545021
4.17,0.5190971068,-0.01204038518
4.18,0.5183952132,-0.02289477799
4.19,0.5174666933,-0.03372597163
4.2,0.5163121928,-0.04452922869
4.21,0.5149324568,-0.05529982836
4.22,0.5133283295,-0.06603306848
4.23,0.5115007536,-0.07672426767
4.24,0.5094507702,-0.08736876743
4.25,0.5071795178,-0.09796193418
4.26,0.5046882317,-0.1084991614
4.27,0.5019782438,-0.1189758715
4.28,0.4990509818,-0.1293875181
4.29,0.4959079681,-0.1397295879
4.3,0.4925508193,-0.1499976028
4.31,0.4889812457,-0.1601871217
4.32,0.4852010498,-0.1702937426
4.33,0.4812121261,-0.1803131045
4.34,0.4770164594,-0.1902408896
4.35,0.4726161247,-0.2000728246
4.36,0.4680132854,-0.2098046833
4.37,0.4632101927,-0.2194322878
4.38,0.4582091843,-0.228951511
4.39,0.4530126835,-0.2383582776
4.4,0.4476231977,-0.2476485669
4.41,0.4420433174,-0.2568184135
4.42,0.4362757149,-0.26586391
4.43,0.4303231428,-0.2747812078
4.44,0.4241884332,-0.2835665195
4.45,0.4178744959,-0.2922161201
4.46,0.4113843169,-0.300726349
4.47,0.4047209574,-0.3090936109
4.48,0.3978875522,-0.3173143782
4.49,0.3908873079,-0.3253851919
4.5,0.3837235017,-0.3333026633
4.51,0.3763994798,-0.3410634753
4.52,0.3689186558,-0.3486643841
4.53,0.3612845087,-0.3561022202
4.54,0.3535005821,-0.36337389
4.55,0.3455704817,-0.370476377
4.56,0.337497874,-0.3774067431
4.57,0.3292864847,-0.3841621296
4.58,0.3209400965,-0.3907397587
4.59,0.3124625477,-0.3971369346
4.6,0.3038577305,-0.4033510442
4.61,0.2951295888,-0.4093795588
4.62,0.2862821167,-0.4152200345
4.63,0.2773193564,-0.4208701135
4.64,0.2682453966,-0.4263275251
4.65,0.2590643704,-0.4315900865
4.66,0.2497804536,-0.4366557035
4.67,0.2403978624,-0.4415223715
4.68,0.230920852,-0.4461881763
4.69,0.2213537142,-0.4506512946
4.7,0.2117007759,-0.4549099952
4.71,0.2019663965,-0.4589626387
4.72,0.1921549665,-0.4628076792
4.73,0.1822709053,-0.4664436641
4.74,0.1723186592,-0.4698692349
4.75,0.1623026993,-0.4730831277
4.76,0.1522275196,-0.4760841733
4.77,0.1420976352,-0.4788712982
4.78,0.1319175797,-0.4814435243
4.79,0.1216919038,-0.4837999698
4.8,0.1114251728,-0.4859398488
4.81,0.101121965,-0.4878624721
4.82,0.09078686912,-0.4895672471
4.83,0.08042448281,-0.4910536779
4.84,0.07003941033,-0.4923213656
4.85,0.05963626054,-0.493370008
4.86,0.04921964492,-0.4941994
4.87,0.03879417555,-0.4948094334
4.88,0.02836446302,-0.4952000966
4.89,0.01793511448,-0.495371475
4.9,0.007510731594,-0.4953237501
4.91,-0.002904091465,-0.4950572001
4.92,-0.01330477001,-0.4945721992
4.93,-0.02368673086,-0.4938692172
4.94,-0.03404541428,-0.4929488195
4.95,-0.044376276,-0.4918116667
4.96,-0.05467478916,-0.4904585141
4.97,-0.06493644628,-0.488890211
4.98,-0.07515676119,-0.4871077009
4.99,-0.085331271,-0.4851120201
5,-0.09545553796,-0.4829042981
5.01,-0.1055251514,-0.480485756
5.02,-0.1155357298,-0.4778577068
5.03,-0.1254829222,-0.475021554
5.04,-0.1353624105,-0.4719787914
5.05,-0.1451699114,-0.468731002
5.06,-0.1549011776,-0.4652798573
5.07,-0.1645520003,-0.4616271166
5.08,-0.1741182108,-0.4577746262
5.09,-0.1835956818,-0.4537243182
5.1,-0.1929803301,-0.4494782097
5.11,-0.2022681173,-0.445038402
5.12,-0.2114550523,-0.4404070795
5.13,-0.2205371927,-0.4355865085
5.14,-0.2295106464,-0.4305790364
5.15,-0.2383715735,-0.4253870904
5.16,-0.2471161875,-0.4200131764
5.17,-0.2557407575,-0.4144598781
5.18,-0.2642416094,-0.4087298552
5.19,-0.2726151272,-0.4028258428
5.2,-0.2808577554,-0.3967506498
5.21,-0.2889659995,-0.3905071576
5.22,-0.2969364283,-0.3840983191
5.23,-0.3047656746,-0.3775271567
5.24,-0.3124504374,-0.3707967615
5.25,-0.3199874826,-0.3639102919
5.26,-0.327373645,-0.3568709716
5.27,-0.334605829,-0.3496820887
5.28,-0.3416810105,-0.3423469938
5.29,-0.3485962375,-0.3348690988
5.3,-0.3553486322,-0.3272518752
5.31,-0.3619353914,-0.3194988524
5.32,-0.3683537881,-0.3116136164
5.33,-0.3746011727,-0.3035998079
5.34,-0.3806749737,-0.2954611205
5.35,-0.3865726993,-0.2872012998
5.36,-0.392291938,-0.2788241406
5.37,-0.39783036,-0.2703334863
5.38,-0.4031857176,-0.2617332261
5.39,-0.4083558469,-0.2530272941
5.4,-0.4133386679,-0.244219667
5.41,-0.4181321859,-0.2353143626
5.42,-0.4227344923,-0.2263154378
5.43,-0.427143765,-0.2172269869
5.44,-0.4313582694,-0.2080531394
5.45,-0.4353763592,-0.1987980588
5.46,-0.4391964767,-0.18946594
5.47,-0.442817154,-0.1800610081
5.48,-0.446237013,-0.1705875157
5.49,-0.4494547661,-0.1610497418
5.5,-0.4524692169,-0.1514519892
5.51,-0.4552792606,-0.141798583
5.52,-0.4578838842,-0.1320938685
5.53,-0.4602821672,-0.122342209
5.54,-0.4624732814,-0.1125479845
5.55,-0.4644564919,-0.1027155888
5.56,-0.4662311569,-0.0928494284
5.57,-0.4677967279,-0.08295391991
5.58,-0.46915275,-0.07303348837
5.59,-0.4702988619,-0.06309256515
5.6,-0.4712347962,-0.05313558599
5.61,-0.4719603791,-0.043166989
5.62,-0.4724755307,-0.03319121265
5.63,-0.4727802648,-0.02321269383
5.64,-0.4728746886,-0.01323586579
5.65,-0.4727590031,-0.003265156208
5.66,-0.4724335024,0.00669501481
5.67,-0.4718985737,0.01664023671
5.68,-0.4711546969,0.02656611044
5.69,-0.4702024446,0.03646825046
5.7,-0.4690424812,0.04634228664
5.71,-0.4676755631,0.05618386624
5.72,-0.4661025379,0.06598865585
5.73,-0.4643243441,0.07575234328
5.74,-0.4623420103,0.08547063953
5.75,-0.460156655,0.09513928062
5.76,-0.4577694857,0.1047540296
5.77,-0.4551817985,0.1143106781
5.78,-0.4523949772,0.1238050488
5.79,-0.4494104927,0.1332329965
5.8,-0.4462299022,0.1425904107
5.81,-0.4428548485,0.1518732167
5.82,-0.439287059,0.161077378
5.83,-0.4355283449,0.1701988976
5.84,-0.4315806002,0.17923382
5.85,-0.427445801,0.1881782328
5.86,-0.4231260043,0.1970282686
5.87,-0.4186233469,0.2057801064
5.88,-0.4139400446,0.2144299734
5.89,-0.4090783909,0.2229741466
5.9,-0.404040756,0.2314089545
5.91,-0.3988295856,0.2397307785
5.92,-0.3934473996,0.2479360546
5.93,-0.3878967912,0.2560212748
5.94,-0.3821804251,0.2639829888
5.95,-0.3763010368,0.2718178051
5.96,-0.370261431,0.2795223928
5.97,-0.3640644803,0.2870934829
5.98,-0.3577131236,0.2945278695
5.99,-0.3512103654,0.3018224115
6,-0.3445592733,0.3089740335
