"Freq [GHz]","re(S(Tx_p1,Tx_p1)) []","im(S(Tx_p1,Tx_p1)) []"
1,0.7106119033,-0.3634233612
1.01,0.7047914672,-0.364315774
1.02,0.6991359199,-0.3655327182
1.03,0.6936260072,-0.3670640695
1.04,0.6882433493,-0.3688997868
1.05,0.6829704006,-0.3710299082
1.06,0.6777904122,-0.3734445466
1.07,0.6726873971,-0.3761338863
1.08,0.6676460974,-0.3790881795
1.09,0.6626519539,-0.382297744
1.1,0.6576910773,-0.3857529602
1.11,0.6527502212,-0.3894442692
1.12,0.6478167573,-0.3933621711
1.13,0.6428786512,-0.3974972234
1.14,0.6379244407,-0.4018400396
1.15,0.6329432147,-0.4063812885
1.16,0.6279245933,-0.4111116931
1.17,0.6228587095,-0.4160220308
1.18,0.6177361918,-0.421103132
1.19,0.6125481472,-0.4263458811
1.2,0.6072861463,-0.4317412158
1.21,0.6019422079,-0.4372801279
1.22,0.5965087855,-0.4429536631
1.23,0.5909787538,-0.4487529224
1.24,0.5853453962,-0.4546690619
1.25,0.5796023929,-0.4606932945
1.26,0.5737438097,-0.4668168903
1.27,0.5677640869,-0.4730311777
1.28,0.5616580293,-0.4793275449
1.29,0.5554207962,-0.4856974411
1.3,0.5490478921,-0.4921323776
1.31,0.5425351579,-0.4986239298
1.32,0.5358787618,-0.5051637381
1.33,0.5290751919,-0.5117435101
1.34,0.5221212473,-0.5183550219
1.35,0.5150140314,-0.5249901201
1.36,0.507750944,-0.5316407235
1.37,0.5003296744,-0.538298825
1.38,0.4927481947,-0.5449564933
1.39,0.4850047531,-0.5516058752
1.4,0.4770978674,-0.5582391975
1.41,0.4690263192,-0.5648487687
1.42,0.4607891473,-0.5714269815
1.43,0.4523856426,-0.5779663146
1.44,0.4438153417,-0.5844593348
1.45,0.4350780216,-0.5908986992
1.46,0.4261736945,-0.5972771575
1.47,0.4171026022,-0.6035875536
1.48,0.4078652112,-0.6098228283
1.49,0.3984622072,-0.6159760212
1.5,0.3888944905,-0.622040273
1.51,0.3791631709,-0.6280088272
1.52,0.3692695627,-0.633875033
1.53,0.3592151803,-0.6396323466
1.54,0.3490017334,-0.6452743339
1.55,0.338631122,-0.6507946725
1.56,0.3281054323,-0.6561871536
1.57,0.3174269319,-0.661445684
1.58,0.3065980651,-0.6665642888
1.59,0.2956214491,-0.6715371123
1.6,0.2844998688,-0.6763584212
1.61,0.2732362729,-0.6810226055
1.62,0.2618337694,-0.6855241813
1.63,0.2502956212,-0.6898577919
1.64,0.2386252419,-0.6940182104
1.65,0.2268261914,-0.698000341
1.66,0.2149021716,-0.7017992208
1.67,0.2028570224,-0.7054100219
1.68,0.190694717,-0.7088280526
1.69,0.1784193579,-0.7120487596
1.7,0.1660351728,-0.7150677287
1.71,0.1535465102,-0.7178806875
1.72,0.1409578353,-0.7204835058
1.73,0.1282737255,-0.7228721978
1.74,0.1154988666,-0.7250429228
1.75,0.1026380485,-0.7269919871
1.76,0.08969616075,-0.728715845
1.77,0.07667818876,-0.7302110998
1.78,0.06358920931,-0.7314745053
1.79,0.05043438655,-0.7325029665
1.8,0.03721896777,-0.7332935409
1.81,0.02394827925,-0.7338434391
1.82,0.01062772215,-0.7341500259
1.83,-0.0027372317,-0.7342108211
1.84,-0.01614104389,-0.7340235
1.85,-0.0295781136,-0.7335858942
1.86,-0.04304278167,-0.7328959922
1.87,-0.05652933476,-0.7319519398
1.88,-0.07003200943,-0.7307520406
1.89,-0.08354499622,-0.7292947564
1.9,-0.09706244377,-0.7275787072
1.91,-0.1105784628,-0.7256026717
1.92,-0.1240871303,-0.7233655875
1.93,-0.1375824934,-0.7208665509
1.94,-0.1510585734,-0.7181048167
1.95,-0.1645093701,-0.7150797988
1.96,-0.1779288651,-0.7117910692
1.97,-0.1913110265,-0.7082383584
1.98,-0.2046498123,-0.7044215546
1.99,-0.2179391747,-0.7003407037
2,-0.2311730636,-0.6959960084
2.01,-0.2443454307,-0.691387828
2.02,-0.2574502333,-0.6865166775
2.03,-0.2704814381,-0.681383227
2.04,-0.2834330249,-0.6759883011
2.05,-0.2962989903,-0.6703328777
2.06,-0.3090733518,-0.6644180871
2.07,-0.3217501507,-0.6582452114
2.08,-0.3343234566,-0.651815683
2.09,-0.3467873703,-0.6451310833
2.1,-0.3591360276,-0.6381931423
2.11,-0.3713636031,-0.6310037362
2.12,-0.3834643132,-0.6235648871
2.13,-0.3954324198,-0.6158787605
2.14,-0.4072622334,-0.6079476649
2.15,-0.418948117,-0.5997740494
2.16,-0.4304844887,-0.5913605023
2.17,-0.4418658255,-0.5827097495
2.18,-0.453086666,-0.5738246529
2.19,-0.464141614,-0.564708208
2.2,-0.4750253412,-0.5553635428
2.21,-0.4857325905,-0.5457939151
2.22,-0.4962581788,-0.5360027109
2.23,-0.5065970001,-0.5259934424
2.24,-0.5167440279,-0.5157697457
2.25,-0.5266943188,-0.5053353786
2.26,-0.5364430145,-0.4946942186
2.27,-0.5459853449,-0.4838502603
2.28,-0.5553166304,-0.4728076134
2.29,-0.5644322849,-0.4615705001
2.3,-0.5733278179,-0.4501432529
2.31,-0.5819988374,-0.4385303119
2.32,-0.5904410515,-0.4267362223
2.33,-0.5986502715,-0.4147656319
2.34,-0.606622414,-0.4026232888
2.35,-0.6143535025,-0.3903140382
2.36,-0.6218396702,-0.3778428201
2.37,-0.6290771618,-0.3652146664
2.38,-0.6360623355,-0.3524346985
2.39,-0.6427916647,-0.339508124
2.4,-0.6492617402,-0.3264402343
2.41,-0.6554692718,-0.3132364015
2.42,-0.66141109,-0.2999020756
2.43,-0.6670841479,-0.2864427818
2.44,-0.6724855221,-0.2728641171
2.45,-0.6776124152,-0.2591717479
2.46,-0.6824621564,-0.2453714066
2.47,-0.6870322033,-0.2314688887
2.48,-0.6913201429,-0.21747005
2.49,-0.6953236932,-0.2033808032
2.5,-0.6990407043,-0.1892071151
2.51,-0.702469159,-0.1749550034
2.52,-0.7056071745,-0.1606305337
2.53,-0.708453003,-0.1462398162
2.54,-0.7110050324,-0.1317890029
2.55,-0.7132617878,-0.1172842842
2.56,-0.7152219314,-0.1027318858
2.57,-0.7168842636,-0.08813806568
2.58,-0.7182477239,-0.07350911086
2.59,-0.7193113907,-0.0588513342
2.6,-0.7200744826,-0.0441710713
2.61,-0.720536358,-0.0294746773
2.62,-0.7206965161,-0.01476852372
2.63,-0.7205545967,-5.89953069E-05
2.64,-0.7201103807,0.01464751318
2.65,-0.7193637902,0.0293446001
2.66,-0.7183148881,0.04402586011
2.67,-0.7169638787,0.05868488732
2.68,-0.7153111076,0.07331527845
2.69,-0.7133570609,0.087910636
2.7,-0.7111023656,0.1024645713
2.71,-0.7085477894,0.1169707079
2.72,-0.7056942397,0.1314226842
2.73,-0.7025427638,0.1458141571
2.74,-0.6990945484,0.1601388047
2.75,-0.6953509185,0.1743903297
2.76,-0.6913133376,0.1885624622
2.77,-0.6869834062,0.2026489628
2.78,-0.6823628619,0.2166436258
2.79,-0.677453578,0.2305402821
2.8,-0.6722575626,0.2443328019
2.81,-0.6667769584,0.2580150984
2.82,-0.6610140407,0.2715811299
2.83,-0.6549712173,0.2850249036
2.84,-0.6486510268,0.2983404775
2.85,-0.6420561374,0.3115219642
2.86,-0.6351893463,0.3245635333
2.87,-0.6280535775,0.3374594141
2.88,-0.6206518813,0.3502038987
2.89,-0.6129874323,0.3627913447
2.9,-0.6050635282,0.3752161778
2.91,-0.5968835883,0.3874728944
2.92,-0.5884511517,0.3995560648
2.93,-0.5797698759,0.411460335
2.94,-0.570843535,0.4231804301
2.95,-0.5616760179,0.4347111563
2.96,-0.5522713265,0.4460474037
2.97,-0.5426335741,0.4571841486
2.98,-0.532766983,0.468116456
2.99,-0.5226758829,0.4788394822
3,-0.5123647089,0.4893484768
3.01,-0.5018379993,0.4996387852
3.02,-0.4911003934,0.5097058509
3.03,-0.4801566294,0.5195452174
3.04,-0.4690115424,0.529152531
3.05,-0.4576700618,0.5385235422
3.06,-0.4461372093,0.5476541082
3.07,-0.4344180963,0.5565401949
3.08,-0.4225179216,0.5651778787
3.09,-0.4104419689,0.5735633485
3.1,-0.3981956045,0.5816929075
3.11,-0.3857842746,0.5895629752
3.12,-0.3732135028,0.597170089
3.13,-0.3604888874,0.6045109057
3.14,-0.3476160989,0.6115822035
3.15,-0.3346008773,0.6183808835
3.16,-0.3214490293,0.6249039709
3.17,-0.3081664255,0.631148617
3.18,-0.294758998,0.6371120999
3.19,-0.281232737,0.6427918267
3.2,-0.2675936884,0.6481853337
3.21,-0.253847951,0.6532902888
3.22,-0.2400016731,0.6581044917
3.23,-0.22606105,0.6626258755
3.24,-0.212032321,0.6668525073
3.25,-0.1979217663,0.6707825896
3.26,-0.1837357042,0.6744144609
3.27,-0.1694804878,0.6777465967
3.28,-0.1551625024,0.68077761
3.29,-0.1407881619,0.6835062521
3.3,-0.1263639063,0.6859314133
3.31,-0.1118961982,0.6880521233
3.32,-0.09739152014,0.6898675518
3.33,-0.082856371,0.6913770088
3.34,-0.0682972633,0.6925799449
3.35,-0.05372071991,0.6934759517
3.36,-0.03913327101,0.6940647618
3.37,-0.02454145093,0.6943462494
3.38,-0.009951795041,0.6943204294
3.39,0.004629163356,0.6939874585
3.4,0.01919489615,0.6933476342
3.41,0.03373888352,0.6924013953
3.42,0.04825461707,0.6911493212
3.43,0.06273560293,0.6895921317
3.44,0.0771753648,0.6877306869
3.45,0.09156744709,0.6855659865
3.46,0.105905418,0.6830991693
3.47,0.1201828725,0.6803315126
3.48,0.1343934354,0.6772644317
3.49,0.1485307645,0.6738994791
3.5,0.1625885534,0.6702383436
3.51,0.1765605346,0.6662828496
3.52,0.1904404826,0.6620349563
3.53,0.2042222164,0.6574967561
3.54,0.2178996029,0.6526704744
3.55,0.2314665597,0.6475584678
3.56,0.2449170576,0.6421632234
3.57,0.2582451239,0.6364873569
3.58,0.2714448449,0.6305336122
3.59,0.2845103689,0.6243048593
3.6,0.2974359088,0.6178040929
3.61,0.3102157446,0.6110344315
3.62,0.3228442266,0.6039991152
3.63,0.3353157776,0.5967015044
3.64,0.3476248954,0.5891450781
3.65,0.3597661558,0.5813334319
3.66,0.3717342148,0.5732702768
3.67,0.3835238111,0.5649594367
3.68,0.3951297686,0.5564048472
3.69,0.4065469987,0.5476105528
3.7,0.4177705025,0.5385807059
3.71,0.4287953735,0.5293195638
3.72,0.4396167993,0.5198314873
3.73,0.4502300643,0.5101209383
3.74,0.4606305514,0.5001924777
3.75,0.4708137444,0.4900507628
3.76,0.4807752297,0.4797005458
3.77,0.4905106987,0.4691466706
3.78,0.5000159493,0.4583940712
3.79,0.5092868882,0.4474477687
3.8,0.5183195322,0.4363128694
3.81,0.5271100104,0.4249945618
3.82,0.5356545657,0.4134981147
3.83,0.5439495565,0.4018288741
3.84,0.5519914583,0.389992261
3.85,0.559776865,0.3779937686
3.86,0.5673024907,0.3658389596
3.87,0.5745651711,0.3535334641
3.88,0.5815618643,0.3410829761
3.89,0.588289653,0.3284932514
3.9,0.5947457448,0.3157701044
3.91,0.600927474,0.302919406
3.92,0.6068323026,0.2899470801
3.93,0.6124578209,0.2768591011
3.94,0.6178017491,0.2636614915
3.95,0.6228619378,0.2503603181
3.96,0.6276363691,0.2369616901
3.97,0.6321231571,0.2234717558
3.98,0.6363205491,0.2098966996
3.99,0.6402269256,0.1962427396
4,0.6438408016,0.1825161241
4.01,0.6471608267,0.168723129
4.02,0.6501857858,0.1548700551
4.03,0.6529145991,0.1409632246
4.04,0.6553463233,0.1270089789
4.05,0.6574801509,0.113013675
4.06,0.6593154112,0.09898368281
4.07,0.6608515699,0.08492538249
4.08,0.6620882297,0.07084516113
4.09,0.66302513,0.05674940998
4.1,0.6636621468,0.04264452152
4.11,0.6639992932,0.02853688651
4.12,0.6640367186,0.01443289108
4.13,0.6637747086,0.0003389138136
4.14,0.6632136852,-0.01373867716
4.15,0.662354206,-0.02779352707
4.16,0.6611969638,-0.04181929739
4.17,0.6597427865,-0.0558096687
4.18,0.6579926365,-0.06975834359
4.19,0.6559476098,-0.08365904946
4.2,0.6536089355,-0.09750554139
4.21,0.6509779756,-0.111291605
4.22,0.6480562236,-0.1250110591
4.23,0.6448453039,-0.1386577587
4.24,0.6413469712,-0.1522255975
4.25,0.6375631092,-0.1657085111
4.26,0.6334957299,-0.1791004791
4.27,0.6291469724,-0.1923955282
4.28,0.6245191018,-0.2055877349
4.29,0.6196145084,-0.2186712281
4.3,0.6144357059,-0.2316401914
4.31,0.6089853307,-0.2444888662
4.32,0.6032661402,-0.2572115541
4.33,0.5972810118,-0.2698026192
4.34,0.5910329411,-0.282256491
4.35,0.5845250408,-0.2945676666
4.36,0.5777605388,-0.3067307132
4.37,0.5707427771,-0.3187402706
4.38,0.5634752097,-0.3305910537
4.39,0.5559614012,-0.3422778545
4.4,0.5482050252,-0.3537955445
4.41,0.5402098622,-0.3651390775
4.42,0.531979798,-0.3763034909
4.43,0.5235188219,-0.3872839088
4.44,0.5148310247,-0.3980755435
4.45,0.5059205966,-0.4086736982
4.46,0.4967918254,-0.4190737684
4.47,0.4874490947,-0.4292712446
4.48,0.4778968813,-0.4392617137
4.49,0.4681397534,-0.4490408615
4.5,0.4581823683,-0.4586044741
4.51,0.4480294704,-0.4679484401
4.52,0.4376858887,-0.4770687523
4.53,0.4271565349,-0.4859615093
4.54,0.4164464006,-0.4946229174
4.55,0.4055605553,-0.5030492923
4.56,0.3945041438,-0.5112370605
4.57,0.3832823842,-0.5191827609
4.58,0.3719005648,-0.5268830465
4.59,0.3603640422,-0.5343346857
4.6,0.3486782383,-0.5415345637
4.61,0.3368486383,-0.5484796837
4.62,0.3248807877,-0.5551671687
4.63,0.3127802897,-0.561594262
4.64,0.3005528029,-0.567758329
4.65,0.2882040385,-0.573656858
4.66,0.2757397575,-0.5792874614
4.67,0.2631657679,-0.5846478764
4.68,0.2504879226,-0.5897359666
4.69,0.2377121158,-0.594549722
4.7,0.2248442811,-0.5990872608
4.71,0.2118903879,-0.6033468293
4.72,0.1988564394,-0.6073268031
4.73,0.1857484692,-0.6110256877
4.74,0.1725725387,-0.6144421189
4.75,0.1593347344,-0.6175748634
4.76,0.1460411649,-0.6204228195
4.77,0.1326979579,-0.622985017
4.78,0.1193112579,-0.6252606182
4.79,0.1058872226,-0.6272489175
4.8,0.09243202061,-0.628949342
4.81,0.0789518283,-0.6303614517
4.82,0.06545282701,-0.6314849392
4.83,0.05194120016,-0.6323196301
4.84,0.03842313035,-0.6328654831
4.85,0.02490479655,-0.6331225892
4.86,0.01139237116,-0.6330911722
4.87,-0.002107982801,-0.6327715882
4.88,-0.01559011457,-0.6321643253
4.89,-0.0290478885,-0.6312700035
4.9,-0.04247518689,-0.6300893737
4.91,-0.0558659128,-0.628623318
4.92,-0.06921399291,-0.6268728485
4.93,-0.08251338026,-0.624839107
4.94,-0.09575805711,-0.6225233642
4.95,-0.1089420377,-0.6199270193
4.96,-0.1220593708,-0.6170515987
4.97,-0.135104143,-0.6138987556
4.98,-0.1480704806,-0.610470269
4.99,-0.1609525531,-0.6067680422
5,-0.1737445754,-0.6027941028
5.01,-0.1864408106,-0.5985506007
5.02,-0.1990355724,-0.5940398074
5.03,-0.2115232282,-0.5892641146
5.04,-0.2238982011,-0.5842260332
5.05,-0.2361549727,-0.5789281918
5.06,-0.2482880857,-0.5733733354
5.07,-0.2602921462,-0.5675643237
5.08,-0.272161826,-0.5615041303
5.09,-0.2838918654,-0.5551958405
5.1,-0.2954770753,-0.54864265
5.11,-0.3069123394,-0.5418478635
5.12,-0.318192617,-0.5348148924
5.13,-0.3293129446,-0.5275472538
5.14,-0.3402684386,-0.5200485682
5.15,-0.3510542972,-0.512322558
5.16,-0.3616658026,-0.5043730454
5.17,-0.3720983233,-0.4962039507
5.18,-0.3823473157,-0.4878192902
5.19,-0.3924083264,-0.4792231744
5.2,-0.4022769942,-0.4704198055
5.21,-0.4119490517,-0.461413476
5.22,-0.4214203275,-0.452208566
5.23,-0.4306867479,-0.4428095413
5.24,-0.4397443382,-0.4332209514
5.25,-0.4485892254,-0.4234474267
5.26,-0.4572176386,-0.413493677
5.27,-0.4656259119,-0.4033644885
5.28,-0.4738104848,-0.3930647219
5.29,-0.4817679045,-0.3825993099
5.3,-0.4894948269,-0.371973255
5.31,-0.4969880183,-0.3611916267
5.32,-0.5042443564,-0.3502595593
5.33,-0.511260832,-0.3391822497
5.34,-0.5180345498,-0.3279649543
5.35,-0.5245627297,-0.316612987
5.36,-0.5308427083,-0.3051317164
5.37,-0.5368719392,-0.2935265634
5.38,-0.542647995,-0.2818029985
5.39,-0.5481685671,-0.2699665392
5.4,-0.5534314676,-0.2580227475
5.41,-0.5584346295,-0.2459772273
5.42,-0.5631761078,-0.2338356215
5.43,-0.56765408,-0.2216036097
5.44,-0.5718668469,-0.2092869051
5.45,-0.5758128332,-0.1968912523
5.46,-0.579490588,-0.1844224245
5.47,-0.5828987852,-0.1718862202
5.48,-0.5860362241,-0.1592884616
5.49,-0.5889018296,-0.1466349909
5.5,-0.5914946526,-0.1339316682
5.51,-0.5938138704,-0.1211843683
5.52,-0.5958587864,-0.1083989785
5.53,-0.597628831,-0.09558139556
5.54,-0.5991235608,-0.08273752308
5.55,-0.6003426594,-0.06987326873
5.56,-0.6012859369,-0.05699454163
5.57,-0.6019533299,-0.04410724956
5.58,-0.6023449014,-0.03121729629
5.59,-0.6024608406,-0.01833057894
5.6,-0.6023014626,-0.005452985186
5.61,-0.6018672081,0.007409609317
5.62,-0.6011586428,0.02025134366
5.63,-0.6001764575,0.03306637431
5.64,-0.5989214671,0.04584887778
5.65,-0.5973946101,0.05859305323
5.66,-0.5955969484,0.07129312509
5.67,-0.5935296661,0.08394334568
5.68,-0.5911940693,0.09653799777
5.69,-0.5885915851,0.1090713972
5.7,-0.5857237605,0.1215378952
5.71,-0.5825922621,0.1339318815
5.72,-0.5791988749,0.146247786
5.73,-0.5755455011,0.1584800819
5.74,-0.5716341596,0.1706232879
5.75,-0.5674669843,0.1826719709
5.76,-0.5630462236,0.1946207479
5.77,-0.5583742387,0.2064642888
5.78,-0.5534535028,0.2181973189
5.79,-0.5482865995,0.2298146206
5.8,-0.5428762216,0.2413110363
5.81,-0.5372251698,0.2526814706
5.82,-0.5313363512,0.2639208921
5.83,-0.525212778,0.2750243362
5.84,-0.5188575657,0.2859869068
5.85,-0.5122739316,0.2968037788
5.86,-0.5054651937,0.3074702001
5.87,-0.4984347684,0.3179814935
5.88,-0.491186169,0.3283330589
5.89,-0.4837230044,0.3385203754
5.9,-0.4760489768,0.3485390032
5.91,-0.46816788,0.3583845853
5.92,-0.4600835981,0.3680528496
5.93,-0.4518001026,0.3775396109
5.94,-0.4433214515,0.3868407724
5.95,-0.4346517867,0.3959523277
5.96,-0.4257953323,0.4048703622
5.97,-0.4167563924,0.4135910553
5.98,-0.4075393492,0.4221106815
5.99,-0.3981486607,0.4304256124
6,-0.3885888589,0.4385323181
