"Freq [GHz]","re(S(Tx_p1,Tx_p1)) []","im(S(Tx_p1,Tx_p1)) []"
1,0.7864580395,-0.412998817
1.01,0.7799461486,-0.4146842285
1.02,0.7735845664,-0.4167218313
1.03,0.7673523676,-0.4190996154
1.04,0.7612296082,-0.4218056618
1.05,0.7551972813,-0.4248281387
1.06,0.7492372774,-0.4281552979
1.07,0.7433323456,-0.431775472
1.08,0.7374660586,-0.4356770717
1.09,0.7316227793,-0.439848584
1.1,0.7257876295,-0.44427857
1.11,0.7199464608,-0.4489556642
1.12,0.7140858268,-0.453868573
1.13,0.7081929573,-0.4590060742
1.14,0.702255734,-0.4643570167
1.15,0.6962626674,-0.4699103203
1.16,0.6902028751,-0.475654976
1.17,0.6840660613,-0.481580046
1.18,0.6778424975,-0.487674665
1.19,0.671523004,-0.4939280403
1.2,0.6650989325,-0.5003294532
1.21,0.6585621498,-0.50686826
1.22,0.6519050219,-0.5135338936
1.23,0.6451203989,-0.5203158645
1.24,0.6382016011,-0.527203763
1.25,0.6311424054,-0.5341872604
1.26,0.623937032,-0.5412561112
1.27,0.6165801324,-0.5484001549
1.28,0.6090667771,-0.555609318
1.29,0.6013924447,-0.5628736164
1.3,0.5935530105,-0.5701831571
1.31,0.5855447362,-0.5775281409
1.32,0.57736426,-0.5848988645
1.33,0.5690085862,-0.5922857232
1.34,0.5604750764,-0.5996792126
1.35,0.5517614399,-0.6070699319
1.36,0.5428657255,-0.6144485858
1.37,0.533786312,-0.6218059873
1.38,0.5245219008,-0.6291330599
1.39,0.5150715072,-0.6364208405
1.4,0.5054344531,-0.6436604818
1.41,0.4956103586,-0.6508432549
1.42,0.4855991352,-0.6579605517
1.43,0.4754009782,-0.6650038875
1.44,0.4650163594,-0.6719649036
1.45,0.4544460206,-0.6788353697
1.46,0.4436909661,-0.6856071867
1.47,0.4327524565,-0.6922723887
1.48,0.4216320018,-0.6988231457
1.49,0.4103313551,-0.7052517663
1.5,0.3988525059,-0.7115506994
1.51,0.3871976742,-0.7177125372
1.52,0.375369304,-0.7237300173
1.53,0.3633700571,-0.7295960247
1.54,0.3512028075,-0.7353035946
1.55,0.3388706349,-0.740845914
1.56,0.326376819,-0.7462163243
1.57,0.3137248338,-0.7514083229
1.58,0.3009183416,-0.7564155659
1.59,0.2879611872,-0.7612318693
1.6,0.2748573926,-0.7658512116
1.61,0.2616111509,-0.7702677353
1.62,0.2482268209,-0.7744757488
1.63,0.2347089216,-0.778469728
1.64,0.2210621267,-0.7822443182
1.65,0.2072912589,-0.7857943357
1.66,0.1934012849,-0.7891147691
1.67,0.1793973093,-0.792200781
1.68,0.1652845701,-0.7950477093
1.69,0.1510684326,-0.7976510688
1.7,0.1367543844,-0.8000065519
1.71,0.1223480302,-0.8021100304
1.72,0.1078550865,-0.8039575561
1.73,0.09328137617,-0.8055453624
1.74,0.07863282347,-0.8068698647
1.75,0.0639154488,-0.8079276617
1.76,0.04913536355,-0.8087155359
1.77,0.03429876497,-0.8092304546
1.78,0.01941193108,-0.8094695705
1.79,0.004481215591,-0.8094302221
1.8,-0.01048695713,-0.8091099344
1.81,-0.02548609709,-0.808506419
1.82,-0.04050965369,-0.8076175749
1.83,-0.05555102065,-0.8064414883
1.84,-0.07060354099,-0.8049764331
1.85,-0.08566051191,-0.8032208707
1.86,-0.1007151897,-0.8011734502
1.87,-0.1157607947,-0.7988330082
1.88,-0.1307905157,-0.7961985687
1.89,-0.1457975156,-0.7932693428
1.9,-0.1607749351,-0.7900447283
1.91,-0.1757158984,-0.7865243094
1.92,-0.1906135172,-0.7827078562
1.93,-0.2054608958,-0.7785953239
1.94,-0.2202511355,-0.7741868523
1.95,-0.2349773395,-0.7694827651
1.96,-0.2496326171,-0.7644835688
1.97,-0.2642100882,-0.759189952
1.98,-0.2787028884,-0.7536027843
1.99,-0.2931041726,-0.7477231151
2,-0.3074071201,-0.7415521727
2.01,-0.3216049386,-0.7350913625
2.02,-0.3356908686,-0.7283422664
2.03,-0.3496581875,-0.7213066408
2.04,-0.3635002143,-0.7139864151
2.05,-0.3772103133,-0.7063836905
2.06,-0.3907818983,-0.6985007379
2.07,-0.4042084371,-0.6903399964
2.08,-0.4174834548,-0.6819040713
2.09,-0.4306005384,-0.6731957325
2.1,-0.4435533404,-0.664217912
2.11,-0.456335583,-0.6549737023
2.12,-0.4689410611,-0.6454663541
2.13,-0.4813636472,-0.6356992738
2.14,-0.493597294,-0.6256760217
2.15,-0.5056360387,-0.6154003094
2.16,-0.5174740063,-0.6048759971
2.17,-0.529105413,-0.5941070918
2.18,-0.5405245699,-0.5830977437
2.19,-0.5517258862,-0.5718522446
2.2,-0.5627038724,-0.5603750244
2.21,-0.5734531436,-0.5486706489
2.22,-0.5839684227,-0.5367438165
2.23,-0.5942445434,-0.5245993554
2.24,-0.604276453,-0.5122422209
2.25,-0.6140592159,-0.4996774921
2.26,-0.6235880157,-0.4869103689
2.27,-0.6328581586,-0.4739461688
2.28,-0.6418650757,-0.4607903239
2.29,-0.6506043256,-0.4474483773
2.3,-0.6590715973,-0.4339259802
2.31,-0.667262712,-0.4202288882
2.32,-0.6751736262,-0.4063629581
2.33,-0.6828004334,-0.3923341443
2.34,-0.6901393665,-0.3781484955
2.35,-0.6971867998,-0.3638121511
2.36,-0.7039392513,-0.3493313374
2.37,-0.7103933841,-0.3347123644
2.38,-0.7165460088,-0.3199616217
2.39,-0.7223940848,-0.3050855753
2.4,-0.7279347222,-0.2900907634
2.41,-0.7331651832,-0.2749837929
2.42,-0.7380828838,-0.2597713356
2.43,-0.7426853948,-0.2444601244
2.44,-0.7469704433,-0.2290569496
2.45,-0.7509359142,-0.2135686546
2.46,-0.7545798504,-0.1980021327
2.47,-0.7579004549,-0.1823643225
2.48,-0.7608960909,-0.1666622047
2.49,-0.7635652828,-0.1509027975
2.5,-0.765906717,-0.1350931533
2.51,-0.7679192428,-0.1192403544
2.52,-0.7696018721,-0.1033515091
2.53,-0.7709537806,-0.08743374771
2.54,-0.771974308,-0.07149421891
2.55,-0.7726629578,-0.05554008548
2.56,-0.7730193979,-0.03957852048
2.57,-0.7730434603,-0.02361670332
2.58,-0.7727351415,-0.007661815835
2.59,-0.7720946018,0.008278961668
2.6,-0.7711221654,0.02419845427
2.61,-0.76981832,0.04008949637
2.62,-0.7681837165,0.05594493552
2.63,-0.7662191682,0.0717576363
2.64,-0.7639256503,0.08752048417
2.65,-0.7613042994,0.1032263892
2.66,-0.7583564124,0.1188682901
2.67,-0.7550834459,0.1344391575
2.68,-0.7514870149,0.1499319982
2.69,-0.7475688921,0.1653398585
2.7,-0.7433310066,0.1806558282
2.71,-0.7387754426,0.1958730437
2.72,-0.7339044381,0.2109846922
2.73,-0.7287203837,0.2259840147
2.74,-0.723225821,0.2408643101
2.75,-0.7174234407,0.255618938
2.76,-0.7113160818,0.2702413225
2.77,-0.7049067289,0.2847249557
2.78,-0.6981985111,0.2990634006
2.79,-0.6911946999,0.3132502946
2.8,-0.6838987072,0.327279353
2.81,-0.6763140835,0.3411443715
2.82,-0.6684445155,0.3548392298
2.83,-0.6602938242,0.3683578946
2.84,-0.6518659627,0.3816944224
2.85,-0.6431650135,0.3948429626
2.86,-0.6341951869,0.4077977603
2.87,-0.6249608177,0.420553159
2.88,-0.6154663636,0.4331036035
2.89,-0.605716402,0.4454436426
2.9,-0.5957156278,0.4575679314
2.91,-0.5854688504,0.4694712342
2.92,-0.5749809914,0.4811484269
2.93,-0.5642570818,0.4925944989
2.94,-0.5533022589,0.5038045564
2.95,-0.5421217636,0.5147738235
2.96,-0.5307209377,0.5254976455
2.97,-0.5191052208,0.5359714901
2.98,-0.5072801473,0.5461909499
2.99,-0.4952513435,0.5561517442
3,-0.4830245245,0.5658497211
3.01,-0.4706054911,0.5752808589
3.02,-0.4580001266,0.5844412682
3.03,-0.4452143939,0.5933271933
3.04,-0.432254332,0.6019350139
3.05,-0.4191260531,0.6102612467
3.06,-0.4058357392,0.6183025463
3.07,-0.3923896388,0.6260557072
3.08,-0.3787940639,0.6335176647
3.09,-0.3650553863,0.6406854961
3.1,-0.3511800345,0.6475564217
3.11,-0.3371744906,0.654127806
3.12,-0.3230452864,0.6603971586
3.13,-0.3087990008,0.6663621349
3.14,-0.2944422556,0.6720205371
3.15,-0.2799817128,0.6773703147
3.16,-0.2654240709,0.6824095652
3.17,-0.2507760617,0.6871365346
3.18,-0.2360444467,0.691549618
3.19,-0.2212360139,0.6956473598
3.2,-0.2063575744,0.6994284539
3.21,-0.1914159589,0.7028917443
3.22,-0.1764180145,0.7060362251
3.23,-0.1613706013,0.7088610402
3.24,-0.146280589,0.7113654839
3.25,-0.1311548535,0.7135490004
3.26,-0.1160002736,0.7154111837
3.27,-0.100823728,0.7169517775
3.28,-0.08563209151,0.7181706749
3.29,-0.07043223199,0.7190679179
3.3,-0.05523100716,0.7196436969
3.31,-0.04003526127,0.7198983504
3.32,-0.02485182188,0.7198323644
3.33,-0.009687496687,0.7194463713
3.34,0.00545092967,0.71874115
3.35,0.02055669874,0.7177176242
3.36,0.03562308139,0.7163768622
3.37,0.0506433809,0.7147200755
3.38,0.06561093601,0.7127486182
3.39,0.08051912394,0.7104639859
3.4,0.09536136344,0.7078678142
3.41,0.1101311177,0.7049618778
3.42,0.1248218973,0.7017480895
3.43,0.139427263,0.6982284984
3.44,0.153940829,0.6944052887
3.45,0.168356265,0.6902807786
3.46,0.1826672998,0.6858574185
3.47,0.1968677235,0.6811377894
3.48,0.2109513903,0.6761246016
3.49,0.2249122215,0.670820693
3.5,0.2387442075,0.6652290271
3.51,0.2524414109,0.6593526918
3.52,0.2659979686,0.653194897
3.53,0.2794080948,0.6467589734
3.54,0.2926660829,0.6400483699
3.55,0.3057663081,0.6330666524
3.56,0.3187032299,0.6258175014
3.57,0.3314713941,0.6183047098
3.58,0.3440654351,0.6105321815
3.59,0.3564800784,0.6025039286
3.6,0.3687101422,0.5942240697
3.61,0.3807505399,0.5856968275
3.62,0.3925962821,0.5769265267
3.63,0.4042424784,0.5679175915
3.64,0.4156843393,0.5586745438
3.65,0.4269171784,0.5492020003
3.66,0.437936414,0.5395046707
3.67,0.4487375707,0.5295873547
3.68,0.4593162814,0.5194549401
3.69,0.4696682889,0.5091124002
3.7,0.4797894476,0.498564791
3.71,0.4896757245,0.4878172493
3.72,0.4993232015,0.4768749897
3.73,0.5087280763,0.465743302
3.74,0.5178866639,0.4544275491
3.75,0.526795398,0.4429331639
3.76,0.5354508322,0.4312656469
3.77,0.5438496411,0.4194305637
3.78,0.5519886218,0.407433542
3.79,0.5598646947,0.395280269
3.8,0.5674749045,0.3829764892
3.81,0.5748164213,0.3705280008
3.82,0.5818865417,0.3579406539
3.83,0.5886826894,0.3452203469
3.84,0.5952024159,0.3323730246
3.85,0.6014434017,0.3194046748
3.86,0.6074034566,0.3063213257
3.87,0.6130805205,0.2931290434
3.88,0.6184726639,0.2798339286
3.89,0.6235780884,0.2664421143
3.9,0.6283951273,0.2529597628
3.91,0.632922246,0.2393930629
3.92,0.637158042,0.2257482269
3.93,0.6411012457,0.2120314883
3.94,0.6447507202,0.1982490985
3.95,0.6481054617,0.1844073243
3.96,0.6511645996,0.1705124449
3.97,0.6539273963,0.1565707492
3.98,0.6563932477,0.142588533
3.99,0.6585616827,0.1285720963
4,0.6604323632,0.1145277401
4.01,0.6620050839,0.1004617644
4.02,0.6632797724,0.08638046459
4.03,0.6642564883,0.07229012921
4.04,0.6649354234,0.05819703704
4.05,0.6653169012,0.04410745437
4.06,0.665401376,0.03002763228
4.07,0.6651894331,0.01596380389
4.08,0.6646817877,0.001922181717
4.09,0.6638792846,-0.01209104503
4.1,0.6627828973,-0.02606971314
4.11,0.6613937273,-0.04000768804
4.12,0.6597130035,-0.0538988664
4.13,0.6577420814,-0.06773717877
4.14,0.6554824418,-0.08151659219
4.15,0.6529356904,-0.09523111272
4.16,0.6501035564,-0.108874788
4.17,0.6469878917,-0.1224417098
4.18,0.6435906697,-0.1359260165
4.19,0.6399139844,-0.1493218956
4.2,0.6359600487,-0.162623586
4.21,0.6317311936,-0.1758253807
4.22,0.627229867,-0.188921629
4.23,0.6224586319,-0.2019067388
4.24,0.6174201655,-0.2147751793
4.25,0.6121172573,-0.2275214827
4.26,0.6065528082,-0.240140247
4.27,0.6007298284,-0.2526261382
4.28,0.5946514363,-0.2649738919
4.29,0.5883208566,-0.2771783164
4.3,0.5817414188,-0.2892342941
4.31,0.5749165556,-0.3011367837
4.32,0.5678498008,-0.3128808228
4.33,0.5605447879,-0.3244615291
4.34,0.5530052481,-0.335874103
4.35,0.5452350087,-0.3471138293
4.36,0.5372379906,-0.3581760791
4.37,0.5290182072,-0.3690563118
4.38,0.5205797619,-0.3797500766
4.39,0.511926846,-0.3902530148
4.4,0.5030637373,-0.4005608608
4.41,0.4939947971,-0.4106694445
4.42,0.4847244691,-0.4205746925
4.43,0.4752572765,-0.4302726299
4.44,0.4655978202,-0.4397593816
4.45,0.4557507766,-0.4490311741
4.46,0.4457208951,-0.4580843369
4.47,0.4355129962,-0.4669153036
4.48,0.4251319691,-0.4755206137
4.49,0.4145827693,-0.4838969135
4.5,0.4038704162,-0.4920409577
4.51,0.3929999913,-0.4999496103
4.52,0.3819766349,-0.507619846
4.53,0.3708055445,-0.5150487511
4.54,0.3594919721,-0.5222335247
4.55,0.3480412217,-0.5291714797
4.56,0.3364586469,-0.5358600437
4.57,0.3247496484,-0.5422967597
4.58,0.3129196716,-0.5484792874
4.59,0.300974204,-0.5544054035
4.6,0.2889187728,-0.5600730027
4.61,0.2767589421,-0.5654800984
4.62,0.2645003109,-0.5706248231
4.63,0.2521485099,-0.5755054293
4.64,0.2397091993,-0.5801202896
4.65,0.2271880664,-0.5844678977
4.66,0.2145908224,-0.5885468682
4.67,0.2019232007,-0.5923559374
4.68,0.1891909536,-0.5958939633
4.69,0.1763998499,-0.5991599262
4.7,0.1635556726,-0.6021529284
4.71,0.1506642159,-0.6048721949
4.72,0.1377312828,-0.6073170729
4.73,0.1247626828,-0.6094870322
4.74,0.1117642288,-0.611381665
4.75,0.09874173486,-0.6130006859
4.76,0.08570101344,-0.6143439317
4.77,0.07264787305,-0.6154113612
4.78,0.05958811556,-0.6162030551
4.79,0.04652753367,-0.6167192153
4.8,0.03347190837,-0.616960165
4.81,0.02042700644,-0.6169263481
4.82,0.007398577932,-0.6166183285
4.83,-0.00560764634,-0.6160367901
4.84,-0.01858595728,-0.6151825357
4.85,-0.03153066995,-0.6140564866
4.86,-0.04443612608,-0.6126596822
4.87,-0.05729669643,-0.6109932787
4.88,-0.07010678325,-0.6090585488
4.89,-0.08286082263,-0.6068568808
4.9,-0.09555328694,-0.6043897773
4.91,-0.1081786871,-0.6016588549
4.92,-0.1207315749,-0.598665843
4.93,-0.1332065455,-0.5954125825
4.94,-0.1455982394,-0.5919010252
4.95,-0.1579013448,-0.5881332322
4.96,-0.1701105999,-0.5841113733
4.97,-0.1822207952,-0.5798377252
4.98,-0.1942267753,-0.5753146708
4.99,-0.2061234414,-0.5705446975
5,-0.2179057531,-0.5655303962
5.01,-0.2295687307,-0.5602744597
5.02,-0.2411074572,-0.5547796813
5.03,-0.2525170802,-0.5490489534
5.04,-0.263792814,-0.5430852662
5.05,-0.2749299414,-0.5368917057
5.06,-0.2859238158,-0.5304714527
5.07,-0.2967698629,-0.5238277806
5.08,-0.3074635824,-0.5169640544
5.09,-0.3180005502,-0.5098837285
5.1,-0.3283764198,-0.5025903452
5.11,-0.3385869242,-0.4950875329
5.12,-0.3486278774,-0.4873790045
5.13,-0.3584951762,-0.4794685553
5.14,-0.3681848017,-0.4713600614
5.15,-0.3776928211,-0.4630574777
5.16,-0.3870153885,-0.4545648362
5.17,-0.3961487475,-0.4458862438
5.18,-0.4050892314,-0.4370258805
5.19,-0.4138332657,-0.4279879973
5.2,-0.4223773685,-0.4187769146
5.21,-0.4307181524,-0.4093970195
5.22,-0.4388523256,-0.3998527645
5.23,-0.446776693,-0.3901486648
5.24,-0.4544881575,-0.3802892966
5.25,-0.461983721,-0.3702792947
5.26,-0.4692604856,-0.3601233508
5.27,-0.4763156545,-0.3498262109
5.28,-0.483146533,-0.3393926733
5.29,-0.4897505296,-0.3288275866
5.3,-0.4961251567,-0.3181358471
5.31,-0.5022680315,-0.3073223972
5.32,-0.5081768768,-0.2963922224
5.33,-0.5138495218,-0.2853503497
5.34,-0.5192839029,-0.2742018451
5.35,-0.5244780638,-0.2629518115
5.36,-0.5294301569,-0.2516053861
5.37,-0.5341384435,-0.2401677385
5.38,-0.5386012941,-0.2286440681
5.39,-0.5428171892,-0.217039602
5.4,-0.5467847195,-0.2053595929
5.41,-0.5505025866,-0.1936093163
5.42,-0.5539696029,-0.1817940686
5.43,-0.5571846921,-0.1699191647
5.44,-0.5601468896,-0.1579899355
5.45,-0.5628553423,-0.146011726
5.46,-0.565309309,-0.1339898926
5.47,-0.5675081606,-0.121929801
5.48,-0.5694513799,-0.1098368237
5.49,-0.5711385615,-0.09771633817
5.5,-0.5725694124,-0.08557372386
5.51,-0.5737437511,-0.07341436046
5.52,-0.574661508,-0.06124362539
5.53,-0.5753227249,-0.04906689152
5.54,-0.5757275553,-0.03688952495
5.55,-0.5758762632,-0.0247168827
5.56,-0.575769224,-0.01255431047
5.57,-0.5754069229,-0.0004071403655
5.58,-0.5747899555,0.0117193113
5.59,-0.5739190266,0.02381974629
5.6,-0.5727949505,0.03588888659
5.61,-0.5714186495,0.04792147668
5.62,-0.5697911542,0.05991228571
5.63,-0.5679136024,0.07185610963
5.64,-0.5657872385,0.08374777343
5.65,-0.563413413,0.09558213321
5.66,-0.5607935816,0.1073540784
5.67,-0.5579293041,0.1190585337
5.68,-0.5548222443,0.1306904614
5.69,-0.5514741686,0.1422448634
5.7,-0.547886945,0.1537167831
5.71,-0.5440625428,0.1651013077
5.72,-0.5400030307,0.1763935698
5.73,-0.5357105766,0.1875887499
5.74,-0.531187446,0.1986820782
5.75,-0.5264360011,0.2096688363
5.76,-0.5214586999,0.2205443594
5.77,-0.5162580943,0.2313040381
5.78,-0.5108368298,0.2419433205
5.79,-0.5051976435,0.2524577136
5.8,-0.4993433633,0.2628427855
5.81,-0.4932769063,0.2730941669
5.82,-0.4870012774,0.2832075534
5.83,-0.4805195683,0.2931787067
5.84,-0.4738349557,0.3030034565
5.85,-0.4669507,0.3126777022
5.86,-0.4598701436,0.3221974146
5.87,-0.4525967099,0.3315586376
5.88,-0.4451339009,0.3407574894
5.89,-0.4374852965,0.3497901646
5.9,-0.4296545524,0.3586529354
5.91,-0.4216453985,0.3673421532
5.92,-0.4134616372,0.37585425
5.93,-0.405107142,0.3841857398
5.94,-0.3965858552,0.3923332202
5.95,-0.3879017868,0.4002933737
5.96,-0.3790590122,0.4080629688
5.97,-0.3700616706,0.4156388614
5.98,-0.3609139633,0.4230179964
5.99,-0.3516201515,0.4301974083
6,-0.3421845546,0.437174223
