"Freq [GHz]","re(S(Antenna1_1_1,Antenna1_1_1)) []","im(S(Antenna1_1_1,Antenna1_1_1)) []"
3,-0.193756797156393,-0.159105837383326
3.0175,-0.196694056953113,-0.147900191439694
3.035,-0.205845545341577,-0.139323205273135
3.0525,-0.216280972900528,-0.123077061919154
3.07,-0.220886226614973,-0.106352803806774
3.0875,-0.225952449005216,-0.0903573850413111
3.105,-0.228515398387793,-0.0726757791826729
3.1225,-0.229698472981042,-0.0556982073849398
3.14,-0.228751731395617,-0.0386488108518418
3.1575,-0.228682967900542,-0.02177679411233
3.175,-0.222671244968947,-0.000517212446175704
3.1925,-0.211482212828567,0.010792082373697
3.21,-0.208777767495043,0.0212818853788935
3.2275,-0.202305534483198,0.036065699775907
3.245,-0.195720909744488,0.0472537208915647
3.2625,-0.189212133823122,0.0624238625934738
3.28,-0.175956463203695,0.0749928928504707
3.2975,-0.166104850985446,0.0825177327810073
3.315,-0.156639307461238,0.0933003781147836
3.3325,-0.145215208772174,0.103093867983347
3.35,-0.13129933655453,0.113443472110248
3.3675,-0.115650996345088,0.118872793845012
3.385,-0.102009070882526,0.124747607876913
3.4025,-0.0857338599866052,0.128955061659757
3.42,-0.0689697474441445,0.132576142561361
3.4375,-0.0481244492422872,0.130193338545451
3.455,-0.0354491496170284,0.120942022670013
3.4725,-0.029146090299579,0.119216106810226
3.49,-0.0147049146597215,0.121413795444546
3.5075,0.0015316391615487,0.114726427921848
3.525,0.0102380283120739,0.106936391816772
3.5425,0.0182036847291429,0.106671058954134
3.56,0.0377864615482276,0.105780295069644
3.5775,0.0543964105889105,0.0908278415222556
3.595,0.0633566525919724,0.0814880516065434
3.6125,0.079987719779613,0.0681350378605833
3.63,0.0871556099162797,0.047401703747455
3.6475,0.0907100355224567,0.0305004696141825
3.665,0.0882547313555196,0.0126145526002499
3.6825,0.0841079751128762,0.00602795245627588
3.7,0.0905015028179312,-0.00229792600504572
3.7175,0.0911616874370535,-0.0165795284223002
3.735,0.0922909457197156,-0.0242355459591986
3.7525,0.0992406996369017,-0.0362110623574919
3.77,0.10470809168263,-0.0556474861009587
3.7875,0.0998647984981248,-0.0797741819465199
3.805,0.0884817280160687,-0.0942852838084459
3.8225,0.0836550147910634,-0.107192715042471
3.84,0.0737011051303762,-0.126302756757784
3.8575,0.0558669577751956,-0.138348222770082
3.875,0.0406512108782063,-0.14326822176763
3.8925,0.0297212512006333,-0.1450075474253
3.91,0.0231795748382703,-0.149344262961277
3.9275,0.0170041335207426,-0.155310154166269
3.945,0.0119857715823108,-0.168053433349073
3.9625,-0.00582581748004431,-0.182313733931447
3.98,-0.022988747146502,-0.18519115605705
3.9975,-0.0376852466345682,-0.191937378362147
4.015,-0.0573497799551807,-0.193792471629408
4.0325,-0.072826159193359,-0.193792484572456
4.05,-0.0923458221285466,-0.193158925797086
4.0675,-0.107862704291123,-0.184462563188049
4.085,-0.117747279799618,-0.181411718217608
4.1025,-0.132977606640241,-0.177222951707202
4.12,-0.143874965894759,-0.171546208651821
4.1375,-0.158370631186726,-0.166602893910431
4.155,-0.168184501850065,-0.157290623547412
4.1725,-0.178094717831062,-0.154747507830485
4.19,-0.193745348584005,-0.14829298124446
4.2075,-0.206708718801315,-0.138379148210789
4.225,-0.219742820073167,-0.127713679053547
4.2425,-0.23071821798638,-0.113463529713886
4.26,-0.23815480462887,-0.10110628042355
4.2775,-0.248760300505481,-0.088665149745592
4.295,-0.257593396839024,-0.0711054470580934
4.3125,-0.261629137266881,-0.0512727957210176
4.33,-0.257199704321705,-0.0346206776913655
4.3475,-0.254179575247056,-0.026344374400722
4.365,-0.255132888606081,-0.0188044464750522
4.3825,-0.26107158301743,-0.0116709317229918
4.4,-0.268284352280727,0.0047202148546782
4.4175,-0.266776942230044,0.0201947068646563
4.435,-0.269577680398116,0.0324675145843901
4.4525,-0.271698386320435,0.0517246373149779
4.47,-0.266777931977239,0.0731243499036535
4.4875,-0.253522613375216,0.0897295485258658
4.505,-0.244104015821207,0.0959613472721633
4.5225,-0.240544240753515,0.108336905393054
4.54,-0.228189916673458,0.120527872507831
4.5575,-0.218448833722841,0.124171263178871
4.575,-0.214719873939566,0.12916508574268
4.5925,-0.212748267266067,0.137458023700828
4.61,-0.210153950269411,0.151461730100137
4.6275,-0.199142225064017,0.167754135404902
4.645,-0.184403485909872,0.177300665986599
4.6625,-0.170859459770147,0.184382342823165
4.68,-0.157937044997064,0.188541223405152
4.6975,-0.147478775602744,0.193256904517509
4.715,-0.135905493925839,0.199211595058153
4.7325,-0.120431300626118,0.205359797149432
4.75,-0.102119625281468,0.202532503359809
4.7675,-0.0961758028564555,0.196653449558773
4.785,-0.091408682244277,0.201002766975492
4.8025,-0.0790912952911192,0.204481032062443
4.82,-0.0689112838582895,0.203056265185483
4.8375,-0.0614251350535009,0.20456037557225
4.855,-0.0507550144970797,0.208431716662508
4.8725,-0.0360716024191133,0.210054526958545
4.89,-0.0218879557961593,0.207663017235687
4.9075,-0.00739948982074051,0.20475092664914
4.925,0.0068503812640934,0.196347885315167
4.9425,0.0152497339176301,0.187921970177452
4.96,0.0244835317552632,0.180869264173209
4.9775,0.0311677478340577,0.171893110265144
4.995,0.0362135168522626,0.165391100993487
5.0125,0.0408064213081308,0.158689658129735
5.03,0.0429719661882055,0.156114246405859
5.0475,0.0521651169593529,0.157809502268956
5.065,0.0669626242995996,0.152657293364011
5.0825,0.0794173167233459,0.141844811681224
5.1,0.0883362627186856,0.127833288509745
5.1175,0.0929298974531929,0.114262073670713
5.135,0.0966647731792779,0.100861161380038
5.1525,0.0961429793823382,0.0870245502128158
5.17,0.0934723248823881,0.0776242624459518
5.1875,0.0918175142904432,0.0706717307708456
5.205,0.0921131315795545,0.066311563639252
5.2225,0.0967747388654245,0.0604565158225642
5.24,0.100726391399479,0.0505952910501276
5.2575,0.103121423915232,0.040743025590098
5.275,0.106448121812563,0.0292981417579234
5.2925,0.107587739347507,0.0146077994872887
5.31,0.104667834243854,-0.00112517575173489
5.3275,0.0971023125035827,-0.015389981425373
5.345,0.0871298659164454,-0.0253131390244889
5.3625,0.0774570795314344,-0.0309175345330674
5.38,0.0718837986440566,-0.0330674003903152
5.3975,0.070616434947197,-0.03847542475298
5.415,0.0674084672597697,-0.0472784256067799
5.4325,0.0615578370235566,-0.0560035501471256
5.45,0.0551156350960112,-0.0621319271984465
5.4675,0.0520661581358184,-0.0696266802201214
5.485,0.0452499414779024,-0.0819634827546569
5.5025,0.0329773468601373,-0.0911570514730727
5.52,0.0209106851062837,-0.0968636543762703
5.5375,0.0086563910896005,-0.101333788004302
5.555,-0.00352543733854388,-0.104023222489856
5.5725,-0.0163094519886911,-0.105271669255936
5.59,-0.0273459696464677,-0.102606657753778
5.6075,-0.0340241114516019,-0.101529715930661
5.625,-0.042331340987742,-0.102319297855896
5.6425,-0.0496080308256086,-0.102618770660251
5.66,-0.0578250831128226,-0.106579296126048
5.6775,-0.0708736599347964,-0.108841164348808
5.695,-0.0832382834456867,-0.106980764797293
5.7125,-0.0929522439158132,-0.105356474780782
5.73,-0.104509988738,-0.106982209573091
5.7475,-0.122645258080565,-0.105620165635834
5.765,-0.140020895487121,-0.0950051204902316
5.7825,-0.149388094171746,-0.0812652014963394
5.8,-0.154210367523322,-0.0715856569193716
5.8175,-0.160247695054006,-0.0645240066546583
5.835,-0.166082280008793,-0.0568180360546766
5.8525,-0.171439743754472,-0.0512443886732676
5.87,-0.179960558767807,-0.0453404508899935
5.8875,-0.187111463961814,-0.0364768654488878
5.905,-0.193331534637953,-0.0305611945557854
5.9225,-0.204782618976443,-0.0235465942703432
5.94,-0.216127984921436,-0.0104568523351264
5.9575,-0.22450294370502,0.00588855126532704
5.975,-0.227980119705146,0.0246652382204481
5.9925,-0.226613248342806,0.0402941557349522
6.01,-0.226113190777265,0.05399236939653
6.0275,-0.222987858604147,0.0685569066607622
6.045,-0.217422166518859,0.0789510122030283
6.0625,-0.214285588517567,0.0853344115241774
6.08,-0.216790896276794,0.0923209819277963
6.0975,-0.219829582474116,0.105506424668055
6.115,-0.218641006504495,0.119937086423457
6.1325,-0.216344135277825,0.133537545118443
6.15,-0.213894262473508,0.147577001845846
6.1675,-0.21052876439848,0.163885608125836
6.185,-0.203148736192381,0.182483856663477
6.2025,-0.188861888652651,0.199709276357513
6.22,-0.1712269205324,0.208990224752835
6.2375,-0.157905347850203,0.213260339656541
6.255,-0.147167435942275,0.217416171824906
6.2725,-0.138648601773957,0.220777889846342
6.29,-0.132909908093736,0.226637905357913
6.3075,-0.125242529072128,0.235978834097555
6.325,-0.114678754966799,0.244451980169327
6.3425,-0.105201501467867,0.252700352930787
6.36,-0.0926836227473586,0.264998161317556
6.3775,-0.0730402210942109,0.274094412586889
6.395,-0.0532102617173478,0.277548398761489
6.4125,-0.0332060505579966,0.278262520852555
6.43,-0.0143666637718665,0.274952742583866
6.4475,0.00279423615928217,0.269296464902856
6.465,0.0166164635063582,0.260160389354836
6.4825,0.0244586363846387,0.251611438055461
6.5,0.0287550277367054,0.248033574707988
6.5175,0.0357963814210139,0.251119572385494
6.535,0.0507434402931922,0.254424667274715
6.5525,0.0689052498778551,0.251754381715096
6.57,0.0857126114855904,0.245859846684472
6.5875,0.103143207536648,0.237590169707847
6.605,0.118759259341225,0.225469823733186
6.6225,0.132720000483068,0.21220763745092
6.64,0.145421846800412,0.19495659502165
6.6575,0.151542246552874,0.175026650428874
6.675,0.151295408593175,0.158768241786489
6.6925,0.150195562729379,0.148810335478162
6.71,0.152607522472827,0.141684025136003
6.7275,0.157002283758392,0.134181047266239
6.745,0.163571399931845,0.1271764010577
6.7625,0.173998401652058,0.117131301983197
6.78,0.183809166152852,0.101208990169309
6.7975,0.190078353611342,0.0816398543205611
6.815,0.191450732187619,0.0600497815898632
6.8325,0.187806132118557,0.0395065689895727
6.85,0.180734996618892,0.0211883001709874
6.8675,0.171259589083962,0.00595747760924663
6.885,0.160611028934863,-0.00618289240423048
6.9025,0.149446198008284,-0.0142926149513602
6.92,0.141061628908951,-0.0183327490758151
6.9375,0.137209449291896,-0.0210729792118646
6.955,0.139715832477566,-0.0261876611574855
6.9725,0.1430847617914,-0.0404571756391988
6.99,0.138320563325978,-0.059996159522422
7.0075,0.126444349335724,-0.0769329595982591
7.025,0.11171113274686,-0.0900834630834677
7.0425,0.0948799824492222,-0.100254317740099
7.06,0.0764253035340219,-0.105879418188183
7.0775,0.0595968350572322,-0.106508624630255
7.095,0.0461849907460477,-0.104877965981119
7.1125,0.0354514753341339,-0.102425726094934
7.13,0.0282458764862505,-0.100413539313607
7.1475,0.0223157461271374,-0.101511882892721
7.165,0.0159775579008928,-0.104054587723977
7.1825,0.00940830438752115,-0.109587998116091
7.2,-0.0019619789451512,-0.117847630264834
7.2175,-0.0194822254143441,-0.123345237520105
7.235,-0.0392296970244095,-0.122408338472165
7.2525,-0.0567314483588131,-0.11596963047069
7.27,-0.0705088394766158,-0.10718725892951
7.2875,-0.081606351554152,-0.0976050704314793
7.305,-0.0896916693911235,-0.087864936727451
7.3225,-0.0963978448602059,-0.0794099752786166
7.34,-0.101733830991785,-0.070188917022509
7.3575,-0.103250455723224,-0.0626119392582372
7.375,-0.103975076412135,-0.0604234732541326
7.3925,-0.110195329379409,-0.0626045806996223
7.41,-0.12158408881089,-0.0626434147877168
7.4275,-0.136074815387028,-0.0590142255818337
7.445,-0.151589765255404,-0.0490077869423081
7.4625,-0.163012765345268,-0.0333855573547478
7.48,-0.168636377780991,-0.016226161173114
7.4975,-0.169848485035168,-0.000227334608806491
7.515,-0.167211336950697,0.0137122723906188
7.5325,-0.162878795038218,0.0228811591728245
7.55,-0.16012165127984,0.0296649707226137
7.5675,-0.157252691286679,0.0342567926166073
7.585,-0.157817891536726,0.0356098642194763
7.6025,-0.163118274619736,0.0385377399840889
7.62,-0.170381169780827,0.044448760162796
7.6375,-0.179845375232596,0.0545564169019339
7.655,-0.187289402634672,0.0723627866976468
7.6725,-0.186216526356761,0.0943721697305262
7.69,-0.175568434099832,0.11310512211616
7.7075,-0.161699930987688,0.122506905046582
7.725,-0.151829228466449,0.126769952392003
7.7425,-0.144037634681015,0.12950249747244
7.76,-0.139547555226011,0.130714114022573
7.7775,-0.137047880299475,0.133081683901005
7.795,-0.137059983452067,0.134767969144515
7.8125,-0.141446112915972,0.141031024298179
7.83,-0.142599794785024,0.154458124720131
7.8475,-0.138444704348767,0.168716882432705
7.865,-0.131047428725722,0.182782514467318
7.8825,-0.118603736808619,0.196289064652082
7.9,-0.101202058972017,0.204424654507729
7.9175,-0.0842780839105164,0.204810160599863
7.935,-0.0725992078317891,0.20054547712096
7.9525,-0.0665203108504035,0.196268784428395
7.97,-0.0647173939066506,0.195061966541411
7.9875,-0.0621221998796356,0.199512360695742
8.005,-0.0557457086830984,0.203438796258593
8.0225,-0.0505017898919963,0.207222265449101
8.04,-0.0435444233938569,0.212414637589456
8.0575,-0.035606846724325,0.218588307645127
8.075,-0.0225307188330794,0.225764000207281
8.0925,-0.00563470808813494,0.227412937632187
8.11,0.0105037844556111,0.224407479522258
8.1275,0.0252846157715547,0.216770765179494
8.145,0.0343039968279109,0.205733979124409
8.1625,0.0385527670908925,0.197178207044173
8.18,0.040975517390997,0.190510757954539
8.1975,0.0419008259581831,0.188080915124519
8.215,0.0465100437917723,0.187866416572569
8.2325,0.0518493908815329,0.186943668594672
8.25,0.0591792346425975,0.187165834050957
8.2675,0.069241889940122,0.185843905055193
8.285,0.082119732781197,0.182036588606677
8.3025,0.0949866995428252,0.17275155649133
8.32,0.10518391992321,0.1602484115927
8.3375,0.112433067902719,0.144132058583882
8.355,0.112460936899335,0.126345711553457
8.3725,0.10622967770492,0.113213112954812
8.39,0.0984517023829874,0.106824551462229
8.4075,0.0945182017488313,0.106690850215694
8.425,0.0972435447546299,0.10598851800056
8.4425,0.101694013635399,0.101806380707709
8.46,0.10664446571231,0.094961825751438
8.4775,0.110132365510534,0.0860930804662222
8.495,0.114347403499076,0.0761357593660666
8.5125,0.116711283623389,0.0605185052400646
8.53,0.111687443992922,0.0441049513537402
8.5475,0.102702220017163,0.0306111928972136
8.565,0.0896220085763961,0.0208191900370779
8.5825,0.0770190037424908,0.0181005316691863
8.6,0.0681082808901182,0.0170779054860525
8.6175,0.0600747294588371,0.0184620405230484
8.635,0.0581409753172602,0.0210778652429463
8.6525,0.0592664895788316,0.0186819839624277
8.67,0.0601210426644071,0.011520235691303
8.6875,0.0552846831696478,-0.00015885909632415
8.705,0.0447213658580111,-0.00733376231577421
8.7225,0.0349590657509694,-0.0133928504726067
8.74,0.0215227756489035,-0.0180399297274644
8.7575,0.00836759162665332,-0.019250563445287
8.775,-0.00698491373954118,-0.0190943707952467
8.7925,-0.0221876795494701,-0.0119205572812832
8.81,-0.031736545729514,-0.00153126064459727
8.8275,-0.0359873684477873,0.00904028474613858
8.845,-0.0354733369874032,0.0150966282908345
8.8625,-0.0369936723691449,0.0161277891503905
8.88,-0.0404909837309567,0.0163765104911194
8.8975,-0.047012015266229,0.014650628494442
8.915,-0.0578517156131093,0.016106733314068
8.9325,-0.0680500257476565,0.0203343026892138
8.95,-0.0804056442842445,0.0266823653776354
8.9675,-0.0910458507312438,0.0386189868148563
8.985,-0.0986375564509091,0.0520488680974962
9.0025,-0.102878183914063,0.0686688786020538
9.02,-0.10111757941556,0.0839314608316579
9.0375,-0.09707175942613,0.0972582587126258
9.055,-0.0880832105628753,0.106603185627629
9.0725,-0.0815221551674466,0.107501945795882
9.09,-0.0817210858561052,0.106750075158321
9.1075,-0.0884813506042837,0.108217750703692
9.125,-0.0973120017854824,0.119111346766632
9.1425,-0.0983847016373455,0.133236431492345
9.16,-0.0993258005948088,0.146031348921844
9.1775,-0.0968377458299476,0.163299772509752
9.195,-0.0886496258836929,0.178501770811963
9.2125,-0.077519841939597,0.192324908635453
9.23,-0.0619901249144098,0.201032162541595
9.2475,-0.0484307365461708,0.203839862044431
9.265,-0.0372693763509223,0.203789360141119
9.2825,-0.0310737919307482,0.201679205443372
9.3,-0.0289162712606911,0.203089083129817
9.3175,-0.0266867524946704,0.207548767641499
9.335,-0.024467838527404,0.215488984344922
9.3525,-0.0176380391245963,0.226810199526461
9.37,-0.00668982614009893,0.236861541680573
9.3875,0.00882085009554268,0.246111954742342
9.405,0.0277917811227782,0.248244477730011
9.4225,0.0434393041277726,0.246381650386597
9.44,0.0582897310545613,0.241760044400697
9.4575,0.0684196633348741,0.235685927629429
9.475,0.0786750932901599,0.231166362132014
9.4925,0.0866413576654206,0.223361141727171
9.51,0.0901060341755132,0.218500576322766
9.5275,0.0935980628750993,0.216947462481259
9.545,0.0984677284324813,0.220093537846008
9.5625,0.111536171544616,0.223636451539611
9.58,0.126058415848188,0.219986517205994
9.5975,0.139292268006003,0.21535785790514
9.615,0.153878132652562,0.206279479322398
9.6325,0.164161738246873,0.194207347553844
9.65,0.172974026550937,0.181269705677966
9.6675,0.177176958514214,0.166650413631389
9.685,0.178732189263082,0.154922680903686
9.7025,0.178499310124011,0.143786794604316
9.72,0.17679963932427,0.137275167737475
9.7375,0.178740755160401,0.131932796105267
9.755,0.180115407659508,0.126710145577863
9.7725,0.185578703408076,0.12359882113445
9.79,0.194536830067484,0.115744098469201
9.8075,0.203345005486181,0.103337556648124
9.825,0.208634677254853,0.0844308198809727
9.8425,0.205264445711953,0.0657250205282821
9.86,0.199876473098378,0.0507367558829164
9.8775,0.191183217875753,0.0362376646459625
9.895,0.180067223811397,0.0271865859240346
9.9125,0.170533147455748,0.0206939542766217
9.93,0.161005447527159,0.0178160689416966
9.9475,0.156920329718583,0.0165328689773116
9.965,0.153712710057842,0.0126952780632954
9.9825,0.153876630208553,0.0091838946047214
10,0.155503952203236,-0.0026066468488527
