"Freq [GHz]","re(S(Antenna1_1_1,Antenna1_1_1)) []","im(S(Antenna1_1_1,Antenna1_1_1)) []"
3,-0.197181224385393,-0.164977095952326
3.0175,-0.202700614766113,-0.148874417206694
3.035,-0.209009934018577,-0.136822636626135
3.0525,-0.217865325323528,-0.122118345758154
3.07,-0.224606684256973,-0.103311028370774
3.0875,-0.224881835800216,-0.0838594333763111
3.105,-0.223756206879493,-0.0704185608136729
3.1225,-0.226110043451642,-0.0558556468129398
3.14,-0.225505557259517,-0.0395672080568418
3.1575,-0.224254867930542,-0.02494471185933
3.175,-0.223585507362947,-0.0088453480463757
3.1925,-0.218998717826567,0.010046351131697
3.21,-0.209055579545343,0.0243787722208935
3.2275,-0.203069734128298,0.034170588092907
3.245,-0.199652807004488,0.0486169316445647
3.2625,-0.189486332056122,0.0661524447384738
3.28,-0.175103820692695,0.0762971524124707
3.2975,-0.165957852566446,0.0848454339220073
3.315,-0.153874580217238,0.0957666708117836
3.3325,-0.140733838542174,0.102829951908347
3.35,-0.12942325117153,0.109285594686248
3.3675,-0.117302767102088,0.118249583676012
3.385,-0.0988106426905257,0.124628852824413
3.4025,-0.0835169241366052,0.122769838853757
3.42,-0.0747076516171445,0.124679173795361
3.4375,-0.0600277492420872,0.131734671730451
3.455,-0.0391288023780284,0.131304460106013
3.4725,-0.024379370099579,0.124989464472226
3.49,-0.0119628208337215,0.122099814267546
3.5075,0.0035061346365487,0.117356105981848
3.525,0.0155009172510739,0.108631845562772
3.5425,0.0247925865891429,0.103974857114134
3.56,0.0405703975392276,0.0988541096496442
3.5775,0.0540762280659105,0.0843658144302556
3.595,0.0582449704469724,0.0725595364065434
3.6125,0.066984246228613,0.0676705165805833
3.63,0.0813797610112797,0.055008042300455
3.6475,0.0869330536624567,0.0366358959761825
3.665,0.0891389377782326,0.0247652903272499
3.6825,0.0952460173738762,0.0113756601402759
3.7,0.0973026559219312,-0.00455343964504572
3.7175,0.0983042003460535,-0.0182363125523002
3.735,0.0987306774687256,-0.0333478499921986
3.7525,0.0971588517009017,-0.0480695048444919
3.77,0.09379491198963,-0.0628894303359587
3.7875,0.0895421391891248,-0.0753435302885199
3.805,0.0864252514760687,-0.0897249712182459
3.8225,0.0786494363310634,-0.104641822903711
3.84,0.0699771987403762,-0.116167130902784
3.8575,0.0619898701881956,-0.127076778434082
3.875,0.0536834536253063,-0.13928499874353
3.8925,0.0408681690770333,-0.1510543370453
3.91,0.0278025852262703,-0.159200188156277
3.9275,0.0145237253867426,-0.166980227149269
3.945,0.0011253235563108,-0.171974102141373
3.9625,-0.00973152101004431,-0.177977624800447
3.98,-0.024662680753502,-0.18717636497805
3.9975,-0.0457863037515682,-0.189718958682147
4.015,-0.0596840810061807,-0.184956340635408
4.0325,-0.069802738906359,-0.186753983415456
4.05,-0.0848420807185466,-0.187876945717086
4.0675,-0.0981144692431226,-0.187934747397049
4.085,-0.115741342112318,-0.188938983460608
4.1025,-0.135178663881241,-0.182244284435202
4.12,-0.147425019102759,-0.171741428995821
4.1375,-0.155845320218726,-0.167088830211431
4.155,-0.170590782779065,-0.164372782875412
4.1725,-0.186724309897562,-0.155202142410485
4.19,-0.199027738644005,-0.14327733112346
4.2075,-0.208680702663315,-0.131698389199789
4.225,-0.216872684767167,-0.119954041709547
4.2425,-0.22265398714538,-0.111096240350886
4.26,-0.23424584611887,-0.10393031459555
4.2775,-0.246251059275481,-0.089254780651592
4.295,-0.253533678259024,-0.0723568832370935
4.3125,-0.254470226226881,-0.0564901347970176
4.33,-0.257510438809705,-0.0492502835936655
4.3475,-0.267784074075056,-0.034150828763722
4.365,-0.268467984623581,-0.0144663276600522
4.3825,-0.26666493978843,-4.8324361991807E-05
4.4,-0.264993963047727,0.0131721406706782
4.4175,-0.263709662817044,0.0256677934316563
4.435,-0.261903093825116,0.0374660440893901
4.4525,-0.262853160002435,0.0499727411619779
4.47,-0.259960994872239,0.0672026553736535
4.4875,-0.253065119461216,0.0794945189058658
4.505,-0.249553725067207,0.0914176875221633
4.5225,-0.243318905374515,0.105465543213054
4.54,-0.235172124552458,0.116706382267831
4.5575,-0.228530423319841,0.127629669932871
4.575,-0.219046225501566,0.13954240705168
4.5925,-0.209152970327067,0.147393424556228
4.61,-0.200921249316411,0.156741806132137
4.6275,-0.189626271688317,0.164761339059902
4.645,-0.180311133938872,0.170354961553599
4.6625,-0.172323498154147,0.177421444824165
4.68,-0.162325323971064,0.186945353357152
4.6975,-0.147964813852744,0.193614838565509
4.715,-0.135878980975839,0.196907435731153
4.7325,-0.123312877976118,0.201282490660432
4.75,-0.110124425561468,0.202104373047909
4.7675,-0.101273089546456,0.203317210723773
4.785,-0.090394046944277,0.207203052270492
4.8025,-0.0773160643511192,0.208410587439443
4.82,-0.0648723451022895,0.207962666762483
4.8375,-0.0533985295505009,0.20477143514825
4.855,-0.0462958998340797,0.203537217894508
4.8725,-0.0347267402341133,0.205655152023945
4.89,-0.0216698005421593,0.202802764430687
4.9075,-0.0100482783947405,0.19968423681114
4.925,0.0017305051810934,0.193482034673167
4.9425,0.00899913939563012,0.187463042397452
4.96,0.0173542183533632,0.184921521416209
4.9775,0.0291039493390577,0.180766633074144
4.995,0.0399016339508626,0.172064544244487
5.0125,0.0460898433813308,0.163127223809735
5.03,0.0518442555722055,0.157681943832859
5.0475,0.0606053397253528,0.151814108921657
5.065,0.0686734522375996,0.143206190019011
5.0825,0.0760562365127459,0.134128544578224
5.1,0.0814999804176856,0.122685279403745
5.1175,0.0836779878351929,0.113818012100713
5.135,0.0883693060951779,0.106484388016038
5.1525,0.0933222171853382,0.0972988430298158
5.17,0.0981103686613881,0.0870347998859518
5.1875,0.101007689729443,0.0748086502158456
5.205,0.101234718358554,0.063488986996402
5.2225,0.100830021840424,0.0537241459675642
5.24,0.101218331251479,0.0449811425661276
5.2575,0.102260343972232,0.034587698550098
5.275,0.101129275533563,0.0236707380529234
5.2925,0.0997885323585072,0.0133102256052887
5.31,0.0968082996598538,0.00218510680986511
5.3275,0.0925853658315827,-0.00698941633937303
5.345,0.0891539787754455,-0.0157800481894889
5.3625,0.0853123698834344,-0.0247435769880674
5.38,0.0814290296010566,-0.0340237179883153
5.3975,0.076127031317197,-0.04424960927398
5.415,0.0687375213797697,-0.0535746036467799
5.4325,0.0605093073455566,-0.0615494877801256
5.45,0.0513407067309112,-0.0674206686974465
5.4675,0.0451557212456184,-0.0711817725901214
5.485,0.0402828693369024,-0.0793346851926569
5.5025,0.0300271624471373,-0.0883591310260727
5.52,0.0174464268622837,-0.0928124913492703
5.5375,0.0080098603906005,-0.0933040916133017
5.555,0.00238047662645612,-0.0970397064918556
5.5725,-0.00710585627349108,-0.103225768587936
5.59,-0.0178837548453677,-0.107655692853778
5.6075,-0.0317923689886019,-0.111777963618661
5.625,-0.046633188617742,-0.109099142156896
5.6425,-0.0548593684676087,-0.104965710835251
5.66,-0.0613477666628226,-0.105905473512048
5.6775,-0.0722951632447964,-0.109449291735008
5.695,-0.0877603490426867,-0.108753420049483
5.7125,-0.100476117307813,-0.102453090131382
5.73,-0.108663156238,-0.0970728207910912
5.7475,-0.117265498831565,-0.0943985130008344
5.765,-0.127587292094691,-0.0915896389702316
5.7825,-0.139752721512145,-0.0877813098773394
5.8,-0.152160419628322,-0.0800732788723716
5.8175,-0.161841279999006,-0.0712469133458683
5.835,-0.170559532400793,-0.0614463673516766
5.8525,-0.176393381618472,-0.0527748145612676
5.87,-0.184671982300807,-0.0454068032369935
5.8875,-0.192176919725814,-0.0352064374708878
5.905,-0.199166798272953,-0.0257033369557854
5.9225,-0.205754992737443,-0.0139439063103432
5.94,-0.210310760816436,-0.00295640246512643
5.9575,-0.21580501058892,0.00862286571532704
5.975,-0.219379990581146,0.0216677182654481
5.9925,-0.221709607239806,0.0338274331079522
6.01,-0.224210780359265,0.04610892848953
6.0275,-0.225870335440147,0.0593663392857622
6.045,-0.226391418982859,0.0729778258980283
6.0625,-0.225241276585567,0.0868151281041774
6.08,-0.223086760369794,0.100024497982796
6.0975,-0.219911686646116,0.113129585812055
6.115,-0.216784890498495,0.124832631772457
6.1325,-0.214083283167825,0.138763837808443
6.15,-0.207407505763508,0.152749738196846
6.1675,-0.20036473157748,0.163905252889836
6.185,-0.194156794752381,0.175051668855477
6.2025,-0.187366967592651,0.187244830060313
6.22,-0.1781875152234,0.199565078381835
6.2375,-0.167623522360203,0.210066646622541
6.255,-0.156736115156575,0.219614443757906
6.2725,-0.145036671984957,0.227846710730342
6.29,-0.134505494133736,0.234831819069913
6.3075,-0.123808357152128,0.244151572921655
6.325,-0.108594743129799,0.252335570573327
6.3425,-0.0939096331178673,0.256120166191787
6.36,-0.0807100251963586,0.259557113159556
6.3775,-0.0682814343892109,0.262564444632889
6.395,-0.0551983383203478,0.267221440681489
6.4125,-0.0393445636179966,0.270094522502555
6.43,-0.0237686013088665,0.270639614333866
6.4475,-0.00869885384691783,0.269407112782856
6.465,0.00501983569175817,0.268175578615836
6.4825,0.0201754159316387,0.266645349520461
6.5,0.0352061193717054,0.263294759475988
6.5175,0.0507731604880139,0.258054825240494
6.535,0.0646288791281922,0.249935308214715
6.5525,0.0759321411798551,0.242334330110096
6.57,0.0872931928565904,0.235684731619472
6.5875,0.0997046077086483,0.228686906567847
6.605,0.112738822841225,0.219676068308186
6.6225,0.124661807643068,0.20791225693792
6.64,0.132951317880412,0.19540224727665
6.6575,0.140807537092874,0.185564209610874
6.675,0.150629503253175,0.174307525915489
6.6925,0.159310267096379,0.160708275896462
6.71,0.166111589763827,0.145663610113003
6.7275,0.170410918306092,0.130131367022239
6.745,0.171862296889845,0.1155286683167
6.7625,0.173502080271058,0.104194842965197
6.78,0.177652552534852,0.0910226803963089
6.7975,0.179122767621342,0.0758557145015611
6.815,0.179247148040619,0.0613571840698632
6.8325,0.178225498961557,0.0468709184195727
6.85,0.176322767660892,0.0323196935909874
6.8675,0.172599983688962,0.0181678719092466
6.885,0.168615305756863,0.00487926866576952
6.9025,0.163783838183284,-0.00866986770136018
6.92,0.158025672675051,-0.0226033906158151
6.9375,0.148843460321896,-0.0365143298818646
6.955,0.138225371814566,-0.0455490943274855
6.9725,0.1300461575464,-0.0529473331165988
6.99,0.122850152501978,-0.061247819484422
7.0075,0.115232319572724,-0.0705943808232591
7.025,0.10588816241386,-0.0810427165034676
7.0425,0.0927465656652222,-0.090122202500099
7.06,0.0797222656040219,-0.0944183340131834
7.0775,0.0697449969172321,-0.0985182489602555
7.095,0.0595301023660477,-0.103978936385119
7.1125,0.0475225288141339,-0.110309788093934
7.13,0.0320101625262505,-0.114086046227607
7.1475,0.0177613505771374,-0.113229173143721
7.165,0.0066075673758928,-0.111145381531977
7.1825,-0.00190904551307885,-0.110468136216091
7.2,-0.0116680538693512,-0.112711705887834
7.2175,-0.0247171287443441,-0.114131864003105
7.235,-0.0391173299644095,-0.112288594261165
7.2525,-0.0517973262788132,-0.10699320541459
7.27,-0.0609002839856158,-0.10141733382751
7.2875,-0.069405361199152,-0.0989875043614793
7.305,-0.0818592010521235,-0.096021952537451
7.3225,-0.0935065848622059,-0.0886687379986166
7.34,-0.103030698663785,-0.080734997512509
7.3575,-0.110431492272224,-0.0714557117982372
7.375,-0.115386348764135,-0.0648014882641326
7.3925,-0.122707419988409,-0.0597421311796223
7.41,-0.13061107998089,-0.0537493241077168
7.4275,-0.139563707052028,-0.0455290700578337
7.445,-0.145351255403904,-0.0353826506153081
7.4625,-0.150472669198268,-0.0269596230667478
7.48,-0.155442750912991,-0.017433814553114
7.4975,-0.159352856316468,-0.00821494086480649
7.515,-0.162801134855696,0.00125436759861879
7.5325,-0.165938655098218,0.0101408770068245
7.55,-0.16965051366984,0.0203386333886137
7.5675,-0.170812476006679,0.0319711113696073
7.585,-0.169885399426726,0.0412679792184763
7.6025,-0.170553044959736,0.0494067006576889
7.62,-0.171075359970827,0.058295786132796
7.6375,-0.172521190335596,0.0673523780559338
7.655,-0.172558847662672,0.0794605482536468
7.6725,-0.168856008495761,0.0901357160008262
7.69,-0.165330016713832,0.0983626660871602
7.7075,-0.163000422517688,0.105852466570582
7.725,-0.161672319328449,0.114930587593303
7.7425,-0.157986688390015,0.12550034186044
7.76,-0.152336152584011,0.134688480042573
7.7775,-0.145573836387475,0.142184218591005
7.795,-0.140380069563067,0.146645610044515
7.8125,-0.138589465956272,0.153898010098179
7.83,-0.132592463536023,0.164450784580131
7.8475,-0.124180449447767,0.171620702232705
7.865,-0.116442413254722,0.177024170078318
7.8825,-0.110209228802619,0.181421590610682
7.9,-0.104697872076017,0.188115245869729
7.9175,-0.0959966027975164,0.195098422817263
7.935,-0.0864175231707891,0.19964159507996
7.9525,-0.0771584162484035,0.202663401982395
7.97,-0.0694144467696506,0.204736854655411
7.9875,-0.0622493541496356,0.208465028514742
8.005,-0.0528145772830984,0.212492813398593
8.0225,-0.0421232450919963,0.214312026585101
8.04,-0.0323420045338569,0.213795776181456
8.0575,-0.024991060044325,0.213504562872127
8.075,-0.0166217104830794,0.215498374503581
8.0925,-0.00607861866813494,0.215629179805187
8.11,0.00358838354961111,0.214460312718258
8.1275,0.0137546185774547,0.212166610346494
8.145,0.0218468126219109,0.208593402653409
8.1625,0.0301328741238925,0.206691968724173
8.18,0.039436075863997,0.202895258639539
8.1975,0.0475125648931831,0.198746854848219
8.215,0.0562260315917723,0.193507383314569
8.2325,0.0627639360075329,0.187155524511672
8.25,0.0689931426805975,0.181975036500957
8.2675,0.075300569671122,0.176200790635193
8.285,0.082484413712197,0.170235611716677
8.3025,0.0885682473279252,0.16156042199133
8.32,0.0923804488671101,0.1547109340027
8.3375,0.0989060384927186,0.147401972163882
8.355,0.103078326793335,0.136679439846257
8.3725,0.10461017801392,0.127558373177812
8.39,0.106054438866987,0.119087330279229
8.4075,0.107110443061831,0.111441295130694
8.425,0.10924983095463,0.10336374930356
8.4425,0.110311596300399,0.0937487765737089
8.46,0.11011792722431,0.083790606418438
8.4775,0.107199788353534,0.0736334279302222
8.495,0.103243228009076,0.0675094176280666
8.5125,0.103502378843389,0.0612963322480646
8.53,0.102521037222922,0.0509268387397402
8.5475,0.097942733657163,0.0403176073212136
8.565,0.0899714010303961,0.0319638365070779
8.5825,0.0834607560364908,0.0283062677241863
8.6,0.0799929528391182,0.0226154892010525
8.6175,0.0744187601668371,0.0159983890760484
8.635,0.0685353961032602,0.00919813921794631
8.6525,0.0594660027518316,0.00267086209642771
8.67,0.0500881604454071,-3.49252346969701E-05
8.6875,0.0428731133716478,-0.00207552719632415
8.705,0.0357872129940111,-0.00474203997977421
8.7225,0.0275239511329694,-0.00804903181260672
8.74,0.0171967405249035,-0.00993882326746444
8.7575,0.00738136563165332,-0.00910967192528701
8.775,-0.00108290683324118,-0.00804347783524666
8.7925,-0.00974912052497011,-0.00670392599128319
8.81,-0.018296161944514,-0.00492340166359727
8.8275,-0.0274669656417873,-0.00217068538456142
8.845,-0.0355837646704032,0.00193255824183449
8.8625,-0.0437292679201449,0.00566650018519053
8.88,-0.0520667525399567,0.0114270239911194
8.8975,-0.058630712235229,0.017312153403442
8.915,-0.0658946638301093,0.023631321789068
8.9325,-0.0715774215856565,0.0312453239332138
8.95,-0.0768714736322445,0.0381707984446354
8.9675,-0.0820600918292438,0.0457626544558563
8.985,-0.0876153036909091,0.0539724757244962
9.0025,-0.0916078523240628,0.0647354842896538
9.02,-0.0927176293855603,0.0740207429846579
9.0375,-0.09502920848613,0.0821821636470258
9.055,-0.0974744667008753,0.0917728859486286
9.0725,-0.0989751183284466,0.102505025419882
9.09,-0.0983408069121052,0.114087173635121
9.1075,-0.0957708168602837,0.124157181916692
9.125,-0.0934650689884824,0.133414288495632
9.1425,-0.0904591831353455,0.141922211015345
9.16,-0.0889269770728088,0.150843896688844
9.1775,-0.0849124630529476,0.162654701559752
9.195,-0.0776419222446929,0.171561722061963
9.2125,-0.071895602892597,0.178704347016453
9.23,-0.0665686161394098,0.186504356194595
9.2475,-0.0602786351441708,0.195576878804431
9.265,-0.0509780552421223,0.203623365261119
9.2825,-0.0422505450057482,0.208882273243372
9.3,-0.0342151387456911,0.214866675086817
9.3175,-0.0250108748726704,0.220349562696499
9.335,-0.015597541309404,0.225568813236522
9.3525,-0.00449562685259628,0.229839071084461
9.37,0.00605125553890107,0.231841201391573
9.3875,0.0157577777065427,0.233955059426342
9.405,0.0256886184127782,0.235797044731011
9.4225,0.0359184340367726,0.238015229560597
9.44,0.0483103464755613,0.239300966403697
9.4575,0.060476238634874,0.237446765411729
9.475,0.0706089412901599,0.234839546892414
9.4925,0.0800145294054206,0.233211573990771
9.51,0.0915559043975132,0.231903149906566
9.5275,0.103499006025099,0.226767253204259
9.545,0.112286045413481,0.221544805419008
9.5625,0.122473911764016,0.216878940027611
9.58,0.131153892286188,0.209832163701994
9.5975,0.138278104949003,0.20418707301014
9.615,0.147111456654562,0.198745597247498
9.6325,0.156425096305873,0.190842207144844
9.65,0.163476603699937,0.181034657725966
9.6675,0.168354676552214,0.172509423681389
9.685,0.174621239332082,0.164936169998686
9.7025,0.180995308528211,0.154744780554316
9.72,0.18470697813807,0.144373551347475
9.7375,0.188707354935301,0.134839894583267
9.755,0.192318480746508,0.123675887644863
9.7725,0.193632458116076,0.11191249219135
9.79,0.193079726933484,0.102087392581201
9.8075,0.194770205775181,0.0934206721491244
9.825,0.195840681328853,0.0813114620919727
9.8425,0.193858990430953,0.0705647463132821
9.86,0.193087742936278,0.0599261038109164
9.8775,0.189929200620753,0.0477236436189625
9.895,0.184675831861397,0.0373789238570346
9.9125,0.179616462635748,0.0286402102416217
9.93,0.175517209237159,0.0194905676706966
9.9475,0.169695088187583,0.00842054345921163
9.965,0.160379438617842,-0.00124917058350457
9.9825,0.150788380508553,-0.0079440735282786
10,0.141811935430836,-0.0138787610128527
