"Freq [GHz]","re(S(Antenna1_1_1,Antenna1_1_1)) []","im(S(Antenna1_1_1,Antenna1_1_1)) []"
3,-0.197466691546393,-0.163588866074326
3.0175,-0.201676409352113,-0.149533089409694
3.035,-0.210645263634577,-0.137664161280135
3.0525,-0.219070340402528,-0.119506594157154
3.07,-0.221090427826973,-0.101428341853774
3.0875,-0.222629236244216,-0.0877540660973111
3.105,-0.227211961954493,-0.0722490693846729
3.1225,-0.226609881713642,-0.0534374260139398
3.14,-0.224104323423517,-0.0408126486378418
3.1575,-0.226850901046542,-0.02597627111733
3.175,-0.224877791555947,-0.0058749294013757
3.1925,-0.216625601015867,0.011565420491697
3.21,-0.208129051321643,0.0228468244778935
3.2275,-0.204295104279898,0.034954888597907
3.245,-0.196741848183488,0.0502086672015647
3.2625,-0.187503717105122,0.0618205315214738
3.28,-0.179330792626695,0.0748642527594707
3.2975,-0.165778856577446,0.0876128334130073
3.315,-0.152452825105238,0.0937717833327836
3.3325,-0.143921439722174,0.101159005618347
3.35,-0.13270766471653,0.112733313946248
3.3675,-0.114559223037088,0.122692217971012
3.385,-0.0951279630395257,0.123278647258113
3.4025,-0.0837612548426052,0.121513622754757
3.42,-0.0732193450171445,0.125121502557361
3.4375,-0.0583797178420872,0.128585518381451
3.455,-0.0420273762100284,0.129015290627013
3.4725,-0.025871170942579,0.126315774664226
3.49,-0.0121224441507215,0.121733482275546
3.5075,0.0016109081385487,0.117468855324848
3.525,0.0138216181720739,0.110791743893772
3.5425,0.0261352919001429,0.107505228234134
3.56,0.0437412161142276,0.0986694185196442
3.5775,0.0548153821471105,0.0843674843752556
3.595,0.0621961586179724,0.0714785941635434
3.6125,0.066523053909613,0.0618086209335833
3.63,0.0765181255022797,0.054221542550455
3.6475,0.0855937423853567,0.0387679224621825
3.665,0.0886470425206196,0.0253440431272499
3.6825,0.0946878587658762,0.0127954056502759
3.7,0.0976557931989312,-0.00364286906404572
3.7175,0.0985611344720535,-0.0167201838523002
3.735,0.100993172841726,-0.0327420668801986
3.7525,0.0980520689799017,-0.0489077871444919
3.77,0.0954678535896299,-0.0632846668969587
3.7875,0.0902898983741248,-0.0783961961245199
3.805,0.0843798692450687,-0.0916898461502459
3.8225,0.0761631126800634,-0.105322831280711
3.84,0.0670427818733762,-0.114312396645784
3.8575,0.0620373943781956,-0.124301310754082
3.875,0.0539526500053063,-0.13695922742463
3.8925,0.0447734112970333,-0.1485421407513
3.91,0.0314623308462703,-0.162913296221277
3.9275,0.0126742132987426,-0.170112893677269
3.945,-0.0010066664726892,-0.172300596383373
3.9625,-0.0111928960830443,-0.176347678687447
3.98,-0.022846577416502,-0.18577674407805
3.9975,-0.0448318747945682,-0.192146742102147
4.015,-0.0627367542271807,-0.185715203003408
4.0325,-0.070500142876359,-0.183639062581456
4.05,-0.0827194731805466,-0.187417876586086
4.0675,-0.0979902136321226,-0.188267765647049
4.085,-0.114529997855618,-0.188745859830608
4.1025,-0.134435092933241,-0.184050645485202
4.12,-0.149292607328759,-0.173340397843821
4.1375,-0.157939489169726,-0.164943166728431
4.155,-0.168071307324065,-0.162840648375412
4.1725,-0.186406102044562,-0.157572025770485
4.19,-0.200844997714005,-0.14277082083846
4.2075,-0.208124277130315,-0.130160658835789
4.225,-0.215152960977167,-0.120142469507547
4.2425,-0.22240958618938,-0.112983661106886
4.26,-0.23588468976887,-0.10459440532055
4.2775,-0.247008221295481,-0.088098627920592
4.295,-0.252814206029024,-0.0725477551670934
4.3125,-0.256813216186881,-0.0567617869780176
4.33,-0.257370864796705,-0.0447484454033655
4.3475,-0.262425170455056,-0.034365282811722
4.365,-0.268280813513581,-0.0189374544410522
4.3825,-0.26933493707843,-0.000585609042991807
4.4,-0.264906382992727,0.0143140904306782
4.4175,-0.263386660482044,0.0238118278506563
4.435,-0.265557240974116,0.0375478038223901
4.4525,-0.262394755263435,0.0540383345899779
4.47,-0.257225290400239,0.0662946415336535
4.4875,-0.254364152200216,0.0787428181658658
4.505,-0.249245586146207,0.0929540865321633
4.5225,-0.241748062844115,0.105622838063054
4.54,-0.233816722677458,0.115513047107831
4.5575,-0.228787012531841,0.125628952958871
4.575,-0.220500165215566,0.13866759006168
4.5925,-0.210473801196067,0.147417171616228
4.61,-0.202505402217411,0.157294726727137
4.6275,-0.190455371468317,0.167436102924902
4.645,-0.177598712449872,0.172058209457599
4.6625,-0.170590208287147,0.175615486014165
4.68,-0.163305292639064,0.185501110990152
4.6975,-0.149264250402744,0.194718611462509
4.715,-0.134059726895839,0.198368928468153
4.7325,-0.121409274806118,0.199257956143432
4.75,-0.111135506201468,0.199794116618609
4.7675,-0.103380852999455,0.202388972113773
4.785,-0.093007088355277,0.208544918525492
4.8025,-0.0768132504911192,0.211494126829643
4.82,-0.0627603957522895,0.207834069906483
4.8375,-0.0535735542305009,0.20442235747925
4.855,-0.0452731828180797,0.203620097001508
4.8725,-0.0352466618081133,0.204485525015945
4.89,-0.0219669547931593,0.204192822833687
4.9075,-0.00811173714374051,0.19916543075414
4.925,0.0013886494400934,0.191630270550167
4.9425,0.00774930504663012,0.186802560247452
4.96,0.0158990824119632,0.185194954888209
4.9775,0.0281504651518577,0.182084826403144
4.995,0.0402846115268626,0.174043808538487
5.0125,0.0483849472701308,0.163956308539735
5.03,0.0535885429732055,0.155726177345859
5.0475,0.0592368703213529,0.149972771804657
5.065,0.0675708270985996,0.143919098684011
5.0825,0.0760617052787459,0.134292123947224
5.1,0.0811860277856856,0.123306044468745
5.1175,0.0846466700211929,0.114054932773713
5.135,0.0883856643001779,0.105499580179038
5.1525,0.0925518145813382,0.0972629588988158
5.17,0.0977767139373881,0.0874656128859518
5.1875,0.101098204863443,0.0754484068278456
5.205,0.101789154594554,0.063613664665402
5.2225,0.101043910457425,0.0537901249955642
5.24,0.102093618449479,0.0447693593261276
5.2575,0.102169603275232,0.033223758663098
5.275,0.0998386168035632,0.0235319326119234
5.2925,0.0994091558995072,0.0141137556072887
5.31,0.0970556602638538,0.00267681805886511
5.3275,0.0929842323995827,-0.00686707052537303
5.345,0.0893900516904454,-0.0158967385714889
5.3625,0.0856032480144344,-0.0249128820900674
5.38,0.0813818442200566,-0.0347202877303153
5.3975,0.075257228108197,-0.04431307175598
5.415,0.0685073132277697,-0.0529960912207799
5.4325,0.0603700881955566,-0.0609933751241256
5.45,0.0522785872169112,-0.0665691835364465
5.4675,0.0461985268042184,-0.0721794260801214
5.485,0.0397569839939024,-0.0799896192036569
5.5025,0.0299462292851373,-0.0883401017610727
5.52,0.0177051686092837,-0.0932005850722703
5.5375,0.0073155778556005,-0.0945252862733017
5.555,0.000469686272456121,-0.0963714739318556
5.5725,-0.00697510805349108,-0.101797940233936
5.59,-0.0179831725653677,-0.107063670963778
5.6075,-0.0311068817316019,-0.110017328736661
5.625,-0.043867896258742,-0.108917854364896
5.6425,-0.0537550427536087,-0.107589842981251
5.66,-0.0631508021028226,-0.107114946475048
5.6775,-0.0727262973547964,-0.108394751432808
5.695,-0.0867071319356867,-0.109320888001482
5.7125,-0.101478070130813,-0.104251127996782
5.73,-0.111196809885,-0.0964591495150912
5.7475,-0.117474371421565,-0.0920618320508344
5.765,-0.126548030784691,-0.0907388219062316
5.7825,-0.138834004382145,-0.0873420510873394
5.8,-0.151285001988322,-0.0805062344973716
5.8175,-0.161651902208006,-0.0712226573268683
5.835,-0.169283374512793,-0.0617305023966766
5.8525,-0.175844208006472,-0.0543697973582676
5.87,-0.185180967503807,-0.0472817260849935
5.8875,-0.194783109506814,-0.0365810914688878
5.905,-0.202089069769153,-0.0237962972887854
5.9225,-0.205749866374443,-0.0106725482343432
5.94,-0.208022309533436,-0.00100969350012643
5.9575,-0.21294635017002,0.00800842267532704
5.975,-0.218632452550346,0.0191731585954481
5.9925,-0.223167882349806,0.0326858845979522
6.01,-0.224924336107265,0.04662092068953
6.0275,-0.225851011782147,0.0596164147157622
6.045,-0.226104358782859,0.0730498191300283
6.0625,-0.225042918515567,0.0863094024471774
6.08,-0.223465868506794,0.0991822444257963
6.0975,-0.221730261388116,0.112973140585055
6.115,-0.217516717348495,0.127171389885457
6.1325,-0.212154594855825,0.139823553744443
6.15,-0.206354391320508,0.151741694984846
6.1675,-0.20071757624848,0.163224544390836
6.185,-0.194228082912381,0.175245938369477
6.2025,-0.187186082472651,0.186825088624713
6.22,-0.1787888734434,0.199559238795835
6.2375,-0.167306771500203,0.210777246998541
6.255,-0.155768775753575,0.219008801783906
6.2725,-0.145684315445957,0.226683550975342
6.29,-0.135425648315736,0.235234043777913
6.3075,-0.123721789142128,0.244297733418655
6.325,-0.109345946016799,0.252414501063327
6.3425,-0.0938501605708673,0.257223536431787
6.36,-0.0800616336933586,0.259655809883556
6.3775,-0.0679548966632109,0.262587836933889
6.395,-0.0551538117613478,0.266764860941489
6.4125,-0.0397905674239966,0.270699467492555
6.43,-0.0228048422919965,0.271316565193866
6.4475,-0.00720416896771783,0.269206581542856
6.465,0.00653143073535817,0.265753231445836
6.4825,0.0177996024795386,0.263446196330461
6.5,0.0313157409648054,0.264152654105988
6.5175,0.0495527849810139,0.261195092950494
6.535,0.0661822420431921,0.252360797804715
6.5525,0.0781336278678551,0.242303273910096
6.57,0.0879808078325904,0.234510066867472
6.5875,0.0992740069466483,0.228183590864847
6.605,0.112697560521225,0.220049988111186
6.6225,0.125178316933068,0.20820084471392
6.64,0.134512631360412,0.19512865364065
6.6575,0.141347482832874,0.182648671672374
6.675,0.147578049262175,0.172664233799589
6.6925,0.156922235596379,0.162362605992162
6.71,0.165879916283827,0.147775228665003
6.7275,0.171093883186092,0.131394283074239
6.745,0.172903742269845,0.1165398665017
6.7625,0.175123450489058,0.104042025027197
6.78,0.178155927541852,0.0903089506603089
6.7975,0.179850698444342,0.0755189715005611
6.815,0.179827741751619,0.0600730726798632
6.8325,0.177695942096557,0.0453400220595727
6.85,0.174710762456892,0.0316388225309874
6.8675,0.171366001518962,0.0188584539192466
6.885,0.168427903093863,0.00558634492576952
6.9025,0.163441027870284,-0.00887068133136018
6.92,0.156086637273951,-0.0218661145558151
6.9375,0.148492715835896,-0.0327893113118646
6.955,0.142043570406566,-0.0430947383874855
6.9725,0.1341373804364,-0.0550062829365988
6.99,0.123224527249978,-0.065243846656422
7.0075,0.112985828242724,-0.0725121807282591
7.025,0.10406091256486,-0.0808119226434676
7.0425,0.0921641301652222,-0.0894430489600991
7.06,0.0795153401440219,-0.0945108852651834
7.0775,0.0686251766472321,-0.0986292823272555
7.095,0.0580499736260477,-0.102966713500119
7.1125,0.0468983249741339,-0.107565914637934
7.13,0.0346173337662505,-0.111401847091607
7.1475,0.0213020099071373,-0.113996246363621
7.165,0.0082006557058928,-0.113594075692977
7.1825,-0.00197790502307885,-0.113078628416091
7.2,-0.0131409478923512,-0.114816632180834
7.2175,-0.0273934285243441,-0.114864057025105
7.235,-0.0412260436744095,-0.110967657938165
7.2525,-0.0525680462988132,-0.10538745998959
7.27,-0.0612168741696158,-0.09959691127751
7.2875,-0.068307950174152,-0.0967913033014793
7.305,-0.0792071648741235,-0.095646106577451
7.3225,-0.0925959670772059,-0.0900277538586166
7.34,-0.102521000798785,-0.080598681832509
7.3575,-0.108546253872054,-0.0725305734182372
7.375,-0.114903628317135,-0.0675898833241326
7.3925,-0.124529769773409,-0.0625891615696223
7.41,-0.13440014408289,-0.0541741136077168
7.4275,-0.142163853140028,-0.0432210033278337
7.445,-0.145855092450904,-0.0319876114453081
7.4625,-0.148066184587268,-0.0243202513367478
7.48,-0.152469372374991,-0.017937511149114
7.4975,-0.158465729906468,-0.0101570524098065
7.515,-0.163676383035697,0.000233496859618789
7.5325,-0.166377294288218,0.0109073065788245
7.55,-0.16805193861984,0.0206662531196137
7.5675,-0.169641609436679,0.0295396622846073
7.585,-0.171955670366726,0.0389635761009763
7.6025,-0.173250130509736,0.0496041220866889
7.62,-0.173198307150827,0.060162079231796
7.6375,-0.172278736625596,0.0706210361659338
7.655,-0.170064211852672,0.0806828529686468
7.6725,-0.167128267825761,0.0894756203728262
7.69,-0.164670519103832,0.0972461083531602
7.7075,-0.163080259017688,0.105191397158582
7.725,-0.161499313968449,0.114574771343303
7.7425,-0.157741921763015,0.12479672361044
7.76,-0.152559152759011,0.133341743912573
7.7775,-0.147532443869475,0.141269518421005
7.795,-0.141987880632067,0.148212028764515
7.8125,-0.138011100259372,0.154887729828179
7.83,-0.133256011426024,0.164528552720131
7.8475,-0.124444072215767,0.173596555742705
7.865,-0.114614995659022,0.178360204818318
7.8825,-0.107992950510619,0.181174760050682
7.9,-0.103034623653017,0.185963436199729
7.9175,-0.0971764892675164,0.192422914625263
7.935,-0.0888607013197891,0.19966844160296
7.9525,-0.0777278652924035,0.204305059889395
7.97,-0.0682050470316506,0.205237851616411
7.9875,-0.0619018195196356,0.207034370857742
8.005,-0.0545593561630984,0.211652920272593
8.0225,-0.0442453020619963,0.215686065828101
8.04,-0.0322779942038569,0.217288880053606
8.0575,-0.021018733879325,0.215093814398127
8.075,-0.0139567188530794,0.212318447239281
8.0925,-0.00769081049813494,0.212919206879067
8.11,0.00153094371961111,0.214682307207258
8.1275,0.0133707020974547,0.213669018515494
8.145,0.0234268407319109,0.208899988389409
8.1625,0.0302412850538925,0.204678066276173
8.18,0.037428835143997,0.202605305730539
8.1975,0.0466836662861831,0.199821202112219
8.215,0.0557747038367723,0.194737701964569
8.2325,0.0637689028505329,0.188809646596672
8.25,0.0708475846205975,0.181829415740957
8.2675,0.076027002400122,0.174982294545193
8.285,0.081921319163197,0.169406700656677
8.3025,0.0885594803839252,0.16212197761133
8.32,0.0936353320912101,0.1536158554827
8.3375,0.0973435150517186,0.145323805253882
8.355,0.100686980639335,0.137660855406257
8.3725,0.10440894131992,0.129494695032812
8.39,0.107048138507987,0.120262228710229
8.4075,0.108509099137831,0.111240440218694
8.425,0.10932344970363,0.10247274680056
8.4425,0.110076502033399,0.0936784952677089
8.46,0.10984529673431,0.083877786265438
8.4775,0.107751466490534,0.0745582846052222
8.495,0.105078695979076,0.0664194759210666
8.5125,0.102495975233389,0.0587607745250646
8.53,0.0998796651329218,0.0510269091707402
8.5475,0.096835456297163,0.0424609622480626
8.565,0.0913895253503961,0.0337041890050779
8.5825,0.0847692778284908,0.0274420455831863
8.6,0.0793664340191182,0.0223538666070525
8.6175,0.0748162681168371,0.0166717076190484
8.635,0.0693701326432602,0.00907139639494631
8.6525,0.0601762698638316,0.00190345604542771
8.67,0.0498701986494071,-0.00139358646069697
8.6875,0.0415026221126478,-0.00263746100332415
8.705,0.0348647414210111,-0.00396712493977421
8.7225,0.0276486749429694,-0.00743044921260672
8.74,0.0173216767039035,-0.00992682486746444
8.7575,0.00683673087765332,-0.00920207207528701
8.775,-0.00179293522884118,-0.00676315796024666
8.7925,-0.00840451688007011,-0.00511966908228319
8.81,-0.016196297922414,-0.00530011836359727
8.8275,-0.0263964485627873,-0.00403697245456142
8.845,-0.0365767993364032,-7.88420931655057E-05
8.8625,-0.0455971816031449,0.00568452714919053
8.88,-0.0526285528329567,0.0123706816021194
8.8975,-0.058443394552229,0.017975218244442
8.915,-0.0653100540001093,0.023314246129068
8.9325,-0.0726959946466565,0.0305048083922138
8.95,-0.0781636769142445,0.0398096053586354
8.9675,-0.0809916633742438,0.0476775835808563
8.985,-0.0856199715829091,0.0544648084114962
9.0025,-0.0895844804180628,0.0635485780010538
9.02,-0.0925011168885603,0.0716230913676579
9.0375,-0.09642849945613,0.0807488503823258
9.055,-0.0992306355608753,0.0917245339996286
9.0725,-0.0997214823084466,0.103636162829882
9.09,-0.0980555152721052,0.114418980687121
9.1075,-0.0962444309202837,0.124016272079692
9.125,-0.0943694418474824,0.134006788183632
9.1425,-0.0908649890493455,0.143697538830345
9.16,-0.0871559548548088,0.152599560886844
9.1775,-0.0827368648209476,0.161969545545752
9.195,-0.0769904817836929,0.170463828396963
9.2125,-0.071071395670597,0.177725406436453
9.23,-0.0663839529094098,0.184228874650595
9.2475,-0.0625613540321708,0.193583322463431
9.265,-0.0539765892879223,0.204566431481119
9.2825,-0.0429405009937482,0.211332190553372
9.3,-0.0333003833726911,0.216335399311817
9.3175,-0.0239119134226704,0.220691842726499
9.335,-0.015074457382404,0.225234202941522
9.3525,-0.00469436721259628,0.229884662918461
9.37,0.00632233738690107,0.232821004350573
9.3875,0.0176952815625427,0.234616993613342
9.405,0.0281719744127782,0.233835384591011
9.4225,0.0353401539507726,0.234035296145597
9.44,0.0443024425435613,0.237741786947697
9.4575,0.057340896145874,0.239894704004729
9.475,0.0709333418401599,0.238143749357014
9.4925,0.0823790902954206,0.234168317633071
9.51,0.0923286932575132,0.230573220065766
9.5275,0.102545963685099,0.226949715130259
9.545,0.112872327803481,0.222643809417008
9.5625,0.123474347134016,0.217105054491611
9.58,0.132676090978188,0.209769839854994
9.5975,0.139803442628003,0.20225438832614
9.615,0.146195011981562,0.195769340284498
9.6325,0.153014220356873,0.190013932827844
9.65,0.161385990052937,0.183648553716966
9.6675,0.169636409825214,0.174650366991389
9.685,0.175789682364082,0.164505786470686
9.7025,0.180526287679211,0.154779220954316
9.72,0.18541198799807,0.145253949742475
9.7375,0.189620256915101,0.134202568245267
9.755,0.191956133361508,0.123251245914863
9.7725,0.193783013641076,0.11256216207135
9.79,0.194656471996484,0.101689533340201
9.8075,0.194564035617181,0.0911219977691244
9.825,0.193875688388853,0.0810330084239727
9.8425,0.193176690538953,0.0712196649862821
9.86,0.192299920678278,0.0605081199139164
9.8775,0.189849826912753,0.0493235386049625
9.895,0.186281809947397,0.0382798610980346
9.9125,0.181101858165748,0.0274776371046217
9.93,0.174732592647159,0.0176702626876966
9.9475,0.167575105738583,0.00908700126671163
9.965,0.160869409247842,0.00121352760929543
9.9825,0.153451914738553,-0.0077902921822786
10,0.142975099740836,-0.0163100580748527
