"Freq [GHz]","re(S(Antenna1_1_p1,Antenna1_1_p1)) []","im(S(Antenna1_1_p1,Antenna1_1_p1)) []"
3,0.0996577760223872,-0.103231045697587
3.002,0.0984435674045749,-0.104653753539795
3.004,0.0972050685278189,-0.106055943643127
3.006,0.0959427482426895,-0.107437128759802
3.008,0.0946570862895011,-0.108796833985059
3.01,0.0933485729735926,-0.110134597009222
3.012,0.0920177087962831,-0.111449968389655
3.014,0.0906650041125281,-0.112742511731592
3.016,0.0892909787833098,-0.114011803997867
3.018,0.08789616180079,-0.115257435637528
3.02,0.0864810909322532,-0.116479010853364
3.022,0.0850463123438709,-0.117676147788332
3.024,0.0835923802223131,-0.118848478690904
3.026,0.0821198564002341,-0.119995650129344
3.028,0.0806293099696618,-0.121117323124907
3.03,0.079121316894312,-0.122213173323998
3.032,0.0775964596168583,-0.123282891139274
3.034,0.0760553266691778,-0.124326181899719
3.036,0.0744985122705995,-0.125342765949691
3.038,0.0729266159301779,-0.12633237879697
3.04,0.0713402420470148,-0.127294771179791
3.042,0.0697399995026501,-0.128229709202915
3.044,0.0681265012575446,-0.129136974382711
3.046,0.0665003639446749,-0.13001636373129
3.048,0.06486220745926,-0.130867689819701
3.05,0.0632126545526383,-0.131690780850192
3.052,0.0615523304203153,-0.132485480637562
3.054,0.0598818622937281,-0.133251648699621
3.056,0.0582018790292351,-0.133989160246765
3.058,0.0565130106992758,-0.134697906180686
3.06,0.0548158881829678,-0.135377793122232
3.062,0.0531111427589063,-0.136028743348445
3.064,0.0513994056960479,-0.136650694828768
3.066,0.0496813078492059,-0.137243601130463
3.068,0.0479574792558369,-0.137807431423246
3.07,0.0462285487343338,-0.138342170363152
3.072,0.044495143478634,-0.138847818105655
3.074,0.0427578886681556,-0.139324390148055
3.076,0.0410174070690733,-0.139771917291149
3.078,0.0392743186439383,-0.140190445520208
3.08,0.037529240159658,-0.140580035925271
3.082,0.0357827848098397,-0.140940764530772
3.084,0.0340355618245072,-0.141272722224525
3.086,0.0322881761001979,-0.141576014586076
3.088,0.0305412278234461,-0.14185076173444
3.09,0.0287953121036617,-0.142097098195245
3.092,0.027051018607403,-0.142315172727291
3.094,0.0253089312020579,-0.142505148148547
3.096,0.0235696276019303,-0.142667201111597
3.098,0.0218336790197398,-0.142801521988557
3.1,0.0201016498225359,-0.142908314595474
3.102,0.0183740972050327,-0.142987796016221
3.104,0.016651570830362,-0.143040196385909
3.106,0.0149346125572533,-0.143065758633828
3.108,0.0132237560636343,-0.14306473827593
3.11,0.0115195265906617,-0.143037403179875
3.112,0.00982244058717593,-0.142984033261643
3.114,0.00813300546458515,-0.142904920279741
3.116,0.00645171925217625,-0.142800367540004
3.118,0.00477907037285216,-0.142670689632013
3.12,0.00311553731929777,-0.142516212142146
3.122,0.00146158843056877,-0.142337271370257
3.124,-0.000182318390892569,-0.142134214029022
3.126,-0.00179155292182045,-0.141897342079943
3.128,-0.00336488993026684,-0.14162899146503
3.13,-0.00492591057732444,-0.141340282264177
3.132,-0.00647430567843276,-0.141031635864231
3.134,-0.00800977876426974,-0.140703478930784
3.136,-0.00953204622123472,-0.140356243051679
3.138,-0.0110408373815197,-0.139990364369252
3.14,-0.0125358945427793,-0.139606283217319
3.142,-0.0140169730873961,-0.139204443751916
3.144,-0.0154838415213517,-0.138785293586803
3.146,-0.0169362814926996,-0.138349283423737
3.148,-0.0183740878796507,-0.137896866687031
3.15,-0.0197970687482723,-0.137428499150298
3.152,-0.0212050454498032,-0.1369446385731
3.154,-0.0225978525475927,-0.136445744331395
3.156,-0.0239753378336641,-0.135932277051307
3.158,-0.0253373623649103,-0.135404698241708
3.16,-0.026683800368924,-0.134863469931739
3.162,-0.0280145392494677,-0.134309054308556
3.164,-0.0293294795315865,-0.133741913351926
3.166,-0.0306285348063715,-0.133162508476669
3.168,-0.031911631675376,-0.132571300180951
3.17,-0.033178709664688,-0.131968747680441
3.172,-0.0344297211686676,-0.131355308570331
3.174,-0.0356646313233493,-0.130731438463229
3.176,-0.0368834179295183,-0.130097590652925
3.178,-0.0380860713554602,-0.129454215769039
3.18,-0.0392725943693945,-0.12880176143955
3.182,-0.0404430020715917,-0.128140671953219
3.184,-0.0415973217061809,-0.127471387933904
3.186,-0.0427355925526508,-0.126794346011765
3.188,-0.0438578657770506,-0.126109978503375
3.19,-0.0449642042128929,-0.125418713094738
3.192,-0.0460546822617635,-0.124720972530199
3.194,-0.0471293856836439,-0.12401717430528
3.196,-0.0481884113869475,-0.123307730367417
3.198,-0.0492318672782764,-0.122593046828615
3.2,-0.0502598720519008,-0.121873523648021
3.202,-0.0512725549389655,-0.12114955438841
3.204,-0.0522700555464276,-0.120421525911603
3.206,-0.0532525236157277,-0.119689818130794
3.208,-0.0542201187602011,-0.118954803702814
3.21,-0.0551730102782268,-0.11821684783031
3.212,-0.0561113768751252,-0.117476307973863
3.214,-0.0570354064257996,-0.116733533614023
3.216,-0.0579452957171314,-0.115988866013282
3.218,-0.058841250185128,-0.115242638007973
3.22,-0.0597234836468261,-0.114495173770106
3.222,-0.0605922180279571,-0.113746788589131
3.224,-0.0614476830813714,-0.112997788683637
3.226,-0.062290116107229,-0.112248471002987
3.228,-0.0631197616609553,-0.111499123018883
3.23,-0.0639368712609666,-0.110750022556871
3.232,-0.0647417030901669,-0.110001437647778
3.234,-0.065534521694217,-0.109253626309086
3.236,-0.0663155976745767,-0.108506836436245
3.238,-0.0670852073803281,-0.107761305653916
3.24,-0.0678436325907717,-0.107017261137159
3.242,-0.0685911602038051,-0.106274919542551
3.244,-0.0693280819110823,-0.105534486819246
3.246,-0.0700546938792538,-0.104796158169967
3.248,-0.0707712964207922,-0.104060117891945
3.25,-0.0714781936695092,-0.103326539297781
3.252,-0.0721766084096007,-0.102643681546262
3.254,-0.0728685067403259,-0.1019635141631
3.256,-0.0735541970014739,-0.101286077331619
3.258,-0.0742339866634671,-0.100611400263376
3.26,-0.0749081820017931,-0.09993950119872
3.262,-0.0755770877764336,-0.0992703874872874
3.264,-0.0762410069108816,-0.0986040557284412
3.266,-0.0769002401729493,-0.0979404917416435
3.268,-0.0775550858613615,-0.0972796707667683
3.27,-0.0782058394941399,-0.0966215574943541
3.272,-0.0788527934987744,-0.0959661062057946
3.274,-0.0794962369111841,-0.0953132608834693
3.276,-0.0801364550704656,-0.0946629553408136
3.278,-0.0807737293244283,-0.0940151133523306
3.28,-0.0814083367369189,-0.0933696488035405
3.282,-0.0820405497969315,-0.0927264658208749
3.284,-0.0826706361405039,-0.0920854589715093
3.286,-0.0832988582664006,-0.091446513373141
3.288,-0.0839254732635793,-0.0908095049137075
3.29,-0.084550732547444,-0.0901743004110502
3.292,-0.0851748815898796,-0.0895407578125215
3.294,-0.0857981596650694,-0.0889087263645384
3.296,-0.0864207995930973,-0.0882780468420802
3.298,-0.0870430275233266,-0.0876485517681365
3.3,-0.0876650626265629,-0.0870200655631
3.302,-0.088287116943993,-0.086392404864112
3.304,-0.0889093951049046,-0.0857653786543552
3.306,-0.089532094134181,-0.0851387885723011
3.308,-0.0901554031995724,-0.0845124291239094
3.31,-0.0907795034887436,-0.0838860879067804
3.312,-0.0914045678960936,-0.0832595458982664
3.314,-0.0920307609293492,-0.0826325776885382
3.316,-0.0926582384659303,-0.0820049517506124
3.318,-0.0932871476190851,-0.0813764307033381
3.32,-0.0939176265037966,-0.0807467715833473
3.322,-0.0945498041624548,-0.0801157261229701
3.324,-0.0951838003203,-0.0794830410251142
3.326,-0.0958197253206287,-0.0788484582501155
3.328,-0.0964576799297676,-0.0782117153035573
3.33,-0.0970977552218108,-0.0775725455250623
3.332,-0.0977400324731197,-0.0769306783880608
3.334,-0.0983845830465866,-0.0762858397905328
3.336,-0.0990314682456579,-0.0756377523607337
3.338,-0.0996807392781199,-0.0749861357578975
3.34,-0.100332437119642,-0.074330706981927
3.342,-0.100986592487079,-0.0736711806760695
3.344,-0.101643225701532,-0.0730072694425823
3.346,-0.102302346671169,-0.0723386841500901
3.348,-0.102963954823792,-0.0716651342503366
3.35,-0.103628039079175,-0.0709863280918331
3.352,-0.104294577791139,-0.0703019732358101
3.354,-0.104963538709402,-0.0696117767728676
3.356,-0.105634879021163,-0.0689154456409343
3.358,-0.106308545262452,-0.0682126869433357
3.36,-0.106984473379231,-0.0675032082639727
3.362,-0.107662588718243,-0.0667867179897166
3.364,-0.108342806017618,-0.0660629256241205
3.366,-0.10902502947723,-0.0653315421071548
3.368,-0.109709152748806,-0.0645922801279632
3.37,-0.110395059025784,-0.0638448544416493
3.372,-0.11108262105293,-0.0630889821860925
3.374,-0.111771701225699,-0.0623243831887992
3.376,-0.112483150939352,-0.0615427961187892
3.378,-0.113216150857825,-0.0607422860935248
3.38,-0.113949242332354,-0.0599300432248835
3.382,-0.114682163389841,-0.059105839501176
3.384,-0.11541464348099,-0.0582694539142174
3.386,-0.116146403668183,-0.0574206727094518
3.388,-0.116877156823118,-0.056559289641132
3.39,-0.117606607864197,-0.0556851062125639
3.392,-0.118334453943675,-0.0547979319094113
3.394,-0.119060384694561,-0.053897584447071
3.396,-0.119784082457279,-0.0529838899571168
3.398,-0.120505222506084,-0.0520566832668188
3.4,-0.121223473285242,-0.051115808037741
3.402,-0.121938496684967,-0.0501611170254183
3.404,-0.122649948267123,-0.0491924722791195
3.406,-0.123357477530681,-0.0482097452816965
3.408,-0.124060728196951,-0.0472128171695271
3.41,-0.124759338454573,-0.0462015789425482
3.412,-0.125452941228275,-0.0451759315443908
3.414,-0.126141164483402,-0.044135786122613
3.416,-0.126823631488213,-0.0430810640990389
3.418,-0.127499961107956,-0.0420116973802035
3.42,-0.128169768096706,-0.040927628457909
3.422,-0.128832663387987,-0.0398288105498942
3.424,-0.129488254394173,-0.0387152077306215
3.426,-0.130136145312658,-0.0375867950221821
3.428,-0.13077593742282,-0.0364435585553253
3.43,-0.13140722939876,-0.0352854955706133
3.432,-0.13202961761783,-0.0341126146197041
3.434,-0.13264269647195,-0.0329249355667668
3.436,-0.133246058685714,-0.0317224896800308
3.438,-0.13383929562829,-0.0305053197234724
3.44,-0.13442199763611,-0.0292734799686401
3.442,-0.134993754331369,-0.0280270362866244
3.444,-0.135554154942311,-0.026766066140172
3.446,-0.136102788626326,-0.0254906586559466
3.448,-0.136639244794752,-0.0242009146069414
3.45,-0.137163113432878,-0.0228969464550431
3.452,-0.13767398542757,-0.0215788783437533
3.454,-0.138171452889899,-0.0202468460710626
3.456,-0.138655109479792,-0.018900997102489
3.458,-0.139124550729099,-0.0175414905542755
3.46,-0.139579374367083,-0.0161684971267522
3.462,-0.140019180638938,-0.014782199087864
3.464,-0.14044357263043,-0.0133827902168663
3.466,-0.140852156589171,-0.0119704757581916
3.468,-0.141244542238729,-0.0105454723354849
3.47,-0.141620343098573,-0.0091080078758152
3.472,-0.141979176800857,-0.00765832154406097
3.474,-0.142320665399052,-0.00619666365747189
3.476,-0.142644435682415,-0.00472329553040966
3.478,-0.142950119480321,-0.00323848942926788
3.48,-0.143237353971433,-0.00174252842757288
3.482,-0.143505781981739,-0.000235706271267951
3.484,-0.143755052285443,0.00128167273582043
3.486,-0.143984819900717,0.00280929388632976
3.488,-0.14419474637832,0.00434683224352403
3.49,-0.144384500094088,0.00589395272526901
3.492,-0.144553756527289,0.00745031035781824
3.494,-0.144702198541861,0.00901555037941332
3.496,-0.144829516672518,0.0105893084736902
3.498,-0.14493540935975,0.0121712109228995
3.5,-0.145019583268695,0.0137608748209327
3.502,-0.145035469275905,0.0154021718261582
3.504,-0.145026815136001,0.0170479377440634
3.506,-0.144993452168225,0.0186976794997078
3.508,-0.14493522355288,0.0203508990699778
3.51,-0.144851984527682,0.022007093765654
3.512,-0.144743602454008,0.023665756565278
3.514,-0.144609957003046,0.0253263764198331
3.516,-0.144450940171868,0.0269884385842238
3.518,-0.144266456479399,0.0286514249305659
3.52,-0.144056422952312,0.0303148142712817
3.522,-0.14382076930084,0.031978082687998
3.524,-0.143559437924503,0.0336407038582565
3.526,-0.143272384007766,0.035302149383022
3.528,-0.142959575565619,0.0369618891220064
3.53,-0.142620993479091,0.0386193915207908
3.532,-0.142256631560692,0.0402741239477607
3.534,-0.141866496529791,0.0419255530258466
3.536,-0.141450608117937,0.0435731449670712
3.538,-0.141008998984115,0.0452163659079079
3.54,-0.140541714779947,0.0468546822454435
3.542,-0.140048814124837,0.0484875609673578
3.544,-0.139530368591071,0.0501144699917045
3.546,-0.13898646267886,0.0517348784965085
3.548,-0.13841719377134,0.053348257255776
3.55,-0.137822672119527,0.0549540789676089
3.552,-0.137203020777233,0.0565518185882833
3.554,-0.136558375545937,0.0581409536588888
3.556,-0.135888884889626,0.0597209646338966
3.558,-0.13519470987959,0.0612913352051298
3.56,-0.1344760241292,0.0628515526268585
3.562,-0.133733013638638,0.0644011080338709
3.564,-0.132965876759611,0.0659394967638981
3.566,-0.132174824050032,0.067466218666365
3.568,-0.131360078168681,0.0689807784229543
3.57,-0.130521873749837,0.0704826858489977
3.572,-0.129660457267895,0.0719714562046848
3.574,-0.128776086881959,0.0734466104940994
3.576,-0.127869032320424,0.074907675765075
3.578,-0.126939574695535,0.0763541854018808
3.58,-0.125988006347937,0.0777856794157314
3.582,-0.125014630681214,0.0792017047311234
3.584,-0.124019761976408,0.0806018154650036
3.586,-0.123003725196542,0.081985573205763
3.588,-0.121966855811126,0.0833525472810656
3.59,-0.120909499610656,0.0847023150235052
3.592,-0.119832012441119,0.0860344620350983
3.594,-0.118734760058476,0.0873485824396098
3.596,-0.117618117853162,0.0886442791347132
3.598,-0.11648247066457,0.0899211640239888
3.6,-0.115328212525546,0.0911788582707564
3.602,-0.114155746436871,0.09241699251975
3.604,-0.112965484121764,0.0936352071346279
3.606,-0.111757845750371,0.0948331523913261
3.608,-0.110533259714269,0.0960104887112533
3.61,-0.109292162360967,0.0971668868643241
3.612,-0.108034997718424,0.0983020281618421
3.614,-0.106762217227562,0.0994156046392209
3.616,-0.105474279465793,0.100507319258555
3.618,-0.104171649866557,0.101576886081035
3.62,-0.102854800435862,0.102624030429208
3.622,-0.101524209461841,0.103648489049092
3.624,-0.100180361221316,0.104650010282129
3.626,-0.0988237456823744,0.105628354177
3.628,-0.0974548582029582,0.106583292661279
3.63,-0.0960741992304641,0.107514609672943
3.632,-0.0946822739893603,0.108422101251739
3.634,-0.0932795921738131,0.109305575670392
3.636,-0.0918666676333297,0.110164853585674
3.638,-0.0904440180564194,0.110999768049327
3.64,-0.0890121646542619,0.111810164678837
3.642,-0.0875716318364018,0.112595901698062
3.644,-0.0861229468944503,0.113356850017721
3.646,-0.0846666396708104,0.114092893305736
3.648,-0.0832032422404168,0.114803928067422
3.65,-0.0817332885760909,0.115489863625553
3.652,-0.0802573142270206,0.116150622250264
3.654,-0.078775855986152,0.116786139128824
3.656,-0.0772894515619042,0.11739636239526
3.658,-0.0757986392480014,0.117981253179847
3.66,-0.0743039575932265,0.118540785578444
3.662,-0.0728059450720947,0.119074946661698
3.664,-0.0713051397526441,0.119583736484104
3.666,-0.0698020789679546,0.120067168032922
3.668,-0.0682972989920804,0.120525267226953
3.67,-0.0667913347020117,0.120958072845178
3.672,-0.065284719261651,0.121365636525246
3.674,-0.0637779837878206,0.121748022701832
3.676,-0.0622716570342868,0.122105308514847
3.678,-0.0607662650608103,0.122437583747506
3.68,-0.0592623309222224,0.122744950794256
3.682,-0.0577603743415222,0.123027524518566
3.684,-0.0562609114010035,0.123285432170565
3.686,-0.0547644542274032,0.12351881330455
3.688,-0.0532715106800814,0.123727819666339
3.69,-0.0517825840462222,0.123912615060492
3.692,-0.0502981727350679,0.12407337520738
3.694,-0.0488187699791793,0.124210287670117
3.696,-0.047344863540723,0.124323551621344
3.698,-0.0458769353987937,0.12441337779987
3.7,-0.0444154614987605,0.124479988267167
3.702,-0.0429609114316519,0.12452361628372
3.704,-0.0415137481635656,0.124544506105235
3.706,-0.0400744277811177,0.124542912878693
3.708,-0.0386433991869224,0.124519102348263
3.71,-0.0372211038451063,0.124473350771066
3.712,-0.0358079755468625,0.124405944612791
3.714,-0.0344044401260362,0.124317180433161
3.716,-0.0330109151847538,0.124207364627253
3.718,-0.0316278099290866,0.124076813202665
3.72,-0.0302555248447592,0.123925851575533
3.722,-0.028894451522896,0.123754814324401
3.724,-0.0275449723958115,0.123564044957932
3.726,-0.0262074605328473,0.123353895674477
3.728,-0.0248822794362503,0.123124727109476
3.73,-0.0235697828171024,0.122876908080726
3.732,-0.0222703144012942,0.122610815335475
3.734,-0.0209842077355539,0.122326833278371
3.736,-0.019711785993523,0.12202535371126
3.738,-0.0184533618118875,0.121706775548815
3.74,-0.0172092370965638,0.121371504549021
3.742,-0.0159797028689404,0.121019953027496
3.744,-0.0147650391121805,0.120652539569657
3.746,-0.0135655146175796,0.120269688740726
3.748,-0.0123813868209922,0.119871830790579
3.75,-0.011212901719317,0.119459401360433
3.752,-0.0101414902170486,0.119019486279379
3.754,-0.00908678665290284,0.118570117675846
3.756,-0.00804884045650308,0.118111764632515
3.758,-0.00702768860514885,0.117644895023661
3.76,-0.0060233557606498,0.117169975192542
3.762,-0.00503585429624479,0.116687469631623
3.764,-0.00406518440359362,0.116197840665039
3.766,-0.00311133417985207,0.115701548134293
3.768,-0.00217427973483433,0.115199049086194
3.77,-0.00125398531825502,0.114690797465936
3.772,-0.000350403377067716,0.114177243812004
3.774,0.000536525237113075,0.113658834954929
3.776,0.00140687119048854,0.113136013721872
3.778,0.00226071651946171,0.112609218640051
3.78,0.00309815446292161,0.112078883654997
3.782,0.00391928932442413,0.111545437838659
3.784,0.0047242362842728,0.111009305116338
3.786,0.00551312128148558,0.11047090398746
3.788,0.00628608077565895,0.109930647259191
3.79,0.00704326159871207,0.10938894177989
3.792,0.00778482077651829,0.108846188183396
3.794,0.00851092529041976,0.108302780629159
3.796,0.00922175191861375,0.107759106562217
3.798,0.00991748700742194,0.107215546464997
3.8,0.0105983262424244,0.106672473622979
3.802,0.0112644744494694,0.106130253897182
3.804,0.0119161453855442,0.105589245488513
3.806,0.0125535614595112,0.105049798744944
3.808,0.0131769535227053,0.10451225593854
3.81,0.0137865606293835,0.103976951023342
3.812,0.0143826297870344,0.103444209523084
3.814,0.014965415706533,0.102914348248766
3.816,0.0155351805421464,0.102387675186079
3.818,0.0160921936273818,0.101864489262679
3.82,0.0166367312086784,0.101345080235314
3.822,0.0171690761959339,0.100829728466807
3.824,0.0176895178698686,0.100318704832898
3.826,0.0181983516152218,0.0998122705189391
3.828,0.0186958786397737,0.0993106769364573
3.83,0.0191824056891985,0.0988141655395716
3.832,0.0196582447657332,0.0983229677212814
3.834,0.0201237128356734,0.0978373047096175
3.836,0.0205791315416793,0.0973573874536642
3.838,0.0210248269068986,0.0968834164994508
3.84,0.0214611290429014,0.0964155819257177
3.842,0.0218883718474172,0.0959540632495588
3.844,0.0223068927088833,0.0954990293619419
3.846,0.0227170322047885,0.0950506384131113
3.848,0.0231191337998216,0.0946090378278729
3.85,0.0235135435398116,0.0941743641807689
3.852,0.0239006097534632,0.0937467432011403
3.854,0.0242806827428837,0.0933262896980825
3.856,0.0246541144808946,0.0929131075752986
3.858,0.0250212583036329,0.0925072897758501
3.86,0.02538246860703,0.0921089183068118
3.862,0.0257381005405775,0.0917180641638303
3.864,0.0260885097027627,0.091334787455595
3.866,0.0264340518367863,0.0909591372882192
3.868,0.0267750825265498,0.0905911518695389
3.87,0.0271119568963137,0.0902308585133318
3.872,0.0274450293056261,0.0898782736934593
3.874,0.027774653054615,0.0895334030279378
3.876,0.0281011800810479,0.0891962414329397
3.878,0.0284249606671517,0.0888667730867316
3.88,0.0287463431441941,0.088544971553551
3.882,0.0290656736028249,0.0882307998474263
3.884,0.0293832955991714,0.0879242105159465
3.886,0.0296995498726924,0.087625145733981
3.888,0.0300147740587834,0.0873335373973574
3.89,0.030329302410138,0.0870493072264971
3.892,0.0306434655188547,0.0867723669000203
3.894,0.0309575900412997,0.0865026181683167
3.896,0.0312719984267148,0.0862399529470908
3.898,0.0315870086545728,0.0859842535308884
3.9,0.0319029339656828,0.0857353926566021
