"Freq [GHz]","re(S(Antenna1_1_p1,Antenna1_1_p1)) []","im(S(Antenna1_1_p1,Antenna1_1_p1)) []"
3,0.102341216372387,-0.100151084638587
3.002,0.101224162974575,-0.101665121147795
3.004,0.100079912247819,-0.103161553521127
3.006,0.0989088491026895,-0.104639806679802
3.008,0.0977113719195011,-0.106099315547059
3.01,0.0964878922235926,-0.107539525377222
3.012,0.0952388344102831,-0.108959892074655
3.014,0.0939646355095281,-0.110359882506592
3.016,0.0926657447803098,-0.111738974807867
3.018,0.09134262352479,-0.113096658657528
3.02,0.0899957446622532,-0.114432435623364
3.022,0.0886255925128709,-0.115745819358332
3.024,0.0872326624013131,-0.117036335930904
3.026,0.0858174603202341,-0.118303524079344
3.028,0.0843805026636618,-0.119546935444907
3.03,0.082922315777312,-0.120766134813998
3.032,0.0814434357058584,-0.121960700369274
3.034,0.0799444077691778,-0.123130223909719
3.036,0.0784257862295995,-0.124274311059691
3.038,0.0768881339201779,-0.12539258147697
3.04,0.0753320218690148,-0.126484669039791
3.042,0.0737580289266501,-0.127550222032915
3.044,0.0721667413865446,-0.128588903362711
3.046,0.0705587525966749,-0.12960039064129
3.048,0.06893466257526,-0.130584376439701
3.05,0.0672950776176383,-0.131540568330192
3.052,0.0656406099053153,-0.132468689117562
3.054,0.0639718771011981,-0.133368476889621
3.056,0.0622895019560351,-0.134239685176765
3.058,0.0605941119070758,-0.135082083020686
3.06,0.0588863386659678,-0.135895455092232
3.062,0.0571668178219063,-0.136679601788445
3.064,0.0554361884270479,-0.137434339228768
3.066,0.0536950925902059,-0.138159499420463
3.068,0.0519441750705369,-0.138854930213246
3.07,0.0501840828602138,-0.139520495413152
3.072,0.048415464778934,-0.140156074765655
3.074,0.0466389710601556,-0.140761563978055
3.076,0.0448552529430733,-0.141336874761149
3.078,0.0430649622579383,-0.141881934770208
3.08,0.041268751020658,-0.142396687635271
3.082,0.0394672710198397,-0.142881092940772
3.084,0.0376611734135072,-0.143335126154525
3.086,0.0358511083201979,-0.143758778596076
3.088,0.0340377244154461,-0.14415205739444
3.09,0.0322216685286617,-0.144514985415245
3.092,0.030403585246403,-0.144847601167291
3.094,0.0285841165090579,-0.145149958758547
3.096,0.0267639012229303,-0.145422127751597
3.098,0.0249435748627398,-0.145664193068557
3.1,0.0231237690875359,-0.145876254895474
3.102,0.0213051113550327,-0.146058428526221
3.104,0.019488224540362,-0.146210844275909
3.106,0.0176737265582533,-0.146333647253828
3.108,0.0158622299926343,-0.14642699727593
3.11,0.0140543417286617,-0.146491068686875
3.112,0.0122506625871759,-0.146526050151643
3.114,0.0104517869645852,-0.146532144506741
3.116,0.00865830250217624,-0.146509568551004
3.118,0.00687078970285216,-0.146458552866013
3.12,0.00508982159929777,-0.146379341556146
3.122,0.00331596345056877,-0.146272192088257
3.124,0.00154977236910743,-0.146137375031022
3.126,-0.00018668937182045,-0.145958285833943
3.128,-0.00189154347026684,-0.14573696937103
3.13,-0.00358540315732444,-0.145491261374177
3.132,-0.00526784080843276,-0.145221547292231
3.134,-0.00693844062426974,-0.144928221218784
3.136,-0.00859679875123472,-0.144611685554679
3.138,-0.0102425235115197,-0.144272350660252
3.14,-0.0118752355827793,-0.143910634514319
3.142,-0.0134945680873961,-0.143526962362916
3.144,-0.0151001668113517,-0.143121766365803
3.146,-0.0166916903326996,-0.142695485239737
3.148,-0.0182688100996507,-0.142248563903531
3.15,-0.0198312106282723,-0.141781453112898
3.152,-0.0213785895598032,-0.1412946090981
3.154,-0.0229106577675927,-0.140788493196395
3.156,-0.0244271394836641,-0.140263571486307
3.158,-0.0259277723249103,-0.139720314417708
3.16,-0.027412307418924,-0.139159196439739
3.162,-0.0288805094194677,-0.138580695632556
3.164,-0.0303321566015865,-0.137985293327926
3.166,-0.0317670408563715,-0.137373473744069
3.168,-0.033184967765376,-0.136745723606971
3.17,-0.034585756594688,-0.136102531778441
3.172,-0.0359692403086676,-0.135444388883331
3.174,-0.0373352655933493,-0.134771786934229
3.176,-0.0386836928395183,-0.134085218964925
3.178,-0.0400143960854602,-0.133385178653039
3.18,-0.0413272630493945,-0.13267215995255
3.182,-0.0426221950615917,-0.131946656729219
3.184,-0.0438991070161809,-0.131209162387904
3.186,-0.0451579273226508,-0.130460169511765
3.188,-0.0463985978370506,-0.129700169498375
3.19,-0.0476210737728929,-0.128929652202738
3.192,-0.0488253236417635,-0.128149105576199
3.194,-0.0500113291336439,-0.12735901531328
3.196,-0.0511790850369475,-0.126559864505417
3.198,-0.0523285990882764,-0.125752133287615
3.2,-0.0534598919119008,-0.124936298497021
3.202,-0.0545729968189655,-0.12411283333341
3.204,-0.0556679597164276,-0.123282207023603
3.206,-0.0567448389257277,-0.122444884489794
3.208,-0.0578037050712011,-0.121601326023814
3.21,-0.0588446408482268,-0.12075198696031
3.212,-0.0598677409311252,-0.119897317373863
3.214,-0.0608731117007996,-0.119037761754023
3.216,-0.0618608711221314,-0.118173758683282
3.218,-0.062831148541128,-0.117305740587973
3.22,-0.0637840844418261,-0.116434133390106
3.222,-0.0647198302429571,-0.115559356239131
3.224,-0.0656385481243714,-0.114681821253637
3.226,-0.066540410733229,-0.113801933192987
3.228,-0.0674256009929553,-0.112920089238883
3.23,-0.0682943118479666,-0.112036678696871
3.232,-0.0691467460131669,-0.111152082757778
3.234,-0.069983115725217,-0.110266674259086
3.236,-0.0708036424765767,-0.109380817396245
3.238,-0.0716085567503281,-0.108494867573916
3.24,-0.0723980977497717,-0.107609171087159
3.242,-0.0731725131158051,-0.106724064952551
3.244,-0.0739320586450822,-0.105839876699246
3.246,-0.0746769980019538,-0.104956924159967
3.248,-0.0754076024201922,-0.104075515241945
3.25,-0.0761241504074992,-0.103195947817781
3.252,-0.0768136956618007,-0.102366680876262
3.254,-0.0774923315203258,-0.1015404894731
3.256,-0.0781603803734739,-0.100717540531619
3.258,-0.0788181672824671,-0.0998979895033764
3.26,-0.0794660196437931,-0.09908198033872
3.262,-0.0801042668524336,-0.0982696454572874
3.264,-0.0807332399525817,-0.0974611056984412
3.266,-0.0813532713086493,-0.0966564703816435
3.268,-0.0819646942583615,-0.0958558371967683
3.27,-0.0825678427770399,-0.0950592923143541
3.272,-0.0831630511387744,-0.0942669103557946
3.274,-0.0837506535791841,-0.0934787543934693
3.276,-0.0843309839604656,-0.0926948760508136
3.278,-0.0849043754384283,-0.0919153154923305
3.28,-0.0854711601259189,-0.0911401014935405
3.282,-0.0860316687689315,-0.0903692515108749
3.284,-0.0865862304145039,-0.0896027717415093
3.286,-0.0871351720854006,-0.088840657203141
3.288,-0.0876788184595793,-0.0880828918537075
3.29,-0.088217491549444,-0.0873294486310502
3.292,-0.0887515103868795,-0.0865802896125215
3.294,-0.0892811907070694,-0.0858353660945384
3.296,-0.0898068446420973,-0.0850946187420802
3.298,-0.0903287804133266,-0.0843579776881365
3.3,-0.0908473020345629,-0.0836253627231
3.302,-0.091362709007993,-0.082896683374112
3.304,-0.0918752960379046,-0.0821718391343552
3.306,-0.092385352740181,-0.0814507195623012
3.308,-0.0928931633595724,-0.0807332045109094
3.31,-0.0933990064887436,-0.0800191642367804
3.312,-0.0939031548060936,-0.0793084596592664
3.314,-0.0944058747893492,-0.0786009425095382
3.316,-0.0949074264759303,-0.0778964555396124
3.318,-0.0954080632090852,-0.0771948327313381
3.32,-0.0959080313537966,-0.0764958995153473
3.322,-0.0964075700924548,-0.0757994729999701
3.324,-0.0969069111703,-0.0751053621501142
3.326,-0.0974062786706287,-0.0744133681061155
3.328,-0.0979058887697676,-0.0737232843335573
3.33,-0.0984059495718108,-0.0730348969300623
3.332,-0.0989066608331197,-0.0723479848520608
3.334,-0.0994082138265866,-0.0716623201755328
3.336,-0.099910791075658,-0.0709776683567337
3.338,-0.10041456623812,-0.0702937885028975
3.34,-0.100919703879642,-0.069610433642927
3.342,-0.101426359287079,-0.0689273510020695
3.344,-0.101934678371532,-0.0682442822855824
3.346,-0.102444797451169,-0.0675609639643901
3.348,-0.102956843113792,-0.0668771275637366
3.35,-0.103470932099175,-0.0661924999598331
3.352,-0.103987171131139,-0.0655068036695101
3.354,-0.104505656829402,-0.0648197571628676
3.356,-0.105026475581163,-0.0641310751559343
3.358,-0.105549703412452,-0.0634404689233357
3.36,-0.106075405919231,-0.0627476466089727
3.362,-0.106603638178243,-0.0620523135337166
3.364,-0.107134444617618,-0.0613541725135205
3.366,-0.10766785900723,-0.0606529241756548
3.368,-0.108203904368806,-0.0599482672756732
3.37,-0.108742592905784,-0.0592398990183493
3.372,-0.10928392597293,-0.0585275153790925
3.374,-0.109827894035699,-0.0578108114257992
3.376,-0.110397861239352,-0.0570879475357892
3.378,-0.110993647847825,-0.0563567696915248
3.38,-0.111591698882354,-0.0556178981508835
3.382,-0.112191866969841,-0.054871039870176
3.384,-0.11279399433099,-0.0541159056502174
3.386,-0.113397912798183,-0.0533522104414518
3.388,-0.114003444013118,-0.052579673649132
3.39,-0.114610399484197,-0.0517980194345639
3.392,-0.115218580793675,-0.0510069770104113
3.394,-0.115827779674561,-0.050206280931071
3.396,-0.116437778227279,-0.0493956713851168
3.398,-0.117048349026084,-0.0485748944758188
3.4,-0.117659255335242,-0.047743702500741
3.402,-0.118270251244967,-0.0469018542294183
3.404,-0.118881081867123,-0.0460491151671195
3.406,-0.119491483550681,-0.0451852578256965
3.408,-0.120101184046951,-0.0443100619795271
3.41,-0.120709902734573,-0.0434233149125482
3.412,-0.121317350804275,-0.0425248116843908
3.414,-0.121923231523402,-0.041614355342613
3.416,-0.122527240430213,-0.0406917571890389
3.418,-0.123129065547956,-0.0397568370002035
3.42,-0.123728387678706,-0.038809423237909
3.422,-0.124324880576987,-0.0378493532698942
3.424,-0.124918211253173,-0.0368764735906215
3.426,-0.125508040216658,-0.0358906400121821
3.428,-0.12609402171882,-0.0348917178853253
3.43,-0.12667580402876,-0.0338795822406132
3.432,-0.12725302971683,-0.0328541180097041
3.434,-0.12782533591195,-0.0318152201867668
3.436,-0.128392354588714,-0.0307627940000308
3.438,-0.12895371285629,-0.0296967550734724
3.44,-0.12950903324211,-0.0286170295386401
3.442,-0.130057933989369,-0.0275235542466244
3.444,-0.130600029353311,-0.026416276840172
3.446,-0.131134929900326,-0.0252951559259466
3.448,-0.131662242814852,-0.0241601611669414
3.45,-0.132181572205078,-0.0230112733950431
3.452,-0.13269251941547,-0.0218484847337533
3.454,-0.133194683338099,-0.0206717986610626
3.456,-0.133687660729792,-0.019481230112489
3.458,-0.134171046530099,-0.0182768055742755
3.46,-0.134644434181083,-0.0170585631167522
3.462,-0.135107415951938,-0.015826552477864
3.464,-0.13555958326143,-0.0145808350968663
3.466,-0.136000527000871,-0.0133214841881916
3.468,-0.136429837865029,-0.0120485847354849
3.47,-0.136847106676673,-0.0107622335358152
3.472,-0.137251924716157,-0.00946253922406097
3.474,-0.137643884049052,-0.00814962225747189
3.476,-0.138022577856415,-0.00682361493040966
3.478,-0.138387600763321,-0.00548466134926788
3.48,-0.138738549165433,-0.00413291743757288
3.482,-0.139075021562739,-0.00276855089126795
3.484,-0.139396618881443,-0.00139174112417957
3.486,-0.139702944803717,-2.67924367024219E-06
3.488,-0.13999360609332,0.00139843199352403
3.49,-0.140268212919088,0.00281137828526901
3.492,-0.140526379178289,0.00423593379781824
3.494,-0.140767722816861,0.00567186131941332
3.496,-0.140991866148518,0.00711891229369023
3.498,-0.14119843617075,0.0085768269328995
3.5,-0.141387064880695,0.0100453343309327
3.502,-0.141525444542905,0.0115836490961582
3.504,-0.141642095498001,0.0131302264640634
3.506,-0.141736736993225,0.0146846478797078
3.508,-0.14180909824788,0.0162464865999778
3.51,-0.141858918677682,0.017815308045654
3.512,-0.141885948084008,0.019390669973278
3.514,-0.141889946903046,0.0209721227968331
3.516,-0.141870686361868,0.0225592098592238
3.518,-0.141827948689399,0.0241514677035659
3.52,-0.141761527282312,0.0257484263842817
3.522,-0.14167122691084,0.027349609717998
3.524,-0.141556863844503,0.0289545356242565
3.526,-0.141418266067766,0.030562716396022
3.528,-0.141255273355619,0.0321736590000064
3.53,-0.141067737499091,0.0337868654267908
3.532,-0.140855522370692,0.0354018329587607
3.534,-0.140618504099791,0.0370180544938467
3.536,-0.140356571147937,0.0386350188810712
3.538,-0.140069624494115,0.0402522112279079
3.54,-0.139757577629947,0.0418691132304435
3.542,-0.139420356734837,0.0434852034953578
3.544,-0.139057900751071,0.0450999578717045
3.546,-0.13867016140886,0.0467128497815085
3.548,-0.13825710336134,0.048323350553176
3.55,-0.137818704199527,0.0499309297527089
3.552,-0.137354954487233,0.0515350555257433
3.554,-0.136865857875937,0.0531351949263888
3.556,-0.136351431049626,0.0547308142608966
3.558,-0.13581170380959,0.0563213794261298
3.56,-0.1352467190592,0.0579063562438585
3.562,-0.134656532808638,0.0594852108068709
3.564,-0.134041214199611,0.0610574098118981
3.566,-0.133400845460032,0.062622420902365
3.568,-0.132735521898681,0.0641797130047543
3.57,-0.132045351869837,0.0657287566683977
3.572,-0.131330456757895,0.0672690244017848
3.574,-0.130590970881959,0.0687999910077994
3.576,-0.129827041500424,0.070321133919075
3.578,-0.129038828685535,0.0718319335288808
3.58,-0.128226505297937,0.0733318735267314
3.582,-0.127390256871214,0.0748204412211234
3.584,-0.126530281556408,0.0762971278710036
3.586,-0.125646789996542,0.077761429009763
3.588,-0.124740005201126,0.0792128447640656
3.59,-0.123810162490656,0.0806508801745052
3.592,-0.122857509311119,0.0820750455110983
3.594,-0.121882305148476,0.0834848565866098
3.596,-0.120884821363162,0.0848798350607132
3.598,-0.11986534102457,0.0862595087519888
3.6,-0.118824158815546,0.0876234119337564
3.602,-0.117761580806871,0.08897108563075
3.604,-0.116677924301764,0.0903020779146279
3.606,-0.115573517700371,0.0916159441923261
3.608,-0.114448700254269,0.0929122474832533
3.61,-0.113303821890967,0.0941905587073241
3.612,-0.112139243028424,0.0954504569488421
3.614,-0.110955334379562,0.0966915297292209
3.616,-0.109752476686793,0.0979133732685552
3.618,-0.108531060556557,0.0991155927510352
3.62,-0.107291486173862,0.100297802539208
3.622,-0.106034163126841,0.101459626489092
3.624,-0.104759510141316,0.102600698122129
3.626,-0.103467954825374,0.103720660877
3.628,-0.102159933413958,0.104819168361279
3.63,-0.100835890543464,0.105895884532943
3.632,-0.0994962789533603,0.106950483951739
3.634,-0.0981415592268131,0.107982651940392
3.636,-0.0967721995243297,0.108992084835674
3.638,-0.0953886752994194,0.109978490139327
3.64,-0.0939914690092619,0.110941586708837
3.642,-0.0925810698344018,0.111881104948062
3.644,-0.0911579733774503,0.112796786987721
3.646,-0.0897226813718104,0.113688386795736
3.648,-0.0882757013754168,0.114555670397422
3.65,-0.0868175464654909,0.115398415985553
3.652,-0.0853487349303206,0.116216414040264
3.654,-0.083869789957052,0.117009467498824
3.656,-0.0823812393145042,0.11777739188526
3.658,-0.0808836150320014,0.118520015359847
3.66,-0.0793774530802265,0.119237178898444
3.662,-0.0778632930470947,0.119928736341698
3.664,-0.0763416778056441,0.120594554504104
3.666,-0.0748131531909546,0.121234513262922
3.668,-0.0732782676650804,0.121848505596953
3.67,-0.0717375719844117,0.122436437705178
3.672,-0.070191618866051,0.122998228995246
3.674,-0.0686409626514206,0.123533812191832
3.676,-0.0670861589690868,0.124043133314847
3.678,-0.0655277643968103,0.124526151777506
3.68,-0.0639663361252224,0.124982840354256
3.682,-0.0624024316135222,0.125413185188566
3.684,-0.0608366082560035,0.125817185840565
3.686,-0.0592694230404032,0.12619485524455
3.688,-0.0577014322090814,0.126546219726339
3.69,-0.0561331909202222,0.126871318920492
3.692,-0.0545652529110679,0.12717020581738
3.694,-0.0529981701621793,0.127442946660117
3.696,-0.051432492557723,0.127689620921344
3.698,-0.0498687675547937,0.12791032124987
3.7,-0.0483075398497605,0.128105153407167
3.702,-0.0467493510486519,0.12827423614372
3.704,-0.0451947393335656,0.128417701205235
3.706,-0.0436442391421177,0.128535693158693
3.708,-0.0420983808399224,0.128628369318263
3.71,-0.0405576903991063,0.128695899671066
3.712,-0.0390226890778625,0.128738466702791
3.714,-0.0374938931160362,0.128756265333161
3.716,-0.0359718133947538,0.128749502721253
3.718,-0.0344569551590866,0.128718398160665
3.72,-0.0329498177147592,0.128663182954533
3.722,-0.031450894092896,0.128584100190401
3.724,-0.0299606707658115,0.128481404644932
3.726,-0.0284796273828473,0.128355362568477
3.728,-0.0270082364562503,0.128206251519476
3.73,-0.0255469630671024,0.128034360188726
3.732,-0.0240962646212942,0.127839988183475
3.734,-0.0226565905255539,0.127623445861371
3.736,-0.021228381983523,0.12738505405426
3.738,-0.0198120716818875,0.127125143951815
3.74,-0.0184080835465638,0.126844056788021
3.742,-0.0170168325089404,0.126542143672496
3.744,-0.0156387242121805,0.126219765328657
3.746,-0.0142741548475796,0.125877291860726
3.748,-0.0129235108509922,0.125515102508579
3.75,-0.011587168699317,0.125133585390433
3.752,-0.0103430499770486,0.124691414937379
3.754,-0.00911603390290284,0.124234767212746
3.756,-0.00790631090650308,0.123764130235315
3.758,-0.00671405827514885,0.123279994663361
3.76,-0.00553944016064981,0.122782853445542
3.762,-0.00438260753624479,0.122273201480623
3.764,-0.00324369815359362,0.121751535266039
3.766,-0.00212283659985207,0.121218352553293
3.768,-0.00102013423483432,0.120674152006194
3.77,6.43107517449767E-05,0.120119432852936
3.772,0.00113041335293228,0.119554694543004
3.774,0.00217810166711307,0.118980436405829
3.776,0.00320731693048854,0.118397157308272
3.778,0.00421801340946171,0.117805355317251
3.78,0.00521015835292162,0.117205527360897
3.782,0.00618373197442413,0.116598168893659
3.784,0.0071387273042728,0.115983773562338
3.786,0.00807515018148558,0.11536283287746
3.788,0.00899301912565895,0.114735835882191
3.79,0.00989236522871207,0.11410326883089
3.792,0.0107732320865183,0.113465614865396
3.794,0.0116356756404198,0.112823353696159
3.796,0.0124797640886137,0.112176961288217
3.798,0.0133055777474219,0.111526909549997
3.8,0.0141132088924244,0.110873666025979
3.802,0.0149027616394694,0.110217693593182
3.804,0.0156743517755442,0.109559450164513
3.806,0.0164281066095112,0.108899388390944
3.808,0.0171641647727053,0.10823795537554
3.81,0.0178826760893835,0.107575592388342
3.812,0.0185838013570344,0.106912734584084
3.814,0.019267712166533,0.106249810732766
3.816,0.0199345907121464,0.105587242947079
3.818,0.0205846295813818,0.104925446422679
3.82,0.0212180315446784,0.104264829165314
3.822,0.0218350093449339,0.103605791786807
3.824,0.0224357854668686,0.102948727182898
3.826,0.0230205919162218,0.102294020368939
3.828,0.0235896699787737,0.101642048196457
3.83,0.0241432699691985,0.100993179169572
3.832,0.0246816510297332,0.100347773161281
3.834,0.0252050808086734,0.0997061812896175
3.836,0.0257138352786793,0.0990687456236641
3.838,0.0262081984248986,0.0984357990494508
3.84,0.0266884619729014,0.0978076650357177
3.842,0.0271549251914172,0.0971846574895588
3.844,0.0276078945148833,0.0965670805319419
3.846,0.0280476833417885,0.0959552283731113
3.848,0.0284746117168216,0.0953493851178729
3.85,0.0288890060528116,0.0947498246407689
3.852,0.0292911988404632,0.0941568104111404
3.854,0.0296815283508837,0.0935705953580825
3.856,0.0300603383418946,0.0929914217752985
3.858,0.0304279777561329,0.0924195211558501
3.86,0.03078480042193,0.0918551141068117
3.862,0.0311311647399775,0.0912984102038303
3.864,0.0314674333837627,0.0907496079455951
3.866,0.0317939729857863,0.0902088946282192
3.868,0.0321111538275498,0.0896764462795389
3.87,0.0324193495233137,0.0891524275633318
3.872,0.0327189367086261,0.0886369917434593
3.874,0.033010294720615,0.0881302806279378
3.876,0.0332938052860479,0.0876324244729397
3.878,0.0335698521969517,0.0871435420067316
3.88,0.0338388209965641,0.086663740353551
3.882,0.0341010986590249,0.0861931150374263
3.884,0.0343570732701714,0.0857317499559465
3.886,0.0346071337076924,0.085279717363981
3.888,0.0348516693247834,0.0848370778973574
3.89,0.035091069629138,0.0844038805764971
3.892,0.0353257239658547,0.0839801628100203
3.894,0.0355560212042997,0.0835659504483167
3.896,0.0357823494157148,0.0831612578070908
3.898,0.0360050955665728,0.0827660877008884
3.9,0.0362246452016828,0.0823804315266021
3.902,0.0364413821340362,0.0820042692769685
