"Freq [GHz]","re(S(Antenna1_1_p1,Antenna1_1_p1)) []","im(S(Antenna1_1_p1,Antenna1_1_p1)) []"
3,0.102484702422387,-0.077702391246587
3.002,0.102088977784575,-0.0792477226897952
3.004,0.101664449977819,-0.080797303433127
3.006,0.10121087208269,-0.0823504961698024
3.008,0.100728012709501,-0.0839066559650589
3.01,0.100215656213593,-0.0854651306892221
3.012,0.0996736029202831,-0.0870252613696549
3.014,0.0991016692595282,-0.0885863826415923
3.016,0.0984996879803098,-0.0901478231178672
3.018,0.09786750828479,-0.0917089058175284
3.02,0.0972049959722532,-0.0932689485933643
3.022,0.0965120336128709,-0.0948272645363319
3.024,0.0957885206413131,-0.0963831623829044
3.026,0.0950343735102341,-0.0979359469823437
3.028,0.0942495257636618,-0.0994849196939069
3.03,0.093433928160312,-0.101029378833998
3.032,0.0925875487468584,-0.102568620103274
3.034,0.0917103729311778,-0.104101937026719
3.036,0.0908024035555995,-0.105628621390691
3.038,0.0898636609501779,-0.10714796368497
3.04,0.0888941829760149,-0.108659253540791
3.042,0.0878940250386501,-0.110161780175915
3.044,0.0868632601215446,-0.111654832834711
3.046,0.0858019788296749,-0.11313770123529
3.048,0.08471028929326,-0.114609676009701
3.05,0.0835883172816383,-0.116070049150992
3.052,0.0824362060473153,-0.117518114452562
3.054,0.0812541164001981,-0.118953167953621
3.056,0.0800422265920351,-0.120374508378765
3.058,0.0788007323010758,-0.121781437581686
3.06,0.0775298465169678,-0.123173260980232
3.062,0.0762297995159063,-0.124549287995445
3.064,0.0749008387260479,-0.125908832489768
3.066,0.0735432286432059,-0.127251213194463
3.068,0.0721572507168369,-0.128575754144246
3.07,0.0707432032263338,-0.129881785103152
3.072,0.069301401167634,-0.131168641990655
3.074,0.0678321760501556,-0.132435667301055
3.076,0.0663358758040733,-0.133682210522149
3.078,0.0648128645879383,-0.134907628549208
3.08,0.063263522616658,-0.136111286095271
3.082,0.0616882459598397,-0.137292556090772
3.084,0.0600874463805072,-0.138450820104525
3.086,0.0584615510741979,-0.139585468696076
3.088,0.0568110025284461,-0.14069590186444
3.09,0.0551362582126617,-0.141781529385245
3.092,0.053437790398403,-0.142841771217291
3.094,0.0517160859000579,-0.143876057848547
3.096,0.0499716458259303,-0.144883830711597
3.098,0.0482049852797398,-0.145864542488557
3.1,0.0464166331325359,-0.146817657525474
3.102,0.0446071317250327,-0.147742652106221
3.104,0.042777036570362,-0.148639014875909
3.106,0.0409269160372533,-0.149506247113828
3.108,0.0390573510936343,-0.15034386307593
3.11,0.0371689349506617,-0.151151390336875
3.112,0.0352622727271759,-0.151928370071643
3.114,0.0333379811645852,-0.152674357356741
3.116,0.0313966882521762,-0.153388921491004
3.118,0.0294390328928522,-0.154071646266013
3.12,0.0274656645292978,-0.154722130256146
3.122,0.0254772428235688,-0.155339987058257
3.124,0.0234744372481074,-0.155924845571022
3.126,0.0214425665301795,-0.156443248203943
3.128,0.0193849181927332,-0.15689367226603
3.13,0.0173184634846756,-0.157308611414177
3.132,0.0152439610125672,-0.157687891331231
3.134,0.0131621728947303,-0.158031355833784
3.136,0.0110738643137653,-0.158338866929679
3.138,0.00897980306148032,-0.158610304875252
3.14,0.00688075908622073,-0.158845568242319
3.142,0.00477750403860387,-0.159044573934916
3.144,0.00267081082164835,-0.159207257225803
3.146,0.000561453127300361,-0.159333571762737
3.148,-0.00154979500965069,-0.159423489574531
3.15,-0.00366215967157228,-0.159477001056898
3.152,-0.00577486750790324,-0.1594941149681
3.154,-0.00788714619059267,-0.159474858374395
3.156,-0.00999822486366407,-0.159419276605307
3.158,-0.0121073345959103,-0.159327433238708
3.16,-0.014213708825924,-0.159199409985739
3.162,-0.0163165838104677,-0.159035306635556
3.164,-0.0184151990695865,-0.158835240989926
3.166,-0.0205087978253715,-0.158599348727669
3.168,-0.022596627443376,-0.158327783308951
3.17,-0.024677939865688,-0.158020715859441
3.172,-0.0267519920456676,-0.157678335044331
3.174,-0.0288180463753493,-0.157300846902229
3.176,-0.0308753711105183,-0.156888474728925
3.178,-0.0329232407904602,-0.156441458881039
3.18,-0.0349609366553945,-0.15596005661955
3.182,-0.0369877470615917,-0.155444541923219
3.184,-0.0390029678661809,-0.154895205301904
3.186,-0.0410059028726508,-0.154312353579765
3.188,-0.0429958641870506,-0.153696309688375
3.19,-0.0449721726128929,-0.153047412449738
3.192,-0.0469341580717635,-0.152366016329199
3.194,-0.0488811599236439,-0.15165249119828
3.196,-0.0508125273869475,-0.150907222117417
3.198,-0.0527276198882764,-0.150130608988615
3.2,-0.0546258074219008,-0.149323066408021
3.202,-0.0565064708789655,-0.14848502326841
3.204,-0.0583690024464276,-0.147616922551603
3.206,-0.0602128058957277,-0.146719221010794
3.208,-0.0620372969112011,-0.145792388842814
3.21,-0.0638419034382268,-0.14483690943031
3.212,-0.0656260660111252,-0.143853278953863
3.214,-0.0673892379907996,-0.142842006114023
3.216,-0.0691308859321314,-0.141803611813282
3.218,-0.070850489851128,-0.140738628747973
3.22,-0.0725475434618261,-0.139647601120106
3.222,-0.0742215545229571,-0.138531084239131
3.224,-0.0758720450443715,-0.137389644210637
3.226,-0.077498551543229,-0.136223857517987
3.228,-0.0791006253199553,-0.135034310676883
3.23,-0.0806778326539666,-0.133821599846871
3.232,-0.0822297550491669,-0.132586330448778
3.234,-0.083755989449217,-0.131329116771086
3.236,-0.0852561484125767,-0.130050581579245
3.238,-0.0867298603473281,-0.128751355706916
3.24,-0.0881767696857717,-0.127432077659159
3.242,-0.0895965370188051,-0.126093393197551
3.244,-0.0909888393000823,-0.124735954929246
3.246,-0.0923533699999538,-0.123360421887967
3.248,-0.0936898392091922,-0.121967459113945
3.25,-0.0949979738124992,-0.120557737230181
3.252,-0.0962098797418007,-0.119125193910662
3.254,-0.0973926355993259,-0.1176807444691
3.256,-0.0985461503804739,-0.116225083563619
3.258,-0.0996703504964671,-0.114758905445376
3.26,-0.100765179746793,-0.11328290351772
3.262,-0.101830599191434,-0.111797769896287
3.264,-0.102866587192882,-0.110304194976441
3.266,-0.103873139207949,-0.108802866995644
3.268,-0.104850267789361,-0.107294471606768
3.27,-0.10579800241714,-0.105779691447354
3.272,-0.106716389439774,-0.104259205715795
3.274,-0.107605491875184,-0.102733689751469
3.276,-0.108465389341466,-0.101203814616814
3.278,-0.109296177877428,-0.0996702466863306
3.28,-0.110097969782919,-0.0981336472345405
3.282,-0.110870893458931,-0.0965946720308749
3.284,-0.111615093227504,-0.0950539709615093
3.286,-0.112330729141401,-0.0935121875931409
3.288,-0.113017976803579,-0.0919699588237075
3.29,-0.113677027126444,-0.0904279144810502
3.292,-0.11430808614088,-0.0888866769525215
3.294,-0.114911374775069,-0.0873468608145384
3.296,-0.115487128583097,-0.0858090724420802
3.298,-0.116035597563327,-0.0842739097081365
3.3,-0.116557045836563,-0.0827419615731
3.302,-0.117051751423993,-0.081213807754112
3.304,-0.117520005984905,-0.0796900184343552
3.306,-0.117962114514181,-0.0781711538523012
3.308,-0.118378395069572,-0.0766577640509094
3.31,-0.118769178458744,-0.0751503885267804
3.312,-0.119134807976094,-0.0736495559192664
3.314,-0.119475639059349,-0.0721557837495382
3.316,-0.11979203899593,-0.0706695780596124
3.318,-0.120084386589085,-0.0691914332313381
3.32,-0.120353071803797,-0.0677218315953473
3.322,-0.120598495492455,-0.0662612432799701
3.324,-0.1208210689903,-0.0648101258601142
3.326,-0.121021213790629,-0.0633689241761155
3.328,-0.121199361202768,-0.0619380700725573
3.33,-0.121355951975811,-0.0605179821670623
3.332,-0.12149143593212,-0.0591090656290608
3.334,-0.121606271602587,-0.0577117119885328
3.336,-0.121700925848658,-0.0563262989047337
3.338,-0.12177587348312,-0.0549531900348975
3.34,-0.121831596882642,-0.053592734792927
3.342,-0.121868585602079,-0.0522452681980695
3.344,-0.121887335979532,-0.0509111107535824
3.346,-0.121888350738169,-0.0495905682453901
3.348,-0.121872138590792,-0.0482839316407366
3.35,-0.121839213833175,-0.0469914769368331
3.352,-0.121790095942139,-0.0457134650595101
3.354,-0.121725309161302,-0.0444501417518676
3.356,-0.121645382096763,-0.0432017374729343
3.358,-0.121550847300452,-0.0419684673263357
3.36,-0.121442240858231,-0.0407505309689727
3.362,-0.121320101971243,-0.0395481125397166
3.364,-0.121184972541618,-0.0383613806681205
3.366,-0.12103739675523,-0.0371904883231548
3.368,-0.120877920657806,-0.0360355729019632
3.37,-0.120707091742784,-0.0348967561086493
3.372,-0.12052545852593,-0.0337741440130925
3.374,-0.120333570133699,-0.0326678270197992
3.376,-0.120137806201352,-0.0316101049367892
3.378,-0.119941190350825,-0.0306005661445248
3.38,-0.119739244325354,-0.0296067701348835
3.382,-0.119532486588841,-0.028628623240176
3.384,-0.11932143021099,-0.0276660172922174
3.386,-0.119106582498183,-0.0267188298514518
3.388,-0.118888444603118,-0.025786924386132
3.39,-0.118667511154197,-0.0248701504215639
3.392,-0.118444269933675,-0.0239683438194113
3.394,-0.118219201474561,-0.023081326987071
3.396,-0.117992778707279,-0.0222089090471168
3.398,-0.117765466686084,-0.0213508861468188
3.4,-0.117537722155242,-0.020507041647741
3.402,-0.117309993294967,-0.0196771464354183
3.404,-0.117082719357123,-0.0188609591291195
3.406,-0.116856330370681,-0.0180582263616965
3.408,-0.116631246816951,-0.0172686830995271
3.41,-0.116407879354573,-0.0164920528725482
3.412,-0.116186628484275,-0.0157280481043908
3.414,-0.115967884323402,-0.014976370412613
3.416,-0.115752026280213,-0.0142367108890389
3.418,-0.115539422787956,-0.0135087504302035
3.42,-0.115330431088706,-0.012792160057909
3.422,-0.115125396936987,-0.0120866012798942
3.424,-0.114924654393173,-0.0113917263406215
3.426,-0.114728525556658,-0.0107071786521821
3.428,-0.11453732037882,-0.0100325930753253
3.43,-0.11435133640576,-0.00936759630061325
3.432,-0.11417085863083,-0.00871180720970407
3.434,-0.11399615923695,-0.00806483720676685
3.436,-0.113827497458714,-0.00742629060703077
3.438,-0.11366511938429,-0.0067957650034724
3.44,-0.11350925781711,-0.00617285163364005
3.442,-0.113360132057369,-0.00555713576762443
3.444,-0.113217947843311,-0.00494819708217201
3.446,-0.113082897132326,-0.00434561004794661
3.448,-0.112955158051852,-0.00374894432094136
3.45,-0.112834894710078,-0.00315776513004313
3.452,-0.11272225716647,-0.00257163367375329
3.454,-0.112617381272099,-0.00199010751406255
3.456,-0.112520388629792,-0.00141274097648903
3.458,-0.112431386514099,-0.00083908555097552
3.46,-0.112350467771083,-0.000268690291452223
3.462,-0.112277710827938,0.000298897779136045
3.464,-0.11221317961243,0.000864133265133673
3.466,-0.112156923542171,0.0014274719928084
3.468,-0.112108977473729,0.00198937060851508
3.47,-0.112069361731573,0.00255028616618481
3.472,-0.112038082096857,0.00311067572993903
3.474,-0.112015129806052,0.00367099596252811
3.476,-0.112000481579415,0.00423170272359034
3.478,-0.111994099689321,0.00479325066673212
3.48,-0.111995931958433,0.00535609283542712
3.482,-0.112005911817739,0.00592068026473205
3.484,-0.112023958414443,0.00648746157682043
3.486,-0.112049976639717,0.00705688258632976
3.488,-0.11208385724632,0.00762938592352403
3.49,-0.112125476946088,0.008205410585269
3.492,-0.112174698487289,0.00878539161781824
3.494,-0.112231370791861,0.00936975969941332
3.496,-0.112295329082518,0.00995894072369023
3.498,-0.11236639504975,0.0105533554628995
3.5,-0.112444376928695,0.0111534192009327
3.502,-0.112612370965905,0.0118120309661582
3.504,-0.112784091206001,0.0124812858040634
3.506,-0.112959154488225,0.0131614736897078
3.508,-0.11313716847288,0.0138528728499778
3.51,-0.113317732047682,0.014555749455654
3.512,-0.113500435564008,0.015270357463278
3.514,-0.113684861293046,0.0159969383468331
3.516,-0.113870583701868,0.0167357208692238
3.518,-0.114057169829399,0.0174869209335659
3.52,-0.114244179672312,0.0182507413342817
3.522,-0.11443116654084,0.019027371577998
3.524,-0.114617677384503,0.0198169877442565
3.526,-0.114803253257766,0.020619752266022
3.528,-0.114987429615619,0.0214358138200064
3.53,-0.115169736759091,0.0222653071467908
3.532,-0.115349700170692,0.0231083529407607
3.534,-0.115526840929791,0.0239650577098467
3.536,-0.115700676136937,0.0248355136450712
3.538,-0.115870719246115,0.0257197985499079
3.54,-0.116036480508947,0.0266179757394435
3.542,-0.116197467361837,0.0275300939193578
3.544,-0.116353184828071,0.0284561871547045
3.546,-0.11650313591986,0.0293962747885085
3.548,-0.11664682205034,0.030350361400176
3.55,-0.116783743434527,0.0313184367437089
3.552,-0.116913399497233,0.0323004757457433
3.554,-0.117035289281937,0.0332964384633888
3.556,-0.117148911858626,0.0343062700918966
3.558,-0.11725376673159,0.0353299009321298
3.56,-0.1173493542462,0.0363672464478585
3.562,-0.117435175995038,0.0374182072728709
3.564,-0.117510735228111,0.0384826692378981
3.566,-0.117575537253032,0.039560503397365
3.568,-0.117629089841681,0.0406515661259543
3.57,-0.117670903628837,0.0417556991649977
3.572,-0.117700492517895,0.0428727296686848
3.574,-0.117717374070959,0.0440024703500994
3.576,-0.117721069909424,0.045144719527075
3.578,-0.117711106105535,0.0462992612478808
3.58,-0.117687013571937,0.0474658654167314
3.582,-0.117648328444214,0.0486442879191234
3.584,-0.117594592471408,0.0498342707270036
3.586,-0.117525353385542,0.051035542093763
3.588,-0.117440165283126,0.0522478166790656
3.59,-0.117338588996656,0.0534707957435052
3.592,-0.117220192451119,0.0547041672930983
3.594,-0.117084551038476,0.0559476062836098
3.596,-0.116931247973162,0.0572007748047132
3.598,-0.11675987462457,0.0584633223239888
3.6,-0.116570030875546,0.0597348858407564
3.602,-0.116361325486871,0.06101509014975
3.604,-0.116133376371764,0.0623035480646279
3.606,-0.115885810990371,0.0635998606413261
3.608,-0.115618266614269,0.0649036174512533
3.61,-0.115330390700967,0.0662143968343241
3.612,-0.115021841138424,0.0675317661518421
3.614,-0.114692286579562,0.0688552820592209
3.616,-0.114341406756793,0.0701844907985552
3.618,-0.113968892726557,0.0715189285010352
3.62,-0.113574447153862,0.0728581214292084
3.622,-0.113157784636841,0.0742015863290922
3.624,-0.112718631901316,0.0755488307521294
3.626,-0.112256728075374,0.0768993533170003
3.628,-0.111771824983958,0.0782526440712785
3.63,-0.111263687313464,0.0796081848229435
3.632,-0.11073209289636,0.0809654494517395
3.634,-0.110176832905813,0.0823239042803919
3.636,-0.10959771209033,0.0836830084056742
3.638,-0.108994548958419,0.085042214059327
3.64,-0.108367175953262,0.0864009669588366
3.642,-0.107715439707402,0.0877587066750615
3.644,-0.10703920112745,0.0891148670027213
3.646,-0.10633833562881,0.0904688763347356
3.648,-0.105612733270417,0.0918201580324223
3.65,-0.104862298889491,0.0931681308165533
3.652,-0.104086952246321,0.0945122091432641
3.654,-0.103286628169052,0.0958518036018236
3.656,-0.102461276628504,0.0971863212992603
3.658,-0.101610862893001,0.0985151662588474
3.66,-0.100735367583227,0.0998377398204444
3.662,-0.0998347867870947,0.101153441034698
3.664,-0.0989091321146441,0.102461667074104
3.666,-0.0979584307929546,0.103761813629922
3.668,-0.0969827256610804,0.105053275323253
3.67,-0.0959820753050117,0.106335446112178
3.672,-0.094956554012651,0.107607719700246
3.674,-0.0939062518188206,0.108869489947832
3.676,-0.0928312745402868,0.110120151280847
3.678,-0.0917317437508103,0.111359099105506
3.68,-0.0906077967962224,0.112585730215256
3.682,-0.0894595867495222,0.113799443207566
3.684,-0.0882872824060035,0.114999638887565
3.686,-0.0870910682284032,0.11618572068655
3.688,-0.0858711442920814,0.117357095062339
3.69,-0.0846277262502222,0.118513171916492
3.692,-0.0833610452190679,0.11965336499438
3.694,-0.0820713477431793,0.120777092292117
3.696,-0.0807588956707229,0.121883776461344
3.698,-0.0794239660387937,0.12297284519987
3.7,-0.0780668510187605,0.124043731667167
3.702,-0.0766878577316519,0.12509587487372
3.704,-0.0752873081335656,0.126128720055235
3.706,-0.0738655389011177,0.127141719098693
3.708,-0.0724229012269224,0.128134330868263
3.71,-0.0709597606951063,0.129106021671066
3.712,-0.0694764970768625,0.130056265552791
3.714,-0.0679735042060362,0.130984544713161
3.716,-0.0664511896947537,0.131890349891253
3.718,-0.0649099748190866,0.132773180670665
3.72,-0.0633502942547592,0.133632545894533
3.722,-0.061772595862896,0.134467964000401
3.724,-0.0601773404958115,0.135278963354932
3.726,-0.0585650017028473,0.136065082608476
3.728,-0.0569360655262503,0.136825871049476
3.73,-0.0552910302271024,0.137560888898726
3.732,-0.0536304060212942,0.138269707653475
3.734,-0.0519547148155539,0.138951910401371
3.736,-0.050264489893523,0.13960709213426
3.738,-0.0485602756818875,0.140234860061815
3.74,-0.0468426273965638,0.140834833885021
3.742,-0.0451121107889404,0.141406646079496
3.744,-0.0433693017721805,0.141949942228657
3.746,-0.0416147861775796,0.142464381226726
3.748,-0.0398491593609922,0.142949635611579
3.75,-0.038073025892317,0.143405391747433
3.752,-0.0362229953960486,0.143714027107379
3.754,-0.0343696360489028,0.143989450705746
3.756,-0.0325136881105031,0.144231612420315
3.758,-0.0306558925191488,0.144440480254361
3.76,-0.0287969904356498,0.144616040388542
3.762,-0.0269377227882448,0.144758297142623
3.764,-0.0250788298125936,0.144867272927039
3.766,-0.0232210506008521,0.144943008264293
3.768,-0.0213651226458343,0.144985561710194
3.77,-0.019511781385255,0.144995009774936
3.772,-0.0176617597592677,0.144971446914004
3.774,-0.0158157877540969,0.144914985408929
3.776,-0.0139745919616115,0.144825755257872
3.778,-0.0121388951345383,0.144703904146051
3.78,-0.0103094157450784,0.144549597245997
3.782,-0.00848686755057587,0.144363017157659
3.784,-0.0066719591607272,0.144144363738338
3.786,-0.00486539360351442,0.14389385398246
3.788,-0.00306786790634105,0.143611721831191
3.79,-0.00128007266828793,0.14329821804189
3.792,0.000497308348518287,0.142953609997396
3.794,0.00226359863741976,0.142578181515159
3.796,0.00401812934961375,0.142172232646217
3.798,0.00576023969642194,0.141736079473997
3.8,0.00748927734242437,0.141270053902979
3.802,0.00920459879946942,0.140774503417182
3.804,0.0109055698155442,0.140249790858513
3.806,0.0125915657195112,0.139696294154944
3.808,0.0142619718527053,0.13911440608854
3.81,0.0159161838493835,0.138504534043342
3.812,0.0175536080870344,0.137867099683084
3.814,0.019173661966533,0.137202538718766
3.816,0.0207757742721464,0.136511300596079
3.818,0.0223593855313818,0.135793848172679
3.82,0.0239239482846784,0.135050657465314
3.822,0.0254689274849339,0.134282217286807
3.824,0.0269938007268686,0.133489028952898
3.826,0.0284980586162218,0.132671605938939
3.828,0.0299812049987737,0.131830473516457
3.83,0.0314427573191985,0.130966168479572
3.832,0.0328822468197332,0.130079238701281
3.834,0.0342992188586734,0.129170242849618
3.836,0.0356932331486793,0.128239749983664
3.838,0.0370638640248986,0.127288339199451
3.84,0.0384107006429014,0.126316599235718
3.842,0.0397333472464172,0.125325128119559
3.844,0.0410314233648833,0.124314532751942
3.846,0.0423045640307885,0.123285428513111
3.848,0.0435524199768216,0.122238438887873
3.85,0.0447746578228116,0.121174195040769
3.852,0.0459709602624632,0.12009333542114
3.854,0.0471410262098837,0.118996505360082
3.856,0.0482845709758946,0.117884356622299
3.858,0.0494013264241329,0.11675754701785
3.86,0.05049104106693,0.115616739969812
3.862,0.0515534802509775,0.11446260408683
3.864,0.0525884262127627,0.113295812737595
3.866,0.0535956782037863,0.112117043620219
3.868,0.0545750526155498,0.110926978326539
3.87,0.0555263830043137,0.109726301909332
3.872,0.0564495202056261,0.108515702445459
3.874,0.057344332378615,0.107295870596938
3.876,0.0582107050500479,0.10606749917294
3.878,0.0590485411481517,0.104831282686132
3.88,0.0598577610661941,0.103587916915751
3.882,0.0606383026258249,0.102338098464426
3.884,0.0613901211101714,0.101082524317946
3.886,0.0621131892566924,0.099821891401981
3.888,0.0628074972297834,0.0985568961443574
3.89,0.063473052603138,0.0972882340334972
3.892,0.0641098802918547,0.0960165991820203
3.894,0.0647180225542997,0.0947426838863167
3.896,0.0652975388837148,0.0934671781910908
3.898,0.0658485059295728,0.0921907694598884
3.9,0.0663710174586828,0.0909141419366021
3.902,0.0668651842360362,0.0896379763229685
3.904,0.0673311339054038,0.0883629493460537
