"Freq [GHz]","re(S(Antenna1_1_1,Antenna1_1_1)) []","im(S(Antenna1_1_1,Antenna1_1_1)) []"
5,0.0223560547024807,0.162327684809666
5.006,0.0260177435171198,0.159768388813536
5.012,0.0295004032249587,0.157009279601212
5.018,0.0327839916439434,0.154073005508939
5.024,0.0358518222577176,0.150984607995693
5.03,0.0386908499977929,0.147771024598243
5.036,0.04129188545217,0.144460559450278
5.042,0.0436497341271658,0.141082331280901
5.048,0.0457632587051886,0.137665709162955
5.054,0.0476353635982031,0.134239746349461
5.06,0.049272902402624,0.130832622546846
5.066,0.0506865101873654,0.127471104741621
5.072,0.0518903637887741,0.124180036386601
5.078,0.0529018745281618,0.120981864237527
5.084,0.0537413188906507,0.11789621151067
5.09,0.0544314137700382,0.1149395052806
5.096,0.0549968438663768,0.1121246651533
5.102,0.0554637496912619,0.10946085925781
5.108,0.0558591853751153,0.106953332515601
5.114,0.0562105561215386,0.104603310943867
5.12,0.0565450456216126,0.102407984503955
5.126,0.0568890440998043,0.100360569633138
5.132,0.057267587829346,0.098450451235958
5.138,0.0577038209751364,0.0966634024523671
5.144,0.0582184904264169,0.0949818790749257
5.15,0.0588294839441632,0.0933853840212955
5.156,0.0595514213528375,0.091850895860307
5.162,0.060395307751134,0.0903533539838771
5.168,0.0613682567593541,0.0888661917437749
5.174,0.062473290629042,0.0873619076906417
5.18,0.0637092227125125,0.0858126640052896
5.186,0.065070626253899,0.0841909003681199
5.192,0.0665940779753534,0.0824434480755148
5.198,0.0682256345490281,0.080548417339874
5.204,0.0699281026264736,0.0784917524345878
5.21,0.0716777381940887,0.0762559948566496
5.216,0.0734482822782615,0.0738273111723309
5.222,0.0752115106338495,0.0711958330053655
5.228,0.0769378295491459,0.0683559143210952
5.234,0.0785969053494946,0.0653062995420579
5.24,0.080158314174717,0.0620501978935163
5.246,0.0815921979685279,0.0585952614504327
5.252,0.0828699122281257,0.0549534664974319
5.258,0.0839646510871546,0.0511409000642929
5.264,0.0848520356532483,0.0471774556785393
5.27,0.0855106521983775,0.0430864445567175
5.276,0.0859225279027415,0.0388941304649546
5.282,0.0860735331719544,0.0346291983464243
5.288,0.085953701248299,0.0303221684021467
5.294,0.0855574577258349,0.0260047686421781
5.3,0.0848837546611671,0.0217092799476488
5.306,0.0839361062497037,0.0174678682983356
5.312,0.0827225253012482,0.0133119191394544
5.318,0.0812553620897956,0.00927138873258193
5.324,0.0795510494224239,0.00537418690602465
5.33,0.0776297598871947,0.00164560475555842
5.336,0.0755149832500032,-0.00189220024671757
5.342,0.0732330336853389,-0.00522065075966754
5.348,0.0708124980349464,-0.00832511835379405
5.354,0.0682836374322923,-0.0111952071285331
5.36,0.0656777555456485,-0.013824946675406
5.366,0.0630265471535502,-0.0162128910432542
5.372,0.0603614410295775,-0.0183621223847786
5.378,0.0577435417877309,-0.0202365828096098
5.384,0.0552189858198667,-0.0218620959871258
5.39,0.0527862245966016,-0.0233063769132409
5.396,0.0504645371580066,-0.0245925265683867
5.402,0.048269415500331,-0.0257459218069123
5.408,0.0462123055820186,-0.0267936360481347
5.414,0.0443004342003202,-0.0277638340192709
5.42,0.0425367234808216,-0.0286851528944003
5.426,0.0409197930332434,-0.0295860820474017
5.432,0.039444048252895,-0.0304943533230315
5.438,0.0380998516931914,-0.0314363532159096
5.444,0.0368737730976741,-0.0324365676921998
5.45,0.0357489124009957,-0.0335170695623781
5.456,0.0347052889103675,-0.0346970574027049
5.462,0.0337202888879803,-0.0359924540178259
5.468,0.0327691629129483,-0.0374155713418464
5.474,0.0318255636993394,-0.0389748475342443
5.48,0.0308621144473192,-0.040674660816001
5.486,0.0298509973520075,-0.042515223383358
5.492,0.0287645515647218,-0.044492557413619
5.498,0.0275758696902127,-0.0465985538994488
5.504,0.0262593818296202,-0.0488211137091369
5.51,0.024791416245823,-0.0511443688763227
5.516,0.0231507259389048,-0.0535489807857042
5.522,0.0213189707990402,-0.056012510512274
5.528,0.0192811455245553,-0.0585098552126559
5.534,0.0170259442599223,-0.0610137431491483
5.54,0.0145460537574697,-0.0634952786020972
5.546,0.0118383680335963,-0.0659245267987576
5.552,0.00890411873629207,-0.0682711278518349
5.558,0.00574891694577512,-0.0705049278159153
5.564,0.00238270375206632,-0.0725966142320367
5.57,-0.00118039121467391,-0.0745183429996721
5.576,-0.00492228226521257,-0.0762443431964363
5.582,-0.00882124809087983,-0.0777514864778459
5.588,-0.0128523350869339,-0.0790198080205081
5.594,-0.0169878365138131,-0.0800329666646296
5.6,-0.0211978384816323,-0.0807786328647738
5.606,-0.0254508219928847,-0.0812487943888299
5.612,-0.0297143086373118,-0.0814399713011757
5.618,-0.0339555361873031,-0.0813533336740567
5.624,-0.0381421492789949,-0.0809947175642266
5.63,-0.0422428896310503,-0.0803745371459268
5.636,-0.0462282699184952,-0.0795075932793099
5.642,-0.0500712154640069,-0.0784127813634413
5.648,-0.0537476583666538,-0.0771127037550361
5.654,-0.0572370696042997,-0.0756331945101255
5.66,-0.0605229158678927,-0.0740027664478605
5.666,-0.0635930296018774,-0.0722519925861958
5.672,-0.0664398826419775,-0.0704128357832167
5.678,-0.069060756154617,-0.0685179418318999
5.684,-0.0714578020332521,-0.0665999122961156
5.69,-0.0736379935279181,-0.0646905740157084
5.696,-0.0756129656122986,-0.0628202623735103
5.702,-0.0773987482626498,-0.0610171351761619
5.708,-0.0790153984539283,-0.059306533279637
5.714,-0.0804865391544914,-0.0577104029958846
5.72,-0.0818388158197595,-0.0562467938040176
5.726,-0.0831012828721436,-0.054929443061499
5.732,-0.0843047342824734,-0.0537674572967871
5.738,-0.085480993612571,-0.0527650972549142
5.744,-0.086662179766043,-0.0519216716114974
5.75,-0.087879965119786,-0.0512315412826748
5.756,-0.0892412624083144,-0.0508029561224914
5.762,-0.0907297772046555,-0.0504783466742519
5.768,-0.0923661036481626,-0.0502321579923772
5.774,-0.0941666124897336,-0.0500360690253085
5.78,-0.0961431159540364,-0.0498596621170035
5.786,-0.098302636707365,-0.0496711289605849
5.792,-0.100647284038778,-0.0494379970668961
5.798,-0.103174237961184,-0.0491278607421343
5.804,-0.105875839616074,-0.0487091009223242
5.81,-0.108739784164605,-0.0481515787762028
5.816,-0.111749410281773,-0.0474272889640877
5.822,-0.114884078544438,-0.0465109595710994
5.828,-0.118119629339961,-0.0453805871697076
5.834,-0.121428909566273,-0.0440178970009731
5.84,-0.124782356227166,-0.0424087200320525
5.846,-0.128148624169671,-0.0405432804235281
5.852,-0.131495244594948,-0.0384163888441265
5.858,-0.134789300637387,-0.0360275389883835
5.864,-0.137998106190404,-0.0333809065648056
5.87,-0.141089874345824,-0.030485251879073
5.876,-0.144034362182815,-0.0273537290078289
5.882,-0.146803479267666,-0.0240036062345853
5.888,-0.149371848058616,-0.0204559040972726
5.894,-0.151717305407066,-0.0167349588709522
5.9,-0.153821335577195,-0.0128679206672025
5.906,-0.155669426529947,-0.00888419652468011
5.912,-0.157251342734439,-0.00481484983905219
5.918,-0.158561309372787,-0.000691968321179926
5.924,-0.159598104512403,0.00345198678636789
5.93,-0.160365057609815,0.00758483711820763
5.936,-0.160869954507054,0.011675335990985
5.942,-0.161124850926698,0.0156937965159236
5.948,-0.161145798280638,0.0196126862780436
5.954,-0.160952487344657,0.0234071764832258
5.96,-0.160567817041918,0.027055634341006
5.966,-0.160017397087468,0.030540048522692
5.972,-0.159328994654854,0.0338463788854169
5.978,-0.158531936397585,0.036964823121734
5.984,-0.157656478140342,0.03988999471339
5.99,-0.156733155266672,0.0426210083309043
5.996,-0.155792127293298,0.0451614707736072
6.002,-0.154862530292173,0.0475193774907883
6.008,-0.153971850686807,0.0497069166986232
6.014,-0.153145333568232,0.0517401850805545
6.02,-0.152405437941118,0.0536388209138083
6.026,-0.151771350357201,0.0554255622177433
6.032,-0.151258567169162,0.05712573913973
6.038,-0.150878554183106,0.0587667111284778
6.044,-0.150638490850787,0.0603772606749201
6.05,-0.150541104345719,0.0619869562359903
6.056,-0.150584596986332,0.0636254976238193
6.062,-0.150762668486308,0.0653220574560979
6.068,-0.15106463253125,0.0671046322931506
6.074,-0.151475625249822,0.0689994168580763
6.08,-0.15197690123051,0.0710302141761158
6.086,-0.15254621099214,0.0732178936792136
6.092,-0.153158252173293,0.0755799083045445
6.098,-0.153785185275763,0.0781298803337829
6.104,-0.154397203541185,0.0808772642948969
6.11,-0.154963145546965,0.0838270937522492
6.116,-0.155451138304661,0.0869798169668003
6.122,-0.15582925813992,0.0903312248262016
6.128,-0.15603956317212,0.0939372184005781
6.134,-0.156025958575829,0.0977715449167986
6.14,-0.155781621226205,0.101741729175033
6.146,-0.155286017368462,0.105819883623404
6.152,-0.154522748809518,0.109975471467533
6.158,-0.153479874507932,0.114175928838792
6.164,-0.152150140469259,0.118387323701065
6.17,-0.150531114073921,0.122575038371328
6.176,-0.148625220933708,0.126704462195356
6.182,-0.146439683891019,0.130741680825865
6.188,-0.143986365952938,0.134654148673398
6.194,-0.141281520418266,0.13841133145926
6.2,-0.138345453348599,0.14198530639081
6.206,-0.135202105076552,0.145351308231422
6.212,-0.131878559014241,0.148488210574403
6.218,-0.128404487372111,0.151378932770686
6.224,-0.124811544675219,0.154010764336096
6.23,-0.121132720987762,0.156375600190978
6.236,-0.117401667642054,0.158470081707
6.242,-0.113652008903751,0.160295640372905
6.248,-0.109916653411921,0.161858442693024
6.254,-0.106227119386566,0.163169236922328
6.26,-0.102612887498983,0.164243104179803
6.266,-0.0991007948779856,0.165099118435944
6.272,-0.095714483107375,0.165759921797133
6.278,-0.0924739120947755,0.166251223330688
6.284,-0.0893949504909394,0.16660123138136
6.29,-0.0864890518796325,0.166840030840342
6.296,-0.083763024260216,0.166998918178757
6.302,-0.0812188984460391,0.167109708108603
6.308,-0.0788538989407648,0.167204026532701
6.314,-0.0766605186777528,0.167312604918414
6.32,-0.0746266967356271,0.167464591397092
6.326,-0.0727360958681602,0.167686893677795
6.332,-0.0709684744446151,0.168003568309836
6.338,-0.0693001452266808,0.168435269966613
6.344,-0.0677045114051562,0.168998773164439
6.35,-0.06615266850253,0.16970657732215
6.356,-0.0646140591832181,0.170566604253203
6.362,-0.0630571667414228,0.171581995135007
6.368,-0.0614502320983875,0.17275101180223
6.374,-0.0597619785442196,0.174067044852807
6.38,-0.0579623282584761,0.175518728630375
6.386,-0.0560230947890918,0.177090160737877
6.392,-0.0539186362340638,0.178761221386051
6.398,-0.0516264547564881,0.180507985591536
6.404,-0.049127729300171,0.18230321921532
6.41,-0.0464077699380369,0.184116947948249
6.416,-0.0434563840385631,0.185917086784332
6.422,-0.0402681465004851,0.187670116247555
6.428,-0.03684256845002,0.189341790697933
6.434,-0.033184160980867,0.190897863450528
6.44,-0.0293023930312533,0.192304813190148
6.446,-0.0252115445393006,0.193530556314466
6.452,-0.0209304583950026,0.194545130248272
6.458,-0.0164821967781047,0.195321333575603
6.464,-0.0118936093751982,0.195835309896465
6.47,-0.00719482273333556,0.196067063604893
6.476,-0.0024186615075054,0.196000897350084
6.482,0.00239998642430721,0.195625762614327
6.488,0.00722484799692421,0.194935516733498
6.494,0.0120189724958831,0.193929081454838
6.5,0.0167454545270887,0.192610500310784
6.506,0.0213093375688235,0.190836161853602
6.512,0.0256936762181326,0.188791972621576
6.518,0.0298704910863878,0.186504865696522
6.524,0.0338160452390064,0.184005204346399
6.53,0.0375112657539283,0.181326126613791
6.536,0.0409420668693918,0.178502840581042
6.542,0.0440995694675974,0.175571884579729
6.548,0.0469802135837771,0.172570367128692
6.554,0.0495857627762336,0.169535201522385
6.56,0.0519232009538513,0.16650234998661
6.566,0.0540045244136213,0.16350609200441
6.572,0.0558464336736578,0.160578330869587
6.578,0.0574699313992306,0.157747951808256
6.584,0.0588998345682714,0.155040243992313
6.59,0.0601642104668533,0.152476397624951
6.596,0.061293747555088,0.150073085910116
6.602,0.0623210734969125,0.147842140186766
6.608,0.0632800336752039,0.145790324808846
6.614,0.0642049443236517,0.143919216538875
6.62,0.0651298350548316,0.142225191372057
6.626,0.0660876958488798,0.140699519403868
6.632,0.0671097437101931,0.139328566778038
6.638,0.0682247239475396,0.138094101118922
6.644,0.0694582606029892,0.136973695157187
6.65,0.070832269748028,0.135941221029859
6.656,0.0723644483152529,0.134967425894683
6.662,0.0740678498239981,0.134020577635856
6.668,0.0759505566782661,0.133067167874143
6.674,0.0780154570263111,0.132072658044444
6.68,0.0802601318012274,0.131002253207885
6.686,0.0826768557868837,0.129821687402497
6.692,0.0852527136665356,0.128498003823635
6.698,0.0879698299234581,0.127000312977213
6.704,0.0908057088039115,0.125300512162937
6.71,0.0937336781107768,0.123373950202678
6.716,0.0967234282131658,0.12120002234219
6.722,0.0997416354243371,0.118762681568347
6.728,0.102752656864615,0.116050854197168
6.734,0.105719282142435,0.11305874970883
6.74,0.108603525742021,0.109786056983979
6.746,0.111367442874602,0.106238021461599
6.752,0.113973950849475,0.10242540069078
6.758,0.116387637708838,0.0983642981056891
6.764,0.118575539980884,0.094075877985144
6.77,0.120507871994277,0.0895859670091343
6.776,0.122158690128741,0.0849245506517179
6.782,0.123506476769051,0.0801251750047302
6.788,0.124534630607778,0.0752242668837344
6.794,0.125231851644105,0.0702603869976323
6.8,0.12559241215405,0.065273432521098
6.806,0.125616306955439,0.0603038066403044
6.812,0.125309279286987,0.0553915734099671
6.818,0.124682721434831,0.0505756166148122
6.824,0.123753451909909,0.0458928212501486
6.83,0.122543373986541,0.0413772957355076
6.836,0.121079022861621,0.0370596519930726
6.842,0.119391011278827,0.0329663592666181
6.848,0.117513385672253,0.0291191858306359
6.854,0.115482906812525,0.0255347406914034
6.86,0.113338270554628,0.0222241253917465
6.866,0.11111928552553,0.0191927031982729
6.872,0.108866025455085,0.0164399906489109
6.878,0.106654215672728,0.014052011181548
6.884,0.104559223610886,0.0119988148356762
6.89,0.102588266819857,0.0101563797848747
6.896,0.100766873560142,0.00849334210708496
6.902,0.0991153186848178,0.00697521526555939
6.908,0.0976482607955787,0.00556521313047832
6.914,0.0963745049161072,0.0042251111111695
6.92,0.0952968938714446,0.00291612663555289
6.926,0.0944123288500767,0.00159980012960187
6.932,0.0937119168004773,0.00023885795147019
6.938,0.0931812399318717,-0.0012019605566748
6.944,0.0928007398650369,-0.00275512871804147
6.95,0.0925462070249716,-0.0044496263433338
6.956,0.0923893637083032,-0.00631031552131475
6.962,0.0922985275083588,-0.00835741033627794
6.968,0.0922393404328229,-0.0106060503683261
6.974,0.0921755478789903,-0.0130659855592871
6.98,0.0920698108411672,-0.0157413777551446
6.986,0.0918845343024476,-0.0186307217197957
6.992,0.0915826946095105,-0.021726886128003
6.998,0.0911286488903397,-0.0250172723763282
7.004,0.0904889101102935,-0.028484087166903
7.01,0.0896328721902171,-0.032104722040838
7.016,0.088533470799708,-0.0358522314790981
7.022,0.0871677668153141,-0.0396958989826468
7.028,0.0855174410790133,-0.0436018790257081
7.034,0.0835691909363938,-0.0475339013439423
7.04,0.0813150211089766,-0.0514540228377872
7.046,0.078752423413178,-0.0553234115899966
7.052,0.075884442386466,-0.059103146867622
7.058,0.072719625782274,-0.0627550188153156
7.064,0.0692718615143334,-0.0662423115747976
7.07,0.0655601046620756,-0.0695305539840228
7.076,0.0616080004468508,-0.0725882227057191
7.082,0.0574434110387048,-0.0753873836028435
7.088,0.053097856042553,-0.0779042584789093
7.094,0.0486058781445795,-0.080119705773156
7.1,0.0440043469057845,-0.0820196055525667
7.106,0.0393317148992913,-0.0835951410897583
7.112,0.0346272413255213,-0.0848429712908197
7.118,0.0299301988769399,-0.0857652905861735
7.124,0.0252790799759324,-0.0863697749146101
7.13,0.0207108184914259,-0.0866694150136323
7.136,0.0162600427686605,-0.0866822401013458
7.142,0.0119583751672137,-0.0864309376081109
7.148,0.00783379240274232,-0.0859423764302527
7.154,0.00391005974771866,-0.085247043233158
7.16,0.000206250820371906,-0.0843784030561351
7.166,-0.00326363725881098,-0.0833721969948472
7.172,-0.00649096514277014,-0.0822656910169992
7.178,-0.00947262297834409,-0.081096890976192
7.184,-0.0122110887972131,-0.0799037395865149
7.19,-0.0147143719208849,-0.0787233115214999
7.196,-0.0169958420163646,-0.0775910228987163
7.202,-0.0190739468180482,-0.0765398711575212
7.208,-0.0209718236174448,-0.0755997207993818
7.214,-0.0227168118052791,-0.0747966496295789
7.22,-0.0243398757095008,-0.0741523689982105
7.226,-0.0258749487997905,-0.0736837300884468
7.232,-0.0273582119063685,-0.0734023268740579
7.238,-0.028827319479577,-0.0733142041262621
7.244,-0.0303205890200601,-0.0734196774180638
7.25,-0.0318761696116176,-0.073713269306234
7.256,-0.0336456666087735,-0.0743593853712031
7.262,-0.0355962990213469,-0.0751307113501606
7.268,-0.0377529366156876,-0.075996133989725
7.274,-0.0401355248009107,-0.0769211963166079
7.28,-0.0427586713297162,-0.0778688490607374
7.286,-0.0456313445694602,-0.0788002506933834
7.292,-0.0487566888611327,-0.079675599929655
7.298,-0.0521319600779325,-0.0804549839324269
7.304,-0.0557485821261742,-0.0810992252251578
7.31,-0.0595923230072609,-0.0815707103733703
7.316,-0.0636435863375333,-0.0818341838725544
7.322,-0.067877812355797,-0.0818574914185521
7.328,-0.0722659800834139,-0.0816122576718863
7.334,-0.0767752003948323,-0.08107448497718
7.34,-0.0813693879335382,-0.0802250609896065
7.346,-0.0860099982463823,-0.079050164998404
7.352,-0.0906568151755493,-0.0775415645934746
7.358,-0.0952687725330304,-0.0756967967931666
7.364,-0.099804793312566,-0.0735192295303326
7.37,-0.104224629315403,-0.0710180023508145
7.376,-0.108489683975147,-0.0682078471125289
7.382,-0.11256380141178,-0.0651087922763292
7.388,-0.116414005386389,-0.0617457564788726
7.394,-0.120011172717225,-0.0581480395267291
7.4,-0.123330627002341,-0.0543487210489708
7.406,-0.126352640037321,-0.0503839789745152
7.412,-0.129062830138688,-0.0462923417614997
7.418,-0.131452448629616,-0.042113889749667
7.424,-0.133518548065632,-0.0378894221501488
7.43,-0.135264028123066,-0.0336596070426384
7.436,-0.136697557683043,-0.0294641321927594
7.442,-0.137833374067892,-0.0253408746213828
7.448,-0.138690963322883,-0.0213251065865068
7.454,-0.13929462746827,-0.0174487549908517
7.46,-0.139672947563684,-0.0137397302117324
7.466,-0.139858153375945,-0.0102213389734542
7.472,-0.139885412649444,-0.00691179430645141
7.478,-0.139792054721793,-0.00382383337239184
7.484,-0.139616744744473,-0.000964452153405749
7.49,-0.139398625929293,0.00166523690938048
7.496,-0.13917644803948,0.00407002040889629
7.502,-0.138987700738317,0.00626047180163451
7.508,-0.138867770461235,0.00825271303158961
7.514,-0.138849139038348,0.0100680545165457
7.52,-0.13896064155046,0.0117325205207645
7.526,-0.139226799703073,0.0132762694510668
7.532,-0.139667245548006,0.0147329209464381
7.538,-0.140296248362252,0.0161388037127414
7.544,-0.141122355603717,0.0175321397852296
7.55,-0.142148156254538,0.018952182411563
7.556,-0.143370172376687,0.0204383257900789
7.562,-0.144778882110605,0.0220292056101502
7.568,-0.146358874217608,0.0237618096674488
7.574,-0.148089131938853,0.0256706176750499
7.58,-0.149943440717657,0.0277867889103144
7.586,-0.151890911970955,0.0301374153910639
7.592,-0.153896612449729,0.0327448569835967
7.598,-0.155922286463222,0.0356261732671664
7.604,-0.157927156194346,0.038792664810564
7.61,-0.159868783627938,0.042249534621544
7.616,-0.161703976161248,0.0459956776238238
7.622,-0.163389716998518,0.050023603731508
7.628,-0.164823174042417,0.0544023951807767
7.634,-0.16593157041257,0.0590842109767672
7.64,-0.166734889196135,0.0639439357036272
7.646,-0.167209600731608,0.0689433157177229
7.652,-0.167337901145603,0.0740411907841111
7.658,-0.167108051213325,0.0791943639973438
7.664,-0.166514584728441,0.0843585082984943
7.67,-0.165558382802014,0.0894890902566803
7.676,-0.164246613399137,0.0945422915760519
7.682,-0.162592538563887,0.0994759089659975
7.688,-0.16061519394314,0.104250213577422
7.694,-0.158338948388814,0.108828752187726
7.7,-0.155792953494989,0.113179073602798
7.706,-0.153010495414383,0.117273365413739
7.712,-0.150028263088565,0.121088988218768
