"Freq [GHz]","re(S(Antenna1_1_1,Antenna1_1_1)) []","im(S(Antenna1_1_1,Antenna1_1_1)) []"
5,0.0219839231284807,0.161736410240666
5.006,0.0255684173231198,0.159256246330535
5.012,0.0289896558749587,0.156585434088212
5.018,0.0322284985489434,0.153743557117939
5.024,0.0352685652627176,0.150752549111693
5.03,0.0380965343017929,0.147636314521243
5.036,0.04070239282717,0.144420310746078
5.042,0.0430796344071658,0.141131096792701
5.048,0.0452253985431886,0.137795854240955
5.054,0.0471405476302031,0.134441887200461
5.06,0.048829677376624,0.131096108896846
5.066,0.0503010575653654,0.127784523366621
5.072,0.0515665010597741,0.124531711626601
5.078,0.0526411602171618,0.121360332304527
5.084,0.0535432513586507,0.11829064728767
5.09,0.0542937095150382,0.1153400832096
5.096,0.0549157774743768,0.1125228395883
5.102,0.0554345349437619,0.10984955415481
5.108,0.0558763754783153,0.107327035240601
5.114,0.0562684406415386,0.104958070120867
5.12,0.0566380224656126,0.102741316851955
5.126,0.0570119467778043,0.100671285489138
5.132,0.057415951106346,0.098738412580958
5.138,0.0578740717661364,0.0969292306493671
5.144,0.0584080551664169,0.0952266319359257
5.15,0.0590368084381632,0.0936102231742955
5.156,0.0597759040788375,0.092056765632307
5.162,0.060637152431134,0.0905406920981771
5.168,0.0616282545123541,0.0890346901925749
5.174,0.062752545949042,0.0875103391856417
5.18,0.0640088406555125,0.0859387857102896
5.186,0.065391380432899,0.0842914422731199
5.192,0.0669344487263534,0.0825135555905148
5.198,0.0685839173350281,0.080583152019874
5.204,0.0703018502204736,0.0784859864625878
5.21,0.0720630899940887,0.0762044935116496
5.216,0.0738398789562615,0.0737250991773309
5.222,0.0756024988388495,0.0710385814583655
5.228,0.0773199598887059,0.0681403269670952
5.234,0.0789607220234946,0.0650304769800579
5.24,0.080493429916717,0.0617139591945163
5.246,0.0818876435425279,0.0582004045644327
5.252,0.0831145458981257,0.0545039516614319
5.258,0.0841476103771547,0.0506429439442929
5.264,0.0849632114482483,0.0466395281305393
5.27,0.0855411639903775,0.0425191643377175
5.276,0.0858651786497415,0.0383100608609546
5.282,0.0859232229929544,0.0340425481864243
5.288,0.085707780763299,0.0297484081677467
5.294,0.0852160043518349,0.0254601751451781
5.3,0.0844497583371671,0.0212104261336488
5.306,0.0834155547607037,0.0170310771153356
5.312,0.0821243834592481,0.0129527019034544
5.318,0.0805914432317956,0.00900388907358193
5.324,0.0788357819114239,0.00521065110502465
5.33,0.0768798553061947,0.00159589824055842
5.336,0.0747490166020032,-0.00182101233571757
5.342,0.0724709490843389,-0.00502464347566754
5.348,0.0700750558724464,-0.00800375486979405
5.354,0.0675918209140023,-0.0107514855425331
5.36,0.0650521555916485,-0.013265440172406
5.366,0.0624867451365502,-0.0155476794632542
5.372,0.0599254085435775,-0.0176046168197786
5.378,0.0574289714237309,-0.0194080362556098
5.384,0.0550387089068667,-0.0209873323061258
5.39,0.0527470886056016,-0.0224073964232409
5.396,0.0505697377700066,-0.0236923118103867
5.402,0.048518371077331,-0.0248678255419123
5.408,0.0466006340770186,-0.0259607582731347
5.414,0.0448200318083202,-0.0269984047760609
5.42,0.0431759417238216,-0.0280079369305003
5.426,0.0416637086732434,-0.0290158203034017
5.432,0.040274818332895,-0.0300472548800315
5.438,0.0389971443061914,-0.0311256497599096
5.444,0.0378152630116741,-0.0322721408551998
5.45,0.0367108295319957,-0.0335051596893781
5.456,0.0356630067323675,-0.0348400604537049
5.462,0.0346489392289803,-0.0362888114158259
5.468,0.0336442631779483,-0.0378597557068464
5.474,0.0326236423062394,-0.0395574453452443
5.48,0.0315613202542892,-0.041382551186001
5.486,0.0304316790010075,-0.043331850212358
5.492,0.0292097930027218,-0.045398290341619
5.498,0.0278719686822127,-0.0475711315944488
5.504,0.0263962590436202,-0.0498361611341369
5.51,0.024762943520823,-0.0521759783793227
5.516,0.0229549636129048,-0.0545703450537042
5.522,0.0209583055640402,-0.056996593770274
5.528,0.0187623221735553,-0.0594300875316559
5.534,0.0163599868279223,-0.0618447214092483
5.54,0.0137480740904697,-0.0642134566702972
5.546,0.0109272625055963,-0.0665088768002576
5.552,0.00790215680729207,-0.0687037542008349
5.558,0.00468122831077512,-0.0707716159399153
5.564,0.00127667399406632,-0.0726872967040367
5.57,-0.00229580349267391,-0.0744274672216721
5.576,-0.00601729092721257,-0.0759711267034363
5.582,-0.00986602902887983,-0.0773000485058458
5.588,-0.0138178390859339,-0.0783991690785081
5.594,-0.0178466029618131,-0.0792569113806296
5.6,-0.0219247863907323,-0.0798654353427738
5.606,-0.0260239944409847,-0.0802208094958299
5.612,-0.0301155471983118,-0.0803230996151757
5.618,-0.0341710631653031,-0.0801763721090567
5.624,-0.0381630376389949,-0.0797886117592266
5.63,-0.0420654034060503,-0.0791715554059268
5.636,-0.0458540614424952,-0.0783404450383099
5.642,-0.0495073699940069,-0.0773137056304413
5.648,-0.0530065813696538,-0.0761125546920361
5.654,-0.0563362169412997,-0.0747605520871256
5.66,-0.0594843723148927,-0.0732830999419605
5.666,-0.0624429461888774,-0.0717069035263958
5.672,-0.0652077881519775,-0.0700594048052167
5.678,-0.067778762504617,-0.0683682008538999
5.684,-0.0701597269962521,-0.0666604595611156
5.69,-0.0723584272519181,-0.0649623449937084
5.696,-0.0743863094052986,-0.0632984644605103
5.702,-0.0762582551906499,-0.0616913487231619
5.708,-0.0779922452649283,-0.060160976018637
5.714,-0.0796089579684914,-0.0587243494968846
5.72,-0.0811313119497595,-0.0573951365280176
5.726,-0.0825839620902436,-0.056183377002499
5.732,-0.0839927590063734,-0.0550952662847871
5.738,-0.085384182999571,-0.0541330170419142
5.744,-0.086784763716043,-0.0532948025614974
5.75,-0.088220496972786,-0.0525747826646748
5.756,-0.0897869000963144,-0.0520647573024914
5.762,-0.0914631960976555,-0.0516281657912519
5.768,-0.0932655806421626,-0.0512429279903772
5.774,-0.0952067011977336,-0.0508847989303085
5.78,-0.0972953964770364,-0.0505279092480035
5.786,-0.099536515482365,-0.0501453348044849
5.792,-0.101930819132778,-0.0497096841695961
5.798,-0.104474965925184,-0.0491936924191343
5.804,-0.107161581527074,-0.0485708096303242
5.81,-0.109979410705605,-0.0478157725432028
5.816,-0.112913548459773,-0.0469051481760877
5.822,-0.115945745737438,-0.0458178386540994
5.828,-0.119054783713961,-0.0445355371627076
5.834,-0.122216909255273,-0.0430431258189731
5.84,-0.125406322932166,-0.0413290072550525
5.846,-0.128595709850671,-0.0393853629235281
5.852,-0.131756802582748,-0.0372083325091265
5.858,-0.134860964685387,-0.0347981103363835
5.864,-0.137879782731404,-0.0321589563048056
5.87,-0.140785654396824,-0.0292991206410731
5.876,-0.143552360063815,-0.0262306835608289
5.882,-0.146155605547666,-0.0229693127785853
5.888,-0.148573524020616,-0.0195339436662726
5.894,-0.150787125925066,-0.0159463886179522
5.9,-0.152780686676195,-0.0122308838752025
5.906,-0.154542063274947,-0.00841358361668011
5.912,-0.156062932433439,-0.00452201242405219
5.918,-0.157338944628787,-0.000584488349579927
5.924,-0.158369790372403,0.00337047039436789
5.93,-0.159159177109815,0.00731474159120763
5.936,-0.159714717245054,0.011221184363985
5.942,-0.160047729983698,0.0150642002179236
5.948,-0.160172961777638,0.0188202568830436
5.954,-0.160108232162657,0.0224683629442258
5.96,-0.159874013609918,0.025990482500006
5.966,-0.159492955605468,0.029371880594692
5.972,-0.158989364496854,0.0326013919754169
5.978,-0.158388651658045,0.035671607683734
5.984,-0.157716763141342,0.03857897610739
5.99,-0.156999604294672,0.0413238173009043
5.996,-0.156262472686298,0.0439102515546072
6.002,-0.155529512254173,0.0463460453107883
6.008,-0.154823200728807,0.0486423795116232
6.014,-0.154163881283232,0.0508135472185545
6.02,-0.153569347972118,0.0528765889018083
6.026,-0.153054492862201,0.0548508750527433
6.032,-0.152631021048162,0.0567576466637301
6.038,-0.152307237854106,0.0586195247701778
6.044,-0.152087910644787,0.0604600004470201
6.05,-0.15197420585872,0.0623029166489903
6.056,-0.151963700095332,0.0641719528478193
6.062,-0.152050462535308,0.0660901228350979
6.068,-0.15222520455925,0.0680792951361506
6.074,-0.152475491265822,0.0701597444960763
6.08,-0.15278600866551,0.0723497416731158
6.086,-0.15313887964614,0.0746651875882136
6.092,-0.153514021390293,0.0771192966065445
6.098,-0.153889536695763,0.0797223325247829
6.104,-0.154242131678685,0.0824813997058969
6.11,-0.154547552481065,0.0854002907672492
6.116,-0.154781033892661,0.0884793913748003
6.122,-0.15491775318192,0.0917156418902016
6.128,-0.15491267186512,0.095158481477578
6.134,-0.154719995812829,0.0987882940547986
6.14,-0.154333083114205,0.102528004648033
6.146,-0.153735127291462,0.106356203745404
6.152,-0.152912301893518,0.110249362148533
6.158,-0.151854008197932,0.114182244093792
6.164,-0.150553069831259,0.118128347213065
6.17,-0.149005871703921,0.122060363549528
6.176,-0.147212440970708,0.125950655583356
6.182,-0.145176468173019,0.129771740970865
6.188,-0.142905267146938,0.133496779330398
6.194,-0.140409672826267,0.13710005407226
6.2,-0.137703876727599,0.14055744187081
6.206,-0.134805200662552,0.143846862052422
6.212,-0.131733810171241,0.146948697835403
6.218,-0.128512370180111,0.149846181237686
6.224,-0.125165646621219,0.152525733361096
6.23,-0.121720058997862,0.154977251957978
6.236,-0.118203190244154,0.157194338555
6.242,-0.114643261597751,0.159174458015905
6.248,-0.111068581551921,0.160919024362024
6.254,-0.107506979188566,0.162433407839328
6.26,-0.103985233295983,0.163726859682803
6.266,-0.100528509547986,0.164812352758944
6.272,-0.097159818615375,0.165706338158133
6.278,-0.0938995083597755,0.166428419959688
6.284,-0.0907648031359394,0.16700095254736
6.29,-0.0877694027556325,0.167448567108042
6.296,-0.084923152714216,0.167797636129687
6.302,-0.0822317959850392,0.168075686776603
6.308,-0.0796968149277648,0.168310775846701
6.314,-0.0773153698047528,0.168530840597414
6.32,-0.0750803380256271,0.168763040873092
6.326,-0.0729804556001602,0.169033108776795
6.332,-0.0710005595656151,0.169364722385836
6.338,-0.0691219273076808,0.169778919822613
6.344,-0.0673227059311562,0.170293569265439
6.35,-0.06557842220853,0.17092290927915
6.356,-0.0638625612082181,0.171677172146203
6.362,-0.0621471996309228,0.172562300758007
6.368,-0.0604036782123875,0.17357976718523
6.374,-0.0586032962982196,0.174726498266807
6.38,-0.0567180110154761,0.175994910639375
6.386,-0.0547211232710918,0.177373054618877
6.392,-0.0525879331880638,0.178844863330051
6.398,-0.0502963484724881,0.180390500608536
6.404,-0.047827430626171,0.18198679855332
6.41,-0.0451658657240369,0.183607773235249
6.416,-0.0423003487045631,0.185225205098332
6.422,-0.0392238726074851,0.186809269099655
6.428,-0.03593391691102,0.188329198529933
6.434,-0.032432531891867,0.189753965978528
6.44,-0.0287263187422533,0.191052964838148
6.446,-0.0248263079143006,0.192196675228466
6.452,-0.0207477406270026,0.193157299103272
6.458,-0.0165097608161047,0.193909350656603
6.464,-0.0121350266831982,0.194430189751465
6.47,-0.00764925263833556,0.194700488009893
6.476,-0.0030806935745054,0.194704619311084
6.482,0.00154041581080721,0.194430968561327
6.488,0.00618245353912421,0.193872154843498
6.494,0.0108130216628831,0.193025167077838
6.5,0.0153995636270887,0.191891412489784
6.506,0.0198688415608235,0.190335938342602
6.512,0.0241931986811326,0.188523272804576
6.518,0.0283464831023878,0.186474989400522
6.524,0.0323059666950064,0.184215786589399
6.53,0.0360527062689283,0.181772957586791
6.536,0.0395718260103918,0.179175824311042
6.542,0.0428527190655974,0.176455146478829
6.548,0.0458891675767771,0.173642516543552
6.554,0.0486793816442336,0.170769750799385
6.56,0.0512259588238513,0.16786828642661
6.566,0.0535357666136213,0.16496859373041
6.572,0.0556197512616578,0.162099612232587
6.578,0.0574926768542306,0.159288218737256
6.584,0.0591727993162714,0.156558734941313
6.59,0.0606814804978533,0.153932481637951
6.596,0.062042748129088,0.151427386095116
6.602,0.0632828079539125,0.149057648674766
6.608,0.0644295149885039,0.146833474248846
6.614,0.0655118114610517,0.144760873439875
6.62,0.0665591396458316,0.142841538043057
6.626,0.0676008384878798,0.141072794281868
6.632,0.0686655335791931,0.139447636653038
6.638,0.0697805306705396,0.137954844119922
6.644,0.0709712234589892,0.136579179201187
6.65,0.072260526840028,0.135301669159859
6.656,0.0736683470452529,0.134099966998683
6.662,0.0752111001699981,0.132948788284856
6.668,0.0769012903712661,0.131820418113143
6.674,0.0787471585213111,0.130685280700994
6.68,0.0807524112922274,0.129512562273885
6.686,0.0829160394788837,0.128270876208497
6.692,0.0852322328815356,0.126928957722635
6.698,0.0876903972674581,0.125456374054213
6.704,0.0902752767899114,0.123824234859937
6.71,0.0929671829107768,0.122005886823678
6.716,0.0957423283041658,0.11997757599019
6.722,0.0985732615333371,0.117719061409347
6.728,0.101429395598215,0.115214164117168
6.734,0.104277620754735,0.11245123646883
6.74,0.107082989489021,0.109423538333979
6.746,0.109809459226602,0.106129508411599
6.752,0.112420676354475,0.10257292149578
6.758,0.114880783568838,0.0987629248366891
6.764,0.117155231399884,0.094713950162144
6.77,0.119211574181277,0.0904455006211343
6.776,0.121020230639741,0.0859818154997179
6.782,0.122555189822051,0.0813514186867302
6.788,0.123794644097778,0.0765865600477344
6.794,0.124721532634105,0.0717225618417323
6.8,0.12532398081405,0.066797084954598
6.806,0.125595623635439,0.0618493320013044
6.812,0.125535803996987,0.0569192061439671
6.818,0.125149640026831,0.0520464457648122
6.824,0.124447958874909,0.0472697558651486
6.83,0.123447097876541,0.0426259571845076
6.836,0.122168577359621,0.0381491736210726
6.842,0.120638652613827,0.0338700775166181
6.848,0.118887755564253,0.0298152108506359
6.854,0.116949839401925,0.0260063984314034
6.86,0.114861641711528,0.0224602666917465
6.866,0.11266188350753,0.0191878790582729
6.872,0.110390422960085,0.0161944959289109
6.878,0.108112078036728,0.013572978631548
6.884,0.105904735681886,0.0113038329346762
6.89,0.103790918108857,0.00926828550987468
6.896,0.101800402229142,0.00743901790508496
6.902,0.0999581967348178,0.00578485256155939
6.908,0.0982840604655787,0.00427152832947832
6.914,0.0967921441161072,0.0028625314601695
6.92,0.0954907605214446,0.00151996279265289
6.926,0.0943822860300767,0.000205421555001866
6.932,0.0934631921804773,-0.00111911359952981
6.938,0.0927242045718717,-0.0024904250366748
6.944,0.0921505827250369,-0.00394323579604147
6.95,0.0917225129959716,-0.0055094448473338
6.956,0.0914156038693032,-0.00721743271431475
6.962,0.0912014717823589,-0.00909145039727794
6.968,0.0910484038088229,-0.0111511025283261
6.974,0.0909220825629904,-0.0134109335492871
6.98,0.0907863578236172,-0.0158801235251446
6.986,0.0906040488843476,-0.0185622979997957
6.992,0.0903377614235105,-0.021455453938003
6.998,0.0899507027563397,-0.0245520020263282
7.004,0.0894074796432935,-0.027838922890903
7.01,0.0886748634132171,-0.031298033427838
7.016,0.087722507919708,-0.0349063571100981
7.022,0.0865236068423141,-0.0386365905506468
7.028,0.0850554780140133,-0.0424576569597081
7.034,0.0833000637863938,-0.0463353356429423
7.04,0.0812443379389766,-0.0502329554003872
7.046,0.078880611243178,-0.0541121385411966
7.052,0.076206729646466,-0.057933581308622
7.058,0.0732261607122739,-0.0616578557623156
7.064,0.0699479662533334,-0.0652462176587976
7.07,0.0663866606730756,-0.0686614045950228
7.076,0.0625619571188508,-0.0718684086507191
7.082,0.0584984053307048,-0.0748352080028435
7.088,0.054224927285553,-0.0775334424999093
7.094,0.0497742588545795,-0.079939019013156
7.1,0.0451823076307845,-0.0820326334225667
7.106,0.0404874389488913,-0.0838001975797583
7.112,0.0357297038355213,-0.0852331610608197
7.118,0.03095002409594,-0.0863287197761735
7.124,0.0261893509519324,-0.0870899052066101
7.13,0.0214878145694259,-0.0875255509096323
7.136,0.0168838823846605,-0.0876501349883458
7.142,0.0124135443252137,-0.0874835002221109
7.148,0.00810954284274232,-0.0870504559822527
7.154,0.00400066507771866,-0.086380268857158
7.16,0.000111113360371905,-0.0855060514591351
7.166,-0.00354003095881098,-0.0844640613404472
7.172,-0.00693923742277014,-0.0832929241588992
7.178,-0.0100788391383441,-0.082032797215192
7.184,-0.0129572199072131,-0.0807244910795148
7.19,-0.0155788698258849,-0.0794085682694999
7.196,-0.0179543069253646,-0.0781244387477163
7.202,-0.0200998647300482,-0.0769094723345212
7.208,-0.0220373491744448,-0.0757981480393818
7.214,-0.0237935711742791,-0.0748212596295789
7.22,-0.0253997640185008,-0.0740051958282105
7.226,-0.0268908975697905,-0.0733713117184468
7.232,-0.0283049036467685,-0.0729354063540579
7.238,-0.029681829133577,-0.0727073189562621
7.244,-0.0310629350940601,-0.0726906535880638
7.25,-0.0324897615006176,-0.072882639386234
7.256,-0.0341087874437735,-0.0734639616912031
7.262,-0.0359045814973469,-0.0741962912521606
7.268,-0.0379062362556876,-0.075048163722725
7.274,-0.0401376819709107,-0.0759841106306079
7.28,-0.0426171754297162,-0.0769654804247374
7.286,-0.0453569171894602,-0.0779513214803834
7.292,-0.0483628039911327,-0.078899307240055
7.298,-0.0516343204579325,-0.0797666829724269
7.304,-0.0551645707461742,-0.0805112134511578
7.31,-0.0589404480872609,-0.0810921111103703
7.316,-0.0629429368995333,-0.0814709249355543
7.322,-0.067147539661797,-0.0816123714885521
7.328,-0.0715248180114139,-0.0814850909448863
7.334,-0.0760410353548323,-0.08106231287718
7.34,-0.0806588862165382,-0.0803224186196065
7.346,-0.0853382960673823,-0.079249389428404
7.352,-0.0900372740393493,-0.0778331321434746
7.358,-0.0947128001280304,-0.0760696767031666
7.364,-0.099321727979566,-0.0739612427203326
7.37,-0.103821684304403,-0.0715161746808145
7.376,-0.108171946245147,-0.0687487485055289
7.382,-0.11233427867578,-0.0656788542573292
7.388,-0.116273714407389,-0.0623315627358726
7.394,-0.119959261582225,-0.0587365854777291
7.4,-0.123364524132341,-0.0549276401039708
7.406,-0.126468222977321,-0.0509417345245152
7.412,-0.129254607818688,-0.0468183851544997
7.418,-0.131713751349616,-0.042598785452197
7.424,-0.133841720415632,-0.0383249420511488
7.43,-0.135640620803066,-0.0340387963276384
7.436,-0.137118515053043,-0.0297813495007593
7.442,-0.138289215131892,-0.0255918092743828
7.448,-0.139171954265883,-0.0215067756085068
7.454,-0.13979094476227,-0.0175594824498517
7.46,-0.140174830830684,-0.0137791111517324
7.466,-0.140356047641945,-0.0101901899434542
7.472,-0.140370099746444,-0.00681209211645141
7.478,-0.140254773728393,-0.00365864361239184
7.484,-0.140049301345473,-0.000737848623405748
7.49,-0.139793490570293,0.00194826068938048
7.496,-0.13952684269648,0.00440364665889629
7.502,-0.139287674103317,0.00663815978563451
7.508,-0.139112261316235,0.00866730527758961
7.514,-0.139034027650348,0.0105118867495457
7.52,-0.13908278899046,0.0121975341837645
7.526,-0.139284075133073,0.0137541255520668
7.532,-0.139658541668006,0.0152151140034381
7.538,-0.140221485482252,0.0166167745692414
7.544,-0.140982474893717,0.0179973861991296
7.55,-0.141945102964538,0.019396366463563
7.556,-0.143106870046687,0.0208533773810789
7.562,-0.144459198640605,0.0224074216191502
7.568,-0.145987580876608,0.0240959485974488
7.574,-0.147671856171853,0.0259539899580499
7.58,-0.149486613391657,0.0280133432803144
7.586,-0.151401709450954,0.0303018219510639
7.592,-0.153382893472729,0.0328425877435967
7.598,-0.155392523349222,0.0356535808571664
7.604,-0.157390359493026,0.038747059960564
7.61,-0.159334418826938,0.042129262701544
7.616,-0.161181870750248,0.0458001941138238
7.622,-0.162889955885518,0.049753547791508
7.628,-0.164360019628417,0.0540628346507767
7.634,-0.16551809948657,0.0586831534287671
7.64,-0.166379232806135,0.0634879059696272
7.646,-0.166919164511608,0.0684399194137229
7.652,-0.167119220575603,0.0734990617681111
7.658,-0.166966643123325,0.0786230926623438
7.664,-0.166454797418441,0.0837685477253943
7.67,-0.165583247992014,0.0888916374944803
7.676,-0.164357704459137,0.0939491417860519
7.682,-0.162789839963887,0.0988992809039975
7.688,-0.16089698802314,0.103702545901422
7.694,-0.158701725832814,0.108322471287726
7.7,-0.156231354367989,0.112726335109798
7.706,-0.153517287515383,0.116885773093739
7.712,-0.150594364045565,0.120777295618768
