"Freq [GHz]","re(S(Antenna1_1_1,Antenna1_1_1)) []","im(S(Antenna1_1_1,Antenna1_1_1)) []"
1,-0.797917678596523,-0.495871670506528
1.01,-0.817411103197511,-0.456383065312992
1.02,-0.835305323826872,-0.41466481915011
1.03,-0.851354169463961,-0.370647910652416
1.04,-0.86527659902809,-0.32427428637811
1.05,-0.876752400530787,-0.275502333863415
1.06,-0.885417819074523,-0.224314000192382
1.07,-0.890861380177559,-0.170723943369801
1.08,-0.892620326507434,-0.114791150174402
1.09,-0.890178294977143,-0.0566334762455954
1.1,-0.882965139264151,0.00355446340935004
1.11,-0.870360157617391,0.065479741524826
1.12,-0.851700413038127,0.128725852585558
1.13,-0.826296303555243,0.192724164825753
1.14,-0.793456982477683,0.25672331455106
1.15,-0.752528501976226,0.319758962339006
1.16,-0.703191410856125,0.38062836341553
1.17,-0.645214810019847,0.437959769330615
1.18,-0.578034674447803,0.490082998491536
1.19,-0.501838753564737,0.535071159967022
1.2,-0.417271914919737,0.570850783056185
1.21,-0.325530541661773,0.59532113850976
1.22,-0.228423500639325,0.606522287056303
1.23,-0.128374216547879,0.602842157987694
1.24,-0.0283411557760072,0.583238670633834
1.25,0.068354411078737,0.547439373776168
1.26,0.158284415505223,0.496074265772038
1.27,0.238220934283175,0.430703007447861
1.28,0.305442110111148,0.353717395418769
1.29,0.357979506686742,0.268129056862535
1.3,0.394761360398841,0.177280737821627
1.31,0.415632077263473,0.084536477484958
1.32,0.422065696992301,-0.00765332665394798
1.33,0.41474934931833,-0.0963203124463588
1.34,0.395143101825408,-0.1791721623934
1.35,0.365215676385733,-0.254716365128636
1.36,0.32698457032829,-0.322021662394229
1.37,0.282381600903816,-0.380639477391158
1.38,0.233164895472476,-0.430506654777455
1.39,0.180871654264854,-0.471846770778151
1.4,0.126802425983606,-0.505080931108438
1.41,0.0720271204827847,-0.530753448848424
1.42,0.0174042339681877,-0.549473802094332
1.43,-0.0363932789256441,-0.561873830344537
1.44,-0.0888500605886362,-0.568577920739072
1.45,-0.139581221479267,-0.570183561331367
1.46,-0.188307640418177,-0.567249750755537
1.47,-0.234834425922056,-0.560291099738266
1.48,-0.279032707560074,-0.549775880490161
1.49,-0.320824598675555,-0.536126686388459
1.5,-0.360171004659825,-0.519722715755886
1.51,-0.397061886220959,-0.500902977321572
1.52,-0.431508583057171,-0.479969933527191
1.53,-0.463537832091216,-0.457193260255035
1.54,-0.493187158002327,-0.432813518696862
1.55,-0.520501361719404,-0.407045617380292
1.56,-0.545529878811159,-0.380081998661698
1.57,-0.568324821418871,-0.352095521450451
1.58,-0.588939553434285,-0.323242035998589
1.59,-0.607427678889005,-0.29366266133661
1.6,-0.623842348454875,-0.263485784388924
1.61,-0.638235809122164,-0.23282880398248
1.62,-0.650659138355468,-0.201799644474278
1.63,-0.661202636330759,-0.170313766026615
1.64,-0.669883563675978,-0.138455491519885
1.65,-0.676697928628045,-0.106495182999073
1.66,-0.681691530547319,-0.0745168576047664
1.67,-0.684909242070391,-0.0425999363460737
1.68,-0.686395169686849,-0.01081983478262
1.69,-0.686192829814387,0.0207515408794063
1.7,-0.684345332906476,0.0520453804664339
1.71,-0.680895569829035,0.0829956289767374
1.72,-0.675886396103812,0.113538709196735
1.73,-0.66936081062949,0.14361329997819
1.74,-0.661362126271093,0.173160163343818
1.75,-0.651934130315243,0.202122014456292
1.76,-0.64112123323089,0.230443429213583
1.77,-0.628968604534932,0.258070784855927
1.78,-0.615522294816827,0.284952229486895
1.79,-0.600829343191529,0.311037676848931
1.8,-0.584937869603837,0.336278823072556
1.81,-0.567897151546093,0.360629182391571
1.82,-0.549757684861941,0.384044139102957
1.83,-0.530571228388905,0.406481013232208
1.84,-0.51039083229677,0.427899137548104
1.85,-0.489270850062328,0.44825994370942
1.86,-0.46726693408613,0.467527055452603
1.87,-0.444436015062569,0.485666386809638
1.88,-0.420836265290449,0.50264624347168
1.89,-0.396527046199659,0.518437425441986
1.9,-0.371568840476033,0.533013329255979
1.91,-0.346023169246595,0.546350048057689
1.92,-0.319952494919432,0.558426467944534
1.93,-0.293420110324505,0.56922435903963
1.94,-0.266429735859461,0.578738917485199
1.95,-0.238921535142569,0.586964241794524
1.96,-0.211139978997502,0.593850670308512
1.97,-0.183151635294304,0.599391726823739
1.98,-0.15502322708551,0.60358418389515
1.99,-0.126821461310407,0.606428100530248
2,-0.0986128507910163,0.607926846981463
2.01,-0.0704635308778916,0.608087115905242
2.02,-0.042439072163779,0.606918919348665
2.03,-0.014604290712217,0.604435571127559
2.04,0.0129769427158993,0.600653654339517
2.05,0.0402418929376287,0.595592973900242
2.06,0.0671291486375179,0.589276494147327
2.07,0.0935788071989163,0.581730261718047
2.08,0.119532654652735,0.572983314044775
2.09,0.144934339342878,0.563067573971326
2.1,0.169729538013049,0.552017731138849
2.11,0.193866113082054,0.539871110886786
2.12,0.217294259957286,0.52666753158628
2.13,0.239966643390866,0.512449151383549
2.14,0.26183852193935,0.497260305464697
2.15,0.282867859772305,0.481147334941272
2.16,0.303015425172318,0.464158408755409
2.17,0.322244875226067,0.44634333967741
2.18,0.340522826338833,0.42775339580744
2.19,0.357818910347165,0.408441109025946
2.2,0.374105816158086,0.388460081395564
2.21,0.389359316956482,0.367864791216304
2.22,0.403558283174343,0.346710399685435
2.23,0.416684681531025,0.325052559538886
2.24,0.428723560568755,0.302947226831272
2.25,0.43966302322366,0.280450476908294
2.26,0.449241019090711,0.257377920520778
2.27,0.457676022517229,0.234048975045679
2.28,0.464966277738427,0.210521417854543
2.29,0.471113038153453,0.186852432399987
2.3,0.476120485851453,0.163098445065435
2.31,0.479995641893342,0.139314970652072
2.32,0.482748268288543,0.115556466999568
2.33,0.484390762599429,0.0918761991497929
2.34,0.48493804608812,0.0683261133584931
2.35,0.484407446381548,0.044956721162961
2.36,0.482818575552003,0.0218169936248391
2.37,0.480193204482878,-0.00104573421494134
2.38,0.476555134483834,-0.0235858487206632
2.39,0.47193006690739,-0.0457595329987552
2.4,0.46634547151087,-0.067524832371458
2.41,0.459830454474972,-0.0888417102404074
2.42,0.452415626563784,-0.109672094621209
2.43,0.444132972212091,-0.129979915700878
2.44,0.435015720095025,-0.149731134782432
2.45,0.425098215612528,-0.16889376503196
2.46,0.414415795912467,-0.187437884474345
2.47,0.403004667737306,-0.20533564160804
2.48,0.39090178854859,-0.222561254235139
2.49,0.378144751188809,-0.239091001860087
2.5,0.364771672379792,-0.254903212081084
2.51,0.350821085245142,-0.269978241647266
2.52,0.336331836065659,-0.284298452415447
2.53,0.321342985366317,-0.297848182698279
2.54,0.305893713461555,-0.310613714600531
2.55,0.29002323050592,-0.32258323749245
2.56,0.273770691091069,-0.33374680828917
2.57,0.25724654309309,-0.343862285713536
2.58,0.240472495358577,-0.35308572739678
2.59,0.223467383409722,-0.361494005937729
2.6,0.206268930275449,-0.369086995806944
2.61,0.188914241221349,-0.375866195747771
2.62,0.171439744202936,-0.381834662141959
2.63,0.153881135527629,-0.386996941123589
2.64,0.136273330617266,-0.391358999971726
2.65,0.118650419769331,-0.394928157899685
2.66,0.101045628795464,-0.39771301663721
2.67,0.0834912844170718,-0.39972339099137
2.68,0.0660187842746004,-0.400970239722644
2.69,0.0486585714142248,-0.401465596917547
2.7,0.0314401131199909,-0.401222504094371
2.71,0.0143918839266364,-0.400254943259086
2.72,-0.0024586473677235,-0.398577771122272
2.73,-0.0190850267084142,-0.39620665465505
2.74,-0.0354618201480898,-0.393158008170339
2.75,-0.0515646156433069,-0.389448932104357
2.76,-0.0673700214074271,-0.385097153669989
2.77,-0.0828556610117123,-0.380120969528164
2.78,-0.0980001654749776,-0.374539190643628
2.79,-0.112783162441111,-0.368371089466018
2.8,-0.127185262543299,-0.361636349579105
2.81,-0.141188043363988,-0.354355017954639
2.82,-0.154774030940609,-0.346547459949561
2.83,-0.167926679138946,-0.338234317163383
2.84,-0.180630347118902,-0.329436468287896
2.85,-0.19287027491128,-0.320174993067561
2.86,-0.204632557639186,-0.310471139479122
2.87,-0.215904118283825,-0.300346294232861
2.88,-0.226650317631793,-0.289919184275169
2.89,-0.236875230449493,-0.279216691231698
2.9,-0.246596259680099,-0.268163640358969
2.91,-0.255803982189412,-0.256780047723678
2.92,-0.264489533188055,-0.245085919397853
2.93,-0.272644572813622,-0.233101252364158
2.94,-0.280261253974546,-0.220846039535698
2.95,-0.287332191835387,-0.208340278709419
2.96,-0.293850435279885,-0.195603985594148
2.97,-0.299809440745103,-0.182657210663337
2.98,-0.305203048837128,-0.169520059868108
2.99,-0.310025464124681,-0.156212719018079
3,-0.314271238553193,-0.142755481615201
3.01,-0.31793525890785,-0.129168780069198
3.02,-0.321012738791759,-0.115473219921847
3.03,-0.323499215559588,-0.101689616820969
3.04,-0.325390552686969,-0.0878390359334218
3.05,-0.326682948030677,-0.0739428333194207
3.06,-0.327372948444416,-0.0600226988581552
3.07,-0.327457471195454,-0.0461007000968375
3.08,-0.326933832609254,-0.03219932654243
3.09,-0.325799784356684,-0.0183415335075169
3.1,-0.324053557731035,-0.00455078493987516
3.11,-0.321693916242166,0.00914890579999596
3.12,-0.318720216767799,0.0227329380965674
3.13,-0.315132479439711,0.0361760902035795
3.14,-0.310931466365716,0.0494524905033564
3.15,-0.306118769077611,0.0625355950931755
3.16,-0.300696904634377,0.0753981729982763
3.17,-0.294669419990927,0.0880123004163661
3.18,-0.288041004186069,0.100349365283884
3.19,-0.280791621602968,0.112382531785804
3.2,-0.27287486520386,0.124082029550823
3.21,-0.264376716080421,0.135406894531716
3.22,-0.255308014884213,0.146325733051277
3.23,-0.245681422261347,0.156806699047559
3.24,-0.235511555776399,0.166817593950887
3.25,-0.224815124658249,0.176325986486702
3.26,-0.213611059842194,0.185299353236506
3.27,-0.201920636606476,0.19370524052034
3.28,-0.189767586867304,0.201511447849757
3.29,-0.177178197945102,0.208686232810624
3.3,-0.164181394548042,0.215198536793797
3.31,-0.150808800469414,0.221018230529334
3.32,-0.137094776705448,0.226116377810676
3.33,-0.123076432422438,0.230465515258442
3.34,-0.108793605687498,0.23403994537403
3.35,-0.0942888109157237,0.236816039527415
3.36,-0.0796071502851179,0.238772546961779
3.37,-0.0647961871731443,0.239890905275203
3.38,-0.0499057797951975,0.240155547452313
3.39,-0.034987874390696,0.239554199975278
3.4,-0.0200962575970446,0.238078166305889
3.41,-0.0052862691298884,0.235722589760526
3.42,0.00938552390095082,0.232486689874212
3.43,0.0238616879227436,0.228373966200561
3.44,0.0380843157571363,0.223392364209185
3.45,0.0519954464757648,0.217554397886609
3.46,0.0655375069734103,0.21087722474955
3.47,0.0786537686705581,0.20338266943117
3.48,0.0912888125813593,0.195097193244326
3.49,0.103388995154131,0.18605180808568
3.5,0.114902907121726,0.176281934118806
3.51,0.1252936866366,0.165752778454987
3.52,0.134990316207093,0.154630106945326
3.53,0.143953945877288,0.142962334582761
3.54,0.152149647256972,0.130800997113627
3.55,0.159546715468459,0.118200360203714
3.56,0.166118923004257,0.10521699533645
3.57,0.171844721518106,0.0919093293700679
3.58,0.17670738872243,0.0783371753541967
3.59,0.180695118813992,0.0645612524306556
3.6,0.183801056108193,0.0506427025046336
3.61,0.18602327273447,0.0366426116966161
3.62,0.187364692482228,0.0226215435368252
3.63,0.187832963819153,0.00863909094476794
3.64,0.187440285982532,-0.00524654705492588
3.65,0.186203193082898,-0.0189789587102291
3.66,0.184183556674142,-0.0323079593783478
3.67,0.18147297208244,-0.0450564729108199
3.68,0.178048244279374,-0.0575077893550762
3.69,0.173939742970874,-0.0696200971210224
3.7,0.169180395666693,-0.0813547301460464
3.71,0.163805340053382,-0.0926763093742506
3.72,0.157851574568081,-0.103552843510755
3.73,0.151357612043969,-0.113955790738452
3.74,0.144363140654068,-0.123860083691172
3.75,0.136908696091202,-0.133244120317531
3.76,0.129035348119489,-0.142089723671374
3.77,0.120784404116052,-0.150382073813098
3.78,0.112197131727245,-0.158109615175172
3.79,0.103314502145416,-0.165263942746807
3.8,0.0941769550508018,-0.171839670414817
3.81,0.0848241858066382,-0.177834284637285
3.82,0.0757699112691827,-0.183459254439716
3.83,0.0667085012008962,-0.188636771317333
3.84,0.0575095923653971,-0.193308034342777
3.85,0.0482032867958435,-0.19747776692775
3.86,0.0388183682518615,-0.201152409270663
3.87,0.029382232410493,-0.204339949687911
3.88,0.0199208345098279,-0.207049758824114
3.89,0.0104586528652586,-0.20929242800386
3.9,0.001018667062994,-0.211079613057707
3.91,-0.00837765064141459,-0.212423884291673
3.92,-0.0177103320148118,-0.213338583553669
3.93,-0.0269608988884645,-0.213837688843693
3.94,-0.0361123399898103,-0.213935686817244
3.95,-0.0451490795563095,-0.213647453493344
3.96,-0.0540569390264232,-0.212988143349064
3.97,-0.0628230927871726,-0.211973086570617
3.98,-0.071436018979402,-0.210617694765797
3.99,-0.0798854462667817,-0.208937374612387
4,-0.0881622973844222,-0.20694744957081
4.01,-0.0962586302090075,-0.20466308912527
4.02,-0.104167577037298,-0.202099245554475
4.03,-0.111883282648348,-0.19927059760948
4.04,-0.11940084170644,-0.196191501050756
4.05,-0.126716235972898,-0.192875945518211
4.06,-0.133826271718664,-0.189337517465402
4.07,-0.140728517765271,-0.185589368751489
4.08,-0.147421244311291,-0.181644190610806
4.09,-0.15390336310763,-0.177514192629331
4.1,-0.160174368806725,-0.17321108632928
4.11,-0.166234282136736,-0.168746073136661
4.12,-0.172083594661804,-0.164129836401729
4.13,-0.178019560303213,-0.159472645098064
4.14,-0.184058667483373,-0.154736638802388
4.15,-0.189907285524884,-0.149813826633718
4.16,-0.195562464930002,-0.144711675253933
4.17,-0.201021414461548,-0.139437451603935
4.18,-0.20628147690424,-0.13399823703637
4.19,-0.211340107305507,-0.12840094259098
4.2,-0.216194853756629,-0.12265232519002
4.21,-0.220843340608564,-0.116759004553526
4.22,-0.225283254081627,-0.110727480624719
4.23,-0.229512330114303,-0.10456415132126
4.24,-0.233528344553607,-0.0982753304396074
4.25,-0.237329105417479,-0.0918672655415872
4.26,-0.240912447258551,-0.0853461557056978
4.27,-0.244276227518139,-0.0787181689364414
4.28,-0.247418324669401,-0.0719894591902632
4.29,-0.250336638269167,-0.0651661828555233
4.3,-0.253029090588873,-0.0582545145740354
4.31,-0.255493629826327,-0.051260662270292
4.32,-0.257728234871551,-0.0441908814514187
4.33,-0.259730921301673,-0.0370514885363283
4.34,-0.26149974875174,-0.0298488731374571
4.35,-0.263032829340348,-0.022589509432879
4.36,-0.264328337211046,-0.0152799663605829
4.37,-0.265384518962677,-0.0079269166402961
4.38,-0.266199704903932,-0.000537144681397018
4.39,-0.266772321046657,0.00688244677165647
4.4,-0.267100901693586,0.0143248311924479
4.41,-0.267184102560343,0.0217828541481194
4.42,-0.267020714283714,0.0292492303591557
4.43,-0.266609676246715,0.0367165421136332
4.44,-0.26592776572007,0.044278031774631
4.45,-0.26490348708863,0.0521201973982748
4.46,-0.263588444689203,0.0599261061587849
4.47,-0.261983584614076,0.0676848271060451
4.48,-0.260090261085286,0.075385406890459
4.49,-0.257910242914373,0.0830168867892975
4.5,-0.255445719021964,0.0905683202182886
4.51,-0.252699302867562,0.0980287909618916
4.52,-0.249674035960394,0.105387431755483
4.53,-0.246373390130504,0.112633443412573
4.54,-0.242801268838607,0.119756114190173
4.55,-0.238962007250445,0.126744839475478
4.56,-0.234860371252489,0.133589141577202
4.57,-0.23050155525694,0.140278689715082
4.58,-0.225891178894941,0.146803319931375
4.59,-0.221035282557832,0.153153054998456
4.6,-0.215940321817133,0.159318124157031
4.61,-0.210613160634683,0.165288982699865
4.62,-0.205061063605074,0.171056331166388
4.63,-0.199291687033144,0.17661113429901
4.64,-0.193313068919836,0.181944639511474
4.65,-0.187133618070231,0.187048394857112
4.66,-0.180762102017974,0.191914266482385
4.67,-0.174207634220691,0.196534455445648
4.68,-0.167479660191258,0.200901513877041
4.69,-0.160587942870053,0.20500836041173
4.7,-0.15354254712347,0.20884829486254
4.71,-0.146353823604116,0.212415012075095
4.72,-0.139032391798176,0.215702614936192
4.73,-0.131589122495405,0.218705626485224
4.74,-0.12403511973724,0.221419001135204
4.75,-0.116381702098367,0.223838134881232
4.76,-0.108379085777,0.225763995354132
4.77,-0.100322581098909,0.227363743124435
4.78,-0.0922255000400721,0.228635999066319
4.79,-0.0841011565925176,0.229579924443523
4.8,-0.0759628445076724,0.230195217061603
4.81,-0.0678238155311902,0.23048210642127
4.82,-0.0596972580828958,0.230441347927818
4.83,-0.0515962765350895,0.230074216191953
4.84,-0.0435338711320607,0.229382497587532
4.85,-0.035522918463239,0.228368481871938
4.86,-0.0275761527019563,0.227034953254962
4.87,-0.0197061474113526,0.22538518060215
4.88,-0.0119252982214769,0.223422907138676
4.89,-0.00424580613116688,0.221152339599795
4.9,0.00332033838819987,0.218578136743921
4.91,0.0107613705274677,0.215705397554308
4.92,0.0180657655148466,0.212539648945198
4.93,0.0252222522127923,0.209086833218149
4.94,0.0322198259504369,0.205353295124036
4.95,0.0390477605938528,0.201345768796008
4.96,0.045695619870871,0.197071364438347
4.97,0.0521532679516087,0.192537554915873
4.98,0.0584108793242513,0.187752162248146
4.99,0.0644589479700403,0.182723344042295
5,0.0702882958667387,0.177459580017831
5.01,0.0758900808711883,0.17196965846633
5.02,0.0812558039518516,0.166262662898265
5.03,0.0863773159084675,0.160347958688761
5.04,0.0912468234751724,0.154235179993367
5.05,0.0958568949995688,0.147934216734322
5.06,0.100200465578363,0.141455201847097
5.07,0.104109919785219,0.13471132573629
5.08,0.107678376696497,0.127795766559196
5.09,0.110953605230469,0.120754472124648
5.1,0.11393132905549,0.113598609963893
5.11,0.116607639162406,0.106339470769524
5.12,0.118978995536225,0.0989884604476231
5.13,0.121042228971727,0.0915570924974992
5.14,0.122794543117315,0.0840569803925504
5.15,0.124233516790864,0.0764998301319652
5.16,0.125357106470801,0.0688974327951703
5.17,0.126163649164972,0.0612616570911157
5.18,0.126651865459084,0.0536044418577109
5.19,0.12682086290571,0.0459377884439672
5.2,0.126670139643882,0.0382737529331599
5.21,0.126199588378298,0.0306244381470578
5.22,0.125409500476009,0.0230019853884084
5.23,0.124300570497281,0.015418565859499
5.24,0.122873900775974,0.00788637171369434
5.25,0.121131006313367,0.000417606681406827
5.26,0.119073819807881,-0.0069755237707818
5.27,0.116704696851495,-0.0142808228081941
5.28,0.114026421141993,-0.0214861131245117
5.29,0.11104220984837,-0.0285792485314127
5.3,0.107755718954849,-0.0355481260790854
5.31,0.104171048477042,-0.0423806989300516
5.32,0.1002927477117,-0.0490649899703026
5.33,0.0961258201894857,-0.0555891060951669
5.34,0.0916757284780009,-0.0619412533225279
5.35,0.0869483986601557,-0.0681097527150361
5.36,0.0819502244507308,-0.0740830569917593
5.37,0.0766880708017937,-0.0798497681582612
5.38,0.0711274370853758,-0.0853243882524647
5.39,0.0652843258996588,-0.0904892042616924
5.4,0.0592122160027554,-0.0954057458341116
5.41,0.0529206287361032,-0.100063841415338
5.42,0.0464195711055161,-0.104453629988207
5.43,0.0397195299910838,-0.108565586250688
5.44,0.0328314650804314,-0.112390546063589
5.45,0.0257668003143312,-0.115919732196084
5.46,0.0185374138894024,-0.119144780243162
5.47,0.0111556267376163,-0.122057764554941
5.48,0.00363418944720672,-0.12465122423325
5.49,-0.00401373240857083,-0.1269181890162
5.5,-0.0117745745845802,-0.128852204976441
5.51,-0.0196343921367629,-0.13044735990358
5.52,-0.0275788790749204,-0.131698308355861
5.53,-0.0355933897325228,-0.132600296110606
5.54,-0.0436629618369987,-0.133149184117208
5.55,-0.0517723413302185,-0.133341471630756
5.56,-0.0599060088641367,-0.133174318528487
5.57,-0.0680482080617577,-0.132645566615578
5.58,-0.0761829754141218,-0.13175375991109
5.59,-0.0842941719208342,-0.130498163569371
5.6,-0.0923655162497847,-0.128878781587024
5.61,-0.100380619618131,-0.126896372900578
5.62,-0.108323022069309,-0.124552465885527
5.63,-0.116176230332819,-0.121849371123409
5.64,-0.123923756964921,-0.11879019227015
5.65,-0.131549160868982,-0.115378834816253
5.66,-0.139036088974376,-0.111620012837425
5.67,-0.146368319042374,-0.107519253343223
5.68,-0.153529803326546,-0.103082898271209
5.69,-0.160461917793964,-0.0982867027550665
5.7,-0.167054149871889,-0.0930870394372465
