"Freq [GHz]","re(S(Antenna1_1_1,Antenna1_1_1)) []","im(S(Antenna1_1_1,Antenna1_1_1)) []"
1,-0.797738960443423,-0.495790468513628
1.01,-0.817177800853511,-0.456332824823892
1.02,-0.835016688019172,-0.41465721035661
1.03,-0.851010650351261,-0.370695031376686
1.04,-0.86487990926829,-0.32438856748346
1.05,-0.876305571672787,-0.275696437792115
1.06,-0.884925250648523,-0.224600713080682
1.07,-0.890328880869559,-0.171116061242201
1.08,-0.892055146858434,-0.115301359768302
1.09,-0.889589151058143,-0.0572742310718954
1.1,-0.882362226843151,0.00277107112735004
1.11,-0.869755156363391,0.064542112339826
1.12,-0.851106480364127,0.127623014003558
1.13,-0.825728057747243,0.191445907414753
1.14,-0.792930474822684,0.25526032915906
1.15,-0.752061177644226,0.318102977607006
1.16,-0.702951500206125,0.37881422884853
1.17,-0.645468221087147,0.436114266639615
1.18,-0.578789986854603,0.488293759078536
1.19,-0.503095369562737,0.533427702776022
1.2,-0.419019788640737,0.569443735670185
1.21,-0.327749968682773,0.59424142805276
1.22,-0.231084970706325,0.605860305371303
1.23,-0.131438332015879,0.602686905811694
1.24,-0.0317586179670072,0.583676885712134
1.25,0.064642745763737,0.548554648062968
1.26,0.154347408246223,0.497946157022138
1.27,0.234136964220175,0.433406150669861
1.28,0.301298801756148,0.357320619760769
1.29,0.353873384115742,0.272694513599535
1.3,0.390797428480841,0.182863045171627
1.31,0.411923330359473,0.091181887999958
1.32,0.419092874697301,-0.000673711987947979
1.33,0.41263777576433,-0.0893290383673588
1.34,0.393874901310408,-0.1722493221184
1.35,0.364766315695733,-0.247939966999636
1.36,0.32732302756529,-0.315467104440229
1.37,0.283470574666816,-0.374379033923158
1.38,0.234961053560746,-0.424608977913455
1.39,0.183325920883554,-0.466376410041151
1.4,0.129860306170106,-0.500097873840438
1.41,0.0756290602991847,-0.526312684375424
1.42,0.0214860147591877,-0.545624912342332
1.43,-0.0319001140836441,-0.558660609460537
1.44,-0.0840177503496362,-0.566038026225072
1.45,-0.134485301838267,-0.568348199002367
1.46,-0.183026434939177,-0.566143395657537
1.47,-0.229448513168056,-0.559931255029266
1.48,-0.273624368484074,-0.550172876072161
1.49,-0.315477246865555,-0.537283518878459
1.5,-0.354968602432825,-0.521634931197206
1.51,-0.392088349723959,-0.503558597801572
1.52,-0.426847179544171,-0.483349428651491
1.53,-0.459270572678216,-0.461269564184765
1.54,-0.489394189265327,-0.437552093244262
1.55,-0.517260359507404,-0.412404561378292
1.56,-0.54291544769116,-0.386012203606698
1.57,-0.566407903172871,-0.358540873165451
1.58,-0.587786848024285,-0.330139661795589
1.59,-0.607101081270005,-0.30094322191161
1.6,-0.624398404570874,-0.271073809524924
1.61,-0.639725194351164,-0.24064307067248
1.62,-0.653126161602468,-0.209753596139278
1.63,-0.664547150983359,-0.178141704050615
1.64,-0.673954357185778,-0.145913034706884
1.65,-0.681461589730045,-0.113522018026073
1.66,-0.687110015483319,-0.0810552974977664
1.67,-0.690940066543391,-0.0485952600950737
1.68,-0.692991625054849,-0.01622061332362
1.69,-0.693304222583387,0.0159931339544063
1.7,-0.691917246434597,0.0479732751554339
1.71,-0.688870147057135,0.0796495836147374
1.72,-0.684202642010812,0.110954055159735
1.73,-0.67795491302049,0.14182070778019
1.74,-0.670167793368093,0.172185431372818
1.75,-0.660882943629243,0.201985881544292
1.76,-0.65014301397189,0.231161412117583
1.77,-0.637991791847932,0.259653041598927
1.78,-0.624474334069827,0.287403449389895
1.79,-0.609637082404529,0.314356997965931
1.8,-0.593527962091837,0.340459777593756
1.81,-0.576196462898093,0.365659670471571
1.82,-0.557693702188941,0.389906431406957
1.83,-0.538072469923905,0.413151782374208
1.84,-0.51738725522677,0.435349518455104
1.85,-0.495694254693328,0.45645562279142
1.86,-0.47305136223513,0.476428388336603
1.87,-0.449518140766569,0.495228544245638
1.88,-0.425155775834449,0.51281938488268
1.89,-0.400027011564659,0.529166899465986
1.9,-0.374196069280033,0.544239900471779
1.91,-0.347728549416595,0.558010148978289
1.92,-0.320691317346432,0.570452475260934
1.93,-0.293152373755505,0.58154489285403
1.94,-0.265091496815461,0.591188744281199
1.95,-0.236426609896569,0.599182998801524
1.96,-0.207514025280502,0.605743224991512
1.97,-0.178427475235304,0.610865278046739
1.98,-0.14924065454151,0.61454877323215
1.99,-0.120027013828806,0.616797108314248
2,-0.0908595473886163,0.617617470751463
2.01,-0.0618105769668916,0.617020828970242
2.02,-0.032951533114779,0.615021907152665
2.03,-0.00435273569721695,0.611639143435558
2.04,0.0239168248258993,0.606894631169517
2.05,0.0517897037116287,0.600814043397242
2.06,0.0792002142335179,0.593426540692327
2.07,0.106084634384916,0.584764662650047
2.08,0.132381406455735,0.574864203668775
2.09,0.158031328003878,0.563764073519326
2.1,0.182977732841049,0.551506143621849
2.11,0.207166660733054,0.538135079944786
2.12,0.230547014612986,0.52369816354728
2.13,0.253070704275166,0.508245099986549
2.14,0.27469277554505,0.491827818834697
2.15,0.295371524239305,0.474500264663272
2.16,0.315068594147318,0.456318180900409
2.17,0.333749058620067,0.43733888803741
2.18,0.351381485329833,0.41762105765694
2.19,0.367937984202165,0.397224483792946
2.2,0.383394238168086,0.376209853118564
2.21,0.397729517207482,0.354638515436304
2.22,0.410926675642343,0.332572255903435
2.23,0.422972133189025,0.310073070388886
2.24,0.433855840360755,0.287202945266272
2.25,0.44357122870366,0.264023642899294
2.26,0.451683513820711,0.240849205277778
2.27,0.458660541307229,0.217534349022679
2.28,0.464508998988427,0.194135282169543
2.29,0.469238408493453,0.170707035689987
2.3,0.472861005798453,0.147303316637435
2.31,0.475391613974342,0.123976372526072
2.32,0.476847509175543,0.100776867219568
2.33,0.477248280935429,0.0777537687487929
2.34,0.47661568788412,0.0549542490299931
2.35,0.474973509959548,0.032423595823761
2.36,0.472347398144003,0.0102051366188391
2.37,0.468764722754878,-0.0116598254759413
2.38,0.464254421245834,-0.0331320641126632
2.39,0.45884684644739,-0.0541744706967552
2.4,0.45257361611087,-0.074752084229458
2.41,0.445467464561972,-0.0948321105714074
2.42,0.437562097203784,-0.114383931443209
2.43,0.428892048555091,-0.133379103855878
2.44,0.419492544427025,-0.151791350353432
2.45,0.409399368775528,-0.16959654084196
2.46,0.398648735723467,-0.186772666454345
2.47,0.387277167131306,-0.20329980622504
2.48,0.37532137607659,-0.219160087074139
2.49,0.362818156522809,-0.234337637891087
2.5,0.349804279368792,-0.248818538239084
2.51,0.336316395074143,-0.262590762378266
2.52,0.322390942926659,-0.275644119206447
2.53,0.308064067055317,-0.287970188728279
2.54,0.293371539107555,-0.299562255635531
2.55,0.27834868765422,-0.31041524056245
2.56,0.263030334234769,-0.32052562955317
2.57,0.24767161819809,-0.329959628769536
2.58,0.232142951031577,-0.33869715507278
2.59,0.216399661603722,-0.346717893966829
2.6,0.200472327003449,-0.354021568737044
2.61,0.184391002970349,-0.360609036162071
2.62,0.168185196653936,-0.366482231873959
2.63,0.151883843556629,-0.371644116639589
2.64,0.135515288223266,-0.376098623784726
2.65,0.119107268532331,-0.379850607945685
2.66,0.102686903385464,-0.38290579533221
2.67,0.0862806834810718,-0.38527073563537
2.68,0.0699144650136004,-0.386952755718644
2.69,0.0536134660512248,-0.387959915183547
2.7,0.0374022653669909,-0.388300963923371
2.71,0.0213048035246364,-0.387985301707086
2.72,0.0053443859972765,-0.387022939885272
2.73,-0.0104563118544142,-0.38542446523805
2.74,-0.0260752381740898,-0.383201006016339
2.75,-0.0414909565073069,-0.380364200198357
2.76,-0.0566826364284271,-0.376926165974989
2.77,-0.0716300430307123,-0.372899474490464
2.78,-0.0863135254539776,-0.368297124823528
2.79,-0.100714004614111,-0.363132521235018
2.8,-0.114812960268299,-0.357419452668105
2.81,-0.128592417575988,-0.351172074505639
2.82,-0.142034933293609,-0.344404892580561
2.83,-0.155123581736946,-0.337132749438383
2.84,-0.167841940663902,-0.329370812846896
2.85,-0.18017407720928,-0.321134566560561
2.86,-0.192104534010186,-0.312439803322122
2.87,-0.203618315674825,-0.303302620117861
2.88,-0.214761196913793,-0.293702638152169
2.89,-0.225507572641393,-0.283648687514698
2.9,-0.235779181172099,-0.273193462090969
2.91,-0.245562394319312,-0.262356120986678
2.92,-0.254844159511885,-0.251156129954853
2.93,-0.263611988670322,-0.239613256367158
2.94,-0.271853947650246,-0.227747566734698
2.95,-0.279558646513387,-0.215579426846419
2.96,-0.286715230906885,-0.203129504528148
2.97,-0.293313374848103,-0.190418775035337
2.98,-0.299343275241128,-0.177468529055108
2.99,-0.304795648469681,-0.164300383271079
3,-0.309661729422193,-0.150936293422201
3.01,-0.31393327333695,-0.137398569734198
3.02,-0.317602560874159,-0.123709894570847
3.03,-0.320662406814588,-0.109893342109969
3.04,-0.323106172826969,-0.0959723997934218
3.05,-0.324927784732677,-0.0819709912294207
3.06,-0.326121754707416,-0.0679135001971552
3.07,-0.326683208848454,-0.0538247952888375
3.08,-0.326607920538254,-0.03973025468643
3.09,-0.325892349998684,-0.0256557904835169
3.1,-0.324533690403035,-0.0116278718528752
3.11,-0.322529920888166,0.00232645368699596
3.12,-0.319879866716799,0.0161795417785674
3.13,-0.316583266799711,0.0299031364445795
3.14,-0.312640848695716,0.0434683600633564
3.15,-0.308054411057611,0.0568457092291755
3.16,-0.302826913444377,0.0700050576982763
3.17,-0.296962573230927,0.0829156677113661
3.18,-0.290466969066069,0.0955462110198843
3.19,-0.283324269712968,0.107788307371804
3.2,-0.27552011930386,0.119451979057823
3.21,-0.267147373230421,0.130733469757716
3.22,-0.258218284674213,0.141602700283577
3.23,-0.248746818971347,0.152029279684159
3.24,-0.238748779256399,0.161982596982887
3.25,-0.228241930438249,0.171431932024702
3.26,-0.217246119122194,0.180346586303406
3.27,-0.205783386856476,0.18869603439774
3.28,-0.193878073767304,0.196450096295757
3.29,-0.181556909465102,0.203579130518624
3.3,-0.168849087948042,0.210054247536797
3.31,-0.155786323199414,0.215847542465334
3.32,-0.142402881945448,0.220932345484676
3.33,-0.128735590372438,0.225283487973442
3.34,-0.114823811397498,0.22887758146803
3.35,-0.100709389715724,0.231693306457415
3.36,-0.0864365618651179,0.233711706831779
3.37,-0.0720518291181443,0.234916485815203
3.38,-0.0576037918511975,0.235294298262313
3.39,-0.043142944231696,0.234835034115278
3.4,-0.0287214293210446,0.233532087255889
3.41,-0.0143927552938884,0.231382603850526
3.42,-0.000211474514049181,0.228387704474212
3.43,0.0137671718537436,0.224552673870561
3.44,0.0274876400181363,0.219887113089185
3.45,0.0408944959078948,0.214405048846609
3.46,0.0539328481714103,0.20812499562955
3.47,0.0665487955445581,0.20106996693117
3.48,0.0786898816163593,0.193267433084326
3.49,0.090305549562131,0.18474922397568
3.5,0.101347589098726,0.175551376248806
3.51,0.1114210038846,0.166173243634987
3.52,0.120880661574093,0.156238209115325
3.53,0.129690757771788,0.145789791142761
3.54,0.137819140056972,0.134874410853627
3.55,0.145237595598459,0.123541014883714
3.56,0.151922091224257,0.11184066572645
3.57,0.157852962125106,0.0998261067300679
3.58,0.16301504637243,0.0875513091341967
3.59,0.167397763863992,0.0750710089706556
3.6,0.170995139158193,0.0624402417446335
3.61,0.17380576940447,0.0497138823266161
3.62,0.175832739302228,0.0369461975518252
3.63,0.177083486189153,0.0241904181097679
3.64,0.177569619382532,0.0114983358460741
3.65,0.177306698412898,-0.00108006844022906
3.66,0.176503153944142,-0.0134264352193478
3.67,0.17532384605244,-0.0254870941798199
3.68,0.173483045799374,-0.0373559157840762
3.69,0.171004766040874,-0.0489946636000224
3.7,0.167915351216693,-0.0603679010710464
3.71,0.164243146853382,-0.0714431191472506
3.72,0.160018168048081,-0.0821908239177548
3.73,0.155271771873969,-0.0925845861114515
3.74,0.150036337854068,-0.102601054610172
3.75,0.144344960471202,-0.112219936815831
3.76,0.138231156649489,-0.121423948919374
3.77,0.131728590986052,-0.130198739303098
3.78,0.124870820747245,-0.138532788391172
3.79,0.117691061925416,-0.146417288514807
3.8,0.110221977630802,-0.153846007034817
3.81,0.102495489066638,-0.160815136007285
3.82,0.0946217083691827,-0.167794826379716
3.83,0.0865156545508962,-0.174479957527333
3.84,0.0781703490733971,-0.180711988152777
3.85,0.0696130803648435,-0.18648962115775
3.86,0.0608701396468615,-0.191813128870663
3.87,0.051966759208753,-0.196684199967911
3.88,0.0429270672868279,-0.201105789814114
3.89,0.0337740581872586,-0.20508197534386
3.9,0.024529576275994,-0.208617815797707
3.91,0.0152143124325854,-0.211719220051673
3.92,0.00584781160518819,-0.214392821383669
3.93,-0.00355150988746452,-0.216645860013693
3.94,-0.0129663386008103,-0.218486073877244
3.95,-0.0223804309463095,-0.219921597843344
3.96,-0.0317785741284232,-0.220960871419064
3.97,-0.0411465420279726,-0.221612554900617
3.98,-0.050471047142402,-0.221885453905797
3.99,-0.0597396893887817,-0.221788452082387
4,-0.0689409026254222,-0.22133045173081
4.01,-0.0780638997200075,-0.22052032203527
4.02,-0.087098616777298,-0.219366854594475
4.03,-0.096035657108348,-0.21787872587948
4.04,-0.104866235536441,-0.216064466250756
4.05,-0.113582123472898,-0.213932435047211
4.06,-0.122175595198664,-0.211490801510402
4.07,-0.130639375645271,-0.208747530990489
4.08,-0.138966590061291,-0.205710376107806
4.09,-0.14715071578763,-0.202386872460331
4.1,-0.155185536286725,-0.19878433848528
4.11,-0.163065097756736,-0.194909879105661
4.12,-0.170783668311804,-0.190770392794729
4.13,-0.178541486333213,-0.186217140248064
4.14,-0.186306916733373,-0.181224035152388
4.15,-0.193857485134884,-0.175944265653718
4.16,-0.201184957600002,-0.170386924546933
4.17,-0.208281346961548,-0.164561164811935
4.18,-0.21513890065424,-0.15847620961537
4.19,-0.221750090765507,-0.15214136310698
4.2,-0.228107606596629,-0.14556602141722
4.21,-0.234204349298564,-0.138759683976526
4.22,-0.240033428771627,-0.131731964809719
4.23,-0.245588162644303,-0.12449260362126
4.24,-0.250862077113607,-0.117051476528607
4.25,-0.255848909767479,-0.109418606311587
4.26,-0.260542614108551,-0.101604172045698
4.27,-0.264937365710139,-0.0936185178864414
4.28,-0.269027569917401,-0.0854721610902632
4.29,-0.272807870951167,-0.0771757989355233
4.3,-0.276273162284873,-0.0687403146240354
4.31,-0.279418598186227,-0.060176782020292
4.32,-0.282239606294551,-0.0514964691714187
4.33,-0.284731901108673,-0.0427108404663283
4.34,-0.28689149826074,-0.0338315575474571
4.35,-0.288714729451348,-0.024870478732879
4.36,-0.290198257921046,-0.0158396571105829
4.37,-0.291339094342677,-0.0067513370902961
4.38,-0.292134613003932,0.00238205046860298
4.39,-0.292582568149657,0.0115478945716565
4.4,-0.292681110398586,0.0207334120024479
4.41,-0.292428803084343,0.0299256565781194
4.42,-0.291824638423714,0.0391115299491557
4.43,-0.290868053428215,0.0482777938836332
4.44,-0.28948834840707,0.057448885174631
4.45,-0.28753508503163,0.0666680003082748
4.46,-0.285216857043203,0.0757959411287849
4.47,-0.282537375448076,0.0848180254760451
4.48,-0.279500938975286,0.093719664570459
4.49,-0.276112437044373,0.102486388049298
4.5,-0.272377351451964,0.111103869694289
4.51,-0.268301756697562,0.119557953706892
4.52,-0.263892318840394,0.127834681421483
4.53,-0.259156293010504,0.135920318408573
4.54,-0.254101519358607,0.143801381853473
4.55,-0.248736417490445,0.151464668105478
4.56,-0.243069979412489,0.158897280317202
4.57,-0.23711176087694,0.166086656066082
4.58,-0.230871871214941,0.173020594863375
4.59,-0.224360961537832,0.179687285445456
4.6,-0.217590211487133,0.186075332757031
4.61,-0.210571314294683,0.192173784529865
4.62,-0.203316460435074,0.197972157326388
4.63,-0.195838319673144,0.20346046203401
4.64,-0.188150021719836,0.208629228592474
4.65,-0.180265135320231,0.213469529968112
4.66,-0.172197646067974,0.217973005275385
4.67,-0.163961932720691,0.222131881843648
4.68,-0.155572742291259,0.225938996327641
4.69,-0.147045163850053,0.22938781460073
4.7,-0.13839460114347,0.23247245049054
4.71,-0.129636744034116,0.235187683187095
4.72,-0.120787538928176,0.237528973314192
4.73,-0.111863158185405,0.239492477555224
4.74,-0.10287996864724,0.241075061855204
4.75,-0.0938544992643675,0.242274312941232
4.76,-0.0847510831259999,0.242794696514132
4.77,-0.0756708371419092,0.242923703954435
4.78,-0.0666310064141721,0.242663669646319
4.79,-0.0576486861315176,0.242017710813523
4.8,-0.0487407841106724,0.240989719091603
4.81,-0.0399239838051902,0.23958435028127
4.82,-0.0312147078698958,0.237807012147818
4.83,-0.0226290824050895,0.235663850321953
4.84,-0.0141829019720607,0.233161732417532
4.85,-0.00589159548323898,0.230308230321938
4.86,0.00222980689804373,0.227111600744962
4.87,0.0101667058386474,0.22358076413215
4.88,0.0179049636915231,0.219725281918676
4.89,0.0254309341728331,0.215555332279795
4.9,0.0327314906301999,0.211081684333921
4.91,0.0397940529024677,0.206315671084308
4.92,0.0466066127718466,0.201269160915198
4.93,0.0531577577697923,0.195954527928149
4.94,0.0594366933984369,0.190384621194036
4.95,0.0654332636998528,0.184572732846008
4.96,0.071137970025871,0.178532565389347
4.97,0.0765419881316087,0.172278198012873
4.98,0.0816371833662513,0.165824052293146
4.99,0.0864161241050403,0.159184857194295
5,0.0908720932067387,0.152375613571831
5.01,0.0949990977111883,0.14541155823893
5.02,0.0987918764618516,0.138308127741265
5.03,0.102245905998468,0.131080921910761
5.04,0.105357404395172,0.123745667334367
5.05,0.108123333289569,0.116318180829322
5.06,0.110541397908363,0.108814333037097
5.07,0.112371373775219,0.10133040106629
5.08,0.113783213276497,0.0938598063791958
5.09,0.114860708500469,0.0863949149146477
5.1,0.11560730696549,0.0789500573138932
5.11,0.116027064352406,0.0715392415595241
5.12,0.116124620506225,0.0641761272676231
5.13,0.115905174381727,0.0568740017074992
5.14,0.115374458017315,0.0496457574325504
5.15,0.114538709620864,0.0425038717249652
5.16,0.113404645970801,0.0354603877461703
5.17,0.111979434074972,0.0285268975641157
5.18,0.110270662459084,0.0217145268677109
5.19,0.10828631192371,0.0150339216479672
5.2,0.106034726147882,0.00849523659465988
5.21,0.103524582026298,0.00210812530665783
5.22,0.100764860021009,-0.00411826756659163
5.23,0.0977648145582813,-0.010175312625501
5.24,0.0945339446053737,-0.0160549000263057
5.25,0.0910819645293668,-0.0217494422865932
5.26,0.0874187753458808,-0.0272518752647818
5.27,0.0835544364544951,-0.0325556576281941
5.28,0.0794991379629935,-0.0376547686845117
5.29,0.0752631736783696,-0.0425437047414127
5.3,0.0708569148948493,-0.0472174740390854
5.31,0.0662907849370421,-0.0516715903400516
5.32,0.0615752347617,-0.0559020651803026
5.33,0.0567207194094857,-0.0599053990051669
5.34,0.0517376755780009,-0.0636785711125279
5.35,0.0466365002701557,-0.0672190286950361
5.36,0.0414275306407308,-0.0705246748217594
5.37,0.0361210249317937,-0.0735938557282612
5.38,0.0308738832553758,-0.0763448348224647
5.39,0.0257078552996588,-0.0788036522916923
5.4,0.0204873982527554,-0.0810602206241116
5.41,0.0152190929361032,-0.0831153372053379
5.42,0.00990932654751613,-0.0849699274422066
5.43,0.0045642980920838,-0.0866250281396876
5.44,-0.000809974802568576,-0.0880817718665895
5.45,-0.00620764814166878,-0.0893413724430838
5.46,-0.0116230427055976,-0.0904051115963625
5.47,-0.0170506343163837,-0.0912743268729414
5.48,-0.0224850433763933,-0.0919504008662497
5.49,-0.0279210236575708,-0.0924347518052004
5.5,-0.0333534507195802,-0.0927288255574411
5.51,-0.0387773097347629,-0.0928340890695796
5.52,-0.0441876831869204,-0.0927520252678614
5.53,-0.0495797383995228,-0.0924841294406055
5.54,-0.0549487150369987,-0.0920319070772082
5.55,-0.0602899127602185,-0.0913968731807563
5.56,-0.0655986791641367,-0.0905805530184868
5.57,-0.0708703981217577,-0.0895844842455783
5.58,-0.0761004785941218,-0.0884102204310899
5.59,-0.0812843442408342,-0.0870593357693712
5.6,-0.0864174236297847,-0.0855334311870245
5.61,-0.0914951414981315,-0.0838341414005779
5.62,-0.0965129108893086,-0.0819631431355274
5.63,-0.101466126502819,-0.0799221642734088
5.64,-0.106350159131921,-0.0777129937801498
5.65,-0.111160351426982,-0.0753374924162528
5.66,-0.115892014977376,-0.0727976039374247
5.67,-0.120540428783374,-0.0700953668232234
5.68,-0.125100839165546,-0.0672329262712093
5.69,-0.129589304207464,-0.0642675698850665
