"Freq [GHz]","re(S(Antenna1_1_1,Antenna1_1_1)) []","im(S(Antenna1_1_1,Antenna1_1_1)) []"
1,-0.797727835852823,-0.495713589613128
1.01,-0.817143249994111,-0.456246435505692
1.02,-0.834954923682972,-0.41456424103481
1.03,-0.850918067479261,-0.370598878925606
1.04,-0.864753128602289,-0.32429309000602
1.05,-0.876141483647787,-0.275605945780515
1.06,-0.884721059236523,-0.224519956921182
1.07,-0.890082147113559,-0.171050215036501
1.08,-0.891763831804434,-0.115256001462302
1.09,-0.889251657823143,-0.0572553188988954
1.1,-0.881977441506151,0.00275722585435004
1.11,-0.869322487428391,0.064488876034826
1.12,-0.850625896488127,0.127523465161558
1.13,-0.825200123477243,0.191292874389753
1.14,-0.792356384047683,0.25504643129606
1.15,-0.751442784510226,0.317820669565006
1.16,-0.702345523474125,0.37842394602953
1.17,-0.644985063428947,0.435573518423615
1.18,-0.578456286922703,0.487623993022536
1.19,-0.502935914633737,0.532653327632022
1.2,-0.419057242982737,0.568592003137185
1.21,-0.328004608357773,0.59334229221876
1.22,-0.231574426508325,0.604946260173303
1.23,-0.132177342197879,0.601792800957694
1.24,-0.0327587924020072,0.582839721620834
1.25,0.063373148360737,0.547813350496168
1.26,0.152803688503223,0.497341332209138
1.27,0.232318174100175,0.432979821816861
1.28,0.299207918966148,0.357115945961769
1.29,0.351517467455742,0.272755492275535
1.3,0.388187752800841,0.183234199249627
1.31,0.409075499929473,0.091907939159958
1.32,0.416345975237301,0.000338429222052022
1.33,0.41011629913333,-0.0880840560573588
1.34,0.391594575395408,-0.1707966769684
1.35,0.362740731345733,-0.246305968729636
1.36,0.32556355131729,-0.313679033780229
1.37,0.281986272776816,-0.372464975443158
1.38,0.233758627871476,-0.422597646953455
1.39,0.182409656944254,-0.464296974401151
1.4,0.129232034021106,-0.497979771300438
1.41,0.0752881282291847,-0.524185436695425
1.42,0.0214292763311877,-0.543517936728332
1.43,-0.0316782995386441,-0.556603028379537
1.44,-0.0835255035916362,-0.564058476524072
1.45,-0.133733195851267,-0.566474641181367
1.46,-0.182027453292177,-0.564402924341537
1.47,-0.228217994632056,-0.558349911526266
1.48,-0.272179937990074,-0.548775463980161
1.49,-0.313838732975555,-0.536093423699459
1.5,-0.353157941532825,-0.520673944884886
1.51,-0.390129477153959,-0.502846749178972
1.52,-0.424765908123171,-0.482904820610491
1.53,-0.457094458953216,-0.461108218564765
1.54,-0.487152387952327,-0.437687804253262
1.55,-0.514983466608404,-0.412848758411292
1.56,-0.540635332973159,-0.386773824270698
1.57,-0.564157532568871,-0.359626247279451
1.58,-0.585600096610285,-0.331552407125589
1.59,-0.605012537645005,-0.30268415233161
1.6,-0.622443167364874,-0.273140856224924
1.61,-0.637938661726164,-0.24303121711248
1.62,-0.651543814607468,-0.212454827129278
1.63,-0.663214179480759,-0.181059201170615
1.64,-0.672897075089178,-0.148941603446885
1.65,-0.680688913408045,-0.116639286746073
1.66,-0.686629243731319,-0.0842381917777663
1.67,-0.690756826801391,-0.0518201113650737
1.68,-0.693109826598849,-0.01946327148362
1.69,-0.693726016956387,0.0127571844144063
1.7,-0.692642995379597,0.0447687959454339
1.71,-0.689898398168135,0.0765014608547374
1.72,-0.685530112300812,0.107887175489735
1.73,-0.67957648057049,0.13885983282619
1.74,-0.672076497198093,0.169355071121818
1.75,-0.663069991879243,0.199310167153292
1.76,-0.65259780047189,0.228663968645583
1.77,-0.640701921137932,0.257356861227927
1.78,-0.627425654829827,0.285330765670895
1.79,-0.612813729304529,0.312529161624931
1.8,-0.596912405971837,0.338897134439556
1.81,-0.579769569228093,0.364381441950571
1.82,-0.561434797608941,0.388930598335557
1.83,-0.541959416723905,0.412494972389208
1.84,-0.52139653365677,0.435026897687104
1.85,-0.499801052713328,0.45648079229242
1.86,-0.47722967258513,0.476813285746603
1.87,-0.453740864966569,0.495983351193638
1.88,-0.429394834834449,0.51395244058168
1.89,-0.404253462654659,0.530684620967986
1.9,-0.378380228940033,0.546146709991779
1.91,-0.351840121616595,0.560308408718289
1.92,-0.324699526861432,0.573142430100934
1.93,-0.297026104103505,0.58462462130403
1.94,-0.268766270557461,0.594645852401199
1.95,-0.239773180410569,0.602975046061524
1.96,-0.210504933637502,0.609843612971512
1.97,-0.181037168072304,0.615245335516739
1.98,-0.15144563176051,0.61917788186215
1.99,-0.121805968428407,0.621642838544248
2,-0.0921934967745163,0.622645727221462
2.01,-0.0626829850949916,0.622196005060242
2.02,-0.033348422861779,0.620307048092665
2.03,-0.00426279088121695,0.616996117315558
2.04,0.0245021683128993,0.612284307309517
2.05,0.0528761781596287,0.606196477297242
2.06,0.0807906522245179,0.598761164952327
2.07,0.108178913172916,0.590010483100047
2.08,0.134976404988735,0.579979999888775
2.09,0.161120896913878,0.568708603062326
2.1,0.186552677711049,0.556238349027849
2.11,0.211214738803054,0.542614297788786
2.12,0.235052945202986,0.52788433462628
2.13,0.258016192935166,0.512098979802549
2.14,0.28005655212505,0.495311187513697
2.15,0.301129394829305,0.477576135379272
2.16,0.321193506827318,0.458951005978409
2.17,0.340211183010067,0.43949476180941
2.18,0.358148305759833,0.41926791519844
2.19,0.374974406272165,0.398332294666246
2.2,0.390662708488086,0.376750809242564
2.21,0.405190155957482,0.354587212230304
2.22,0.418537421642343,0.331905865867435
2.23,0.430688901069025,0.308771508285886
2.24,0.441632689250755,0.285249024118272
2.25,0.45136054205366,0.261403220023294
2.26,0.459202787120711,0.237551929620778
2.27,0.465856823097229,0.213583099662679
2.28,0.471331022418427,0.189556765609543
2.29,0.475636853163453,0.165531672579987
2.3,0.478788752511453,0.141565111287435
2.31,0.480803991193342,0.117712765566072
2.32,0.481702530078543,0.0940285720295675
2.33,0.481506870089429,0.0705645920987929
2.34,0.48024189653012,0.0473708966699931
2.35,0.477934718858548,0.024495463683761
2.36,0.474614507136003,0.00198408839883912
2.37,0.470312326087878,-0.0201196935159413
2.38,0.465060967868834,-0.0417746702726632
2.39,0.45889478447249,-0.0629420059367552
2.4,0.45184952072087,-0.083585280259458
2.41,0.443962148697972,-0.103670516901407
2.42,0.435270704429784,-0.123166200353209
2.43,0.425814127563091,-0.142043282095878
2.44,0.415632104703025,-0.160275176523432
2.45,0.404764917043528,-0.17783774717196
2.46,0.393253292837467,-0.194709283904345
2.47,0.381138265127306,-0.21087047149804
2.48,0.36846103527559,-0.226304350475139
2.49,0.35526284249181,-0.240996270680087
2.5,0.341584839838792,-0.254933838181084
2.51,0.327467976726143,-0.268106856297266
2.52,0.312952888316659,-0.280507261195447
2.53,0.298079791775317,-0.292129052797279
2.54,0.282888389567555,-0.302968221501531
2.55,0.26741777982422,-0.31302267136845
2.56,0.251706373734769,-0.32229214026517
2.57,0.23620615796809,-0.330783038700536
2.58,0.220672811621577,-0.33855013467678
2.59,0.204998986313722,-0.345603480159429
2.6,0.189214894423449,-0.351948046086944
2.61,0.173349874850349,-0.357589906276771
2.62,0.157432368123936,-0.362536160045959
2.63,0.141489896906629,-0.366794855896589
2.64,0.125549051804266,-0.370374916581726
2.65,0.109635482159331,-0.373286065831685
2.66,0.093773891525464,-0.37553875698721
2.67,0.0779880377070718,-0.37714410381137
2.68,0.0623007370246004,-0.378113813592644
2.69,0.0467338725142248,-0.378460122874547
2.7,0.0313084058199909,-0.378195735868371
2.71,0.0160443926366364,-0.377333765689085
2.72,0.000961001252276505,-0.375887678684272
2.73,-0.0139234659184142,-0.37387124178505
2.74,-0.0285915481110898,-0.371298473126339
2.75,-0.0430265995543069,-0.368183596023357
2.76,-0.0572127605934271,-0.364540996221989
2.77,-0.0711349268557123,-0.360385182742464
2.78,-0.0847787166879776,-0.355730752118528
2.79,-0.0981304370971107,-0.350592356348018
2.8,-0.111177048427699,-0.344984674315105
2.81,-0.123906128007988,-0.338922386949639
2.82,-0.136305832982609,-0.332420156084561
2.83,-0.148364862575946,-0.325492606938383
2.84,-0.160072420001902,-0.318154314415896
2.85,-0.17141817424928,-0.310419793096561
2.86,-0.182392221993186,-0.302303491036122
2.87,-0.192985049851825,-0.293819787262861
2.88,-0.203343584281793,-0.285051179755169
2.89,-0.213467708679493,-0.275985728541698
2.9,-0.223193417540099,-0.266560221768969
2.91,-0.232509664429412,-0.256788379323678
2.92,-0.241405612049055,-0.246684072477853
2.93,-0.249870612158622,-0.236261342544158
2.94,-0.257894187402546,-0.225534422675698
2.95,-0.265466015552387,-0.214517762667419
2.96,-0.272575916410885,-0.203226056711148
2.97,-0.279213841660103,-0.191674274022337
2.98,-0.285369868052128,-0.179877692215108
2.99,-0.291034194176681,-0.167851933272079
3,-0.296197141345193,-0.155613001967201
3.01,-0.30084915882495,-0.143177326490198
3.02,-0.304980833809158,-0.130561801063847
3.03,-0.308582906638588,-0.117783830230969
3.04,-0.311646291596969,-0.104861374477309
3.05,-0.314162103664677,-0.0918129967914207
3.06,-0.316121691692416,-0.0786579096881552
3.07,-0.317516678347454,-0.0654160221838375
3.08,-0.318339007258254,-0.05210798609643
3.09,-0.318580997647684,-0.0387552410245169
3.1,-0.318235406779035,-0.0253800572068752
3.11,-0.317295500601166,-0.012005575465004
3.12,-0.315755132527799,0.00134415675156736
3.13,-0.313608830859711,0.0146441541895795
3.14,-0.310851894475716,0.0278684686243564
3.15,-0.307480497097611,0.0409901708631755
3.16,-0.303491799644377,0.0539813411982763
3.17,-0.298884070430927,0.0668130696393661
3.18,-0.293656812765069,0.0794554672778843
3.19,-0.287775112939968,0.0918758917808041
3.2,-0.28117007935586,0.104029972023823
3.21,-0.273954040462421,0.115885110812716
3.22,-0.266133834835213,0.127407990662277
3.23,-0.257718242521347,0.138564647075559
3.24,-0.248718130633399,0.149320575737887
3.25,-0.239146596309249,0.159640859975702
3.26,-0.229019104556194,0.169490319255406
3.27,-0.218353618258476,0.17883367934874
3.28,-0.207170717393304,0.187635764326757
3.29,-0.195493704281302,0.195861710213624
3.3,-0.183348691571642,0.203477199765797
3.31,-0.170764669529414,0.210448717275334
3.32,-0.157773549190448,0.216743821664676
3.33,-0.144410177979438,0.222331435883442
3.34,-0.130712324552498,0.22718214968803
3.35,-0.116720629857724,0.231268532517415
3.36,-0.102478521782118,0.234565452401779
3.37,-0.0880320911981443,0.237050396555203
3.38,-0.0734299278561975,0.238703788422313
3.39,-0.058722915210696,0.239509295985278
3.4,-0.0439639841080446,0.239454125295889
3.41,-0.0292078261168884,0.238529293530526
3.42,-0.0145105682290492,0.236729875394212
3.43,7.05883627436215E-05,0.234055217000561
3.44,0.0144777616971363,0.230509111649185
3.45,0.0286528100957648,0.226099932326609
3.46,0.0425377751934103,0.22084071643955
3.47,0.0560753407245581,0.21474919897117
3.48,0.0692092999803593,0.207847791557326
3.49,0.081885024500131,0.20016350554468
3.5,0.0940499261807256,0.191727818829806
3.51,0.1054204644376,0.182791935643987
3.52,0.116202367134093,0.173204012427325
3.53,0.126353364421788,0.163006252467761
3.54,0.135834776496972,0.152244176458627
3.55,0.144611826618459,0.140966247780714
3.56,0.152653906734257,0.12922346383245
3.57,0.159934791745106,0.117068920441768
3.58,0.16643279935243,0.104557356864797
3.59,0.172130894233992,0.0917446891536556
3.6,0.177016735838193,0.0786875397406336
3.61,0.18108267079447,0.0654427709016161
3.62,0.184325672052228,0.0520670294098252
3.63,0.186747227509153,0.0386163091217679
3.64,0.188353182322532,0.0251455375690741
3.65,0.189153539462898,0.0117081917587709
3.66,0.189288106094142,-0.00159213787834775
3.67,0.18886968329244,-0.0146951590908199
3.68,0.187712549329374,-0.0276520051850762
3.69,0.185838121460874,-0.0404191689510224
3.7,0.183270486676693,-0.0529558024360464
3.71,0.180036078383382,-0.0652238652672506
3.72,0.176163351028081,-0.0771882333477548
3.73,0.171682457243969,-0.0888167696414515
3.74,0.166624931949068,-0.100080359250172
3.75,0.161023387065202,-0.110952911525831
3.76,0.154911220131489,-0.121411332019374
3.77,0.148322339291052,-0.131435467683098
3.78,0.141290906761245,-0.141008028421172
3.79,0.133851102242416,-0.150114488554807
3.8,0.126036907273302,-0.158742971204817
3.81,0.117881911039638,-0.166884119117285
3.82,0.109471692611183,-0.174897905149716
3.83,0.100757041159896,-0.182540967677333
3.84,0.0917449234713971,-0.189685562352777
3.85,0.0824657073428435,-0.19632698250775
3.86,0.0729489580478615,-0.202462286360663
3.87,0.063223364830493,-0.208090154907911
3.88,0.0533166833898279,-0.213210752444114
3.89,0.0432556930152587,-0.21782559099386
3.9,0.033066167152994,-0.221937399787707
3.91,0.0227728558285854,-0.225550000641673
3.92,0.0123994788051882,-0.228668189873669
3.93,0.00196872810253548,-0.231297627193693
3.94,-0.00849772143081026,-0.233444732047244
3.95,-0.0189791945763095,-0.235116587493344
3.96,-0.0294559923384232,-0.236320851601064
3.97,-0.0399093638579726,-0.237065676557617
3.98,-0.050321474312402,-0.237359635117797
3.99,-0.0606753699887817,-0.237211654358387
4,-0.0709549410254222,-0.236630956415811
4.01,-0.0811448827400075,-0.23562700591027
4.02,-0.091230655997298,-0.234209463737675
4.03,-0.101198447328348,-0.23238814685448
4.04,-0.111035129166441,-0.230172993676756
4.05,-0.120728220642898,-0.227574034717211
4.06,-0.130265849338664,-0.224601368056402
4.07,-0.139636714295271,-0.221265139269489
4.08,-0.148830050451291,-0.217575525410806
4.09,-0.15783559479763,-0.213542722709331
4.1,-0.166643554456725,-0.20917693753928
4.11,-0.175244576676736,-0.204488380446661
4.12,-0.183629720921804,-0.199487262751729
4.13,-0.191965398353213,-0.194023371358064
4.14,-0.200216554753373,-0.188079420942388
4.15,-0.208189211294884,-0.181819235013718
4.16,-0.215873354010002,-0.175255999856933
4.17,-0.223259471351548,-0.168403068581935
4.18,-0.23033854837424,-0.16127395561537
4.19,-0.237102062344507,-0.15388233136698
4.2,-0.243541979658629,-0.14624201699722
4.21,-0.249650754126564,-0.138366979166526
4.22,-0.255421326340627,-0.130271324409719
4.23,-0.260847124135303,-0.12196929336126
4.24,-0.265922063987407,-0.113475254368607
4.25,-0.270640553260479,-0.104803696691587
4.26,-0.274997493171551,-0.0959692230156978
4.27,-0.278988282370139,-0.0869865413064414
4.28,-0.282608821023401,-0.0778704559402632
4.29,-0.285855515280167,-0.0686358580655233
4.3,-0.288725282026873,-0.0592977151140354
4.31,-0.291215553806327,-0.049871059540292
4.32,-0.293324283801551,-0.0403709766714187
4.33,-0.295049950801673,-0.0308125917463283
4.34,-0.29639156399174,-0.0212110560874571
4.35,-0.297348667570348,-0.011581532452879
4.36,-0.297921345001046,-0.00193917958058293
4.37,-0.298110222872677,0.0077008640597039
4.38,-0.297916474263932,0.017323497268603
4.39,-0.297341821539657,0.0269136738216565
4.4,-0.296388538508586,0.0364564208924479
4.41,-0.295059451884343,0.0459368580231194
4.42,-0.293357941913714,0.0553402167921557
4.43,-0.291287942228215,0.0646518608836332
4.44,-0.28876966839707,0.073873237529631
4.45,-0.28563670465163,0.0829986568682748
4.46,-0.282147877343203,0.0919521419567849
4.47,-0.278312216768076,0.100719787211845
4.48,-0.274139280015286,0.109288120281459
4.49,-0.269639132754374,0.117644122623298
4.5,-0.264822329961963,0.125775249426289
4.51,-0.259699895817562,0.133669448797892
4.52,-0.254283302530394,0.141315180170483
4.53,-0.248584448330504,0.148701431849573
4.54,-0.242615634588607,0.155817737650173
4.55,-0.236389542090445,0.162654192595478
4.56,-0.229919206572489,0.169201467527202
4.57,-0.22321799350694,0.175450822755082
4.58,-0.216299572214941,0.181394120441375
4.59,-0.209177889397832,0.187023836018456
4.6,-0.201867142067133,0.192333068207031
4.61,-0.194381750014683,0.197315547919865
4.62,-0.186736327885074,0.201965645916388
4.63,-0.178945656785144,0.20627837903401
4.64,-0.171024655754836,0.210249415252474
4.65,-0.162988352870231,0.213875077318112
4.66,-0.154851856292974,0.217152345065385
4.67,-0.146630325204691,0.220078856343648
4.68,-0.138338940741258,0.222652906587641
4.69,-0.129992877006853,0.22487344704073
4.7,-0.12160727221947,0.22674008157054
4.71,-0.113197200077116,0.228253062177095
4.72,-0.104777641413176,0.229413283054192
4.73,-0.0963634562104046,0.230222273445224
4.74,-0.0879693560502395,0.230682189105204
4.75,-0.0796098770543675,0.230795802491232
4.76,-0.0714321620859999,0.230293911774132
4.77,-0.0633461794189092,0.229470569834435
4.78,-0.0553641692500721,0.228332454156319
4.79,-0.0474979591025176,0.226886681813523
4.8,-0.0397589491376724,0.225140785831603
4.81,-0.0321580987811902,0.22310269105127
4.82,-0.0247059146428958,0.220780689607818
4.83,-0.0174124398550895,0.218183416071953
4.84,-0.0102872447120607,0.215319822337532
4.85,-0.00333941871323898,0.212199152430938
4.86,0.00342243608804373,0.208830917107962
4.87,0.0099902103586474,0.20522486852515
4.88,0.0163562913915231,0.201390974938676
4.89,0.0225135657228331,0.197339395547795
4.9,0.0284554204701999,0.193080455540921
4.91,0.0341757432924677,0.188624621431308
4.92,0.0396689212318466,0.183982476732998
4.93,0.0449298382197923,0.179164698067149
4.94,0.0499538714384369,0.174182031739036
4.95,0.0547368865998527,0.169045270870008
4.96,0.059275231995871,0.163765233134347
4.97,0.0635657316316087,0.158352739157873
4.98,0.0676056772862513,0.152818591636146
4.99,0.0713928195850403,0.147173555224295
5,0.0749253583167387,0.141428337234831
5.01,0.0782019317511883,0.13559356919633
5.02,0.0812216053018516,0.129679789338265
5.03,0.0839838594684675,0.123697425938761
5.04,0.0864885770451724,0.117656781723367
5.05,0.0887360299095688,0.111568019194322
5.06,0.0907268651783632,0.105441147017097
5.07,0.0923996363972195,0.0994803299162897
5.08,0.0938238704594974,0.0935703297991958
5.09,0.095025946897469,0.0876542099646477
5.1,0.0960077932104899,0.0817387525438932
5.11,0.0967714621974063,0.0758305609295241
5.12,0.0973191197942248,0.0699360638476232
5.13,0.0976530336007274,0.0640615201174992
5.14,0.0977755621353153,0.0582130241625504
5.15,0.0976891448734635,0.0523965121449652
5.16,0.097396293105501,0.0466177686761703
5.17,0.0968995816459722,0.0408824340841157
5.18,0.0962016414340844,0.0351960121077109
5.19,0.0953051530477097,0.0295638779579672
5.2,0.0942128411558822,0.0239912867446599
5.21,0.0929274699292979,0.0184833820766578
5.22,0.0914518394210087,0.0130452048934084
5.23,0.0897887829212813,0.00768170231449903
5.24,0.0879411653039737,0.00239773653369434
5.25,0.0859118823413668,-0.00280190631659317
5.26,0.0837038610028808,-0.0079125075087818
5.27,0.0813200607054951,-0.0129294072621941
5.28,0.0787634755119935,-0.0178479965565117
5.29,0.0760371372483696,-0.0226637093534127
5.3,0.0731441195048493,-0.0273720152530854
5.31,0.0700875424970421,-0.0319684126740516
5.32,0.0668705787617,-0.0364484226313026
5.33,0.0634964595694857,-0.0408075831801668
5.34,0.0599684821080009,-0.0450414445835279
5.35,0.0562900173301557,-0.0491455652870361
5.36,0.0524645183607308,-0.0531155087397594
5.37,0.0484955294717937,-0.0569468411381612
5.38,0.0444519265253758,-0.0607078965949647
5.39,0.0403225539796588,-0.0644035151303923
5.4,0.0360404237027554,-0.0679580452489116
5.41,0.0316088741561032,-0.0713651706163379
5.42,0.0270315317005161,-0.0746185503682066
5.43,0.0223123221650838,-0.0777118335336876
5.44,0.0174554816194314,-0.0806386746145895
5.45,0.0124655663503312,-0.0833927503180838
5.46,0.0073474619304024,-0.0859677773791625
5.47,0.00210639126761626,-0.0883575314469414
5.48,-0.00325207843739328,-0.0905558669792497
5.49,-0.00872202992757083,-0.0925567380832004
5.5,-0.0142971914045802,-0.0943542202464411
5.51,-0.0199709334077629,-0.0959425328735796
5.52,-0.0257362671469204,-0.0973160625558614
5.53,-0.0315858443595228,-0.0984693869856055
5.54,-0.0375119587739987,-0.0993972994182082
5.55,-0.0435065492482185,-0.100094833573756
5.56,-0.0495612046371367,-0.100557288878487
5.57,-0.0556671704687577,-0.100780255922578
5.58,-0.0618153574551218,-0.10075964200309
5.59,-0.0679963518918342,-0.100491696638371
5.6,-0.0742004279877847,-0.0999730369000245
5.61,-0.0804175621221315,-0.0992006724285779
5.62,-0.0866374490813086,-0.0981720299865274
5.63,-0.0928495202338191,-0.0968849773884088
5.64,-0.099042963675921,-0.0953378466631498
5.65,-0.105206746295482,-0.0935294562882528
5.66,-0.111329637733276,-0.0914591323274247
5.67,-0.117400236196974,-0.0891267283232234
5.68,-0.123406996055746,-0.0865326437782093
