"Freq [GHz]","re(S(Antenna1_1_1,Antenna1_1_1)) []","im(S(Antenna1_1_1,Antenna1_1_1)) []"
3,-0.201332956640988,-0.173216857227534
3.014,-0.209227670610647,-0.160664921289158
3.028,-0.216209426134188,-0.147621051158964
3.042,-0.222242190432436,-0.134151824548939
3.056,-0.22729001637907,-0.120329003120981
3.07,-0.231320165240812,-0.106233102266746
3.084,-0.234308367150108,-0.0919544985803507
3.098,-0.236244480009023,-0.077591151528934
3.112,-0.237136540880944,-0.0632431212515406
3.126,-0.237011580592439,-0.0490051520694518
3.14,-0.235912485438647,-0.0349593165104188
3.154,-0.233891364077555,-0.0211698431499428
3.168,-0.231000954302906,-0.00768173258437386
3.182,-0.227286252719173,0.0054762520750198
3.196,-0.222778569717614,0.0182848489274529
3.21,-0.217493593031421,0.0307254946964012
3.224,-0.211436055102171,0.042773289739161
3.238,-0.204600580720831,0.0543906062567824
3.252,-0.196979811407074,0.0655165281476694
3.266,-0.188582443392804,0.0760771112580589
3.28,-0.179434724896805,0.0859903412980399
3.294,-0.16958265904353,0.0951739829582662
3.308,-0.159090461361609,0.103553073412812
3.322,-0.148036171188554,0.111065417088419
3.336,-0.136505931447428,0.117664211347911
3.35,-0.124588549794629,0.123317863095418
3.364,-0.112371553637392,0.128007843556804
3.378,-0.0999392260584115,0.131725837235192
3.392,-0.087372326566591,0.134471373239207
3.406,-0.0747486297037975,0.136250647495654
3.42,-0.0621432397646683,0.137076552132502
3.434,-0.049627901397704,0.13696928663426
3.448,-0.0372860527142896,0.135959531336072
3.462,-0.0251611324354594,0.134092900051471
3.476,-0.0132881176531957,0.131405223381453
3.49,-0.00169818006098298,0.127926703993156
3.504,0.00958338876853844,0.123678825007151
3.518,0.0205316039529556,0.118672143822105
3.532,0.0311151920872852,0.112907030564727
3.546,0.0412906084389764,0.106377754651707
3.56,0.0509983765911998,0.099079393636211
3.574,0.0601630192935923,0.0910161780421648
3.588,0.0686970002515823,0.0822093661808505
3.602,0.0765080799557261,0.0727027351431878
3.616,0.0835085997350648,0.0625642941503388
3.63,0.0896247050615814,0.051883730288896
3.644,0.0948035430033702,0.0407661265910001
3.658,0.0990170028433738,0.0293233579273184
3.672,0.102261447480378,0.0176650372398502
3.686,0.1045538469016,0.0058908449417708
3.7,0.105925503268681,-0.00591442730463375
3.714,0.106414951076283,-0.017682574027154
3.728,0.106061554574858,-0.0293606953116146
3.742,0.10490087862975,-0.0409078456791817
3.756,0.102962257881614,-0.0522907952525726
3.77,0.100268355691043,-0.0634799809855631
3.784,0.0968360804938884,-0.0744463355688251
3.798,0.0926781127141628,-0.0851591830405818
3.812,0.0878044727364509,-0.0955849750696802
3.826,0.0822239105582744,-0.105686449946609
3.84,0.075945250051882,-0.115421869254261
3.854,0.0689790187990174,-0.124744260204739
3.868,0.061339653453938,-0.133600923116651
3.882,0.0530331624372101,-0.141941482691184
3.896,0.0440852807749742,-0.149687673874587
3.91,0.0345620661121696,-0.156761718522381
3.924,0.0245319811344686,-0.163106553933021
3.938,0.0140748878093362,-0.168678417937468
3.952,0.0032772640796502,-0.173450335239736
3.966,-0.00777374333481253,-0.177413339912772
3.98,-0.0189962251626598,-0.180575098232468
3.994,-0.030318149493859,-0.182956268613928
4.008,-0.0416798620598186,-0.184585517670509
4.022,-0.0530341858738417,-0.185494408101173
4.036,-0.0643445274401873,-0.185713287363786
4.05,-0.075581895919951,-0.185268871247466
4.064,-0.0867219059623315,-0.184183590825616
4.078,-0.0977426172420573,-0.182476179360036
4.092,-0.108623553705019,-0.180162629783411
4.106,-0.11934563923341,-0.177256677214909
4.12,-0.129891317736551,-0.173769343639412
4.134,-0.14024398245381,-0.169707678642544
4.148,-0.150386093985564,-0.165073410609417
4.162,-0.160295945657633,-0.159862551500579
4.176,-0.169943738658443,-0.15406691913556
4.19,-0.17928819746755,-0.147678037390568
4.204,-0.188275156145622,-0.14069308368644
4.218,-0.196839257234109,-0.133121725885141
4.232,-0.204909166530582,-0.124992113055288
4.246,-0.212415714548586,-0.116354181632347
4.26,-0.219301424828131,-0.107278895716806
4.274,-0.225529284347953,-0.0978529674948253
4.288,-0.231088565883093,-0.0881697558321931
4.302,-0.235996077691389,-0.0783180893497852
4.316,-0.240292321299492,-0.0683809887603847
4.33,-0.244050238571673,-0.0584245362660981
4.344,-0.247335703971148,-0.0484298928791334
4.358,-0.250190330802928,-0.0383828051355935
4.372,-0.252634499802419,-0.0282559805196381
4.386,-0.254665230840868,-0.0180197247197124
4.4,-0.256258734908479,-0.00765178033842639
4.414,-0.257376463925042,0.00285548648106465
4.428,-0.257972872462163,0.0134914983776784
4.442,-0.258003066466854,0.0242274178249363
4.456,-0.257428971738955,0.0350187771566796
4.47,-0.256223393173316,0.0458095450327164
4.484,-0.254372072745603,0.0565364710563862
4.498,-0.251874341467319,0.0671329889353671
4.512,-0.248743065606469,0.0775325274285067
4.526,-0.245004332279093,0.0876715282151424
4.54,-0.240696863240569,0.0974926183425978
4.554,-0.235870719670085,0.106948180888753
4.568,-0.230584679237179,0.116004106803171
4.582,-0.224901845311456,0.124642998876472
4.596,-0.21888355818609,0.132865772864087
4.61,-0.212582353407117,0.140690641039961
4.624,-0.20603530553937,0.148148922283289
4.638,-0.199259365900263,0.155277898877872
4.652,-0.192250102642466,0.16211180624352
4.666,-0.18498458513022,0.168672717585725
4.68,-0.177428184423543,0.174963331740979
4.694,-0.169544062120746,0.180963374265508
4.708,-0.161303390662219,0.186630532100243
4.722,-0.152694117756165,0.191905770990589
4.736,-0.143726436724788,0.196721836290096
4.75,-0.134433957793658,0.201013014287116
4.764,-0.124856104198716,0.204686144318429
4.778,-0.115102502189672,0.207737032318888
4.792,-0.105245860104516,0.210160098455082
4.806,-0.0953527840516082,0.211966018909252
4.82,-0.0854800842004982,0.213177101184966
4.834,-0.0756734779293768,0.213822526628854
4.848,-0.0659680512557028,0.213934443003835
4.862,-0.0563895587004507,0.213545300291898
4.876,-0.0469557422445786,0.212686237836009
4.89,-0.0376772433307065,0.211385956390205
4.904,-0.0285581848534791,0.209669459465911
4.918,-0.0195969035270004,0.207556314647564
4.932,-0.0107874551977954,0.205058542282373
4.946,-0.00212233696420279,0.20217869412445
4.96,0.00640356892080271,0.198908948346292
4.974,0.0147883656389005,0.195231998819972
4.988,0.0230188074663117,0.191124145362577
5.002,0.0310674164102323,0.186560401825417
5.016,0.0388920261339265,0.181520814345162
5.03,0.0464382246712834,0.175996725550389
5.044,0.0536444739901036,0.169995587121228
5.058,0.060449002275253,0.163543169878832
5.072,0.066797093623915,0.156682588333666
5.086,0.0726472768410983,0.149470289165638
5.1,0.0779751734070772,0.141969846757276
5.114,0.0827743260184303,0.134244875633665
5.128,0.0870540306380954,0.126352493329739
5.142,0.090834842171996,0.118338535269231
5.156,0.0941428502279582,0.110235224901095
5.17,0.0970039364788413,0.102061395264722
5.184,0.0994390359890789,0.0938248159145526
5.198,0.101461025427548,0.0855258372196787
5.212,0.103073395029823,0.0771614819597493
5.226,0.104270471665861,0.068729264793344
5.24,0.105038744342574,0.0602303083493401
5.254,0.105358825124363,0.0516716265009413
5.268,0.105207709686957,0.0430676539496819
5.282,0.104561187690291,0.0344411626717837
5.296,0.103396392346039,0.0258236333920577
5.31,0.101694502566586,0.0172550133107625
5.324,0.0994435096878478,0.00878268356469847
5.338,0.0966407838379481,0.000459460108163321
5.352,0.0932950112584636,-0.00765940895336312
5.366,0.0894270147130631,-0.0155200383349197
5.38,0.085069071357857,-0.0230740063867549
5.394,0.0802626037129945,-0.0302820766468783
5.408,0.0750544752671866,-0.0371168193689795
5.422,0.0694924668408301,-0.0435635751414395
5.436,0.0636207321567926,-0.0496195328662609
5.45,0.0574760546458975,-0.05529110163332
5.464,0.0510855386933643,-0.0605901207511513
5.478,0.0444660230239538,-0.0655296660523126
5.492,0.0376251088968011,-0.0701202142422269
5.506,0.0305633731898891,-0.0743667312514417
5.52,0.0232771806070708,-0.0782669325395988
5.534,0.0157615534147189,-0.0818106394726023
5.548,0.00801276180264974,-0.0849799398120596
5.562,3.05652012532052E-05,-0.0877498209574369
5.576,-0.0081797553970931,-0.0900890798530156
5.59,-0.0166053783943886,-0.0919615495154988
5.604,-0.0252238727068767,-0.0933278992142083
5.618,-0.0340012912971914,-0.0941483425134947
5.632,-0.0428968299747862,-0.0943748342053239
5.646,-0.0518383384465123,-0.0939739957234794
5.66,-0.0607434329532872,-0.092948716682815
5.674,-0.069537940750584,-0.0913124586379354
5.688,-0.0781541105965282,-0.0890980166970645
5.702,-0.0865379051877453,-0.0863543323998323
5.716,-0.0946546203488107,-0.0831402090011417
5.73,-0.102491449816893,-0.0795158788328665
5.744,-0.110056186518353,-0.0755339901211643
5.758,-0.117372085712474,-0.0712318462986542
5.772,-0.124469798168551,-0.0666265475843939
5.786,-0.131377975020114,-0.0617140814696278
5.8,-0.138114459554445,-0.0564725354898537
5.814,-0.144679828695157,-0.0508686904421912
5.828,-0.151054472339759,-0.0448665349500311
5.842,-0.157199562790237,-0.0384359045340395
5.856,-0.163063663946835,-0.0315539640512902
5.87,-0.168578558948867,-0.0242251175621958
5.884,-0.173680955023714,-0.0164706223310776
5.898,-0.1783141939151,-0.00832722225043559
5.912,-0.182432049525544,0.000155979621223074
5.926,-0.186001112456417,0.00892207532573629
5.94,-0.189001380993545,0.0179107878360231
5.954,-0.191425567802306,0.0270622537865471
5.968,-0.193277677352037,0.0363200020853307
5.982,-0.194571245657738,0.045633263801999
5.996,-0.195327369087487,0.0549588478494903
6.01,-0.195572417106486,0.0642627188220361
6.024,-0.195335235968533,0.0735211870080481
6.038,-0.194643754208148,0.0827213856405185
6.052,-0.193521163822463,0.0918605913941844
6.066,-0.191985187350954,0.100943605914544
6.08,-0.190044846048003,0.109984299735465
6.094,-0.187678112528986,0.11899471113381
6.108,-0.184860014029737,0.127974021337173
6.122,-0.181558681707642,0.136908525304459
6.136,-0.177741083249437,0.14576926385733
6.15,-0.173379364571603,0.154512229213284
6.164,-0.168456605307215,0.163081206987667
6.178,-0.162970878503184,0.171412747680185
6.192,-0.1569368626228,0.179442297926064
6.206,-0.150384793474872,0.18711029136178
6.22,-0.143357122505544,0.194367061036164
6.234,-0.135903713165696,0.201175767242997
6.248,-0.128076640994457,0.207513038349482
6.262,-0.119925617037168,0.213367554355833
6.276,-0.111494761336333,0.218737218715304
6.29,-0.102821015689193,0.223625760150875
6.304,-0.0939340403532406,0.228039550496059
6.318,-0.0848571176879992,0.231985162066184
6.332,-0.0756084691352377,0.235467823586009
6.346,-0.0662024918579024,0.238490595970234
6.36,-0.0566506782392417,0.241053888780202
6.374,-0.0469622872171723,0.243154932278331
6.388,-0.0371450720696919,0.244786996089786
6.402,-0.0272064446725461,0.245938427514873
6.416,-0.0171553399817501,0.246591857975905
6.43,-0.00700477356436131,0.246724084384521
6.444,0.00322524775814114,0.246307102141362
6.458,0.0135050789823148,0.245310540174696
6.472,0.0237937877886087,0.243705384765454
6.486,0.0340391392274879,0.241468485093544
6.5,0.0441795480290205,0.23858703126157
6.514,0.0541443805520087,0.23504131349582
6.528,0.0638558576750731,0.230873480569871
6.542,0.0732552951281233,0.226122215345278
6.556,0.0822971849266426,0.220836509277971
6.57,0.0909515557878657,0.215070060235572
6.584,0.099203890972317,0.208875313824799
6.598,0.107052753065338,0.202298195595837
6.612,0.114505691250055,0.195374363567365
6.626,0.121574261220329,0.188127439417557
6.64,0.128269031851103,0.180569263072202
6.654,0.13459530996201,0.172701866861957
6.668,0.140550057332547,0.164520654297277
6.682,0.146120194645768,0.156018214217704
6.696,0.151282264661864,0.147188271377793
6.71,0.156003303581799,0.138029404169885
6.724,0.160242740337786,0.128548279300983
6.738,0.163955165301681,0.118762214846842
6.752,0.16709382362861,0.108700879895866
6.766,0.169614646681049,0.0984069036959571
6.78,0.171480523861229,0.0879351567777411
6.794,0.172665364881355,0.0773505363515095
6.808,0.173157370732197,0.066724266122088
6.822,0.172960892961246,0.0561289901557913
6.836,0.172096370152572,0.0456332407643891
6.85,0.170598100185088,0.0352961029492786
6.864,0.168509996059947,0.0251629950099737
6.878,0.165879894581355,0.0152633803440146
6.892,0.16275333105508,0.00561091734598804
6.906,0.159167860013993,-0.00379389910422396
6.92,0.155148934672181,-0.0129590447248227
6.934,0.150708061544524,-0.0218950727776255
6.948,0.145857488991694,-0.0306233704053872
6.962,0.14056233010678,-0.0391416238964496
6.976,0.13479537496584,-0.0474248566467785
6.99,0.128539448974607,-0.0554374334742476
7.004,0.121786081244081,-0.063132909081713
7.018,0.114538589077343,-0.0704580497790431
7.032,0.106813359531308,-0.077357281995234
7.046,0.0986395514581708,-0.0837768702940442
7.06,0.0900576473247828,-0.0896683951084299
7.074,0.0811173093109729,-0.0949913847288978
7.088,0.0718748780271294,-0.0997151593689465
7.102,0.0623906782170928,-0.103820013836072
7.116,0.0527261579053728,-0.107297805474346
7.13,0.0429408541092249,-0.110151884602349
7.144,0.033089267407157,-0.112396192252074
7.158,0.0232179006902422,-0.114053334005385
7.172,0.0133628940553201,-0.115151559497023
7.186,0.00354877661212865,-0.115720818566068
7.2,-0.00621121045894792,-0.11578835752369
7.214,-0.0159130029152173,-0.115374562224829
7.228,-0.0255579613242557,-0.114489852184887
7.242,-0.0351480185717336,-0.113133324088076
7.256,-0.0446805762396881,-0.111293537334262
7.27,-0.0541441228990099,-0.108951396548941
7.284,-0.0635154374904617,-0.106084629528393
7.298,-0.0727589162677851,-0.102673008447192
7.312,-0.0818281050329632,-0.098703314369646
7.326,-0.0906690517881268,-0.0941731392625939
7.34,-0.0992247426260602,-0.0890929246321053
7.354,-0.107439733855282,-0.0834860603473689
7.368,-0.115264171811057,-0.0773872889116617
7.382,-0.122647306358186,-0.0708374755779036
7.396,-0.129557226858432,-0.0638947366294674
7.41,-0.135986800893208,-0.0566148629818417
7.424,-0.141929569228713,-0.0490456336902381
7.438,-0.14738632468141,-0.0412307039952384
7.452,-0.152363499137901,-0.0332085139730455
7.466,-0.156871547674446,-0.0250114865164247
7.48,-0.16092320480653,-0.0166654396459189
7.494,-0.164531484851564,-0.00818931633684306
7.508,-0.167707424250508,0.000404530424751753
7.522,-0.170457764231055,0.00910924066889694
7.536,-0.172782961063471,0.0179214044573987
7.55,-0.174676002243392,0.0268381731372653
7.564,-0.176122446306344,0.0358538957440214
7.578,-0.177101890445718,0.0449568637952697
7.592,-0.177590757135093,0.0541268211591213
7.606,-0.177565969600057,0.0633337924272734
7.62,-0.177008854557323,0.0725385222597684
7.634,-0.175908541796464,0.0816944700197337
7.648,-0.174264246507199,0.0907509679205053
7.662,-0.17208608674316,0.0996569223596463
7.676,-0.169394424292169,0.108364377764119
7.69,-0.166218022997555,0.116831376747282
7.704,-0.162591509008259,0.125023791504143
7.718,-0.158552649211915,0.132916083780953
7.732,-0.154139848774785,0.140491181891266
7.746,-0.149390066583694,0.147739775188506
7.76,-0.14433714465192,0.154659298683267
7.774,-0.139010424605236,0.161252745909126
7.788,-0.133433526380402,0.167527279639784
7.802,-0.127623284460251,0.173492493090945
7.816,-0.121590251883652,0.179161862714365
7.83,-0.115332245925564,0.184551461723563
7.844,-0.10883623334477,0.189648793977058
7.858,-0.102094232199776,0.194441545078298
7.872,-0.0951002193775806,0.198907693034744
7.886,-0.0878543248450131,0.203016348706078
7.9,-0.0803665900712017,0.206730393733255
7.914,-0.0726594716368207,0.210010651233057
7.928,-0.0647684533485349,0.21282093823149
7.942,-0.0567404920205033,0.215133091977091
7.956,-0.0486304744910505,0.216931012412805
7.97,-0.0404962892658179,0.218212939980666
7.984,-0.0323934051438989,0.21899154772814
7.998,-0.024369930231404,0.219291875567504
8.012,-0.0164629857464761,0.219147557430736
8.026,-0.0086969178799419,0.21859608682476
8.04,-0.00108347845401311,0.217673972569258
8.054,0.00637626456642404,0.216412550284751
8.068,0.0136887864630061,0.214834985177833
8.082,0.0208643426853536,0.21295470943408
8.096,0.0279131523737282,0.210775268973414
8.11,0.0348419611130013,0.20829137201975
8.124,0.0416512501600384,0.205490857864238
8.138,0.0483332275213265,0.202357317757676
8.152,0.0548706717056829,0.198873151428327
8.166,0.0612366968036188,0.195022876784304
8.18,0.0673955294829773,0.190796489814307
8.194,0.073304381359624,0.186192594044594
8.208,0.0789164203613731,0.18122091843243
8.222,0.0841846792943495,0.175903777660634
8.236,0.0890665167361865,0.170276058669666
8.25,0.0935280277046471,0.164383476664494
8.264,0.0975313775689113,0.158284277408572
8.278,0.101091476742461,0.152039588528288
8.292,0.10422082352226,0.145698205809157
8.306,0.106941945278099,0.139298968816481
8.32,0.109282670547236,0.132868161847164
8.334,0.111270828037805,0.126419038692008
8.348,0.112929317224491,0.119953486494441
8.362,0.114272388921016,0.113465427786424
8.376,0.115303690033975,0.106945248993712
8.39,0.116016242225356,0.100384408701366
8.404,0.11639414002082,0.093779439865527
8.418,0.116415463732792,0.0871347832310342
8.432,0.11605576665148,0.0804641997895998
8.446,0.115291525806906,0.0737908172001105
8.46,0.114103104552688,0.0671460897604063
8.474,0.112476993970358,0.0605680497405353
8.488,0.110407301526585,0.0540992008882333
8.502,0.107896580291255,0.0477842941928088
8.516,0.104956117089425,0.0416680954125928
8.53,0.101605740741845,0.0357931653105632
8.544,0.0978731208920012,0.0301976645523763
8.558,0.0937924638220042,0.0249132662776592
8.572,0.0894025218864433,0.0199633747262128
8.586,0.0847439345872482,0.0153619500131499
8.6,0.0798560904926797,0.0111132689328369
8.614,0.0747738869187891,0.00721287324090287
8.628,0.0695249013264688,0.00364977071989009
8.642,0.0641275168650164,0.000409700015268129
8.656,0.0585904365256389,-0.00252098492637596
8.67,0.0529137892365858,-0.00515143681362933
8.684,0.0470917289080563,-0.00748312066915829
8.698,0.0411098442802537,-0.00951967205003222
8.712,0.034957759920099,-0.0112285596184563
8.726,0.0286402711299561,-0.0125744492165307
8.74,0.0221719299043789,-0.0135228717416487
8.754,0.0155784336024422,-0.0140397646795297
8.768,0.00889590426315023,-0.0140952838792792
8.782,0.00216895627870479,-0.0136669820482962
8.796,-0.00455207042073683,-0.012742038944855
8.81,-0.0112143003525039,-0.0113184133558641
8.824,-0.0177655666011929,-0.00940493728748685
8.838,-0.0241574205441437,-0.0070204646816699
8.852,-0.030347697553595,-0.00419222323241079
8.866,-0.0363024799378445,-0.000953522320397806
8.88,-0.0419973170502272,0.00265902531745222
8.894,-0.0474175664416492,0.00660858074403756
8.908,-0.0525577392928418,0.010861205908442
8.922,-0.0574197966372733,0.0153887149648216
8.936,-0.0620104629954396,0.0201708658502035
8.95,-0.0663377897458515,0.025196507289501
8.964,-0.0704073768424722,0.0304633813465649
8.978,-0.07421879883195,0.0359764573235733
8.992,-0.0777628310430334,0.0417449150152002
9.006,-0.081020003362723,0.0477781547238503
9.02,-0.0839608207166191,0.0540814262771842
9.034,-0.0865477125343286,0.0606517829805766
9.048,-0.0887384653605904,0.067475044476625
9.062,-0.0904906216161124,0.0745242932340668
9.076,-0.0917661540517178,0.0817601654116822
9.09,-0.092535686449298,0.0891328861277877
9.104,-0.0927816301546646,0.0965857092848005
9.118,-0.0924998138623919,0.104059211957588
9.132,-0.0916948700113893,0.111488204892511
9.146,-0.0903963546413853,0.11881784269974
9.16,-0.0886424793575969,0.126017217413805
9.174,-0.0864670217076925,0.133060887357315
9.188,-0.0839025048503442,0.139933948877541
9.202,-0.0809769917179775,0.146630344166268
9.216,-0.0777117064855956,0.15315029902483
9.23,-0.0741196686495763,0.159497207428427
9.244,-0.0702054329155172,0.165674296709295
9.258,-0.0659659443715601,0.171681413493096
9.272,-0.0613924320121362,0.177512269888578
9.286,-0.0564731656176215,0.18315247344322
9.3,-0.0511967925281129,0.188578617100492
9.314,-0.0455558668974026,0.193758612034453
9.328,-0.0395501105714419,0.198653302544901
9.342,-0.0331889307458889,0.203219220750576
9.356,-0.0264927860441115,0.207412149363503
9.37,-0.0194931430445678,0.211191004104099
