"Freq [GHz]","re(S(Antenna1_1_1,Antenna1_1_1)) []","im(S(Antenna1_1_1,Antenna1_1_1)) []"
3,-0.201941062278788,-0.176044662824434
3.014,-0.210800182813747,-0.162992374644158
3.028,-0.218461881606388,-0.149149217002664
3.042,-0.224812094832436,-0.134721129082839
3.056,-0.22979928507727,-0.119931353042011
3.07,-0.233433773019212,-0.104997950636446
3.084,-0.235779147136208,-0.0901142662743507
3.098,-0.236937919749023,-0.075434863466334
3.112,-0.237034237104304,-0.0610682391252406
3.126,-0.236196485696139,-0.0470763476906518
3.14,-0.234542157438347,-0.0334799148402188
3.154,-0.232166539968555,-0.0202678639655428
3.168,-0.229135921625906,-0.00740896607535386
3.182,-0.225485248854773,0.0051360160263198
3.196,-0.221219669345314,0.0174030342238529
3.21,-0.216319157927221,0.0294152158394012
3.224,-0.210753616006061,0.041175350736461
3.238,-0.204478884621491,0.0526712098127824
3.252,-0.197426408247774,0.0638575792341694
3.266,-0.189550039584104,0.0746560854978589
3.28,-0.180822399231805,0.0849642814495899
3.294,-0.17124229890113,0.0946626269670662
3.308,-0.160839515845909,0.103623477953612
3.322,-0.149676376554654,0.111721098458419
3.336,-0.137845999543228,0.118841541085311
3.35,-0.125467502409419,0.124891256987718
3.364,-0.112678891687402,0.129803519621404
3.378,-0.0996286201783115,0.133542132518992
3.392,-0.086466849330791,0.136102342052407
3.406,-0.0733372935275975,0.137509270013274
3.42,-0.0603702175722683,0.137814415277202
3.434,-0.047676823986004,0.13709080296536
3.448,-0.0354062030692896,0.135410576954272
3.462,-0.0235852671479594,0.132931235130271
3.476,-0.0122035365455457,0.129765194668553
3.49,-0.00124142520468298,0.125995843706356
3.504,0.00934045734963844,0.121681828965251
3.518,0.0195922377868556,0.116851339651805
3.532,0.0295635729701852,0.111499098251097
3.546,0.0392910192672764,0.105587115890907
3.56,0.0487853028178998,0.099050085880211
3.574,0.0580203569351923,0.0918057390077648
3.588,0.0669262492462823,0.0837696232572505
3.602,0.0753879310658261,0.0748727694021878
3.616,0.0832510500759648,0.0650798087899388
3.63,0.0903349567802814,0.054404574490196
3.644,0.0964517126659702,0.0429202303885701
3.658,0.101428656904974,0.0307615994886184
3.672,0.105131195610678,0.0181185205382502
3.686,0.1074821594888,0.0052205384382708
3.7,0.108474422871226,-0.00768526201543375
3.714,0.108174435217683,-0.020360235083554
3.728,0.106715703399058,-0.0326001917841146
3.742,0.10428281974205,-0.0442575798552817
3.756,0.101088082117514,-0.0552564694383926
3.77,0.097343867283443,-0.0655980134551631
3.784,0.0932345488242883,-0.0753553941085251
3.798,0.0888918423499628,-0.0846587138271818
3.812,0.0843770411575509,-0.0936716456525802
3.826,0.0796727589591344,-0.102562771215509
3.84,0.074685633969982,-0.111475297529861
3.854,0.0692600917075174,-0.120499188112539
3.868,0.063201838742938,-0.129649627719151
3.882,0.0562495007584101,-0.138942473324484
3.896,0.0481450204820742,-0.148142717663487
3.91,0.0388540725520696,-0.156865485457381
3.924,0.0284208761685686,-0.164810671721521
3.938,0.0169933732064362,-0.171700646798868
3.952,0.0048086563799602,-0.177317484033036
3.966,-0.00783476087651254,-0.181532250039572
3.98,-0.0206139477039598,-0.184321775258568
3.994,-0.033222357118559,-0.185770129869528
4.008,-0.0454081921348186,-0.186054393845009
4.022,-0.0570043733455417,-0.185416838518073
4.036,-0.0679454459847873,-0.184127873229086
4.05,-0.078268892165451,-0.182445629300866
4.064,-0.0881008867984315,-0.180578559313816
4.078,-0.0976290764901773,-0.178656827211136
4.092,-0.107067000358819,-0.176716682197511
4.106,-0.11661595204381,-0.174699767185709
4.12,-0.126430229906551,-0.172466847850212
4.134,-0.13659087582011,-0.169823214426034
4.148,-0.147091387675664,-0.166551377842817
4.162,-0.157836853868633,-0.162445876506679
4.176,-0.168655882102143,-0.15734507435736
4.19,-0.17932291530695,-0.151155648775468
4.204,-0.189587275409322,-0.14386681312124
4.218,-0.199204654728909,-0.135552923725141
4.232,-0.207966773095582,-0.126364731475488
4.246,-0.215725443076286,-0.116510955221347
4.26,-0.222408202355131,-0.106232948134606
4.274,-0.228023840704953,-0.0957759291333253
4.288,-0.232657437900593,-0.0853605313302931
4.302,-0.236455817369889,-0.0751582750657852
4.316,-0.239611288002792,-0.0653098349183847
4.33,-0.242392575239773,-0.0558934548280981
4.344,-0.244980196951048,-0.0467129802683334
4.358,-0.247478761340928,-0.0376350430303935
4.372,-0.249927125834419,-0.0285043662565781
4.386,-0.252297521724468,-0.0191691129876124
4.4,-0.254503629095979,-0.00950394143882639
4.414,-0.256415838081642,0.000572185808764647
4.428,-0.257881028678553,0.0110854122264784
4.442,-0.258743787039354,0.0220043662999363
4.456,-0.258866097920055,0.0332450259781796
4.47,-0.258143141719516,0.0446815755845164
4.484,-0.256513714727603,0.0561611397788862
4.498,-0.253964766816919,0.0675201068743671
4.512,-0.250530404606569,0.0785999831139067
4.526,-0.246286294958293,0.0892612141887424
4.54,-0.241340673590869,0.0993939940806978
4.554,-0.235823162628035,0.108925594041553
4.568,-0.229872443311079,0.117824088502571
4.582,-0.223623650369457,0.126098516737072
4.596,-0.21719625723399,0.133795563452487
4.61,-0.210683244713117,0.140992875323403
4.624,-0.20414245152407,0.147789257456289
4.638,-0.197591095927763,0.154292269768072
4.652,-0.191004416697666,0.16060415051542
4.666,-0.18431911858712,0.166807442661725
4.68,-0.177441797451843,0.172952052544979
4.694,-0.170261819743646,0.179045591653308
4.708,-0.162667368830819,0.185048647341943
4.722,-0.154562713585165,0.190876080204389
4.736,-0.145884362855788,0.196404625177996
4.75,-0.136613751647958,0.201486123116816
4.764,-0.126707550289416,0.205867821191829
4.778,-0.116402894283772,0.209462701563588
4.792,-0.105845879836316,0.212196807380882
4.806,-0.0951971106315082,0.214043814120452
4.82,-0.0846145886039982,0.215026394568066
4.834,-0.0742374797470768,0.215211580622354
4.848,-0.0641727544059028,0.214700922643755
4.862,-0.0544862472002507,0.213616856992498
4.876,-0.0451990722883786,0.212087089311509
4.89,-0.0362896502365065,0.210228963474505
4.904,-0.0277009298692791,0.208135718723011
4.918,-0.0193517872435604,0.205866262720564
4.932,-0.0111511082350954,0.203439639786873
4.946,-0.00301275659920279,0.200834795526351
4.96,0.00513046870900271,0.197995587209292
4.974,0.0133156538553005,0.194840332825932
4.988,0.0215427802054117,0.191274609755977
5.002,0.0297727880335323,0.187205587733117
5.016,0.0379308807949265,0.182555978636762
5.03,0.0459145437171434,0.177275748786589
5.044,0.0536051076992036,0.171350068143428
5.058,0.060881218522753,0.164802520275332
5.072,0.067632347648815,0.157693281930166
5.086,0.0737705374498983,0.150112691117708
5.1,0.0792388938210772,0.142171243972056
5.114,0.0840158599828302,0.133987498538765
5.128,0.0881149322418954,0.125675560710639
5.142,0.091580105709596,0.117333772818031
5.156,0.0944778701587582,0.109035952202295
5.17,0.0968869461342413,0.100826101647122
5.184,0.0988871287468789,0.0927170170779526
5.198,0.100548597447848,0.0846927285963787
5.212,0.101922888202123,0.0767142891956493
5.226,0.103036457555561,0.068728106817344
5.24,0.103887444448874,0.0606758109708401
5.254,0.104445893566963,0.0525045483984413
5.268,0.104657368753578,0.0441765989396819
5.282,0.104449569631891,0.0356772796858837
5.296,0.103741277420539,0.0270202557796577
5.31,0.102452707221186,0.0182495991237625
5.324,0.100516152012448,0.00943823218153847
5.338,0.0978856949301481,0.000682756946083321
5.352,0.0945447725313636,-0.00790492073906312
5.366,0.0905105198790631,-0.0162083417242197
5.38,0.085834131257957,-0.0241184141631549
5.394,0.0805969171419545,-0.0315450325181783
5.408,0.0749022886299866,-0.0384268256405795
5.422,0.0688644871223301,-0.0447375805581395
5.436,0.0625954118330926,-0.0504882331267609
5.45,0.0561912872050975,-0.05572386638576
5.464,0.0497210744757643,-0.0605158489501513
5.478,0.0432184135022538,-0.0649499820943126
5.492,0.0366784724662011,-0.0691121886717269
5.506,0.0300604238795891,-0.0730737527849417
5.52,0.0232954427557708,-0.0768783106879988
5.534,0.0162992606536189,-0.0805326461122023
5.548,0.00898754810794974,-0.0840028567352596
5.562,0.00129187153785321,-0.0872166913757369
5.576,-0.0068262188519931,-0.0900719204829266
5.59,-0.0153652159075886,-0.0924496426791988
5.604,-0.0242794712305767,-0.0942306066900083
5.618,-0.0334816065929914,-0.0953120847784947
5.632,-0.0428575524793862,-0.0955955347722239
5.646,-0.0522380221659123,-0.0950520801790794
5.66,-0.0614704086212872,-0.093742841641015
5.674,-0.070442704243784,-0.0917434262336354
5.688,-0.0790790725160282,-0.0891546973905645
5.702,-0.0873452337721453,-0.0860867436677323
5.716,-0.0952471620801107,-0.0826424100950417
5.73,-0.102823577752493,-0.0789030471211665
5.744,-0.110133726057953,-0.0749186892611643
5.758,-0.117242670175324,-0.0707040697933542
5.772,-0.124206672148851,-0.0662408488559939
5.786,-0.131061132683414,-0.0614853581859278
5.8,-0.137813029453245,-0.0563802337090537
5.814,-0.144438929622957,-0.0508676808137712
5.828,-0.150888611149259,-0.0449019079716311
5.842,-0.157093298872537,-0.0384585098175395
5.856,-0.162980397742235,-0.0315384087725902
5.87,-0.168473895694907,-0.0241685534345958
5.884,-0.173514938861074,-0.0163967621050776
5.898,-0.1780647431349,-0.00828203047503559
5.912,-0.182105063669444,0.000115154314123074
5.926,-0.185634814082817,0.00874146072793629
5.94,-0.188663328456045,0.0175564589750231
5.954,-0.191202035079006,0.0265343238244471
5.968,-0.193256622285937,0.0356612892063007
5.982,-0.194821630338238,0.044929627695119
5.996,-0.195878826951875,0.0543297353370903
6.01,-0.196399838585886,0.0638423609502361
6.024,-0.196352504943033,0.0734330233176481
6.038,-0.195709519537948,0.0830502008370185
6.052,-0.194457316078263,0.0926280480820844
6.066,-0.192603369672854,0.102088663142644
6.08,-0.190187050832203,0.111352740144765
6.094,-0.187264368396686,0.12038250838171
6.108,-0.183900128862037,0.129150148845473
6.122,-0.180160021612792,0.137655150874369
6.136,-0.176098227182937,0.14592321663923
6.15,-0.171746209368903,0.153999586492084
6.164,-0.167105120657715,0.161937694197767
6.178,-0.162143658508544,0.169785067809675
6.192,-0.1568022285044,0.177569053441164
6.206,-0.151003084365572,0.185285119292879
6.22,-0.144664948951544,0.192890152048764
6.234,-0.137719696197136,0.200302342408697
6.248,-0.130128168784757,0.207408113792382
6.262,-0.121892222094768,0.214075281578733
6.276,-0.113060630172333,0.220170466893404
6.29,-0.103727478765393,0.225577940286875
6.304,-0.0940229390208406,0.230216695501049
6.318,-0.0840976466983992,0.234052730746384
6.332,-0.0741030738019377,0.237104229059109
6.346,-0.0641710639041024,0.239438471303434
6.36,-0.0543959604730717,0.241160698980002
6.374,-0.0448224273721723,0.242396534913131
6.388,-0.0354411814919919,0.243270724898786
6.402,-0.0261935662471461,0.243885672286873
6.416,-0.0169844063121501,0.244303361764005
6.43,-0.00770115613536131,0.244533769463341
6.444,0.00176375725494114,0.244531806267662
6.458,0.0114910871577148,0.244203414374096
6.472,0.0215170588753087,0.243419882147654
6.486,0.0318227575992879,0.242038036720444
6.5,0.0423323630050205,0.23992297290097
6.514,0.0529653079647086,0.23691709700112
6.528,0.0634735532595731,0.232990847713071
6.542,0.0736757974104233,0.228167245326378
6.556,0.0834114866482426,0.222526496196071
6.57,0.0925597938218657,0.216192328940372
6.584,0.101051220457717,0.209312600931899
6.598,0.108870455124438,0.202037730926237
6.612,0.116050701945305,0.194500620791065
6.626,0.122661116695829,0.186801182846557
6.64,0.128790005041681,0.178997539388902
6.654,0.13452689548701,0.171104642656157
6.668,0.139946465370947,0.163099743470817
6.682,0.145096655320868,0.154933058053904
6.696,0.149992328630064,0.146541317699793
6.71,0.154614736293199,0.137861710116085
6.724,0.158916052663186,0.128844006720783
6.738,0.162827522700181,0.119459303608442
6.752,0.16626940669781,0.109704618855266
6.766,0.169160935034749,0.0996034054540571
6.78,0.171428829841429,0.0892027021513411
6.794,0.173013495037255,0.0785680506380395
6.808,0.173872580344297,0.067777420274088
6.822,0.173982156615446,0.0569152286566913
6.836,0.173336101202272,0.0460672064948891
6.85,0.171944434845156,0.0353164350743786
6.864,0.169831280970447,0.0247404935461737
6.878,0.167032885946455,0.0144093808319146
6.892,0.16359582742157,0.00438377593588804
6.906,0.159575241182193,-0.00528672092593396
6.92,0.155032699327281,-0.0145655009057227
6.934,0.150033331266224,-0.0234308492389255
6.948,0.144675590133894,-0.0318582349006872
6.962,0.13900783906058,-0.0398978644714696
6.976,0.13305587496334,-0.0475910876669785
6.99,0.126835664265507,-0.0549755114990476
7.004,0.120342769890781,-0.062087479549513
7.018,0.113553083203243,-0.0689542128852431
7.032,0.106426696987208,-0.075586157211914
7.046,0.0989148390055708,-0.0819708892071442
7.06,0.0909691736325828,-0.0880698700736299
7.074,0.0825522246228729,-0.0938189888168978
7.088,0.0736473024109594,-0.0991332558057465
7.102,0.0642662317530928,-0.103915289488272
7.116,0.0544534131744728,-0.108066523831146
7.13,0.0442852904137249,-0.111499498902849
7.144,0.0338650455860569,-0.114149306431374
7.158,0.0233131641059422,-0.115982318757395
7.172,0.01275524219442,-0.117000735401723
7.186,0.00230890435732865,-0.117242165444068
7.2,-0.00792814304174792,-0.11677429545039
7.214,-0.0178871035272773,-0.115685509875629
7.228,-0.0275328369951557,-0.114072975977587
7.242,-0.0368638075492336,-0.112030059260876
7.256,-0.0459074749017881,-0.109634943822762
7.27,-0.0547120698883099,-0.106942014427741
7.284,-0.0633361700983617,-0.103977000090993
7.298,-0.0718376753129851,-0.100736212373592
7.312,-0.0802636737878632,-0.097189576256046
7.326,-0.0886423521086268,-0.0932866656353939
7.34,-0.0969776384004602,-0.0889646891596053
7.354,-0.105246798977182,-0.0841573346369689
7.368,-0.113400831567257,-0.0788035251758617
7.382,-0.121376317180086,-0.0728236855510036
7.396,-0.129050342325832,-0.0661851872992374
7.41,-0.136299319848308,-0.0589323052180417
7.424,-0.143021645217413,-0.0511105371010381
7.438,-0.14912720769611,-0.0427919933269384
7.452,-0.154544992116511,-0.0340716646932455
7.466,-0.159229690398646,-0.0250614938329247
7.48,-0.16316663437813,-0.0158823618086189
7.494,-0.166374274961864,-0.00665436932034306
7.508,-0.168903480330208,0.00251385581575175
7.522,-0.170833155539355,0.0115357332089869
7.536,-0.172262101404871,0.0203558234841987
7.55,-0.173297586387192,0.0289559885828653
7.564,-0.174041712154844,0.0373573245746214
7.578,-0.174577195766638,0.0456169984433497
7.592,-0.174954549321093,0.0538197787988213
7.606,-0.175182713015157,0.0620648551394734
7.62,-0.175224933923423,0.0704493646489684
7.634,-0.175001081548664,0.0790507447073337
7.648,-0.174396715059399,0.0879104647498253
7.662,-0.17327818451546,0.0970217562497463
7.676,-0.171512017621969,0.106323601033419
7.69,-0.168985989478955,0.115702470258182
7.704,-0.165628758141567,0.125002215032443
7.718,-0.161424895358515,0.134041245394653
7.732,-0.156422605097285,0.142634892892466
7.746,-0.150732374454994,0.150619845726206
7.76,-0.14451612686552,0.157876967617267
7.774,-0.137967953596736,0.164348800133466
7.788,-0.131288943311902,0.170048654463484
7.802,-0.124659756084551,0.175059368982145
7.816,-0.118237781924052,0.179525441349665
7.83,-0.112123624113274,0.183670771703163
7.844,-0.10621192691857,0.187678629382258
7.858,-0.100401639735776,0.191684602526398
7.872,-0.0945472873760806,0.195768030794944
7.886,-0.0884842448748131,0.199939744847228
7.9,-0.0820565937744017,0.204140518180855
7.914,-0.0751431805380206,0.208250308255757
7.928,-0.0676778608498349,0.21210663162259
7.942,-0.0596609365130033,0.215528993826391
7.956,-0.0511602834297505,0.218345418038305
7.97,-0.0423023593339179,0.220416920804866
7.984,-0.0332548722158989,0.22165627687594
7.998,-0.024204118190104,0.222038482816404
8.012,-0.0153306727672761,0.221601760484196
8.026,-0.0067871617136419,0.22043947473456
8.04,0.00131871789098689,0.218684713068158
8.054,0.00893377378422404,0.216490273764251
8.068,0.0160606166183861,0.214007300033733
8.082,0.0227511130212536,0.21136574500408
8.096,0.0290935535192282,0.208659313815314
8.11,0.0351958798659013,0.20593663658715
8.124,0.0411676698348384,0.203199355036988
8.138,0.0471034899859265,0.200406741208276
8.152,0.0530697590696829,0.197485572878227
8.166,0.0590965307150188,0.194343385556804
8.18,0.0651747468951772,0.190882965945707
8.194,0.071258680201824,0.187016045150594
8.208,0.0772726005171731,0.18267453582733
8.222,0.0831202599204495,0.177818238500434
8.236,0.0886956296550865,0.172438599138666
8.25,0.0938934333299471,0.166558712193215
8.264,0.0985852297051112,0.160192118535272
8.278,0.102706084538361,0.153476169485188
8.292,0.10621198572006,0.146509590799457
8.306,0.109085600346769,0.139396125460981
8.32,0.111335698690936,0.132237312632664
8.334,0.112995060853305,0.125125924417608
8.348,0.114117085725791,0.118140138952941
8.362,0.114771168460316,0.111338535016524
8.376,0.115036826494975,0.104756118157712
8.39,0.114996596386356,0.0984017694391664
8.404,0.11472791330572,0.092257657705027
8.418,0.114294490717792,0.0862811864824342
8.432,0.11373806220213,0.0804098945788998
8.446,0.113071625813306,0.0745693796649105
8.46,0.112275438373188,0.0686838082651063
8.474,0.111296865938458,0.0626880073742353
8.488,0.110054783711385,0.0565396292717733
8.502,0.108448574564655,0.0502295725996088
8.516,0.106371002249125,0.0437888317481928
8.53,0.103723477166145,0.0372902797640632
8.544,0.100431645300101,0.0308445435365063
8.558,0.0964589482270242,0.0245900103158592
8.572,0.0918159056576433,0.0186779646625128
8.586,0.0865633717849482,0.0132547233442499
8.6,0.0808088478082797,0.00844325044083694
8.614,0.0746959664795891,0.00432697533558287
8.628,0.0683883320984688,0.000938345886590094
8.642,0.0620498241159164,-0.00174595415643187
8.656,0.0558241003365389,-0.00380212288637596
8.67,0.0498162608576958,-0.00534880490772933
8.684,0.0440794151111563,-0.00653034088925829
8.698,0.0386542236599537,-0.00754397055603222
8.712,0.033403185507899,-0.00852021311725628
8.726,0.0281831617411561,-0.00951467161863068
8.74,0.0228555631884789,-0.0105354519056887
8.754,0.0172889584768422,-0.0115319528442297
8.768,0.0113804075926502,-0.0124017262623792
8.782,0.00507272378270479,-0.0130046661740062
8.796,-0.00163472959592683,-0.013182485751355
8.81,-0.00868316526690392,-0.0127807092830641
8.824,-0.0159597426188929,-0.0116700792429869
8.838,-0.0233103335363437,-0.0097644007213699
8.852,-0.030557802100895,-0.00703239451376079
8.866,-0.0375231732845445,-0.00350201956519781
8.88,-0.0440467155041272,0.000743182543952219
8.894,-0.0500060475562492,0.00557503998293756
8.908,-0.0553288763172418,0.010837321869742
8.922,-0.0599987897693933,0.0163655265456215
8.936,-0.0640535367940396,0.0220071284355035
8.95,-0.0675762656263515,0.027639568152301
8.964,-0.0706811164889721,0.0331836838103649
8.978,-0.07349524918755,0.0386109827347423
8.992,-0.0761397568771334,0.0439440247698002
9.006,-0.078711948421023,0.0492501014597503
9.02,-0.0812711983637191,0.0546292281776942
9.034,-0.0838300285044386,0.0601981223343766
9.048,-0.0863513844084904,0.066072257769025
9.062,-0.0887522982572124,0.0723482367860668
9.076,-0.0909133754257178,0.0790886124698821
9.09,-0.092692882863998,0.0863109551123877
9.104,-0.0939437124387646,0.0939824349305005
9.118,-0.0945311842855919,0.102020547055488
9.132,-0.0943091922171893,0.110306008672911
9.146,-0.0932154541235853,0.11864082533864
9.16,-0.0913010148938468,0.126838786254405
9.174,-0.0886295946925925,0.134748227396015
9.188,-0.0853051320209442,0.142247771548141
9.202,-0.0814586989065575,0.149257526428468
9.216,-0.0772325141469956,0.15574504577
9.23,-0.0727630348351763,0.161725410297427
9.244,-0.0681652013468172,0.167255503391695
9.258,-0.0635197530841601,0.172423263733796
9.272,-0.0588651398859862,0.177333306440178
9.286,-0.0541949760037215,0.18209073949932
9.3,-0.0494612922263129,0.186785210184192
9.314,-0.0445831233632026,0.191477172266653
9.328,-0.0394593112674419,0.196188076613301
9.342,-0.0339838874903889,0.200895692108116
9.356,-0.0280620861690115,0.205535122124503
9.37,-0.0216249638171678,0.210005371723599
