"Freq [GHz]","re(S(Antenna1_1_1,Antenna1_1_1)) []","im(S(Antenna1_1_1,Antenna1_1_1)) []"
3,-0.192019505337393,-0.163620669024326
3.0175,-0.198478268663113,-0.152529814730694
3.035,-0.207114876410577,-0.138464908423135
3.0525,-0.213158160588528,-0.122564894094154
3.07,-0.217458076787973,-0.107738086402774
3.0875,-0.223296951330216,-0.0934433585643111
3.105,-0.226253139649493,-0.0745032672916729
3.1225,-0.225991259071642,-0.0591973653749398
3.14,-0.227607113085917,-0.0424916776918418
3.1575,-0.224742345850442,-0.02562846127433
3.175,-0.222402647309947,-0.0088633000103757
3.1925,-0.213800984359567,0.009153591831697
3.21,-0.203099302548643,0.0157372719768935
3.2275,-0.205462756745898,0.022986713534907
3.245,-0.204863765444488,0.0429243007415647
3.2625,-0.194165055649122,0.0605956646714738
3.28,-0.183287725101695,0.0728478533484707
3.2975,-0.171709376048446,0.0867570325430073
3.315,-0.157340376436238,0.0967971930447836
3.3325,-0.142242274014174,0.106704340153347
3.35,-0.12334691397653,0.108981191913248
3.3675,-0.115331537475088,0.107735132095012
3.385,-0.106711176125526,0.114926916156613
3.4025,-0.0946107640706052,0.118948146885757
3.42,-0.0860210138071445,0.125137389877361
3.4375,-0.0699704024120872,0.136775570991451
3.455,-0.0439806342420284,0.138882999059013
3.4725,-0.025621042792579,0.130408425610226
3.49,-0.0130836632857215,0.125871813066546
3.5075,0.0047931471175487,0.120867880670848
3.525,0.0172559956580739,0.107297745116772
3.5425,0.0227628280791429,0.0986590518191344
3.56,0.0287537911632276,0.0931194769636442
3.5775,0.0364404531779105,0.0929542602822556
3.595,0.0528139507689724,0.0909356940965434
3.6125,0.071650558770613,0.0794323988405833
3.63,0.0824558970812797,0.062788354670455
3.6475,0.0931149670164567,0.0497335223321825
3.665,0.10385114391952,0.0257039862872499
3.6825,0.0969527944498762,0.00287687510727588
3.7,0.0919996635169312,-0.00440348945804572
3.7175,0.0947255624900535,-0.0163646571923002
3.735,0.0897042520067256,-0.0273520884091986
3.7525,0.0928126251439017,-0.0291235661074919
3.77,0.10666742281263,-0.0424253398909587
3.7875,0.111714179598125,-0.0703940190395199
3.805,0.0996142944660687,-0.0954011249683459
3.8225,0.0880954033110634,-0.109160125711711
3.84,0.0766792167703762,-0.124259539079784
3.8575,0.0619671787081956,-0.135491468484082
3.875,0.0462390502693063,-0.14194141081763
3.8925,0.0369026824820333,-0.1402006404223
3.91,0.0367800080562703,-0.147334128531277
3.9275,0.0305823440307426,-0.162569448232169
3.945,0.0175795665023108,-0.176668119268373
3.9625,0.00255371793995569,-0.189097135901447
3.98,-0.020771042366502,-0.20187499860805
3.9975,-0.0475605240796682,-0.198893167172147
4.015,-0.0607677019718807,-0.191624246869408
4.0325,-0.071602168203359,-0.192694569002456
4.05,-0.0892642948347466,-0.192331542217086
4.0675,-0.101204183767123,-0.185674507137049
4.085,-0.111014229950618,-0.184975351850608
4.1025,-0.120796792246241,-0.185670941645202
4.12,-0.139480718060759,-0.193905637269821
4.1375,-0.170231448183726,-0.185550597850431
4.155,-0.184532008472065,-0.163489669465412
4.1725,-0.187754221085562,-0.155129567070485
4.19,-0.204123710234005,-0.14975750997446
4.2075,-0.214953824593315,-0.132141112750789
4.225,-0.218766465423167,-0.123765611593547
4.2425,-0.23084582366638,-0.116852230969886
4.26,-0.24251178639887,-0.10268305075355
4.2775,-0.248877795145481,-0.090100441017592
4.295,-0.260107542519024,-0.0790007195250935
4.3125,-0.271491006716881,-0.0585260966020176
4.33,-0.268629870368705,-0.0350222866113655
4.3475,-0.260598270758056,-0.027307353232722
4.365,-0.267840850973581,-0.0229728886724522
4.3825,-0.27887547788843,-0.00747985027699181
4.4,-0.282957138670727,0.0174308428106782
4.4175,-0.273633694513044,0.0398064550576563
4.435,-0.263184574237116,0.0493440470153901
4.4525,-0.263129367841435,0.0581872842199779
4.47,-0.258268315896239,0.0761251102036535
4.4875,-0.248461988061215,0.0839961656858658
4.505,-0.246875468320907,0.0922519370221633
4.5225,-0.244253318206515,0.103190229403054
4.54,-0.243932778213458,0.117661052967831
4.5575,-0.237290560297841,0.137475234152871
4.575,-0.222430476338566,0.15576120190168
4.5925,-0.201654261795067,0.165360433766228
4.61,-0.184839544145411,0.165497582627137
4.6275,-0.177392480071317,0.161836447963902
4.645,-0.178180746359872,0.169013617394599
4.6625,-0.165193746841147,0.182215102080165
4.68,-0.152705544717064,0.181052301361052
4.6975,-0.152853650825744,0.186021497299709
4.715,-0.145489287913839,0.204457142892153
4.7325,-0.121092096606118,0.219631396096432
4.75,-0.093356158881468,0.215689824666609
4.7675,-0.0808427127864555,0.207066533621773
4.785,-0.068668646164277,0.200744109918492
4.8025,-0.0656784329411192,0.190315390075443
4.82,-0.0674568363082895,0.193666825720483
4.8375,-0.0584651324115009,0.20064461196525
4.855,-0.0474289023630797,0.202551691046508
4.8725,-0.0368640887951133,0.205709308138945
4.89,-0.0210553971411593,0.208332437984387
4.9075,-0.00268174075774051,0.20594497010794
4.925,0.0179266700240934,0.195647468936167
4.9425,0.0266429257656301,0.174028811467452
4.96,0.0205070167542632,0.163465813323209
4.9775,0.0204287333920577,0.165719921165144
4.995,0.0292604998688626,0.166595829763487
5.0125,0.0384973472121308,0.162949663119735
5.03,0.0474361882822055,0.159682375250859
5.0475,0.0593943551273529,0.155929677188656
5.065,0.0740724828675996,0.145889013626011
5.0825,0.0833513130047459,0.129768834472224
5.1,0.0859148078991856,0.113199447886745
5.1175,0.0829302053011929,0.100506744942713
5.135,0.0785624345331779,0.0937726959390376
5.1525,0.0781706459253382,0.0933139228568158
5.17,0.0855788768423881,0.0910436250539518
5.1875,0.0947271422204432,0.0830676053308456
5.205,0.100541857010554,0.069435921582402
5.2225,0.102237654454425,0.0588210317445642
5.24,0.108238260963479,0.0450861710701276
5.2575,0.104902225669232,0.024594240618098
5.275,0.0923712028215632,0.0130390871179234
5.2925,0.0841987338005072,0.0116895357032887
5.31,0.0840246636768538,0.0106336305818651
5.3275,0.0882750438675827,0.00483743016562697
5.345,0.0903919638474455,-0.00778136292748892
5.3625,0.0867771853114344,-0.0200692050480674
5.38,0.0823209975380566,-0.0308732628353153
5.3975,0.076914134924397,-0.04181845316398
5.415,0.0685063267157697,-0.0528912414927799
5.4325,0.0576923326955566,-0.0603846949371256
5.45,0.0467403164569112,-0.0648677682684465
5.4675,0.0388330505328184,-0.0635582881401214
5.485,0.0399204139079024,-0.0659631321626569
5.5025,0.0388037836781373,-0.0779980829750727
5.52,0.0265766978162837,-0.0929787746902703
5.5375,0.0080073037646005,-0.0947112441193017
5.555,0.00128398694245612,-0.0918360489218556
5.5725,-0.00377615947049108,-0.0965779151679362
5.59,-0.0134892688353677,-0.103417249773778
5.6075,-0.0276162953426019,-0.106809364783661
5.625,-0.040979583400742,-0.103612898825896
5.6425,-0.0455336935656086,-0.100333766580251
5.66,-0.0517599773628226,-0.107419475416048
5.6775,-0.0672146429947964,-0.112159466880808
5.695,-0.0846141040456867,-0.110706640487482
5.7125,-0.0993788507138132,-0.102522660385282
5.73,-0.106675628938,-0.0921425138990912
5.7475,-0.107032642891565,-0.0891105898988344
5.765,-0.115568741324691,-0.0949594023912316
5.7825,-0.132707608942146,-0.0941736747773394
5.8,-0.147917785622322,-0.0854464795643716
5.8175,-0.156558423015006,-0.0754962905368683
5.835,-0.165312399958793,-0.0703861363256766
5.8525,-0.179649182251472,-0.0626649487172676
5.87,-0.191042728399607,-0.0452213522249935
5.8875,-0.189986746542814,-0.0292007501428878
5.905,-0.188214502384953,-0.0243015985697854
5.9225,-0.193601344927443,-0.0223839179203432
5.94,-0.204442995765436,-0.0177652205251264
5.9575,-0.21775424294502,-0.00732668528467295
5.975,-0.228723313945146,0.00970221580544814
5.9925,-0.232597590975806,0.0307653683079522
6.01,-0.229469386152265,0.04700993270953
6.0275,-0.229049931557147,0.0594186777957622
6.045,-0.227121492304859,0.0748542045480283
6.0625,-0.219996992357567,0.0866842746291774
6.08,-0.216070101453694,0.0912394727077963
6.0975,-0.220432590080116,0.0968963900380549
6.115,-0.228029954974495,0.110856749193457
6.1325,-0.229456777737825,0.132515928318443
6.15,-0.223130119123508,0.153116581067846
6.1675,-0.21271585373848,0.170853808652836
6.185,-0.199998644992381,0.185247055567477
6.2025,-0.185415558672651,0.195823884342513
6.22,-0.1720715403234,0.200343961980835
6.2375,-0.165056200921203,0.203258310609541
6.255,-0.161153001296575,0.209734780127906
6.2725,-0.158536152584957,0.219867328837342
6.29,-0.153183928825736,0.236778592798913
6.3075,-0.138377746052128,0.255532001945655
6.325,-0.116059260406799,0.267737976633327
6.3425,-0.0939514373258673,0.271235378051787
6.36,-0.0752181918385586,0.271041804397556
6.3775,-0.0593306275792109,0.267658623696889
6.395,-0.0490115629622478,0.264050619195489
6.4125,-0.0411674064829966,0.263433954842555
6.43,-0.0356248288888665,0.266890136293866
6.4475,-0.0255342683207178,0.279274792342856
6.465,-0.00130622857664183,0.289570112815836
6.4825,0.0262808442226387,0.286350036290461
6.5,0.0479397364507054,0.276166026695988
6.5175,0.0637860019950139,0.262071080380494
6.535,0.0729165791031922,0.249602425436715
6.5525,0.0810920622878551,0.241427590045096
6.57,0.0895157279105904,0.234463815192472
6.5875,0.0985680408376483,0.229447167143847
6.605,0.109858176500225,0.224986833523186
6.6225,0.124476551273068,0.22068421494292
6.64,0.145002500810412,0.21161599462065
6.6575,0.164125795172874,0.189967295000874
6.675,0.168670394903175,0.162774637987489
6.6925,0.162981319356379,0.146937040258162
6.71,0.164158783683827,0.140179795095003
6.7275,0.170009741696092,0.129514894644239
6.745,0.174601823519845,0.1175426704927
6.7625,0.179511709909058,0.105177812450197
6.78,0.184956754572852,0.0912373386843089
6.7975,0.189449325121342,0.0745393383895611
6.815,0.192621872547619,0.0553335274998632
6.8325,0.189641229158557,0.0312138407195727
6.85,0.175326826856892,0.0129243719009874
6.8675,0.163925144127962,0.00766260611924663
6.885,0.162583414737863,0.00202198051576952
6.9025,0.163143736152284,-0.00949397746136018
6.92,0.160925226397951,-0.0268182154958151
6.9375,0.150774350865896,-0.0432413103418646
6.955,0.140164139965566,-0.0534590871874855
6.9725,0.1306402282914,-0.0633088774165988
6.99,0.120056228230978,-0.073977506686422
7.0075,0.106026211942724,-0.0818764673682591
7.025,0.0940154074108601,-0.0855484162934677
7.0425,0.0853365179752222,-0.088874988544099
7.06,0.0786137321440219,-0.0964986931631834
7.0775,0.0649344246972322,-0.106565479020255
7.095,0.0485405585660477,-0.109050125665119
7.1125,0.0365817683141339,-0.110016462596934
7.13,0.0240652592662505,-0.111231624075607
7.1475,0.0123262977271374,-0.111357919733721
7.165,0.000263722305892802,-0.110213131943977
7.1825,-0.00886986025307885,-0.108474832140091
7.2,-0.0182845227323512,-0.108804947218834
7.2175,-0.0283597384543441,-0.109562842444105
7.235,-0.0417212590344095,-0.111914577352165
7.2525,-0.0604460558288132,-0.10854133807959
7.27,-0.0741873049466158,-0.09644023527751
7.2875,-0.079852729654152,-0.0866047894114793
7.305,-0.0858922495241235,-0.080924452797451
7.3225,-0.0925315747362059,-0.0743446105386166
7.34,-0.0972410890747853,-0.068237183962509
7.3575,-0.100836515756224,-0.0649810640482372
7.375,-0.108600786659135,-0.0657333912041326
7.3925,-0.123251813570409,-0.0630107372996223
7.41,-0.13816217726789,-0.0530367584577168
7.4275,-0.148380105409028,-0.0360034936578337
7.445,-0.148299032439904,-0.0194550066653081
7.4625,-0.145360861197268,-0.00981957623674777
7.48,-0.143199647814991,-0.00422400738311404
7.4975,-0.144133630346468,-0.00184210850880649
7.515,-0.149024499275696,0.00122457376161879
7.5325,-0.155222157488218,0.0073514940048245
7.55,-0.16111258430984,0.0136865976966137
7.5675,-0.171159867776679,0.0233864358296073
7.585,-0.176193036089726,0.0421539110424763
7.6025,-0.171662373049736,0.0580808708260889
7.62,-0.165620587660827,0.069768753518796
7.6375,-0.156700721195596,0.0768289190609339
7.655,-0.151975696932672,0.0777135490226468
7.6725,-0.152101846145761,0.0787319868398262
7.69,-0.157384547133832,0.0810486673801602
7.7075,-0.165262383045688,0.0913777261685824
7.725,-0.167029645614449,0.108197561863303
7.7425,-0.161094904663015,0.12330991333044
7.76,-0.153582065665011,0.134747308582573
7.7775,-0.143193127824475,0.144826534962005
7.795,-0.131058981543067,0.148872926524515
7.8125,-0.122857333466972,0.147369922068179
7.83,-0.121443832367024,0.145694860070131
7.8475,-0.125974105567767,0.148380303142705
7.865,-0.130163031535722,0.160522641928318
7.8825,-0.126555639218619,0.177050032500682
7.9,-0.114135731620017,0.192792087035729
7.9175,-0.0963646858535164,0.198744608445263
7.935,-0.0834441958167891,0.19840885136096
7.9525,-0.0747929023714035,0.195752870038395
7.97,-0.0711946724356506,0.196389494601411
7.9875,-0.0645784489396356,0.199007072375742
8.005,-0.0607571001930984,0.198868384988593
8.0225,-0.0608261319119963,0.205322489549101
8.04,-0.0521741816038569,0.218875053961456
8.0575,-0.033922320714325,0.225342335929127
8.075,-0.0172834891730794,0.223648113866281
8.0925,-0.00389362302813494,0.218184010771187
8.11,0.00436484668961111,0.210447881035558
8.1275,0.0067932781674547,0.205790000071494
8.145,0.0104569437019109,0.207882969059409
8.1625,0.0197707256238925,0.209952070908173
8.18,0.029519662933997,0.208110208173539
8.1975,0.0373500362481831,0.207909830942219
8.215,0.0516970421117723,0.208389339024569
8.2325,0.0675229490085329,0.198974088066672
8.25,0.0748548880963675,0.184892645450957
8.2675,0.075238173652122,0.175083157065193
8.285,0.076849870339197,0.171538554816677
8.3025,0.0824648964658252,0.16869577331133
8.32,0.0899964571542101,0.1639748583127
8.3375,0.0979674654627186,0.157511449623882
8.355,0.106644571196335,0.148163089576257
8.3725,0.11192710499292,0.135310351872812
8.39,0.113942796312987,0.123570056830229
8.4075,0.114485621357831,0.111114116732694
8.425,0.11008981304863,0.10116721438956
8.4425,0.107735592810399,0.0970416311277089
8.46,0.10926169863231,0.092339341431438
8.4775,0.113459171430534,0.0863243659162222
8.495,0.118788860319076,0.0738708060960666
8.5125,0.116272453403389,0.0573313470490646
8.53,0.108708095412922,0.0463470885077402
8.5475,0.103083944177163,0.0381373118832136
8.565,0.0965753872203961,0.0282292829920779
8.5825,0.0849805175384908,0.0214929810241863
8.6,0.0772929782601182,0.0228233905200525
8.6175,0.0770540564568371,0.0209763114718484
8.635,0.0762195067532602,0.0140537064349463
8.6525,0.0733396020178316,0.00466969341342771
8.67,0.0681379956344071,-0.00722508953069697
8.6875,0.0539812236796478,-0.0219946178013242
8.705,0.0315614629710111,-0.0228893944257742
8.7225,0.0197290258069694,-0.0161169788526067
8.74,0.0114331532409035,-0.0130918716774644
8.7575,0.00344796146465332,-0.00946719431528701
8.775,-0.00198157054244118,-0.00554541062524666
8.7925,-0.00439867716447011,-0.00393937455328319
8.81,-0.00768329981051401,-0.00835866259359727
8.8275,-0.0181644090487873,-0.0149123686645614
8.845,-0.0352410214944032,-0.0174430315431655
8.8625,-0.0552126274401449,-0.0105642339018095
8.88,-0.0685604041709567,0.00494157847611938
8.8975,-0.072584534073229,0.020704156361442
8.915,-0.0712050228241093,0.030639253502068
8.9325,-0.0718197951566565,0.0350234983092138
8.95,-0.0749887253822445,0.0390638172706354
8.9675,-0.0795918616262438,0.0426679017948563
8.985,-0.0858463106089091,0.0466861585184962
9.0025,-0.0958139619140628,0.0514039464530538
9.02,-0.10896397783556,0.0632781245776579
9.0375,-0.11675743987613,0.0841963058306258
9.055,-0.111757810460875,0.106483862307629
9.0725,-0.100009254908447,0.117154171736882
9.09,-0.0950589856951052,0.121043850556121
9.1075,-0.0930151400522837,0.127428735950692
9.125,-0.0908628284294824,0.132337953457632
9.1425,-0.0933009724063455,0.137499909628345
9.16,-0.0962824295248088,0.148790768523844
9.1775,-0.0957262279099476,0.162842981129752
9.195,-0.0917519726436929,0.179903151561963
9.2125,-0.078841807389597,0.196254214645453
9.23,-0.0618652894964098,0.203788089641595
9.2475,-0.0484791281261708,0.203733305094431
9.265,-0.0432946303109223,0.201983007941119
9.2825,-0.0420092385667482,0.207496084297372
9.3,-0.0353239452046911,0.216462365961817
9.3175,-0.0267179650526704,0.223205793263499
9.335,-0.017946568356404,0.230226292515522
9.3525,-0.00727059099359628,0.238077932373461
9.37,0.00851460862190107,0.245847229780573
9.3875,0.0288434990095427,0.244958432102342
9.405,0.0410429435927782,0.235417101846011
9.4225,0.0435036055877726,0.231033227959597
9.44,0.0485982928545613,0.235287878273697
9.4575,0.060053112384874,0.238637439691729
9.475,0.0725873559801599,0.239032875640014
9.4925,0.0861969526254206,0.237573762926171
9.51,0.0992025843675132,0.232847169479766
9.5275,0.109920782815099,0.227487251529259
9.545,0.122299803283481,0.222652609084008
9.5625,0.135482383204016,0.211332818607611
9.58,0.137650931068188,0.196827525577994
9.5975,0.134112863888003,0.19448937428014
9.615,0.142767790804562,0.199230313944498
9.6325,0.159209110296873,0.194358639989844
9.65,0.171792955620937,0.181189284654966
9.6675,0.177202349014214,0.165929614981389
9.685,0.178482389196082,0.154877543603686
9.7025,0.181365606547211,0.145990775154316
9.72,0.18432556976627,0.135911690987475
9.7375,0.185302861829401,0.125207274645267
9.755,0.183555114359508,0.117617961754863
9.7725,0.186049723048076,0.11430552558435
9.79,0.194806153847484,0.106695835779201
9.8075,0.201549157367881,0.0900400642211244
9.825,0.198995507223853,0.0714060348819727
9.8425,0.191191267771953,0.0570170820482821
9.86,0.180429678802278,0.0486479772029164
9.8775,0.174887232369753,0.0476886185579625
9.895,0.177201380941397,0.0418455312561346
9.9125,0.174516807415748,0.0295587129236217
9.93,0.167517947387159,0.0224366879836966
9.9475,0.167715585718583,0.0167340693263116
9.965,0.166700636456842,-0.000908420447904575
9.9825,0.150428979358553,-0.0180209221122786
10,0.131080580850836,-0.0221074857598527
