"Freq [GHz]","re(S(Tx_p1,Tx_p1)) []","im(S(Tx_p1,Tx_p1)) []"
1,-0.06463301602,0.0395875438
1.01,-0.0620579301,0.04343909874
1.02,-0.05924821057,0.04712701974
1.03,-0.05621427253,0.05063654
1.04,-0.05296748734,0.05395357634
1.05,-0.04952013561,0.0570647917
1.06,-0.04588535626,0.0599576543
1.07,-0.04207709171,0.0626204932
1.08,-0.03811002962,0.06504255004
1.09,-0.03399954129,0.06721402679
1.1,-0.02976161707,0.06912612924
1.11,-0.02541279908,0.07077110605
1.12,-0.02097011155,0.07214228325
1.13,-0.01645098901,0.07323409396
1.14,-0.01187320277,0.07404210337
1.15,-0.007254785948,0.07456302865
1.16,-0.002613957334,0.07479475392
1.17,0.002030955426,0.07473634009
1.18,0.006661593148,0.07438802964
1.19,0.01125964249,0.0737512462
1.2,0.0158069131,0.07282858913
1.21,0.02028541416,0.07162382291
1.22,0.02467743002,0.07014186158
1.23,0.02896559459,0.06838874821
1.24,0.03313296419,0.06637162958
1.25,0.03716308842,0.06409872605
1.26,0.04104007898,0.06157929695
1.27,0.04474867587,0.05882360149
1.28,0.04827431094,0.05584285545
1.29,0.05160316834,0.05264918386
1.3,0.05472224165,0.04925556978
1.31,0.05761938762,0.04567579961
1.32,0.06028337594,0.04192440491
1.33,0.06270393527,0.03801660125
1.34,0.06487179496,0.03396822419
1.35,0.06677872252,0.02979566271
1.36,0.06841755661,0.02551579045
1.37,0.06978223542,0.021145895
1.38,0.07086782036,0.01670360554
1.39,0.07167051491,0.01220681918
1.4,0.07218767862,0.0076736263
1.41,0.07241783625,0.00312223529
1.42,0.07236068184,-0.001429103165
1.43,0.07201707797,-0.005962171731
1.44,0.07138905002,-0.01045886179
1.45,0.07047977554,-0.0149012482
1.46,0.06929356885,-0.01927166306
1.47,0.0678358608,-0.02355276823
1.48,0.06611317397,-0.02772762636
1.49,0.06413309332,-0.03177976993
1.5,0.06190423241,-0.03569326821
1.51,0.05943619545,-0.03945279184
1.52,0.05673953524,-0.04304367458
1.53,0.05382570732,-0.04645197223
1.54,0.05070702042,-0.04966451833
1.55,0.04739658346,-0.05266897637
1.56,0.04390824938,-0.05545388851
1.57,0.04025655608,-0.05800872034
1.58,0.03645666457,-0.06032390173
1.59,0.03252429479,-0.06239086353
1.6,0.02847565925,-0.0642020699
1.61,0.02432739489,-0.06575104631
1.62,0.02009649328,-0.06703240296
1.63,0.0158002297,-0.06804185363
1.64,0.01145609119,-0.0687762299
1.65,0.007081703998,-0.06923349056
1.66,0.002694760675,-0.06941272644
1.67,-0.001687052822,-0.06931416037
1.68,-0.006046129758,-0.06893914255
1.69,-0.01036501466,-0.06829014119
1.7,-0.01462647444,-0.06737072854
1.71,-0.01881356839,-0.06618556241
1.72,-0.02290971662,-0.06474036323
1.73,-0.02689876681,-0.0630418868
1.74,-0.0307650589,-0.06109789287
1.75,-0.03449348752,-0.05891710964
1.76,-0.03806956179,-0.05650919439
1.77,-0.04147946248,-0.05388469049
1.78,-0.04471009603,-0.05105498079
1.79,-0.04774914542,-0.04803223783
1.8,-0.05058511763,-0.04482937097
1.81,-0.05320738741,-0.0414599706
1.82,-0.0556062374,-0.0379382499
1.83,-0.05777289425,-0.03427898419
1.84,-0.0596995607,-0.03049744824
1.85,-0.06137944353,-0.02660935175
1.86,-0.06280677723,-0.02263077339
1.87,-0.06397684329,-0.01857809352
1.88,-0.06488598514,-0.01446792601
1.89,-0.06553161864,-0.01031704942
1.9,-0.06591223806,-0.006142337725
1.91,-0.06602741768,-0.001960691033
1.92,-0.06587780882,0.002211033514
1.93,-0.06546513258,0.006356090353
1.94,-0.06479216809,0.01045791334
1.95,-0.06386273657,0.01450018255
1.96,-0.06268168111,0.0184668897
1.97,-0.06125484236,0.02234240208
1.98,-0.05958903028,0.02611152457
1.99,-0.05769199197,0.02975955955
2,-0.05557237589,0.03327236458
2.01,-0.05323969248,0.03663640742
2.02,-0.05070427149,0.03983881835
2.03,-0.0479772161,0.04286743948
2.04,-0.04507035418,0.04571087095
2.05,-0.04199618672,0.04835851373
2.06,-0.03876783382,0.05080060901
2.07,-0.03539897842,0.05302827389
2.08,-0.03190380795,0.05503353332
2.09,-0.02829695427,0.05680934822
2.1,-0.02459343206,0.05834963956
2.11,-0.02080857593,0.05964930843
2.12,-0.01695797663,0.06070425201
2.13,-0.01305741645,0.06151137535
2.14,-0.009122804169,0.06206859902
2.15,-0.005170109925,0.06237486256
2.16,-0.001215300031,0.06243012373
2.17,0.002725727757,0.06223535365
2.18,0.0066372084,0.06179252778
2.19,0.01050357285,0.06110461292
2.2,0.01430951018,0.06017555017
2.21,0.01804002838,0.05901023405
2.22,0.02168051346,0.05761448783
2.23,0.02521678679,0.05599503524
2.24,0.02863516029,0.0541594686
2.25,0.03192248935,0.05211621366
2.26,0.03506622329,0.04987449117
2.27,0.03805445308,0.04744427548
2.28,0.04087595627,0.04483625024
2.29,0.04352023876,0.04206176152
2.3,0.04597757354,0.03913276846
2.31,0.048239036,0.03606179167
2.32,0.05029653581,0.03286185966
2.33,0.05214284524,0.02954645353
2.34,0.05377162387,0.02612945006
2.35,0.05517743947,0.02262506353
2.36,0.05635578518,0.01904778655
2.37,0.05730309279,0.01541232997
2.38,0.05801674213,0.01173356236
2.39,0.0584950666,0.008026449088
2.4,0.05873735481,0.004305991396
2.41,0.05874384827,0.0005871656651
2.42,0.05851573535,-0.003115136899
2.43,0.05805514133,-0.006786169888
2.44,0.05736511476,-0.01041139039
2.45,0.05644961019,-0.01397651656
2.46,0.05531346727,-0.01746758375
2.47,0.05396238644,-0.02087099914
2.48,0.05240290123,-0.02417359446
2.49,0.05064234738,-0.02736267676
2.5,0.04868882889,-0.03042607692
2.51,0.04655118115,-0.03335219585
2.52,0.0442389313,-0.03613004803
2.53,0.0417622561,-0.03874930239
2.54,0.03913193728,-0.04120032029
2.55,0.03635931486,-0.04347419049
2.56,0.03345623836,-0.04556276097
2.57,0.0304350163,-0.04745866757
2.58,0.02730836407,-0.04915535916
2.59,0.02408935059,-0.05064711954
2.6,0.02079134365,-0.05192908571
2.61,0.01742795457,-0.05299726267
2.62,0.01401298202,-0.05384853465
2.63,0.01056035554,-0.05448067266
2.64,0.007084078755,-0.05489233847
2.65,0.003598172696,-0.05508308499
2.66,0.0001166193412,-0.05505335299
2.67,-0.003346694355,-0.05480446437
2.68,-0.006778031721,-0.05433861181
2.69,-0.01016386071,-0.05365884503
2.7,-0.01349090708,-0.0527690537
2.71,-0.01674620626,-0.05167394699
2.72,-0.01991715365,-0.05037903002
2.73,-0.02299155318,-0.04889057721
2.74,-0.02595766393,-0.04721560267
2.75,-0.02880424467,-0.04536182783
2.76,-0.03152059613,-0.04333764636
2.77,-0.03409660082,-0.04115208665
2.78,-0.03652276027,-0.03881477194
2.79,-0.03879022962,-0.0363358782
2.8,-0.04089084933,-0.03372609022
2.81,-0.04281717393,-0.03099655571
2.82,-0.0445624978,-0.02815883795
2.83,-0.04612087774,-0.02522486701
2.84,-0.04748715244,-0.02220688972
2.85,-0.04865695857,-0.01911741877
2.86,-0.04962674372,-0.01596918094
2.87,-0.05039377583,-0.01277506487
2.88,-0.05095614943,-0.009548068359
2.89,-0.05131278843,-0.006301245709
2.9,-0.05146344556,-0.003047654991
2.91,-0.05140869853,0.0001996942949
2.92,-0.05114994288,0.003427893087
2.93,-0.05068938156,0.006624183915
2.94,-0.05003001135,0.009776011135
2.95,-0.0491756062,0.01287107006
2.96,-0.0481306975,0.01589735481
2.97,-0.04690055143,0.0188432046
2.98,-0.04549114354,0.0216973485
2.99,-0.0439091306,0.02444894822
3,-0.04216181985,0.02708763899
3.01,-0.0402571359,0.0296035683
3.02,-0.03820358527,0.03198743227
3.03,-0.03601021888,0.03423050968
3.04,-0.03368659249,0.03632469341
3.05,-0.03124272544,0.03826251928
3.06,-0.02868905774,0.04003719204
3.07,-0.0260364057,0.04164260863
3.08,-0.02329591636,0.04307337843
3.09,-0.02047902083,0.04432484057
3.1,-0.01759738684,0.04539307818
3.11,-0.01466287052,0.04627492964
3.12,-0.01168746782,0.0469679966
3.13,-0.008683265569,0.04747064899
3.14,-0.005662392579,0.04778202691
3.15,-0.002636970758,0.04790203933
3.16,0.0003809333671,0.04783135982
3.17,0.003379356648,0.04757141916
3.18,0.006346486591,0.04712439498
3.19,0.009270707738,0.04649319846
3.2,0.01214064698,0.04568145818
3.21,0.01494521762,0.04469350115
3.22,0.01767366199,0.04353433121
3.23,0.02031559252,0.04220960478
3.24,0.02286103103,0.04072560417
3.25,0.02530044619,0.03908920856
3.26,0.02762478888,0.03730786273
3.27,0.02982552542,0.03538954372
3.28,0.0318946686,0.03334272554
3.29,0.03382480616,0.03117634216
3.3,0.03560912694,0.02889974884
3.31,0.03724144438,0.02652268198
3.32,0.03871621732,0.02405521775
3.33,0.04002856819,0.02150772959
3.34,0.0411742983,0.01889084478
3.35,0.04214990036,0.01621540024
3.36,0.04295256818,0.01349239783
3.37,0.04358020338,0.01073295918
3.38,0.04403141935,0.007948280425
3.39,0.04430554219,0.005149586839
3.4,0.04440260885,0.002348087702
3.41,0.04432336245,-0.0004450685131
3.42,0.04406924471,-0.003218838405
3.43,0.04364238566,-0.005962327212
3.44,0.04304559067,-0.008664831496
3.45,0.0422823248,-0.01131588078
3.46,0.04135669463,-0.01390527799
3.47,0.04027342762,-0.01642313852
3.48,0.03903784907,-0.01885992777
3.49,0.03765585689,-0.02120649711
3.5,0.0361338942,-0.02345411792
3.51,0.03447891987,-0.02559451387
3.52,0.03269837723,-0.027619891
3.53,0.03080016107,-0.02952296584
3.54,0.02879258291,-0.03129699115
3.55,0.02668433498,-0.03293577936
3.56,0.0244844528,-0.03443372365
3.57,0.02220227666,-0.03578581651
3.58,0.01984741211,-0.03698766574
3.59,0.01742968972,-0.03803550792
3.6,0.0149591241,-0.03892621923
3.61,0.01244587253,-0.03965732359
3.62,0.009900193269,-0.04022699818
3.63,0.007332403735,-0.04063407624
3.64,0.004752838756,-0.04087804731
3.65,0.002171809013,-0.04095905465
3.66,-0.0004004401175,-0.04087789021
3.67,-0.002953769189,-0.04063598695
3.68,-0.005478184584,-0.04023540857
3.69,-0.007963877563,-0.03967883692
3.7,-0.01040126229,-0.03896955682
3.71,-0.01278101267,-0.0381114387
3.72,-0.01509409795,-0.03710891895
3.73,-0.01733181677,-0.03596697808
3.74,-0.01948582974,-0.03469111693
3.75,-0.0215481903,-0.03328733087
3.76,-0.02351137369,-0.03176208223
3.77,-0.02536830419,-0.03012227104
3.78,-0.02711238015,-0.02837520421
3.79,-0.02873749708,-0.02652856326
3.8,-0.03023806845,-0.02459037084
3.81,-0.03160904439,-0.02256895606
3.82,-0.0328459279,-0.02047291883
3.83,-0.03394478888,-0.01831109345
3.84,-0.03490227569,-0.01609251141
3.85,-0.03571562427,-0.01382636375
3.86,-0.03638266486,-0.01152196303
3.87,-0.03690182625,-0.009188705071
3.88,-0.03727213762,-0.006836030709
3.89,-0.03749322786,-0.004473387578
3.9,-0.03756532257,-0.00211019221
3.91,-0.03748923858,0.0002442074728
3.92,-0.0372663762,0.002580569102
3.93,-0.03689870916,0.00488979209
3.94,-0.03638877224,0.007162953016
3.95,-0.03573964682,0.00939134001
3.96,-0.0349549443,0.01156648603
3.97,-0.03403878747,0.01368020087
3.98,-0.03299579007,0.01572460182
3.99,-0.03183103435,0.01769214284
4,-0.03055004713,0.01957564213
4.01,-0.02915877406,0.02136830799
4.02,-0.02766355252,0.02306376299
4.03,-0.02607108309,0.02465606611
4.04,-0.02438839983,0.02613973315
4.05,-0.02262283941,0.02750975489
4.06,-0.0207820093,0.02876161343
4.07,-0.01887375512,0.02989129617
4.08,-0.01690612725,0.03089530786
4.09,-0.014887347,0.03177068029
4.1,-0.01282577223,0.03251497983
4.11,-0.01072986284,0.0331263128
4.12,-0.008608146006,0.03360332854
4.13,-0.006469181572,0.03394522028
4.14,-0.004321527486,0.03415172382
4.15,-0.002173705608,0.03422311404
4.16,-3.416793018E-05,0.03416019924
4.17,0.002088736623,0.03396431336
4.18,0.004186794698,0.03363730621
4.19,0.006251960182,0.03318153164
4.2,0.008276384918,0.03259983378
4.21,0.01025244836,0.0318955315
4.22,0.01217278606,0.03107240095
4.23,0.0140303168,0.03013465656
4.24,0.01581826846,0.02908693034
4.25,0.01753020231,0.02793424974
4.26,0.01916003577,0.02668201404
4.27,0.0207020635,0.02533596954
4.28,0.02215097689,0.02390218355
4.29,0.02350188157,0.02238701726
4.3,0.02475031332,0.02079709776
4.31,0.0258922519,0.01913928919
4.32,0.02692413309,0.01742066326
4.33,0.02784285874,0.01564846913
4.34,0.02864580484,0.01383010291
4.35,0.0293308276,0.01197307687
4.36,0.02989626756,0.01008498839
4.37,0.03034095171,0.008173488979
4.38,0.03066419362,0.006246253293
4.39,0.03086579158,0.004310948361
4.4,0.0309460249,0.002375203177
4.41,0.0309056482,0.0004465787081
4.42,0.03074588391,-0.001467461514
4.43,0.03046841299,-0.003359580129
4.44,0.03007536377,-0.005222593894
4.45,0.02956929927,-0.007049500728
4.46,0.02895320279,-0.00883350576
4.47,0.02823046199,-0.01056804629
4.48,0.02740485148,-0.01224681556
4.49,0.0264805141,-0.01386378526
4.5,0.02546194082,-0.01541322668
4.51,0.02435394955,-0.01688973047
4.52,0.02316166276,-0.01828822487
4.53,0.02189048418,-0.01960399246
4.54,0.02054607457,-0.02083268523
4.55,0.01913432677,-0.02197033813
4.56,0.01766134,-0.02301338083
4.57,0.01613339368,-0.02395864784
4.58,0.01455692078,-0.02480338689
4.59,0.01293848081,-0.02554526558
4.6,0.01128473264,-0.02618237622
4.61,0.0096024072,-0.02671323903
4.62,0.007898280172,-0.02713680348
4.63,0.006179144811,-0.02745244798
4.64,0.004451784998,-0.02765997783
4.65,0.00272294862,-0.0277596215
4.66,0.000999321385,-0.02775202526
4.67,-0.0007124988146,-0.02763824618
4.68,-0.002406026915,-0.02741974364
4.69,-0.004074914959,-0.02709836923
4.7,-0.00571297555,-0.02667635531
4.71,-0.007314204414,-0.02615630214
4.72,-0.008872801968,-0.02554116364
4.73,-0.01038319383,-0.024834232
4.74,-0.01184005019,-0.02403912107
4.75,-0.01323830404,-0.02315974867
4.76,-0.01457316803,-0.02220031793
4.77,-0.01584015019,-0.02116529766
4.78,-0.01703506812,-0.02005940196
4.79,-0.01815406193,-0.01888756904
4.8,-0.01919360567,-0.01765493946
4.81,-0.02015051732,-0.01636683377
4.82,-0.02102196735,-0.01502872979
4.83,-0.02180548567,-0.01364623943
4.84,-0.02249896723,-0.01222508536
4.85,-0.02310067599,-0.01077107744
4.86,-0.02360924746,-0.009290089193
4.87,-0.02402368969,-0.007788034225
4.88,-0.02434338283,-0.006270842814
4.89,-0.02456807724,-0.004744438724
4.9,-0.02469789009,-0.003214716326
4.91,-0.02473330065,-0.001687518119
4.92,-0.02467514418,-0.0001686127372
4.93,-0.02452460451,0.001336326479
4.94,-0.02428320534,0.002821742267
4.95,-0.02395280034,0.00428221351
4.96,-0.02353556205,0.00571247452
4.97,-0.02303396971,0.007107433457
4.98,-0.02245079604,0.008462189851
4.99,-0.02178909305,0.009772051131
5,-0.02105217694,0.01103254815
5.01,-0.02024361216,0.01223944964
5.02,-0.01936719472,0.01338877551
5.03,-0.01842693487,0.01447680907
5.04,-0.01742703904,0.015500108
5.05,-0.01637189142,0.01645551416
5.06,-0.01526603502,0.01734016215
5.07,-0.01411415232,0.01815148662
5.08,-0.01292104574,0.0188872283
5.09,-0.01169161787,0.01954543888
5.1,-0.0104308515,0.02012448443
5.11,-0.009143789781,0.02062304777
5.12,-0.007835516236,0.02104012943
5.13,-0.006511135039,0.0213750475
5.14,-0.005175751394,0.02162743612
5.15,-0.003834452217,0.02179724297
5.16,-0.002492287147,0.02188472539
5.17,-0.001154249957,0.02189044552
5.18,0.0001747395577,0.0218152643
5.19,0.001489853155,0.02166033438
5.2,0.002786371136,0.02142709202
5.21,0.004059698673,0.02111724812
5.22,0.005305381446,0.02073277819
5.23,0.006519120511,0.02027591158
5.24,0.00769678638,0.01974911981
5.25,0.008834432255,0.01915510422
5.26,0.009928306387,0.01849678287
5.27,0.01097486352,0.01777727687
5.28,0.01197077538,0.01699989606
5.29,0.01291294024,0.01616812429
5.3,0.01379849143,0.01528560416
5.31,0.01462480492,0.01435612143
5.32,0.01538950578,0.01338358915
5.33,0.01609047375,0.01237203148
5.34,0.01672584767,0.01132556735
5.35,0.01729402891,0.01024839409
5.36,0.01779368378,0.009144770833
5.37,0.01822374495,0.008019002127
5.38,0.01858341179,0.006875421472
5.39,0.01887214977,0.005718375068
5.4,0.01908968889,0.004552205735
5.41,0.01923602111,0.003381237085
5.42,0.01931139691,0.002209757995
5.43,0.01931632091,0.001042007446
5.44,0.01925154664,-0.0001178402317
5.45,0.01911807045,-0.001265689661
5.46,0.01891712469,-0.00239753821
5.47,0.01865017005,-0.003509489247
5.48,0.01831888721,-0.004597764807
5.49,0.01792516786,-0.005658717633
5.5,0.01747110501,-0.006688842572
5.51,0.01695898278,-0.007684787273
5.52,0.01639126564,-0.008643362182
5.53,0.0157705871,-0.009561549793
5.54,0.0150997381,-0.01043651314
5.55,0.01438165482,-0.01126560351
5.56,0.01361940633,-0.01204636737
5.57,0.01281618184,-0.0127765525
5.58,0.01197527778,-0.01345411328
5.59,0.0111000846,-0.01407721519
5.6,0.01019407355,-0.0146442385
5.61,0.009260783312,-0.0151537811
5.62,0.008303806583,-0.01560466055
5.63,0.007326776695,-0.01599591532
5.64,0.00633335429,-0.01632680523
5.65,0.005327214097,-0.01659681108
5.66,0.004312031854,-0.01680563354
5.67,0.003291471431,-0.01695319129
5.68,0.002269172184,-0.01703961836
5.69,0.001248736588,-0.01706526089
5.7,0.0002337181773,-0.01703067304
5.71,-0.0007723901535,-0.01693661237
5.72,-0.001766167472,-0.0167840345
5.73,-0.002744275708,-0.01657408723
5.74,-0.003703470104,-0.01630810402
5.75,-0.004640609195,-0.01598759697
5.76,-0.005552664276,-0.0156142493
5.77,-0.006436728351,-0.01518990731
5.78,-0.00729002453,-0.01471657193
5.79,-0.008109913859,-0.01419638989
5.8,-0.008893902563,-0.01363164447
5.81,-0.009639648695,-0.01302474596
5.82,-0.01034496817,-0.01237822183
5.83,-0.01100784018,-0.01169470661
5.84,-0.01162641197,-0.01097693162
5.85,-0.01219900301,-0.01022771446
5.86,-0.01272410847,-0.009449948398
5.87,-0.01320040214,-0.008646591637
5.88,-0.01362673862,-0.007820656546
5.89,-0.01400215496,-0.006975198836
5.9,-0.01432587162,-0.006113306753
5.91,-0.0145972928,-0.005238090328
5.92,-0.0148160062,-0.004352670687
5.93,-0.01498178217,-0.003460169486
5.94,-0.0150945722,-0.002563698489
5.95,-0.01515450696,-0.001666349317
5.96,-0.01516189365,-0.0007711834126
5.97,-0.01511721291,0.0001187777704
5.98,-0.01502111516,0.001000562305
5.99,-0.01487441639,0.001871257043
6,-0.0146780936,0.002728016552
