"Freq [GHz]","re(S(Tx_p1,Tx_p1)) []","im(S(Tx_p1,Tx_p1)) []"
1,-0.1244699612,0.06062089452
1.01,-0.1201722743,0.06754937725
1.02,-0.1154828243,0.07418353465
1.03,-0.1104218491,0.08050044321
1.04,-0.1050109762,0.08647862352
1.05,-0.09927311529,0.09209812531
1.06,-0.09323234505,0.09734060432
1.07,-0.08691379599,0.1021893905
1.08,-0.0803435294,0.1066295478
1.09,-0.07354841311,0.1106479245
1.1,-0.06655599484,0.1142331948
1.11,-0.05939437368,0.1173758914
1.12,-0.0520920705,0.1200684285
1.13,-0.04467789777,0.1223051155
1.14,-0.03718082969,0.1240821619
1.15,-0.02962987299,0.1253976733
1.16,-0.02205393933,0.1262516375
1.17,-0.01448171966,0.1266459029
1.18,-0.006941561341,0.126584148
1.19,0.0005386515441,0.1260718422
1.2,0.007931614015,0.1251161998
1.21,0.01521071172,0.1237261252
1.22,0.02235012763,0.1219121514
1.23,0.0293249434,0.1196863719
1.24,0.03611123506,0.1170623663
1.25,0.04268616252,0.1140551191
1.26,0.04902805269,0.1106809345
1.27,0.05511647569,0.1069573453
1.28,0.06093231408,0.102903018
1.29,0.06645782478,0.09853765357
1.3,0.07167669344,0.09388188586
1.31,0.0765740812,0.08895717648
1.32,0.08113666369,0.08378570812
1.33,0.08535266223,0.07839027618
1.34,0.08921186716,0.07279417953
1.35,0.09270565336,0.06702111087
1.36,0.095826988,0.06109504731
1.37,0.09857043071,0.05504014172
1.38,0.1009321261,0.04888061535
1.39,0.1029097891,0.04264065226
1.4,0.1045026831,0.03634429614
1.41,0.1057115911,0.03001534984
1.42,0.1065387808,0.02367727823
1.43,0.1069879624,0.01735311471
1.44,0.1070642419,0.01106537188
1.45,0.1067740673,0.004835956639
1.46,0.1061251711,-0.001313909891
1.47,0.1051265067,-0.007363767292
1.48,0.1037881817,-0.01329398538
1.49,0.1021213864,-0.01908582809
1.5,0.1001383195,-0.02472151149
1.51,0.09785211061,-0.03018425581
1.52,0.09527673998,-0.03545833127
1.53,0.09242695704,-0.04052909772
1.54,0.08931819673,-0.04538303789
1.55,0.08596649517,-0.05000778443
1.56,0.0823884046,-0.05439214052
1.57,0.07860090842,-0.05852609435
1.58,0.0746213365,-0.0624008273
1.59,0.07046728134,-0.06600871616
1.6,0.06615651553,-0.06934332945
1.61,0.06170691088,-0.07239941796
1.62,0.0571363596,-0.07517289987
1.63,0.05246269796,-0.07766084053
1.64,0.04770363273,-0.07986142728
1.65,0.04287667078,-0.08177393961
1.66,0.03799905209,-0.08339871478
1.67,0.03308768644,-0.08473710955
1.68,0.02815909409,-0.08579145799
1.69,0.02322935056,-0.0865650261
1.7,0.01831403583,-0.08706196332
1.71,0.01342818795,-0.08728725141
1.72,0.00858626134,-0.08724665124
1.73,0.003802089694,-0.08694664751
1.74,-0.0009111462577,-0.08639439227
1.75,-0.005540946267,-0.08559764716
1.76,-0.01007551329,-0.08456472514
1.77,-0.01450377149,-0.08330443181
1.78,-0.01881537951,-0.0818260069
1.79,-0.02300073926,-0.08013906614
1.8,-0.02705100017,-0.07825354397
1.81,-0.03095805918,-0.07617963732
1.82,-0.03471455655,-0.07392775089
1.83,-0.03831386782,-0.07150844412
1.84,-0.04175009195,-0.06893238027
1.85,-0.04501803603,-0.06621027765
1.86,-0.04811319678,-0.06335286349
1.87,-0.05103173907,-0.06037083043
1.88,-0.05377047175,-0.05727479601
1.89,-0.05632682111,-0.05407526515
1.9,-0.05869880233,-0.0507825959
1.91,-0.06088498904,-0.04740696841
1.92,-0.06288448159,-0.04395835738
1.93,-0.06469687401,-0.04044650785
1.94,-0.06632222032,-0.0368809145
1.95,-0.0677610002,-0.03327080441
1.96,-0.06901408459,-0.02962512318
1.97,-0.07008270132,-0.02595252447
1.98,-0.07096840114,-0.02226136279
1.99,-0.07167302449,-0.01855968948
2,-0.07219866922,-0.01485525174
2.01,-0.07254765943,-0.0111554945
2.02,-0.07272251591,-0.00746756513
2.03,-0.07272592811,-0.003798320524
2.04,-0.07256072808,-0.0001543366557
2.05,-0.07222986641,0.003458079841
2.06,-0.0717363904,0.007032878209
2.07,-0.07108342459,0.01056424847
2.08,-0.07027415372,0.014046605
2.09,-0.06931180827,0.01747456892
2.1,-0.0681996526,0.02084294978
2.11,-0.06694097575,0.02414672658
2.12,-0.06553908491,0.02738102856
2.13,-0.06399730152,0.03054111595
2.14,-0.06231896004,0.03362236099
2.15,-0.06050740924,0.03662022952
2.16,-0.05856601601,0.03953026322
2.17,-0.0564981715,0.04234806301
2.18,-0.05430729951,0.04506927364
2.19,-0.05199686705,0.0476895698
2.2,-0.04957039673,0.05020464385
2.21,-0.04703148095,0.05261019554
2.22,-0.04438379763,0.0549019237
2.23,-0.04163112723,0.05707552017
2.24,-0.03877737092,0.0591266661
2.25,-0.0358265695,0.06105103067
2.26,-0.03278292303,0.06284427237
2.27,-0.0296508107,0.06450204291
2.28,-0.02643481081,0.06601999375
2.29,-0.02313972056,0.06739378536
2.3,-0.01977057532,0.06861909908
2.31,-0.01633266719,0.06969165168
2.32,-0.01283156252,0.07060721245
2.33,-0.009273118179,0.07136162285
2.34,-0.005663496281,0.07195081847
2.35,-0.002009177099,0.07237085337
2.36,0.001683030009,0.07261792643
2.37,0.005405977932,0.07268840974
2.38,0.009152175595,0.07257887869
2.39,0.01291378439,0.07228614363
2.4,0.01668261746,0.07180728285
2.41,0.02045014189,0.0711396766
2.42,0.02420748413,0.07028104196
2.43,0.02794543854,0.06922946822
2.44,0.03165447932,0.06798345255
2.45,0.03532477576,0.06654193556
2.46,0.03894621104,0.0649043366
2.47,0.04250840432,0.06307058835
2.48,0.04600073633,0.06104117049
2.49,0.04941237841,0.0588171421
2.5,0.05273232475,0.05640017244
2.51,0.05594942798,0.05379256992
2.52,0.05905243783,0.05099730883
2.53,0.06203004274,0.04801805365
2.54,0.06487091434,0.04485918057
2.55,0.06756375452,0.041525796
2.56,0.07009734488,0.0380237518
2.57,0.07246059837,0.03435965702
2.58,0.0746426128,0.03054088586
2.59,0.07663272601,0.02657558176
2.6,0.07842057233,0.02247265729
2.61,0.07999614005,0.01824178985
2.62,0.08134982962,0.01389341292
2.63,0.08247251207,0.009438702818
2.64,0.08335558757,0.004889560847
2.65,0.08399104346,0.0002585908569
2.66,0.08437151162,-0.00444092791
2.67,0.08449032471,-0.009195072597
2.68,0.0843415709,-0.01398931314
2.69,0.08392014671,-0.01880855323
2.7,0.08322180764,-0.02363717569
2.71,0.0822432162,-0.02845909228
2.72,0.08098198693,-0.03325779753
2.73,0.07943672813,-0.03801642669
2.74,0.07760707995,-0.04271781742
2.75,0.07549374848,-0.04734457492
2.76,0.07309853556,-0.0518791405
2.77,0.07042436405,-0.05630386296
2.78,0.06747529823,-0.0606010727
2.79,0.06425655912,-0.06475315817
2.8,0.06077453457,-0.06874264424
2.81,0.05703678376,-0.07255227212
2.82,0.05305203615,-0.07616508054
2.83,0.04883018454,-0.07956448763
2.84,0.04438227233,-0.08273437322
2.85,0.03972047474,-0.08565916093
2.86,0.03485807409,-0.08832389991
2.87,0.02980942898,-0.09071434547
2.88,0.02458993756,-0.0928170383
2.89,0.01921599486,-0.0946193819
2.9,0.01370494422,-0.09610971759
2.91,0.008075023075,-0.09727739682
2.92,0.002345303208,-0.09811285025
2.93,-0.00346437441,-0.09860765318
2.94,-0.009333469847,-0.09875458701
2.95,-0.01524081932,-0.09854769617
2.96,-0.02116471485,-0.0979823403
2.97,-0.02708298824,-0.09705524121
2.98,-0.03297309881,-0.09576452433
2.99,-0.03881222482,-0.09410975431
3,-0.04457735791,-0.09209196453
3.01,-0.05024540026,-0.08971368018
3.02,-0.05579326403,-0.08697893475
3.03,-0.0611979726,-0.08389327972
3.04,-0.06643676306,-0.08046378723
3.05,-0.07148718962,-0.07669904568
3.06,-0.07632722722,-0.07260914811
3.07,-0.08093537506,-0.06820567334
3.08,-0.08529075935,-0.06350165976
3.09,-0.0893732348,-0.05851157195
3.1,-0.0931634844,-0.05325126001
3.11,-0.09664311689,-0.0477379118
3.12,-0.09979476143,-0.04198999822
3.13,-0.102602159,-0.03602721162
3.14,-0.1050502498,-0.02987039764
3.15,-0.1071252567,-0.02354148068
3.16,-0.1088147638,-0.01706338322
3.17,-0.1101077896,-0.01045993946
3.18,-0.1109948544,-0.003755803504
3.19,-0.1114680425,0.003023647593
3.2,-0.1115210572,0.009852415288
3.21,-0.1111492689,0.0167039853
3.22,-0.1103497569,0.02355143709
3.23,-0.1091213433,0.03036755655
3.24,-0.1074646192,0.03712495151
3.25,-0.1053819635,0.04379616939
3.26,-0.1028775532,0.0503538166
3.27,-0.09995736603,0.05677067897
3.28,-0.0966291742,0.06301984279
3.29,-0.09290253059,0.06907481582
3.3,-0.08878874604,0.07490964764
3.31,-0.08430085856,0.08049904885
3.32,-0.07945359425,0.08581850844
3.33,-0.07426332013,0.09084440887
3.34,-0.06874798892,0.09555413812
3.35,-0.06292707603,0.09992619834
3.36,-0.05682150906,0.1039403103
3.37,-0.0504535899,0.1075775137
3.38,-0.04384690988,0.1108202613
3.39,-0.03702625828,0.1136525091
3.4,-0.03001752456,0.1160597988
3.41,-0.02284759473,0.1180293349
3.42,-0.01554424232,0.1195500544
3.43,-0.008136014411,0.120612689
3.44,-0.0006521132086,0.1212098202
3.45,0.006877726235,0.1213359256
3.46,0.0144233617,0.1209874182
3.47,0.02195437227,0.1201626756
3.48,0.02944018893,0.1188620618
3.49,0.03685022685,0.1170879397
3.5,0.04415401864,0.1148446741
3.51,0.05132134785,0.1121386268
3.52,0.05832238239,0.1089781412
3.53,0.0651278069,0.1053735194
3.54,0.07170895372,0.1013369886
3.55,0.07803793161,0.09688266014
3.56,0.08408775177,0.0920264788
3.57,0.08983245053,0.08678616383
3.58,0.09524720798,0.0811811417
3.59,0.1003084622,0.0752324707
3.6,0.1049940182,0.06896275781
3.61,0.1092831516,0.06239606817
3.62,0.1131567058,0.05555782755
3.63,0.1165971825,0.0484747182
3.64,0.1195888259,0.04117456862
3.65,0.1221176983,0.03368623765
3.66,0.1241717486,0.02603949346
3.67,0.1257408728,0.01826488796
3.68,0.1268169647,0.0103936272
3.69,0.1273939596,0.002457438361
3.7,0.1274678675,-0.005511566125
3.71,0.1270367981,-0.01348102654
3.72,0.1261009754,-0.02141847552
3.73,0.1246627444,-0.02929147849
3.74,0.1227265663,-0.03706777451
3.75,0.1202990065,-0.04471541656
3.76,0.1173887109,-0.05220291096
3.77,0.1140063746,-0.05949935502
3.78,0.1101647002,-0.06657457232
3.79,0.1058783478,-0.07339924517
3.8,0.1011638755,-0.07994504337
3.81,0.09603967181,-0.0861847489
3.82,0.09052587932,-0.09209237579
3.83,0.08464431099,-0.09764328472
3.84,0.07841835827,-0.1028142917
3.85,0.07187289239,-0.1075837707
3.86,0.06503415887,-0.1119317488
3.87,0.05792966574,-0.1158399948
3.88,0.05058806606,-0.1192920999
3.89,0.04303903532,-0.12227355
3.9,0.03531314411,-0.1247717897
3.91,0.02744172679,-0.1267762786
3.92,0.01945674672,-0.1282785367
3.93,0.01139065869,-0.1292721828
3.94,0.003276269114,-0.1297529617
3.95,-0.004853405296,-0.1297187633
3.96,-0.01296527977,-0.1291696317
3.97,-0.02102634398,-0.1281077644
3.98,-0.02900380408,-0.1265375024
3.99,-0.0368652238,-0.1244653106
4,-0.04457866373,-0.121899749
4.01,-0.05211281837,-0.1188514342
4.02,-0.05943715014,-0.1153329923
4.03,-0.06652201995,-0.1113590028
4.04,-0.07333881346,-0.1069459339
4.05,-0.07986006277,-0.1021120692
4.06,-0.0860595628,-0.09687742753
4.07,-0.09191248179,-0.09126367376
4.08,-0.09739546573,-0.08529402384
4.09,-0.1024867358,-0.07899314241
4.1,-0.107166179,-0.07238703451
4.11,-0.1114154307,-0.06550293156
4.12,-0.1152179499,-0.05836917219
4.13,-0.1185590857,-0.05101507855
4.14,-0.1214261357,-0.04347082858
4.15,-0.1238083955,-0.03576732484
4.16,-0.125697199,-0.02793606061
4.17,-0.1270859501,-0.02000898372
4.18,-0.1279701447,-0.01201835887
4.19,-0.1283473839,-0.003996629035
4.2,-0.1282173776,0.004023723511
4.21,-0.1275819387,0.01201031576
4.22,-0.1264449685,0.01993100164
4.23,-0.1248124329,0.02775400807
4.24,-0.1226923293,0.03544806883
4.25,-0.1200946449,0.04298255575
4.26,-0.1170313067,0.05032760639
4.27,-0.1135161232,0.05745424793
4.28,-0.1095647175,0.06433451653
4.29,-0.1051944539,0.07094157177
4.3,-0.1004243558,0.07724980562
4.31,-0.0952750184,0.08323494542
4.32,-0.08976851356,0.08887415058
4.33,-0.08392828953,0.09414610254
4.34,-0.0777790649,0.09903108751
4.35,-0.07134671769,0.1035110719
4.36,-0.06465816998,0.1075697697
4.37,-0.05774126867,0.1111927026
4.38,-0.05062466291,0.1143672507
4.39,-0.04333767878,0.1170826961
4.4,-0.03591019182,0.1193302568
4.41,-0.02837249791,0.1211031132
4.42,-0.02075518328,0.1223964246
4.43,-0.01308899396,0.123207338
4.44,-0.005404705562,0.1235349878
4.45,0.002267006283,0.1233804869
4.46,0.009895694094,0.1227469094
4.47,0.01745126482,0.121639265
4.48,0.02490410366,0.1200644646
4.49,0.03222519494,0.118031279
4.5,0.03938623941,0.1155502891
4.51,0.04635976761,0.1126338288
4.52,0.05311924875,0.1092959208
4.53,0.05963919468,0.1055522058
4.54,0.06589525848,0.1014198653
4.55,0.07186432739,0.0969175379
4.56,0.07752460962,0.09206523086
4.57,0.08285571468,0.0868842258
4.58,0.08783872711,0.08139698016
4.59,0.0924562731,0.07562702431
4.6,0.09669258,0.06959885506
4.61,0.1005335284,0.06333782597
4.62,0.1039666964,0.05687003496
4.63,0.1069813969,0.05022220989
4.64,0.1095687061,0.04342159247
4.65,0.111721485,0.03649582113
4.66,0.1134343928,0.02947281333
4.67,0.1147038924,0.0223806479
4.68,0.1155282483,0.01524744782
4.69,0.1159075168,0.008101264116
4.7,0.1158435283,0.0009699611988
4.71,0.1153398633,-0.006118895755
4.72,0.11440182,-0.01313815093
4.73,0.1130363757,-0.02006116507
4.74,0.1112521411,-0.02686191927
4.75,0.1090593088,-0.03351511504
4.76,0.1064695951,-0.03999627008
4.77,0.1034961758,-0.04628180957
4.78,0.100153618,-0.05234915255
4.79,0.09645780478,-0.05817679305
4.8,0.09242585719,-0.06374437572
4.81,0.0880760506,-0.06903276573
4.82,0.08342772796,-0.07402411259
4.83,0.07850120937,-0.07870190791
4.84,0.07331769888,-0.08305103663
4.85,0.06789918859,-0.08705782188
4.86,0.06226836084,-0.09071006321
4.87,0.0564484888,-0.09399706805
4.88,0.05046333585,-0.0969096766
4.89,0.04433705433,-0.0994402799
4.9,0.03809408406,-0.1015828312
4.91,0.03175905109,-0.1033328506
4.92,0.02535666704,-0.1046874234
4.93,0.01891162956,-0.1056451917
4.94,0.01244852434,-0.1062063396
4.95,0.005991728896,-0.1063725726
4.96,-0.0004346812729,-0.1061470906
4.97,-0.006807023895,-0.1055345558
4.98,-0.01310209815,-0.1045410541
4.99,-0.01929726955,-0.1031740519
5,-0.0253705512,-0.1014423481
5.01,-0.03130068105,-0.0993560207
5.02,-0.03706719509,-0.09692636945
5.03,-0.04265049597,-0.09416585449
5.04,-0.04803191706,-0.091088031
5.05,-0.05319378163,-0.08770748071
5.06,-0.05811945702,-0.08403974021
5.07,-0.0627934037,-0.08010122668
5.08,-0.06720121902,-0.07590916133
5.09,-0.07132967565,-0.07148149089
5.1,-0.07516675461,-0.06683680756
5.11,-0.07870167284,-0.06199426777
5.12,-0.08192490535,-0.05697351014
5.13,-0.08482820189,-0.05179457298
5.14,-0.08740459827,-0.04647781173
5.15,-0.08964842233,-0.04104381663
5.16,-0.09155529464,-0.03551333102
5.17,-0.09312212411,-0.02990717056
5.18,-0.09434709853,-0.02424614373
5.19,-0.09522967033,-0.01855097387
5.2,-0.09577053754,-0.01284222313
5.21,-0.09597162035,-0.007140218482
5.22,-0.0958360333,-0.001464980191
5.23,-0.09536805334,0.004163847086
5.24,-0.09457308415,0.009727060348
5.25,-0.09345761666,0.01520596121
5.26,-0.09202918638,0.02058241559
5.27,-0.09029632745,0.02583890999
5.28,-0.08826852394,0.03095860418
5.29,-0.08595615852,0.03592538014
5.3,-0.08337045889,0.04072388728
5.31,-0.0805234421,0.04533958361
5.32,-0.07742785716,0.0497587731
5.33,-0.07409712627,0.05396863885
5.34,-0.0705452847,0.05795727239
5.35,-0.06678691991,0.06171369874
5.36,-0.06283710997,0.06522789756
5.37,-0.05871136161,0.06849082019
5.38,-0.05442554815,0.07149440279
5.39,-0.04999584762,0.07423157546
5.4,-0.0454386812,0.07669626762
5.41,-0.04077065233,0.07888340959
5.42,-0.03600848664,0.08078893051
5.43,-0.03116897293,0.0824097528
5.44,-0.02626890542,0.08374378315
5.45,-0.02132502744,0.08478990031
5.46,-0.0163539767,0.08554793974
5.47,-0.01137223239,0.08601867534
5.48,-0.006396064172,0.08620379841
5.49,-0.001441483237,0.08610589395
5.5,0.003475804468,0.0857284146
5.51,0.008340442733,0.0850756523
5.52,0.01313746721,0.08415270787
5.53,0.01785234509,0.08296545876
5.54,0.02247101228,0.08152052508
5.55,0.02697990803,0.07982523412
5.56,0.031366007,0.0778875836
5.57,0.03561684862,0.07571620373
5.58,0.03972056399,0.07332031835
5.59,0.04366590003,0.0707097053
5.6,0.04744224113,0.06789465615
5.61,0.05103962817,0.06488593553
5.62,0.05444877502,0.06169474012
5.63,0.0576610826,0.05833265758
5.64,0.06066865045,0.05481162546
5.65,0.06346428595,0.05114389026
5.66,0.06604151125,0.04734196676
5.67,0.06839456799,0.0434185978
5.68,0.07051841981,0.03938671453
5.69,0.07240875291,0.03525939729
5.7,0.07406197456,0.03104983721
5.71,0.07547520979,0.02677129858
5.72,0.07664629626,0.02243708215
5.73,0.0775737775,0.01806048927
5.74,0.07825689452,0.0136547871
5.75,0.07869557601,0.009233174887
5.76,0.07889042706,0.004808751222
5.77,0.07884271668,0.0003944825167
5.78,0.07855436405,-0.003996827428
5.79,0.07802792374,-0.008352566678
5.8,0.07726656982,-0.01266034325
5.81,0.07627407918,-0.01690801202
5.82,0.07505481384,-0.02108370046
5.83,0.07361370261,-0.0251758332
5.84,0.07195622197,-0.02917315542
5.85,0.07008837639,-0.0330647551
5.86,0.06801667802,-0.03684008417
5.87,0.06574812589,-0.04048897852
5.88,0.06329018466,-0.04400167693
5.89,0.0606507629,-0.04736883898
5.9,0.05783819111,-0.05058156183
5.91,0.05486119928,-0.05363139615
5.92,0.05172889422,-0.05651036088
5.93,0.0484507366,-0.05921095723
5.94,0.0450365177,-0.06172618155
5.95,0.04149633598,-0.0640495375
5.96,0.03784057342,-0.06617504714
5.97,0.03407987154,-0.06809726128
5.98,0.03022510743,-0.06981126895
5.99,0.02628736934,-0.07131270597
6,0.02227793227,-0.07259776278
