"Freq [GHz]","re(S(Tx_p1,Tx_p1)) []","im(S(Tx_p1,Tx_p1)) []"
1,-0.1198984614,0.06415753337
1.01,-0.1154040493,0.07074539571
1.02,-0.1105455352,0.07702642295
1.03,-0.1053440807,0.08298006152
1.04,-0.09982202961,0.08858727825
1.05,-0.09400279286,0.09383062708
1.06,-0.0879107311,0.09869430703
1.07,-0.08157103375,0.1031642112
1.08,-0.07500959625,0.1072279665
1.09,-0.0682528958,0.1108749648
1.1,-0.06132786648,0.114096384
1.11,-0.05426177419,0.1168852014
1.12,-0.04708209226,0.1192361967
1.13,-0.03981637827,0.1211459474
1.14,-0.03249215269,0.1226128147
1.15,-0.02513678007,0.123636922
1.16,-0.01777735314,0.1242201243
1.17,-0.01044058055,0.1243659707
1.18,-0.003152678706,0.1240796593
1.19,0.004060731861,0.1233679849
1.2,0.01117472509,0.1222392802
1.21,0.01816516255,0.1207033514
1.22,0.02500878089,0.1187714077
1.23,0.03168327302,0.1164559857
1.24,0.03816736306,0.1137708695
1.25,0.04444087453,0.1107310063
1.26,0.05048479177,0.1073524193
1.27,0.05628131427,0.1036521166
1.28,0.06181390403,0.09964799868
1.29,0.06706732561,0.09535876316
1.3,0.07202767907,0.09080380894
1.31,0.07668242571,0.08600313933
1.32,0.0810204067,0.08097726492
1.33,0.08503185467,0.0757471069
1.34,0.08870839843,0.07033390117
1.35,0.09204306103,0.06475910374
1.36,0.09503025128,0.05904429795
1.37,0.0976657491,0.05321110395
1.38,0.09994668478,0.04728109082
1.39,0.1018715127,0.04127569175
1.4,0.1034399798,0.03521612264
1.41,0.1046530886,0.02912330448
1.42,0.1055130563,0.02301778973
1.43,0.1060232692,0.01691969302
1.44,0.1061882335,0.01084862649
1.45,0.1060135224,0.004823639721
1.46,0.1055057208,-0.001136835324
1.47,0.1046723667,-0.007015034382
1.48,0.1035218912,-0.01279390587
1.49,0.1020635568,-0.01845715068
1.5,0.1003073932,-0.02398925688
1.51,0.09826413444,-0.02937552914
1.52,0.09594515334,-0.03460211318
1.53,0.09336239766,-0.03965601518
1.54,0.09052832564,-0.04452511623
1.55,0.0874558426,-0.0491981821
1.56,0.08415823859,-0.05366486844
1.57,0.08064912738,-0.05791572154
1.58,0.07694238723,-0.061942175
1.59,0.0730521036,-0.06573654244
1.6,0.0689925141,-0.0692920066
1.61,0.06477795595,-0.072602605
1.62,0.06042281606,-0.07566321259
1.63,0.05594148397,-0.07846952158
1.64,0.05134830782,-0.08101801881
1.65,0.04665755331,-0.08330596092
1.66,0.04188336596,-0.08533134776
1.67,0.03703973651,-0.08709289425
1.68,0.03214046961,-0.08859000102
1.69,0.02719915576,-0.08982272417
1.7,0.02222914648,-0.09079174453
1.71,0.01724353263,-0.09149833653
1.72,0.01225512577,-0.09194433712
1.73,0.007276442534,-0.09213211505
1.74,0.002319691824,-0.09206454054
1.75,-0.002603235327,-0.09174495584
1.76,-0.007480773377,-0.09117714674
1.77,-0.01230168758,-0.09036531528
1.78,-0.01705507718,-0.08931405387
1.79,-0.02173037669,-0.08802832085
1.8,-0.02631735554,-0.08651341786
1.81,-0.03080611626,-0.08477496878
1.82,-0.03518709149,-0.08281890073
1.83,-0.03945104006,-0.08065142681
1.84,-0.04358904235,-0.07827903083
1.85,-0.04759249523,-0.07570845404
1.86,-0.05145310678,-0.07294668368
1.87,-0.05516289111,-0.07000094346
1.88,-0.05871416331,-0.06687868586
1.89,-0.06209953508,-0.06358758611
1.9,-0.06531191087,-0.06013553778
1.91,-0.06834448509,-0.05653064989
1.92,-0.0711907402,-0.05278124524
1.93,-0.07384444624,-0.04889586001
1.94,-0.07629966159,-0.04488324422
1.95,-0.07855073524,-0.040752363
1.96,-0.08059231078,-0.03651239842
1.97,-0.08241933191,-0.03217275164
1.98,-0.0840270498,-0.02774304519
1.99,-0.08541103213,-0.02323312505
2,-0.08656717399,-0.01865306245
2.01,-0.08749171046,-0.01401315505
2.02,-0.08818123092,-0.009323927222
2.03,-0.08863269501,-0.004596129359
2.04,-0.08884345014,0.0001592641982
2.05,-0.08881125046,0.004931058688
2.06,-0.08853427706,0.0097078442
2.07,-0.08801115937,0.01447800285
2.08,-0.08724099754,0.01922971803
2.09,-0.08622338549,0.02395098599
2.1,-0.08495843461,0.02862962968
2.11,-0.08344679771,0.03325331523
2.12,-0.08168969303,0.03780957104
2.13,-0.07968892813,0.04228580953
2.14,-0.07744692322,0.04666935165
2.15,-0.07496673382,0.05094745426
2.16,-0.07225207235,0.05510734022
2.17,-0.06930732849,0.05913623128
2.18,-0.06613758783,0.06302138371
2.19,-0.06274864875,0.06675012658
2.2,-0.05914703702,0.07030990258
2.21,-0.05534001808,0.07368831122
2.22,-0.05133560651,0.07687315436
2.23,-0.04714257259,0.07985248378
2.24,-0.04277044561,0.08261465062
2.25,-0.03822951376,0.08514835644
2.26,-0.03353082041,0.08744270574
2.27,-0.02868615643,0.08948725947
2.28,-0.02370804865,0.09127208949
2.29,-0.01860974402,0.09278783342
2.3,-0.01340518964,0.09402574972
2.31,-0.008109008271,0.09497777261
2.32,-0.002736469495,0.09563656638
2.33,0.002696543592,0.09599557892
2.34,0.00817357221,0.09604909393
2.35,0.01367762416,0.09579228144
2.36,0.01919122047,0.09522124646
2.37,0.02469644641,0.09433307504
2.38,0.03017500659,0.09312587776
2.39,0.03560828426,0.09159882988
2.4,0.04097740425,0.08975220821
2.41,0.04626329978,0.08758742391
2.42,0.05144678248,0.0851070513
2.43,0.05650861564,0.08231485204
2.44,0.06142959022,0.07921579459
2.45,0.06619060339,0.07581606854
2.46,0.07077273917,0.07212309368
2.47,0.07515735085,0.06814552342
2.48,0.07932614473,0.06389324252
2.49,0.08326126487,0.05937735892
2.5,0.08694537826,0.05461018939
2.51,0.09036176008,0.04960523915
2.52,0.09349437856,0.04437717512
2.53,0.09632797897,0.038941793
2.54,0.09884816616,0.03331597801
2.55,0.1010414854,0.02751765941
2.56,0.1028955008,0.02156575883
2.57,0.1043988708,0.01548013263
2.58,0.1055414209,0.009281508281
2.59,0.106314212,0.002991415073
2.6,0.1067096048,-0.003367890668
2.61,0.1067213196,-0.009773505565
2.62,0.1063444913,-0.01620196412
2.63,0.1055757183,-0.0226293282
2.64,0.104413106,-0.02903128079
2.65,0.1028563042,-0.03538322354
2.66,0.1009065375,-0.04166037771
2.67,0.09856662933,-0.04783788808
2.68,0.09584101882,-0.05389092935
2.69,0.09273576992,-0.05979481443
2.7,0.08925857362,-0.06552510428
2.71,0.08541874209,-0.0710577186
2.72,0.08122719522,-0.07636904685
2.73,0.07669643925,-0.08143605916
2.74,0.0718405375,-0.08623641639
2.75,0.06667507327,-0.09074857881
2.76,0.06121710488,-0.09495191295
2.77,0.05548511299,-0.09882679581
2.78,0.04949894036,-0.1023547161
2.79,0.0432797242,-0.1055183718
2.8,0.03684982133,-0.1083017634
2.81,0.03023272645,-0.1106902826
2.82,0.02345298387,-0.1126707957
2.83,0.01653609286,-0.1142317208
2.84,0.009508407328,-0.1153630999
2.85,0.002397029899,-0.1160566627
2.86,-0.004770298853,-0.1163058849
2.87,-0.01196531572,-0.1161060377
2.88,-0.0191593541,-0.1154542303
2.89,-0.02632346667,-0.1143494443
2.9,-0.03342855087,-0.1127925588
2.91,-0.04044547664,-0.1107863677
2.92,-0.04734521579,-0.1083355879
2.93,-0.05409897233,-0.1054468586
2.94,-0.06067831323,-0.1021287312
2.95,-0.06705529879,-0.09839165029
2.96,-0.07320261215,-0.0942479258
2.97,-0.07909368716,-0.08971169539
2.98,-0.08470283397,-0.08479887843
2.99,-0.09000536173,-0.07952712086
3,-0.0949776978,-0.0739157314
3.01,-0.09959750268,-0.0679856094
3.02,-0.1038437803,-0.06175916446
3.03,-0.1076969826,-0.05526022829
3.04,-0.111139109,-0.0485139591
3.05,-0.1141537982,-0.04154673892
3.06,-0.1167264137,-0.03438606436
3.07,-0.1188441223,-0.02706043125
3.08,-0.1204959636,-0.01959921378
3.09,-0.1216729118,-0.0120325385
3.1,-0.1223679291,-0.004391153966
3.11,-0.1225760092,0.003293703399
3.12,-0.1222942126,0.01099044671
3.13,-0.1215216916,0.01866727847
3.14,-0.1202597058,0.0262923323
3.15,-0.118511628,0.03383381583
3.16,-0.1162829399,0.04126015399
3.17,-0.1135812179,0.04854013215
3.18,-0.1104161091,0.05564303825
3.19,-0.1067992974,0.06253880323
3.2,-0.1027444598,0.0691981392
3.21,-0.09826721303,0.0755926745
3.22,-0.093385051,0.08169508503
3.23,-0.08811727306,0.08747922123
3.24,-0.08248490358,0.09292022998
3.25,-0.07651060296,0.09799467089
3.26,-0.07021857081,0.1026806263
3.27,-0.06363444144,0.1069578047
3.28,-0.05678517239,0.1108076364
3.29,-0.04969892635,0.1142133616
3.3,-0.04240494712,0.1171601104
3.31,-0.03493343021,0.1196349739
3.32,-0.02731538865,0.1216270662
3.33,-0.01958251473,0.1231275769
3.34,-0.0117670382,0.1241298146
3.35,-0.003901581837,0.1246292394
3.36,0.003980985116,0.1246234868
3.37,0.01184769484,0.1241123797
3.38,0.01966562943,0.1230979318
3.39,0.02740206927,0.1215843396
3.4,0.0350246406,0.1195779645
3.41,0.04250146145,0.1170873047
3.42,0.04980128544,0.1141229575
3.43,0.05689364242,0.1106975708
3.44,0.06374897561,0.1068257858
3.45,0.07033877428,0.1025241702
3.46,0.07663570157,0.09781114218
3.47,0.08261371657,0.0927068858
3.48,0.08824819035,0.0872332585
3.49,0.09351601515,0.0814136905
3.5,0.09839570629,0.07527307714
3.51,0.1028674964,0.06883766451
3.52,0.1069134212,0.06213492888
3.53,0.1105173973,0.05519345065
3.54,0.11366529,0.04804278342
3.55,0.1163449728,0.04071331873
3.56,0.1185463767,0.03323614724
3.57,0.1202615302,0.02564291706
3.58,0.1214845889,0.01796568981
3.59,0.1222118554,0.01023679523
3.6,0.1224417891,0.002488684994
3.61,0.1221750057,-0.005246213534
3.62,0.1214142664,-0.01293564288
3.63,0.1201644577,-0.02054765972
3.64,0.1184325611,-0.02805077705
3.65,0.1162276126,-0.03541410362
3.66,0.1135606537,-0.04260748
3.67,0.1104446728,-0.04960161057
3.68,0.1068945372,-0.05636819079
3.69,0.102926918,-0.06288002933
3.7,0.09856020585,-0.06911116418
3.71,0.09381441938,-0.07503697257
3.72,0.08871110699,-0.08063427389
3.73,0.08327324153,-0.08588142535
3.74,0.0775251093,-0.09075840986
3.75,0.07149219345,-0.09524691578
3.76,0.06520105267,-0.09933040822
3.77,0.05867919556,-0.1029941916
3.78,0.05195495154,-0.1062254632
3.79,0.04505733875,-0.1090133573
3.8,0.03801592977,-0.1113489806
3.81,0.03086071573,-0.1132254373
3.82,0.02362196951,-0.1146378456
3.83,0.01633010872,-0.1155833439
3.84,0.009015559102,-0.116061088
3.85,0.001708619031,-0.1160722392
3.86,-0.005560674231,-0.1156199423
3.87,-0.01276267591,-0.1147092955
3.88,-0.01986826212,-0.1133473109
3.89,-0.0268489546,-0.1115428668
3.9,-0.0336770414,-0.1093066515
3.91,-0.04032569274,-0.1066510998
3.92,-0.0467690717,-0.1035903209
3.93,-0.05298243922,-0.1001400207
3.94,-0.05894225286,-0.09631741637
3.95,-0.06462625906,-0.09214114537
3.96,-0.07001357841,-0.08763116859
3.97,-0.07508478361,-0.08280866862
3.98,-0.07982196988,-0.0776959434
3.99,-0.0842088175,-0.07231629594
4,-0.08823064633,-0.06669392066
4.01,-0.09187446205,-0.06085378697
4.02,-0.09512899408,-0.05482152068
4.03,-0.09798472515,-0.04862328384
4.04,-0.1004339123,-0.0422856536
4.05,-0.1024705993,-0.03583550069
4.06,-0.1040906213,-0.02929986821
4.07,-0.1052916003,-0.02270585112
4.08,-0.1060729328,-0.01608047723
4.09,-0.10643577,-0.009450590087
4.1,-0.1063829892,-0.002842734326
4.11,-0.1059191585,0.003716955891
4.12,-0.1050504939,0.01020286498
4.13,-0.1037848095,0.01659000005
4.14,-0.1021314611,0.02285409057
4.15,-0.1001012837,0.02897168323
4.16,-0.09770652313,0.03492023152
4.17,-0.09496076225,0.04067817982
4.18,-0.0918788424,0.0462250415
4.19,-0.08847678023,0.05154147089
4.2,-0.08477168062,0.05660932888
4.21,-0.08078164613,0.06141174183
4.22,-0.0765256834,0.0659331537
4.23,-0.07202360716,0.07015937129
4.24,-0.06729594229,0.07407760245
4.25,-0.0623638243,0.0776764872
4.26,-0.05724889906,0.08094612181
4.27,-0.05197322198,0.08387807577
4.28,-0.04655915732,0.08646540181
4.29,-0.041029278,0.08870263893
4.3,-0.03540626657,0.09058580872
4.31,-0.02971281752,0.09211240503
4.32,-0.02397154168,0.09328137713
4.33,-0.01820487289,0.09409310681
4.34,-0.0124349775,0.09454937935
4.35,-0.006683666954,0.09465334893
4.36,-0.0009723139853,0.09440949855
4.37,0.004678227474,0.09382359493
4.38,0.01024769817,0.09290263868
4.39,0.01571650505,0.09165481007
4.4,0.02106578807,0.0900894108
4.41,0.02627748223,0.08821680219
4.42,0.03133437455,0.08604834006
4.43,0.03622015577,0.0835963069
4.44,0.04091946689,0.08087384149
4.45,0.04541794024,0.07789486666
4.46,0.04970223509,0.07467401528
4.47,0.05376006784,0.07122655523
4.48,0.05758023674,0.06756831343
4.49,0.06115264114,0.06371559957
4.5,0.06446829548,0.05968512977
4.51,0.06751933788,0.05549395063
4.52,0.07029903369,0.05115936403
4.53,0.07280177396,0.04669885292
4.54,0.07502306911,0.04213000864
4.55,0.07695953792,0.0374704598
4.56,0.07860889207,0.03273780333
4.57,0.07996991647,0.0279495377
4.58,0.08104244561,0.02312299872
4.59,0.08182733616,0.0182752981
4.6,0.08232643613,0.013423265
4.61,0.08254255086,0.008583390651
4.62,0.08247940608,0.003771776411
4.63,0.08214160839,-0.0009959148528
4.64,0.08153460347,-0.005704503766
4.65,0.08066463221,-0.01033933584
4.66,0.07953868523,-0.01488631915
4.67,0.07816445591,-0.01933195834
4.68,0.07655029232,-0.02366338479
4.69,0.07470514841,-0.02786838317
4.7,0.07263853456,-0.03193541419
4.71,0.0703604679,-0.03585363378
4.72,0.06788142265,-0.03961290865
4.73,0.06521228064,-0.04320382842
4.74,0.06236428244,-0.04661771432
4.75,0.05934897904,-0.04984662468
4.76,0.05617818457,-0.05288335735
4.77,0.05286393014,-0.05572144906
4.78,0.04941841884,-0.0583551721
4.79,0.04585398239,-0.06077952834
4.8,0.04218303916,-0.06299024082
4.81,0.03841805413,-0.06498374308
4.82,0.03457150049,-0.0667571665
4.83,0.03065582323,-0.06830832569
4.84,0.02668340475,-0.06963570234
4.85,0.02266653234,-0.07073842755
4.86,0.01861736792,-0.07161626291
4.87,0.01454791967,-0.07226958051
4.88,0.01047001586,-0.07269934215
4.89,0.006395280649,-0.07290707777
4.9,0.00233511194,-0.07289486345
4.91,-0.001699338805,-0.07266529902
4.92,-0.005697184842,-0.07222148551
4.93,-0.009647820587,-0.07156700259
4.94,-0.01354093631,-0.07070588612
4.95,-0.01736653119,-0.06964260589
4.96,-0.02111492476,-0.06838204378
4.97,-0.024776767,-0.06692947233
4.98,-0.02834304703,-0.06529053385
4.99,-0.03180510063,-0.06347122017
5,-0.0351546167,-0.06147785302
5.01,-0.0383836427,-0.05931706517
5.02,-0.04148458936,-0.05699578232
5.03,-0.04445023458,-0.05452120567
5.04,-0.04727372686,-0.05190079538
5.05,-0.04994858817,-0.0491422547
5.06,-0.05246871659,-0.04625351487
5.07,-0.05482838856,-0.04324272069
5.08,-0.0570222612,-0.04011821681
5.09,-0.05904537437,-0.03688853456
5.1,-0.06089315302,-0.03356237931
5.11,-0.06256140942,-0.03014861834
5.12,-0.06404634579,-0.02665626905
5.13,-0.06534455706,-0.02309448747
5.14,-0.06645303394,-0.01947255695
5.15,-0.06736916634,-0.01579987699
5.16,-0.06809074708,-0.01208595205
5.17,-0.06861597603,-0.008340380232
5.18,-0.06894346451,-0.004572841802
5.19,-0.06907224004,-0.0007930873914
5.2,-0.0690017514,0.002989074204
5.21,-0.06873187395,0.006763788718
5.22,-0.06826291509,0.0105211697
5.23,-0.06759561993,0.01425131244
5.24,-0.06673117696,0.01794430873
5.25,-0.06567122368,0.0215902623
5.26,-0.06441785221,0.02517930526
5.27,-0.06297361454,0.02870161545
5.28,-0.06134152751,0.03214743466
5.29,-0.05952507738,0.035507088
5.3,-0.05752822374,0.03877100417
5.31,-0.05535540278,0.04192973678
5.32,-0.05301152971,0.04497398676
5.33,-0.05050200027,0.0478946256
5.34,-0.04783269108,0.05068271973
5.35,-0.04500995882,0.05332955568
5.36,-0.04204063809,0.0558266661
5.37,-0.03893203776,0.05816585664
5.38,-0.03569193578,0.0603392334
5.39,-0.03232857225,0.06233923102
5.4,-0.02885064073,0.06415864123
5.41,-0.02526727763,0.06579064172
5.42,-0.02158804964,0.06722882527
5.43,-0.01782293907,0.06846722886
5.44,-0.01398232709,0.0695003627
5.45,-0.01007697476,0.07032323907
5.46,-0.006118001875,0.07093140064
5.47,-0.00211686357,0.07132094817
5.48,0.00191467536,0.07148856748
5.49,0.00596456836,0.07143155537
5.5,0.01002051725,0.07114784441
5.51,0.01407000454,0.0706360263
5.52,0.01810032788,0.0698953737
5.53,0.02209863662,0.06892586034
5.54,0.02605197023,0.06772817913
5.55,0.02994729873,0.0663037582
5.56,0.0337715648,0.06465477458
5.57,0.03751172748,0.06278416547
5.58,0.04115480743,0.06069563684
5.59,0.04468793339,0.05839366928
5.6,0.04809838982,0.05588352086
5.61,0.05137366544,0.05317122704
5.62,0.05450150252,0.0502635973
5.63,0.05746994665,0.04716820859
5.64,0.06026739675,0.04389339538
5.65,0.06288265519,0.04044823632
5.66,0.06530497767,0.0368425374
5.67,0.06752412263,0.03308681165
5.68,0.06953039995,0.0291922553
5.69,0.07131471867,0.02517072041
5.7,0.07286863352,0.02103468411
5.71,0.07418438989,0.01679721428
5.72,0.07525496706,0.01247193197
5.73,0.07607411942,0.0080729705
5.74,0.07663641544,0.003614931385
5.75,0.07693727399,-0.0008871627744
5.76,0.07697299813,-0.005417918294
5.77,0.07674080561,-0.009961623138
5.78,0.07623885644,-0.01450230219
5.79,0.07546627679,-0.01902377488
5.8,0.07442317942,-0.02350971487
5.81,0.07311068023,-0.02794371173
5.82,0.07153091088,-0.03230933412
5.83,0.06968702723,-0.0365901944
5.84,0.06758321361,-0.04077001433
5.85,0.06522468265,-0.04483269152
5.86,0.06261767076,-0.04876236641
5.87,0.05976942898,-0.05254348942
5.88,0.05668820935,-0.05616088794
5.89,0.05338324672,-0.05959983294
5.9,0.04986473587,-0.06284610471
5.91,0.04614380421,-0.06588605757
5.92,0.04223247985,-0.06870668312
5.93,0.03814365534,-0.07129567176
5.94,0.03389104699,-0.07364147208
5.95,0.02948915001,-0.07573334795
5.96,0.02495318962,-0.07756143286
5.97,0.02029906811,-0.07911678123
5.98,0.01554330837,-0.08039141656
5.99,0.01070299375,-0.08137837588
6,0.005795704744,-0.08207175052
