"Freq [GHz]","re(S(Tx_p1,Tx_p1)) []","im(S(Tx_p1,Tx_p1)) []"
1,-0.2093013777,0.09601630931
1.01,-0.2031928019,0.1084016998
1.02,-0.1963360082,0.1204131228
1.03,-0.1887536918,0.1320039081
1.04,-0.1804715467,0.1431288084
1.05,-0.17151817,0.1537441937
1.06,-0.1619249555,0.1638082397
1.07,-0.1517259742,0.173281109
1.08,-0.1409578435,0.1821251233
1.09,-0.1296595855,0.1903049279
1.1,-0.1178724746,0.197787646
1.11,-0.1056398755,0.2045430226
1.12,-0.09300707222,0.2105435583
1.13,-0.08002108853,0.215764631
1.14,-0.06673050063,0.2201846065
1.15,-0.05318524334,0.2237849361
1.16,-0.03943640999,0.2265502416
1.17,-0.02553604726,0.2284683874
1.18,-0.0115369456,0.229530539
1.19,0.002507573715,0.2297312077
1.2,0.01654387418,0.2290682819
1.21,0.03051822121,0.2275430436
1.22,0.04437700007,0.2251601716
1.23,0.05806693367,0.2219277302
1.24,0.0715352992,0.2178571437
1.25,0.08473014282,0.2129631574
1.26,0.09760049141,0.2072637844
1.27,0.1100965606,0.2007802391
1.28,0.1221699582,0.1935368569
1.29,0.1337738818,0.1855610017
1.3,0.1448633104,0.1768829601
1.31,0.155395189,0.1675358237
1.32,0.1653286048,0.1575553598
1.33,0.174624955,0.146979871
1.34,0.1832481056,0.1358500439
1.35,0.1911645395,0.1242087884
1.36,0.1983434947,0.112101067
1.37,0.2047570908,0.09957371676
1.38,0.2103804438,0.08667526186
1.39,0.2151917693,0.07345572052
1.4,0.219172472,0.0599664049
1.41,0.2223072233,0.04625971587
1.42,0.2245840248,0.03238893316
1.43,0.2259942586,0.01840800183
1.44,0.2265327237,0.004371315989
1.45,0.2261976583,-0.009666499478
1.46,0.2249907485,-0.02365080811
1.47,0.2229171223,-0.03752718118
1.48,0.2199853303,-0.05124161626
1.49,0.2162073116,-0.06474075393
1.5,0.2115983466,-0.07797209205
1.51,0.2061769961,-0.09088419641
1.52,0.1999650264,-0.1034269071
1.53,0.1929873223,-0.1155515395
1.54,0.1852717864,-0.1272110797
1.55,0.1768492273,-0.1383603724
1.56,0.167753235,-0.1489563017
1.57,0.1580200453,-0.1589579635
1.58,0.147688394,-0.1683268286
1.59,0.1367993605,-0.1770268963
1.6,0.1253962017,-0.1850248376
1.61,0.1135241779,-0.1922901274
1.62,0.1012303702,-0.1987951656
1.63,0.08856349044,-0.2045153853
1.64,0.07557368498,-0.20942935
1.65,0.06231233278,-0.213518837
1.66,0.04883183841,-0.216768908
1.67,0.03518542121,-0.2191679662
1.68,0.02142690131,-0.2207078003
1.69,0.007610483301,-0.2213836139
1.7,-0.006209461304,-0.2211940419
1.71,-0.0199786122,-0.2201411523
1.72,-0.03364291795,-0.2182304345
1.73,-0.04714881231,-0.2154707732
1.74,-0.0604434284,-0.2118744098
1.75,-0.07347480975,-0.2074568884
1.76,-0.08619211747,-0.2022369902
1.77,-0.09854583257,-0.1962366539
1.78,-0.1104879528,-0.1894808836
1.79,-0.1219721827,-0.1819976446
1.8,-0.1329541175,-0.1738177473
1.81,-0.1433914177,-0.1649747193
1.82,-0.1532439759,-0.1555046675
1.83,-0.1624740746,-0.1454461292
1.84,-0.1710465333,-0.134839914
1.85,-0.1789288457,-0.1237289367
1.86,-0.1860913058,-0.1121580415
1.87,-0.1925071219,-0.1001738198
1.88,-0.1981525195,-0.08782441972
1.89,-0.2030068314,-0.07515935079
1.9,-0.2070525746,-0.06222928303
1.91,-0.2102755154,-0.04908584175
1.92,-0.2126647198,-0.03578139877
1.93,-0.2142125915,-0.02236886114
1.94,-0.2149148961,-0.008901458021
1.95,-0.2147707712,0.004567473382
1.96,-0.2137827236,0.01798470182
1.97,-0.2119566123,0.03129731522
1.98,-0.2093016183,0.04445293215
1.99,-0.2058302005,0.05739991076
2,-0.2015580396,0.07008755422
2.01,-0.1965039675,0.08246631203
2.02,-0.1906898858,0.09448797614
2.03,-0.1841406706,0.1061058713
2.04,-0.1768840662,0.1172750389
2.05,-0.1689505679,0.1279524131
2.06,-0.1603732928,0.1380969893
2.07,-0.1511878412,0.1476699841
2.08,-0.141432148,0.1566349848
2.09,-0.131146325,0.1649580905
2.1,-0.1203724949,0.1726080417
2.11,-0.1091546173,0.1795563391
2.12,-0.09753830814,0.1857773512
2.13,-0.0855706524,0.1912484098
2.14,-0.07330001174,0.1959498934
2.15,-0.06077582728,0.1998652983
2.16,-0.04804841855,0.2029812964
2.17,-0.03516877942,0.2052877808
2.18,-0.02218837181,0.2067778972
2.19,-0.009158918166,0.2074480632
2.2,0.00386780674,0.2072979737
2.21,0.0168401835,0.2063305931
2.22,0.02970695467,0.2045521347
2.23,0.04241742926,0.2019720263
2.24,0.05492168445,0.198602864
2.25,0.06717076359,0.194460352
2.26,0.07911686974,0.1895632316
2.27,0.090713554,0.1839331964
2.28,0.1019158978,0.1775947976
2.29,0.1126806887,0.1705753364
2.3,0.1229665883,0.1629047469
2.31,0.1327342926,0.1546154681
2.32,0.1419466836,0.1457423063
2.33,0.1505689712,0.1363222881
2.34,0.1585688259,0.1263945056
2.35,0.1659165004,0.1159999529
2.36,0.1725849415,0.105181356
2.37,0.1785498893,0.09398299611
2.38,0.1837899665,0.08245052708
2.39,0.1882867543,0.07063078803
2.4,0.1920248571,0.05857161182
2.41,0.1949919542,0.04632162999
2.42,0.1971788395,0.03393007524
2.43,0.1985794481,0.02144658208
2.44,0.1991908701,0.00892098648
2.45,0.1990133519,-0.003596874514
2.46,0.1980502846,-0.01605736263
2.47,0.19630818,-0.02841123668
2.48,0.1937966336,-0.04060984855
2.49,0.1905282757,-0.05260533624
2.5,0.1865187105,-0.064350813
2.51,0.1817864432,-0.07580055185
2.52,0.1763527954,-0.08691016488
2.53,0.1702418103,-0.09763677639
2.54,0.1634801464,-0.1079391895
2.55,0.1560969611,-0.1177780452
2.56,0.1481237857,-0.1271159734
2.57,0.1395943896,-0.1359177361
2.58,0.1305446376,-0.1441503601
2.59,0.1210123381,-0.1517832614
2.6,0.1110370846,-0.1587883588
2.61,0.1006600904,-0.1651401774
2.62,0.08992401764,-0.1708159408
2.63,0.07887280088,-0.1757956524
2.64,0.06755146616,-0.1800621649
2.65,0.05600594664,-0.1836012387
2.66,0.04428289508,-0.1864015873
2.67,0.0324294942,-0.1884549118
2.68,0.02049326565,-0.1897559223
2.69,0.008521878324,-0.1903023476
2.7,-0.00343704316,-0.1900949328
2.71,-0.01533610902,-0.1891374241
2.72,-0.02712835321,-0.1874365422
2.73,-0.03876741986,-0.1850019439
2.74,-0.05020774646,-0.1818461715
2.75,-0.06140474322,-0.1779845911
2.76,-0.07231496768,-0.1734353198
2.77,-0.08289629405,-0.168219142
2.78,-0.09310807655,-0.1623594154
2.79,-0.1029113061,-0.1558819671
2.8,-0.1122687599,-0.1488149799
2.81,-0.1211451429,-0.1411888699
2.82,-0.1295072214,-0.1330361556
2.83,-0.137323947,-0.1243913186
2.84,-0.1445665724,-0.1152906579
2.85,-0.1512087565,-0.1057721367
2.86,-0.1572266593,-0.09587522318
2.87,-0.1625990275,-0.08564072683
2.88,-0.1673072677,-0.07511062882
2.89,-0.17133551,-0.06432790931
2.9,-0.1746706595,-0.05333637106
2.91,-0.1773024367,-0.04218046066
2.92,-0.1792234064,-0.03090508794
2.93,-0.1804289952,-0.01955544422
2.94,-0.1809174971,-0.008176820392
2.95,-0.1806900675,0.003185574741
2.96,-0.1797507062,0.01448679488
2.97,-0.1781062288,0.02568233483
2.98,-0.1757662264,0.03672830647
2.99,-0.1727430154,0.04758161154
3,-0.1690515755,0.0582001103
3.01,-0.1647094778,0.06854278576
3.02,-0.159736803,0.07856990249
3.03,-0.1541560494,0.08824315957
3.04,-0.1479920322,0.09752583717
3.05,-0.1412717731,0.1063829359
3.06,-0.1340243827,0.1147813089
3.07,-0.1262809339,0.1226897854
3.08,-0.1180743289,0.1300792863
3.09,-0.1094391591,0.1369229302
3.1,-0.1004115589,0.1431961309
3.11,-0.09102905404,0.1488766842
3.12,-0.08133040514,0.1539448458
3.13,-0.07135544696,0.1583833977
3.14,-0.06114492418,0.1621777056
3.15,-0.05074032432,0.1653157645
3.16,-0.04018370851,0.1677882338
3.17,-0.02951754076,0.1695884619
3.18,-0.01878451651,0.1707124994
3.19,-0.008027391049,0.1711591018
3.2,0.002711191375,0.1709297211
3.21,0.01338886722,0.1700284866
3.22,0.02396372128,0.1684621753
3.23,0.03439445166,0.1662401713
3.24,0.04464053152,0.1633744159
3.25,0.0546623668,0.1598793467
3.26,0.06442144941,0.1557718274
3.27,0.07388050537,0.1510710685
3.28,0.08300363707,0.1457985387
3.29,0.09175645945,0.1399778675
3.3,0.1001062293,0.1336347405
3.31,0.1080219671,0.1267967857
3.32,0.115474572,0.1194934539
3.33,0.1224369272,0.1117558918
3.34,0.1288839983,0.1036168089
3.35,0.134792922,0.09511033904
3.36,0.1401430855,0.08627189703
3.37,0.144916197,0.07713803083
3.38,0.1490963464,0.06774626997
3.39,0.1526700557,0.05813497094
3.4,0.1556263198,0.04834316001
3.41,0.1579566371,0.03841037436
3.42,0.15965503,0.02837650194
3.43,0.1607180548,0.0182816208
3.44,0.1611448019,0.008165838666
3.45,0.1609368856,-0.001930866874
3.46,0.1600984241,-0.01196880663
3.47,0.158636009,-0.02190873611
3.48,0.1565586658,-0.03171200914
3.49,0.1538778045,-0.04134072823
3.5,0.1506071612,-0.05075789109
3.51,0.1467627303,-0.05992753272
3.52,0.1423626885,-0.0688148626
3.53,0.1374273105,-0.07738639633
3.54,0.1319788764,-0.08561008132
3.55,0.1260415719,-0.0934554161
3.56,0.1196413818,-0.1008935626
3.57,0.1128059763,-0.1078974513
3.58,0.1055645915,-0.1144418787
3.59,0.09794790482,-0.1205035963
3.6,0.0899879043,-0.1260613924
3.61,0.0817177547,-0.1310961638
3.62,0.07317165885,-0.1355909797
3.63,0.06438471601,-0.1395311366
3.64,0.05539277744,-0.142904203
3.65,0.04623229987,-0.1457000559
3.66,0.03694019738,-0.1479109075
3.67,0.02755369242,-0.1495313218
3.68,0.01811016644,-0.1505582229
3.69,0.008647010859,-0.1509908928
3.7,-0.0007985211446,-0.1508309604
3.71,-0.01018946136,-0.1500823812
3.72,-0.01948927123,-0.1487514074
3.73,-0.02866198396,-0.1468465496
3.74,-0.03767234345,-0.1443785296
3.75,-0.04648593951,-0.1413602244
3.76,-0.05506933894,-0.1378066023
3.77,-0.06339021182,-0.1337346511
3.78,-0.0714174527,-0.1291632984
3.79,-0.07912129607,-0.1241133249
3.8,-0.08647342587,-0.1186072712
3.81,-0.09344707846,-0.1126693373
3.82,-0.1000171388,-0.1063252773
3.83,-0.1061602296,-0.09960228757
3.84,-0.1118547925,-0.09252889079
3.85,-0.1170811624,-0.08513481466
3.86,-0.121821633,-0.07745086717
3.87,-0.1260605143,-0.06950880819
3.88,-0.1297841819,-0.06134121816
3.89,-0.132981118,-0.05298136432
3.9,-0.1356419432,-0.04446306516
3.91,-0.13775944,-0.03582055357
3.92,-0.1393285677,-0.02708833916
3.93,-0.1403464679,-0.01830107052
3.94,-0.1408124623,-0.009493397735
3.95,-0.1407280411,-0.0006998358982
3.96,-0.1400968434,0.008045370022
3.97,-0.1389246285,0.01670837828
3.98,-0.13721924,0.02525588097
3.99,-0.1349905612,0.0336552317
4,-0.132250463,0.04187456971
4.01,-0.129012744,0.04988294011
4.02,-0.1252930638,0.05765040971
4.03,-0.121108869,0.06514817796
4.04,-0.1164793132,0.07234868278
4.05,-0.1114251701,0.07922570064
4.06,-0.1059687411,0.08575444074
4.07,-0.1001337582,0.09191163291
4.08,-0.09394528023,0.09767560884
4.09,-0.08742958658,0.1030263764
4.1,-0.08061406532,0.1079456871
4.11,-0.07352709846,0.1124170955
4.12,-0.06619794394,0.1164260123
4.13,-0.05865661496,0.1199597483
4.14,-0.05093375717,0.1230075518
4.15,-0.04306052433,0.1255606375
4.16,-0.0350684527,0.1276122073
4.17,-0.02698933497,0.1291574636
4.18,-0.01885509395,0.1301936145
4.19,-0.01069765673,0.1307198706
4.2,-0.002548829685,0.1307374349
4.21,0.005559825154,0.1302494838
4.22,0.01359711187,0.1292611415
4.23,0.02153232011,0.1277794461
4.24,0.02933534177,0.1258133091
4.25,0.0369767845,0.1233734675
4.26,0.04442808153,0.1204724291
4.27,0.05166159746,0.1171244109
4.28,0.05865072969,0.1133452725
4.29,0.06537000497,0.1091524416
4.3,0.07179517089,0.1045648359
4.31,0.07790328184,0.09960277808
4.32,0.08367277933,0.09428790701
4.33,0.08908356611,0.08864308396
4.34,0.09411707421,0.0826922948
4.35,0.09875632638,0.07646054855
4.36,0.1029859908,0.0699737727
4.37,0.1067924293,0.06325870563
4.38,0.1101637377,0.05634278679
4.39,0.1130897804,0.04925404484
4.4,0.1155622167,0.04202098438
4.41,0.1175745203,0.03467247171
4.42,0.1191219917,0.02723761994
4.43,0.120201763,0.01974567412
4.44,0.1208127962,0.01222589661
4.45,0.1209558734,0.004707453328
4.46,0.1206335808,-0.002780698773
4.47,0.1198502855,-0.01020992259
4.48,0.1186121054,-0.01755200962
4.49,0.1169268728,-0.02477928626
4.5,0.1148040912,-0.03186471714
4.51,0.1122548865,-0.03878200527
4.52,0.1092919517,-0.04550568842
4.53,0.1059294861,-0.05201123166
4.54,0.1021831293,-0.05827511546
4.55,0.09806989015,-0.06427491917
4.56,0.09360807031,-0.0699893997
4.57,0.08881718426,-0.07539856483
4.58,0.08371787459,-0.08048374128
4.59,0.07833182381,-0.08522763697
4.6,0.07268166282,-0.08961439756
4.61,0.06679087633,-0.09362965685
4.62,0.0606837058,-0.09726058114
4.63,0.05438505015,-0.1004959072
4.64,0.04792036471,-0.103325974
4.65,0.04131555888,-0.1057427476
4.66,0.03459689273,-0.1077398403
4.67,0.02779087313,-0.1093125221
4.68,0.02092414977,-0.1104577272
4.69,0.01402341137,-0.1111740525
4.7,0.007115282649,-0.1114617504
4.71,0.0002262223162,-0.1113227156
4.72,-0.006617577469,-0.1107604649
4.73,-0.01339028981,-0.1097801114
4.74,-0.02006654956,-0.1083883326
4.75,-0.02662154732,-0.1065933327
4.76,-0.03303112043,-0.1044047992
4.77,-0.03927184083,-0.1018338547
4.78,-0.04532109936,-0.09889300253
4.79,-0.05115718617,-0.09559606853
4.8,-0.05675936708,-0.09195813765
4.81,-0.06210795554,-0.08799548629
4.82,-0.06718437997,-0.08372551069
4.83,-0.07197124627,-0.07916665154
4.84,-0.07645239529,-0.07433831524
4.85,-0.08061295507,-0.06926079199
4.86,-0.08443938777,-0.06395517128
4.87,-0.08791953098,-0.05844325487
4.88,-0.09104263354,-0.05274746788
4.89,-0.09379938551,-0.0468907681
4.9,-0.09618194251,-0.04089655408
4.91,-0.09818394414,-0.03478857225
4.92,-0.09980052658,-0.02859082347
4.93,-0.1010283294,-0.02232746942
4.94,-0.1018654963,-0.01602273905
4.95,-0.1023116708,-0.009700835695
4.96,-0.1023679852,-0.003385844892
4.97,-0.1020370445,0.002898356457
4.98,-0.1013229054,0.009128189435
4.99,-0.1002310483,0.01528046056
5,-0.09876834606,0.02133244702
5.01,-0.09694302614,0.02726197945
5.02,-0.09476462869,0.03304752183
5.03,-0.09224395976,0.03866824833
5.04,-0.08939304007,0.04410411685
5.05,-0.08622504961,0.04933593887
5.06,-0.08275426826,0.0543454455
5.07,-0.07899601271,0.0591153495
5.08,-0.07496657003,0.06362940296
5.09,-0.07068312801,0.06787245063
5.1,-0.06616370271,0.07183047856
5.11,-0.06142706351,0.07549065805
5.12,-0.05649265583,0.07884138464
5.13,-0.05138052203,0.08187231224
5.14,-0.04611122068,0.08457438206
5.15,-0.04070574452,0.08693984647
5.16,-0.03518543753,0.08896228769
5.17,-0.02957191134,0.09063663122
5.18,-0.02388696134,0.09195915415
5.19,-0.01815248281,0.09292748814
5.2,-0.01239038741,0.09354061738
5.21,-0.006622520267,0.09379887135
5.22,-0.0008705781221,0.09370391259
5.23,0.00484397137,0.09325871951
5.24,0.0104999687,0.09246756439
5.25,0.01607663975,0.09133598664
5.26,0.02155367093,0.08987076152
5.27,0.02691128186,0.0880798645
5.28,0.0321302955,0.08597243131
5.29,0.03719220537,0.08355871401
5.3,0.04207923957,0.08085003324
5.31,0.04677442161,0.07785872681
5.32,0.05126162762,0.0745980949
5.33,0.05552563987,0.07108234219
5.34,0.05955219645,0.06732651695
5.35,0.06332803685,0.06334644762
5.36,0.06684094342,0.0591586769
5.37,0.07007977853,0.05478039381
5.38,0.07303451737,0.05022936383
5.39,0.07569627621,0.04552385757
5.4,0.07805733623,0.04068257812
5.41,0.08011116265,0.03572458738
5.42,0.08185241934,0.03066923179
5.43,0.08327697876,0.02553606752
5.44,0.08438192728,0.02034478563
5.45,0.08516556593,0.01511513737
5.46,0.08562740655,0.009866859813
5.47,0.08576816347,0.004619602363
5.48,0.08558974075,-0.0006071459036
5.49,0.0850952151,-0.005794127579
5.5,0.08428881453,-0.01092238679
5.51,0.08317589291,-0.01597333731
5.52,0.08176290056,-0.02092882869
5.53,0.08005735094,-0.02577121018
5.54,0.0780677838,-0.0304833922
5.55,0.07580372467,-0.03504890519
5.56,0.07327564113,-0.03945195562
5.57,0.07049489598,-0.04367747895
5.58,0.06747369738,-0.04771118945
5.59,0.06422504644,-0.05153962664
5.6,0.06076268217,-0.05515019827
5.61,0.05710102431,-0.05853121962
5.62,0.05325511406,-0.06167194921
5.63,0.04924055304,-0.0645626205
5.64,0.04507344078,-0.06719446985
5.65,0.04077031085,-0.06955976041
5.66,0.03634806598,-0.07165180199
5.67,0.03182391238,-0.07346496694
5.68,0.02721529359,-0.07499470186
5.69,0.02253982396,-0.07623753527
5.7,0.01781522214,-0.0771910812
5.71,0.01305924481,-0.07785403873
5.72,0.008289620819,-0.07822618752
5.73,0.003523986041,-0.07830837938
5.74,-0.001220180807,-0.07810252593
5.75,-0.005925621224,-0.07761158256
5.76,-0.01057535858,-0.07683952851
5.77,-0.01515275818,-0.07579134353
5.78,-0.01964158549,-0.07447298097
5.79,-0.02402606244,-0.0728913375
5.8,-0.02829092141,-0.07105421974
5.81,-0.03242145696,-0.06897030772
5.82,-0.03640357496,-0.06664911556
5.83,-0.04022383904,-0.06410094939
5.84,-0.04386951419,-0.06133686273
5.85,-0.0473286074,-0.0583686096
5.86,-0.05058990521,-0.05520859541
5.87,-0.05364300801,-0.05186982598
5.88,-0.05647836112,-0.04836585475
5.89,-0.05908728243,-0.04471072854
5.9,-0.06146198659,-0.04091893197
5.91,-0.06359560575,-0.03700533074
5.92,-0.0654822067,-0.03298511415
5.93,-0.06711680447,-0.02887373685
5.94,-0.06849537233,-0.02468686021
5.95,-0.06961484816,-0.02044029347
5.96,-0.07047313734,-0.01614993493
5.97,-0.07106911198,-0.01183171321
5.98,-0.07140260673,-0.007501529176
5.99,-0.07147441101,-0.003175198258
6,-0.07128625797,0.001131606215
