"Freq [GHz]","re(S(Tx_p1,Tx_p1)) []","im(S(Tx_p1,Tx_p1)) []"
1,-0.1601982936,0.07888642622
1.01,-0.155127647,0.08837069196
1.02,-0.1494833684,0.09753994956
1.03,-0.1432849276,0.1063583501
1.04,-0.1365541031,0.1147912877
1.05,-0.1293148978,0.1228055498
1.06,-0.1215934457,0.1303694615
1.07,-0.1134179095,0.1374530238
1.08,-0.1048183683,0.1440280445
1.09,-0.09582669824,0.1500682612
1.1,-0.08647644452,0.155549457
1.11,-0.07680268635,0.1604495665
1.12,-0.06684189523,0.1647487738
1.13,-0.05663178715,0.1684296
1.14,-0.04621116933,0.1714769816
1.15,-0.03561978212,0.1738783383
1.16,-0.0248981369,0.1756236305
1.17,-0.01408735047,0.1767054062
1.18,-0.003228976784,0.1771188363
1.19,0.007635163335,0.17686174
1.2,0.01846315371,0.1759345978
1.21,0.02921315487,0.1743405544
1.22,0.03984357589,0.1720854097
1.23,0.05031324533,0.1691775986
1.24,0.06058158045,0.1656281601
1.25,0.0706087541,0.1614506953
1.26,0.08035585851,0.1566613146
1.27,0.08978506527,0.1512785743
1.28,0.09885978085,0.1453234031
1.29,0.1075447971,0.1388190185
1.3,0.1158064357,0.1317908339
1.31,0.1236126869,0.1242663563
1.32,0.1309333405,0.1162750749
1.33,0.1377401099,0.1078483425
1.34,0.1440067478,0.09901924796
1.35,0.1497091539,0.0898224822
1.36,0.1548254733,0.08029419725
1.37,0.1593361852,0.07047185937
1.38,0.1632241828,0.06039409669
1.39,0.1664748424,0.05010054215
1.4,0.1690760824,0.03963167227
1.41,0.171018412,0.02902864253
1.42,0.1722949688,0.01833312001
1.43,0.1729015455,0.007587114017
1.44,0.1728366058,-0.003167194595
1.45,0.1721012895,-0.01388762471
1.46,0.1706994056,-0.02453216608
1.47,0.1686374155,-0.03505914964
1.48,0.1659244047,-0.04542741625
1.49,0.1625720436,-0.05559648316
1.5,0.1585945377,-0.06552670756
1.51,0.154008568,-0.07517944643
1.52,0.1488332204,-0.08451721218
1.53,0.1430899059,-0.09350382321
1.54,0.1368022709,-0.1021045491
1.55,0.1299960987,-0.1102862494
1.56,0.1226992025,-0.118017506
1.57,0.1149413094,-0.1252687478
1.58,0.1067539379,-0.132012368
1.59,0.09817026705,-0.1382228329
1.6,0.08922499961,-0.1438767823
1.61,0.07995421926,-0.1489531202
1.62,0.07039524201,-0.1534330966
1.63,0.06058646299,-0.1573003797
1.64,0.05056719911,-0.1605411169
1.65,0.04037752815,-0.1631439872
1.66,0.03005812507,-0.1651002416
1.67,0.01965009622,-0.1664037335
1.68,0.009194812053,-0.1670509387
1.69,-0.00126626085,-0.1670409639
1.7,-0.01169172783,-0.1663755448
1.71,-0.0220404335,-0.1650590334
1.72,-0.03227162781,-0.1630983747
1.73,-0.04234512996,-0.1605030723
1.74,-0.05222148973,-0.1572851442
1.75,-0.06186214534,-0.1534590683
1.76,-0.07122957734,-0.1490417177
1.77,-0.08028745781,-0.1440522862
1.78,-0.08900079435,-0.1385122053
1.79,-0.09733606818,-0.1324450514
1.8,-0.1052613659,-0.1258764447
1.81,-0.1127465042,-0.1188339404
1.82,-0.1197631476,-0.1113469114
1.83,-0.1262849173,-0.1034464252
1.84,-0.132287493,-0.09516511266
1.85,-0.1377487052,-0.08653703217
1.86,-0.1426486185,-0.07759752732
1.87,-0.1469696055,-0.06838308033
1.88,-0.1506964117,-0.05893116103
1.89,-0.1538162095,-0.04928007228
1.9,-0.1563186425,-0.03946879253
1.91,-0.1581958604,-0.02953681606
1.92,-0.1594425417,-0.01952399158
1.93,-0.1600559081,-0.009470359989
1.94,-0.1600357268,0.0005840081825
1.95,-0.1593843031,0.01059917492
1.96,-0.158106463,0.02053549574
1.97,-0.1562095248,0.03035377904
1.98,-0.153703261,0.04001544296
1.99,-0.1505998504,0.04948266927
2,-0.1469138201,0.05871855361
2.01,-0.1426619792,0.06768725139
2.02,-0.1378633418,0.07635411894
2.03,-0.1325390426,0.08468584917
2.04,-0.1267122435,0.09265060131
2.05,-0.1204080328,0.1002181242
2.06,-0.1136533161,0.1073598724
2.07,-0.1064767012,0.1140491156
2.08,-0.09890837558,0.120261039
2.09,-0.09097997845,0.1259728369
2.1,-0.08272446732,0.1311637966
2.11,-0.07417597955,0.1358153739
2.12,-0.06536968977,0.1399112594
2.13,-0.05634166362,0.1434374358
2.14,-0.04712870843,0.1463822246
2.15,-0.03776822149,0.1487363244
2.16,-0.0282980366,0.1504928381
2.17,-0.01875626941,0.1516472912
2.18,-0.009181162296,0.1521976394
2.19,0.0003890705802,0.1521442668
2.2,0.009916397513,0.1514899741
2.21,0.01936312201,0.1502399563
2.22,0.02869203356,0.1484017721
2.23,0.0378665557,0.1459853026
2.24,0.04685089094,0.1430027013
2.25,0.05561016176,0.139468335
2.26,0.06411054727,0.1353987156
2.27,0.07231941497,0.1308124245
2.28,0.08020544703,0.1257300274
2.29,0.08773876062,0.1201739825
2.3,0.09489102193,0.1141685417
2.31,0.1016355532,0.1077396434
2.32,0.1079474327,0.1009148008
2.33,0.1138035868,0.09372298325
2.34,0.1191828745,0.08619449239
2.35,0.1240661633,0.07836083363
2.36,0.1284363966,0.07025458337
2.37,0.1322786526,0.06190925237
2.38,0.135580194,0.05335914618
2.39,0.1383305086,0.04463922286
2.4,0.1405213405,0.03578494889
2.41,0.1421467124,0.02683215367
2.42,0.1432029381,0.01781688335
2.43,0.1436886259,0.008775254449
2.44,0.1436046724,-0.0002566919774
2.45,0.1429542475,-0.009243135161
2.46,0.1417427696,-0.01814861777
2.47,0.1399778724,-0.02693818682
2.48,0.1376693624,-0.03557753181
2.49,0.1348291684,-0.04403311954
2.5,0.1314712819,-0.05227232494
2.51,0.12761169,-0.06026355766
2.52,0.1232683006,-0.06797638366
2.53,0.1184608596,-0.07538164152
2.54,0.1132108622,-0.08245155285
2.55,0.1075414562,-0.08915982662
2.56,0.1014773404,-0.09548175674
2.57,0.09504465633,-0.1013943128
2.58,0.08827087567,-0.1068762233
2.59,0.08118468197,-0.1119080516
2.6,0.07381584877,-0.1164722638
2.61,0.0661951138,-0.1205532883
2.62,0.05835404994,-0.1241375676
2.63,0.0503249337,-0.1272136012
2.64,0.04214061146,-0.1297719802
2.65,0.03383436429,-0.1318054129
2.66,0.02543977178,-0.1333087422
2.67,0.01699057544,-0.1342789536
2.68,0.008520542309,-0.134715175
2.69,6.332925384E-05,-0.1346186676
2.7,-0.008347651492,-0.1339928085
2.71,-0.01667936495,-0.1328430642
2.72,-0.02489928369,-0.1311769568
2.73,-0.0329755153,-0.129004021
2.74,-0.04087692647,-0.1263357541
2.75,-0.04857326328,-0.123185558
2.76,-0.05603526715,-0.119568674
2.77,-0.06323478604,-0.1155021103
2.78,-0.07014488056,-0.111004563
2.79,-0.0767399244,-0.106096331
2.8,-0.08299569891,-0.1007992249
2.81,-0.08888948134,-0.09513646969
2.82,-0.09440012653,-0.08913260347
2.83,-0.09950814166,-0.08281337068
2.84,-0.1041957539,-0.07620561156
2.85,-0.1084469706,-0.06933714773
2.86,-0.112247632,-0.06223666467
2.87,-0.1155854562,-0.05493359143
2.88,-0.1184500763,-0.04745797815
2.89,-0.1208330692,-0.0398403719
2.9,-0.122727977,-0.03211169133
2.91,-0.1241303201,-0.02430310066
2.92,-0.1250376019,-0.01644588358
2.93,-0.1254493058,-0.008571317408
2.94,-0.1253668846,-0.0007105482705
2.95,-0.124793741,0.007105532458
2.96,-0.1237352018,0.01484640978
2.97,-0.1221984831,0.02248206437
2.98,-0.1201926495,0.02998308906
2.99,-0.1177285648,0.03732080201
3,-0.1148188372,0.04446735625
3.01,-0.1114777566,0.05139584504
3.02,-0.1077212264,0.05808040275
3.03,-0.1035666893,0.06449630081
3.04,-0.09903304669,0.07062003842
3.05,-0.09414057378,0.07642942774
3.06,-0.08891082901,0.08190367313
3.07,-0.08336655942,0.08702344429
3.08,-0.07753160177,0.09177094294
3.09,-0.07143078001,0.09612996292
3.1,-0.06508979958,0.1000859435
3.11,-0.05853513893,0.1036260155
3.12,-0.05179393874,0.1067390407
3.13,-0.04489388928,0.1094156436
3.14,-0.03786311648,0.1116482362
3.15,-0.03073006699,0.1134310352
3.16,-0.02352339292,0.1147600718
3.17,-0.01627183656,0.1156331949
3.18,-0.009004115609,0.1160500658
3.19,-0.001748809386,0.1160121466
3.2,0.005465753532,0.1155226814
3.21,0.01261160585,0.1145866697
3.22,0.01966124976,0.1132108346
3.23,0.02658776252,0.1114035825
3.24,0.0333648988,0.1091749577
3.25,0.03996718969,0.1065365903
3.26,0.04637003768,0.1035016385
3.27,0.05254980753,0.1000847245
3.28,0.05848391258,0.09630186615
3.29,0.06415089617,0.09217040259
3.3,0.06953050793,0.08770891587
3.31,0.07460377466,0.08293714794
3.32,0.07935306555,0.07787591368
3.33,0.08376215158,0.07254701049
3.34,0.08781625882,0.06697312456
3.35,0.0915021155,0.06117773442
3.36,0.09480799279,0.05518501214
3.37,0.09772373904,0.04901972247
3.38,0.1002408076,0.04270712059
3.39,0.1023522777,0.03627284859
3.4,0.1040528694,0.02974283138
3.41,0.105338951,0.0231431723
3.42,0.1062085405,0.0165000488
3.43,0.1066613002,0.00983960884
3.44,0.1066985253,0.003187868123
3.45,0.1063231251,-0.003429391207
3.46,0.1055395991,-0.009986720127
3.47,0.1043540065,-0.01645910013
3.48,0.1027739293,-0.02282203811
3.49,0.1008084309,-0.02905165836
3.5,0.09846800778,-0.03512479131
3.51,0.09576453696,-0.0410190588
3.52,0.09271121806,-0.04671295543
3.53,0.08932251054,-0.05218592576
3.54,0.08561406671,-0.05741843714
3.55,0.08160266046,-0.06239204786
3.56,0.07730611221,-0.06708947033
3.57,0.07274321047,-0.07149462929
3.58,0.06793363013,-0.07559271462
3.59,0.06289784804,-0.07937022873
3.6,0.05765705617,-0.08281502839
3.61,0.0522330727,-0.08591636083
3.62,0.04664825142,-0.08866489406
3.63,0.04092538984,-0.09105274126
3.64,0.03508763637,-0.0930734794
3.65,0.02915839691,-0.09472216183
3.66,0.02316124133,-0.09599532494
3.67,0.01711981006,-0.09689098905
3.68,0.01105772133,-0.09740865332
3.69,0.004998479254,-0.09754928498
3.7,-0.001034616759,-0.09731530289
3.71,-0.007018560976,-0.09671055556
3.72,-0.01293072836,-0.09574029368
3.73,-0.01874895931,-0.09441113752
3.74,-0.02445164175,-0.09273103922
3.75,-0.03001779042,-0.09070924016
3.76,-0.03542712287,-0.08835622372
3.77,-0.04066013207,-0.08568366367
3.78,-0.0456981553,-0.08270436824
3.79,-0.05052343911,-0.07943222044
3.8,-0.05511920008,-0.07588211459
3.81,-0.05946968127,-0.07206988963
3.82,-0.06356020412,-0.06801225923
3.83,-0.06737721562,-0.06372673927
3.84,-0.07090833072,-0.05923157279
3.85,-0.07414236971,-0.05454565285
3.86,-0.07706939058,-0.04968844359
3.87,-0.07968071627,-0.04467989979
3.88,-0.08196895672,-0.03954038536
3.89,-0.08392802567,-0.03429059092
3.9,-0.08555315231,-0.02895145095
3.91,-0.08684088762,-0.02354406083
3.92,-0.08778910557,-0.01808959396
3.93,-0.08839699916,-0.01260921948
3.94,-0.08866507135,-0.007124020736
3.95,-0.08859512107,-0.001654914877
3.96,-0.08819022424,0.003777426074
3.97,-0.08745471013,0.009152652469
3.98,-0.08639413306,0.01445081227
3.99,-0.08501523959,0.01965242399
4,-0.08332593151,0.02473854713
4.01,-0.08133522466,0.02969084976
4.02,-0.0790532039,0.03449167319
4.03,-0.07649097438,0.03912409327
4.04,-0.07366060933,0.04357197836
4.05,-0.07057509471,0.04782004356
4.06,-0.06724827084,0.05185390124
4.07,-0.06369477133,0.05566010753
4.08,-0.05992995957,0.05922620473
4.09,-0.0559698631,0.0625407595
4.1,-0.05183110601,0.06559339673
4.11,-0.04753083983,0.06837482899
4.12,-0.04308667295,0.07087688154
4.13,-0.03851659921,0.07309251271
4.14,-0.03383892553,0.07501582988
4.15,-0.02907219924,0.07664210076
4.16,-0.02423513515,0.07796776017
4.17,-0.01934654275,0.07899041229
4.18,-0.0144252538,0.07970882835
4.19,-0.009490050592,0.08012293998
4.2,-0.00455959511,0.08023382809
4.21,0.0003476405601,0.08004370754
4.22,0.005213442427,0.07955590764
4.23,0.01001992106,0.07877484857
4.24,0.01474957615,0.07770601391
4.25,0.01938535887,0.07635591942
4.26,0.02391073193,0.07473207817
4.27,0.02830972697,0.07284296233
4.28,0.03256699928,0.07069796159
4.29,0.03666787947,0.06830733865
4.3,0.04059842213,0.06568218184
4.31,0.04434545117,0.06283435502
4.32,0.04789660173,0.05977644523
4.33,0.0512403587,0.05652170802
4.34,0.05436609142,0.05308401088
4.35,0.05726408487,0.04947777499
4.36,0.05992556687,0.04571791546
4.37,0.06234273162,0.04181978037
4.38,0.06450875913,0.03779908881
4.39,0.06641783092,0.03367186819
4.4,0.06806514165,0.0294543911
4.41,0.06944690682,0.02516311186
4.42,0.07056036662,0.02081460316
4.43,0.07140378581,0.01642549286
4.44,0.07197644974,0.01201240133
4.45,0.07227865669,0.007591879469
4.46,0.07231170633,0.003180347649
4.47,0.07207788471,-0.001205964137
4.48,0.07158044561,-0.0055510748
4.49,0.0708235885,-0.009839309099
4.5,0.06981243326,-0.0140553528
4.51,0.06855299162,-0.01818430591
4.52,0.0670521357,-0.02221173373
4.53,0.06531756366,-0.02612371564
4.54,0.06335776255,-0.02990689147
4.55,0.06118196879,-0.03354850515
4.56,0.05880012617,-0.03703644576
4.57,0.05622284175,-0.04035928563
4.58,0.05346133977,-0.04350631554
4.59,0.05052741375,-0.04646757682
4.6,0.04743337708,-0.04923389029
4.61,0.04419201217,-0.05179688207
4.62,0.04081651845,-0.05414900605
4.63,0.03732045942,-0.05628356302
4.64,0.03371770893,-0.05819471655
4.65,0.03002239694,-0.0598775054
4.66,0.02624885491,-0.06132785265
4.67,0.02241156107,-0.06254257137
4.68,0.01852508581,-0.06351936706
4.69,0.01460403726,-0.06425683667
4.7,0.01066300744,-0.06475446439
4.71,0.006716519005,-0.06501261428
4.72,0.002778972861,-0.06503251965
4.73,-0.001135403141,-0.06481626948
4.74,-0.005012604336,-0.06436679173
4.75,-0.008838897978,-0.0636878339
4.76,-0.01260087042,-0.06278394075
4.77,-0.0162854726,-0.0616604293
4.78,-0.01988006368,-0.0603233614
4.79,-0.02337245268,-0.05877951385
4.8,-0.026750938,-0.05703634621
4.81,-0.03000434477,-0.05510196657
4.82,-0.03312205976,-0.05298509526
4.83,-0.03609406391,-0.05069502686
4.84,-0.03891096234,-0.04824159044
4.85,-0.0415640117,-0.0456351084
4.86,-0.0440451449,-0.04288635396
4.87,-0.04634699307,-0.04000650747
4.88,-0.04846290477,-0.03700711184
4.89,-0.05038696236,-0.03390002707
4.9,-0.05211399557,-0.03069738419
4.91,-0.05363959217,-0.02741153879
4.92,-0.05496010582,-0.02405502422
4.93,-0.05607266109,-0.02064050471
4.94,-0.05697515556,-0.01718072855
4.95,-0.05766625926,-0.01368848149
4.96,-0.05814541121,-0.01017654061
4.97,-0.05841281332,-0.006657628637
4.98,-0.05846942159,-0.003144369079
4.99,-0.05831693476,0.0003507578216
5,-0.05795778034,0.003815458102
5.01,-0.05739509835,0.007237665937
5.02,-0.05663272251,0.0106055842
5.03,-0.05567515936,0.0139077236
5.04,-0.0545275651,0.0171329403
5.05,-0.05319572044,0.0202704718
5.06,-0.05168600349,0.02330997117
5.07,-0.0500053609,0.0262415393
5.08,-0.04816127719,0.02905575527
5.09,-0.0461617427,0.03174370464
5.1,-0.04401521996,0.03429700566
5.11,-0.04173060887,0.03670783322
5.12,-0.0393172107,0.03896894069
5.13,-0.03678469107,0.04107367932
5.14,-0.03414304214,0.04301601543
5.15,-0.03140254398,0.04479054518
5.16,-0.02857372547,0.046392507
5.17,-0.02566732468,0.04781779153
5.18,-0.02269424904,0.04906294929
5.19,-0.01966553535,0.05012519587
5.2,-0.01659230977,0.0510024147
5.21,-0.01348574796,0.05169315756
5.22,-0.01035703553,0.05219664266
5.23,-0.00721732886,0.05251275047
5.24,-0.004077716521,0.05264201722
5.25,-0.000949181298,0.05258562629
5.26,0.002157436929,0.05234539735
5.27,0.005231477416,0.0519237735
5.28,0.008262493749,0.05132380631
5.29,0.0112402879,0.05054913898
5.3,0.01415494304,0.0496039876
5.31,0.016996855,0.04849312069
5.32,0.01975676233,0.04722183701
5.33,0.02242577481,0.0457959418
5.34,0.02499540033,0.04422172157
5.35,0.0274575702,0.04250591748
5.36,0.02980466263,0.04065569747
5.37,0.03202952444,0.03867862725
5.38,0.03412549092,0.03658264019
5.39,0.03608640382,0.03437600635
5.4,0.03790662737,0.03206730069
5.41,0.03958106234,0.02966537054
5.42,0.04110515815,0.02717930251
5.43,0.04247492295,0.02461838906
5.44,0.04368693163,0.02199209452
5.45,0.04473833194,0.01931002112
5.46,0.04562684845,0.01658187478
5.47,0.04635078464,0.01381743097
5.48,0.04690902288,0.0110265007
5.49,0.04730102256,0.008218896749
5.5,0.04752681618,0.005404400293
5.51,0.04758700364,0.002592727946
5.52,0.04748274463,-0.0002065005909
5.53,0.04721574917,-0.002983794213
5.54,0.04678826649,-0.005729821327
5.55,0.04620307215,-0.008435439893
5.56,0.0454634535,-0.01109172651
5.57,0.0445731937,-0.01369000445
5.58,0.04353655405,-0.01622187058
5.59,0.04235825512,-0.0186792211
5.6,0.04104345636,-0.02105427594
5.61,0.03959773456,-0.02333960187
5.62,0.0380270611,-0.02552813423
5.63,0.03633777816,-0.02761319715
5.64,0.03453657386,-0.02958852228
5.65,0.03263045661,-0.03144826599
5.66,0.03062672857,-0.03318702492
5.67,0.02853295845,-0.03479985003
5.68,0.02635695372,-0.03628225881
5.69,0.02410673225,-0.03763024603
5.7,0.02179049362,-0.03884029258
5.71,0.01941659006,-0.03990937283
5.72,0.01699349721,-0.04083496009
5.73,0.01452978472,-0.0416150305
5.74,0.01203408693,-0.04224806515
5.75,0.00951507353,-0.04273305056
5.76,0.006981420454,-0.04306947744
5.77,0.004441781013,-0.04325733785
5.78,0.001904757406,-0.04329712072
5.79,-0.0006211273292,-0.04318980576
5.8,-0.00312745683,-0.04293685589
5.81,-0.005605948306,-0.04254020806
5.82,-0.008048478737,-0.0420022627
5.83,-0.01044711029,-0.0413258717
5.84,-0.01279411491,-0.04051432503
5.85,-0.01508199795,-0.03957133611
5.86,-0.01730352084,-0.03850102588
5.87,-0.01945172272,-0.03730790569
5.88,-0.02151994094,-0.03599685918
5.89,-0.02350183041,-0.03457312295
5.9,-0.02539138172,-0.03304226645
5.91,-0.02718293804,-0.0314101708
5.92,-0.02887121066,-0.02968300696
5.93,-0.03045129327,-0.02786721301
5.94,-0.03191867481,-0.02596947089
5.95,-0.03326925095,-0.0239966825
5.96,-0.03449933415,-0.02195594533
5.97,-0.03560566226,-0.01985452767
5.98,-0.03658540574,-0.01769984346
5.99,-0.0374361733,-0.01549942698
6,-0.03815601624,-0.01326090728
