"Freq [GHz]","re(S(Tx_p1,Tx_p1)) []","im(S(Tx_p1,Tx_p1)) []"
1,-0.1244690277,0.06062657863
1.01,-0.1201710091,0.06755516163
1.02,-0.1154812102,0.07418940028
1.03,-0.1104198697,0.08050636923
1.04,-0.1050086166,0.08648458726
1.05,-0.0992703617,0.09210410236
1.06,-0.09322918537,0.09734656858
1.07,-0.08691021977,0.1021953143
1.08,-0.08033952806,0.1066354021
1.09,-0.07354398009,0.1106536787
1.1,-0.06655112573,0.1142388173
1.11,-0.05938906637,0.1173813495
1.12,-0.05208632531,0.1200736884
1.13,-0.04467171755,0.122310143
1.14,-0.03717421992,0.1240869222
1.15,-0.0296228419,0.125402131
1.16,-0.02204649792,0.1262557574
1.17,-0.01447388181,0.1266496497
1.18,-0.00693334381,0.1265874868
1.19,0.0005472290692,0.1260747387
1.2,0.007940528926,0.1251186205
1.21,0.0152199385,0.1237280374
1.22,0.02235963789,0.1219135239
1.23,0.02933470592,0.1196871751
1.24,0.03612121588,0.117062572
1.25,0.04269632503,0.1140547015
1.26,0.04903835772,0.1106798698
1.27,0.05512688167,0.1069556122
1.28,0.06094277721,0.1029005978
1.29,0.06646829914,0.09853453066
1.3,0.07168713124,0.09387804757
1.31,0.07658443296,0.08895261345
1.32,0.08114687848,0.08378041445
1.33,0.0853626879,0.07838424957
1.34,0.08922165061,0.07278742145
1.35,0.09271514079,0.06701362663
1.36,0.09583612522,0.06108684623
1.37,0.09857916342,0.05503123716
1.38,0.1009404002,0.04887102478
1.39,0.102917551,0.04263039733
1.4,0.10450988,0.03633340264
1.41,0.1057181715,0.03000384772
1.42,0.1065446944,0.02366520157
1.43,0.106993161,0.01734050164
1.44,0.1070686792,0.01105226451
1.45,0.1067776996,0.004822400926
1.46,0.1061279573,-0.001327864271
1.47,0.105128409,-0.007378067108
1.48,0.1037891655,-0.01330857404
1.49,0.1021214208,-0.01910064584
1.5,0.1001373776,-0.02473649569
1.51,0.09785016953,-0.03019934114
1.52,0.09527378142,-0.03547345007
1.53,0.0924229673,-0.04054418025
1.54,0.08931316697,-0.04539801267
1.55,0.08596042156,-0.05002257859
1.56,0.0823812885,-0.05440668016
1.57,0.0785927565,-0.05854030488
1.58,0.07461216081,-0.06241463386
1.59,0.07045709944,-0.06602204401
1.6,0.06614535047,-0.06935610436
1.61,0.06169479126,-0.07241156664
1.62,0.05712331952,-0.07518435037
1.63,0.05244877698,-0.07767152266
1.64,0.04768887579,-0.07987127304
1.65,0.04286112809,-0.08178288359
1.66,0.03798277898,-0.08340669457
1.67,0.03307074316,-0.08474406614
1.68,0.02814154563,-0.08579733618
1.69,0.0232112664,-0.08656977485
1.7,0.01829548967,-0.08706553611
1.71,0.01340925742,-0.08728960662
1.72,0.00856702764,-0.08724775242
1.73,0.003782637276,-0.08694646375
1.74,-0.0009307300822,-0.08639289842
1.75,-0.005560571729,-0.0855948241
1.76,-0.01009508859,-0.08456056
1.77,-0.01452320322,-0.08329891818
1.78,-0.01883457314,-0.08181914497
1.79,-0.02301959961,-0.08013086284
1.8,-0.02706943188,-0.07824401305
1.81,-0.03097596721,-0.07616879942
1.82,-0.03473184671,-0.07391563355
1.83,-0.03833044723,-0.07149508178
1.84,-0.04176586959,-0.0689178142
1.85,-0.04503292325,-0.06619455586
1.86,-0.04812710778,-0.0633360406
1.87,-0.05104459141,-0.06035296751
1.88,-0.05378218684,-0.05725596035
1.89,-0.0563373247,-0.05405553004
1.9,-0.05870802493,-0.05076204033
1.91,-0.06089286641,-0.04738567678
1.92,-0.06289095512,-0.04393641911
1.93,-0.06470189113,-0.04042401702
1.94,-0.06632573487,-0.03685796945
1.95,-0.06776297279,-0.03324750726
1.96,-0.06901448288,-0.02960157938
1.97,-0.0700815003,-0.02592884231
1.98,-0.07096558339,-0.02223765286
1.99,-0.07166858038,-0.01853606416
2,-0.07219259704,-0.0148318246
2.01,-0.07253996555,-0.01113237978
2.02,-0.07271321486,-0.007444877103
2.03,-0.0727150426,-0.003776172957
2.04,-0.07254828901,-0.0001328421858
2.05,-0.07221591283,0.003478810302
2.06,-0.07172096939,0.007052736067
2.07,-0.07106659115,0.01058312805
2.08,-0.07025597058,0.0140644041
2.09,-0.06929234566,0.01749118944
2.1,-0.068178988,0.02085829824
2.11,-0.06691919355,0.02416071466
2.12,-0.06551627609,0.02739357362
2.13,-0.06397356324,0.03055214156
2.14,-0.06229439524,0.03363179736
2.15,-0.06048212614,0.03662801394
2.16,-0.05854012764,0.0395363405
2.17,-0.05647179515,0.04235238581
2.18,-0.0542805562,0.04507180284
2.19,-0.05196988092,0.04769027475
2.2,-0.04954329446,0.05020350266
2.21,-0.04700439112,0.05260719526
2.22,-0.04435685006,0.05489706048
2.23,-0.04160445237,0.05706879941
2.24,-0.03875109913,0.05911810248
2.25,-0.03580083042,0.06104064817
2.26,-0.03275784488,0.06283210425
2.27,-0.02962651961,0.06448813163
2.28,-0.02641143018,0.06600439083
2.29,-0.02311737034,0.0673765512
2.3,-0.01974937142,0.06860030273
2.31,-0.0163127208,0.06967137058
2.32,-0.01281297953,0.07058553207
2.33,-0.009255998574,0.07133863635
2.34,-0.005647933569,0.07192662627
2.35,-0.001995257782,0.07234556269
2.36,0.001695226936,0.07259165081
2.37,0.005416381451,0.0726612685
2.38,0.009160723092,0.07255099635
2.39,0.01292042205,0.07225764932
2.4,0.01668730058,0.07177830966
2.41,0.02045283523,0.07111036095
2.42,0.02420816212,0.07025152291
2.43,0.02794408549,0.06919988677
2.44,0.03165108957,0.06795395091
2.45,0.03531935379,0.06651265647
2.46,0.0389387715,0.06487542254
2.47,0.042498972,0.06304218086
2.48,0.04598934614,0.06101340939
2.49,0.04939907523,0.05879016477
2.5,0.05271716328,0.05637411311
2.51,0.05593247249,0.05376755894
2.52,0.05903376189,0.050973472
2.53,0.0620097289,0.04799551153
2.54,0.06484905375,0.04483804781
2.55,0.06754044649,0.04150618075
2.56,0.07007269643,0.03800575511
2.57,0.0724347237,0.03434337227
2.58,0.07461563273,0.03052639825
2.59,0.07660476739,0.02656296783
2.6,0.07839176742,0.02246198449
2.61,0.07996662586,0.01823311615
2.62,0.08131974718,0.01388678647
2.63,0.08244200578,0.009434161637
2.64,0.08332480441,0.004887132635
2.65,0.08396013226,0.000258292777
2.66,0.08434062231,-0.004439089346
2.67,0.08445960752,-0.009191101603
2.68,0.08431117559,-0.01398322466
2.69,0.08389022179,-0.01880037291
2.7,0.08319249961,-0.02362693976
2.71,0.08221466877,-0.02844684739
2.72,0.08095434026,-0.03324360057
2.73,0.0794101181,-0.03800034448
2.74,0.07758163744,-0.0426999264
2.75,0.07546959869,-0.0473249608
2.76,0.07307579734,-0.05185789777
2.77,0.07040314924,-0.05628109447
2.78,0.0674557111,-0.06057688913
2.79,0.06423869582,-0.06472767745
2.8,0.06075848259,-0.06871599095
2.81,0.05702262147,-0.07252457686
2.82,0.05303983237,-0.07613647923
2.83,0.04881999819,-0.07953512084
2.84,0.04437415211,-0.08270438538
2.85,0.03971445886,-0.08562869967
2.86,0.03485419005,-0.0882931152
2.87,0.02980769344,-0.09068338886
2.88,0.02459035626,-0.09278606216
2.89,0.01921856256,-0.09458853858
2.9,0.01370964474,-0.09607915865
2.91,0.008081829384,-0.0972472722
2.92,0.002354177565,-0.0980833075
2.93,-0.003453480251,-0.0985788367
2.94,-0.009320614379,-0.09872663726
2.95,-0.01522607096,-0.09852074895
2.96,-0.0211481516,-0.09795652604
2.97,-0.0270646972,-0.09703068428
2.98,-0.03295317578,-0.09574134238
2.99,-0.03879077374,-0.09408805767
3,-0.0445544903,-0.09207185563
3.01,-0.05022123464,-0.08969525302
3.02,-0.05576792526,-0.08696227442
3.03,-0.0611715912,-0.08387846196
3.04,-0.06640947453,-0.08045087804
3.05,-0.07145913368,-0.07668810102
3.06,-0.07629854707,-0.07260021358
3.07,-0.08090621661,-0.06819878398
3.08,-0.08526127042,-0.06349683991
3.09,-0.08934356435,-0.05850883512
3.1,-0.0931337817,-0.05325060885
3.11,-0.09661353074,-0.04773933813
3.12,-0.09976543935,-0.0419934831
3.13,-0.1025732464,-0.03603272548
3.14,-0.1050218894,-0.02987790048
3.15,-0.1070975875,-0.02355092231
3.16,-0.1087879206,-0.0170747036
3.17,-0.1100819019,-0.01047306905
3.18,-0.1109700462,-0.003770663653
3.19,-0.1114444314,0.00300714415
3.2,-0.1114987538,0.009834363939
3.21,-0.1111283762,0.016684489
3.22,-0.1103303699,0.02353060575
3.23,-0.1091035484,0.03034550643
3.24,-0.107448494,0.03710180455
3.25,-0.105367576,0.0437720525
3.26,-0.1028649618,0.05032886094
3.27,-0.09994661914,0.05674501923
3.28,-0.09662031015,0.06299361643
3.29,-0.09289557737,0.06904816227
3.3,-0.08878372121,0.07488270755
3.31,-0.08429776925,0.08047196329
3.32,-0.07945243716,0.08579141814
3.33,-0.07426408161,0.09081745341
3.34,-0.06875064513,0.09552745519
3.35,-0.06293159314,0.09989992297
3.36,-0.05682784348,0.1039145742
3.37,-0.05046168859,0.1075524443
3.38,-0.04385671075,0.1107959815
3.39,-0.03703769055,0.1136291362
3.4,-0.03003050926,0.1160374441
3.41,-0.02286204517,0.118008103
3.42,-0.01556006467,0.1195300428
3.43,-0.008153108241,0.1205939875
3.44,-0.0006703721561,0.1211925103
3.45,0.006858413844,0.1213200807
3.46,0.01440311217,0.1209731024
3.47,0.02193330583,0.120149944
3.48,0.02941842901,0.1188509602
3.49,0.03682789938,0.1170785041
3.5,0.04413125124,0.114836931
3.51,0.05129826915,0.1121325926
3.52,0.05829912124,0.1089738229
3.53,0.06510449163,0.1053709138
3.54,0.0716857114,0.1013360833
3.55,0.0780148873,0.09688343294
3.56,0.08406502786,0.09202889835
3.57,0.089810166,0.08679018975
3.58,0.09522547774,0.08118672494
3.59,0.1002873965,0.07523955389
3.6,0.1049737219,0.0689712757
3.61,0.1092637238,0.06240594807
3.62,0.1131382391,0.05556898985
3.63,0.1165797626,0.04848707691
3.64,0.1195725312,0.04118803195
3.65,0.1221025994,0.03370070861
3.66,0.1241579082,0.02605487051
3.67,0.1257283449,0.01828106567
3.68,0.1268057949,0.01041049692
3.69,0.1273841846,0.002474888917
3.7,0.1274595152,-0.005493647717
3.71,0.127029887,-0.01346275437
3.72,0.1260955155,-0.02139996405
3.73,0.1246587361,-0.02927284189
3.74,0.1227240015,-0.03704912588
3.75,0.1202978682,-0.0446968673
3.76,0.1173889735,-0.05218457007
3.77,0.1140080042,-0.05948132843
3.78,0.1101676549,-0.06655696227
3.79,0.105882578,-0.07338214958
3.8,0.1011693243,-0.07992855531
3.81,0.09604627548,-0.08616895599
3.82,0.09053356786,-0.09207735973
3.83,0.08465300851,-0.09762912081
3.84,0.07842798363,-0.1028010485
3.85,0.07188335974,-0.1075715094
3.86,0.06504537827,-0.1119205233
3.87,0.0579415438,-0.1158298512
3.88,0.05060050659,-0.1192830762
3.89,0.04305194,-0.1222656759
3.9,0.03532641314,-0.124765087
3.91,0.02745525959,-0.1267707604
3.92,0.01947044262,-0.128274208
3.93,0.01140441759,-0.12926904
3.94,0.003289992165,-0.1297509933
3.95,-0.004839815042,-0.1297179496
3.96,-0.01295191671,-0.1291699453
3.97,-0.02101329933,-0.1281091701
3.98,-0.02899116529,-0.1265399579
3.99,-0.03685307398,-0.1244687668
4,-0.0445670811,-0.1219041501
4.01,-0.05210187576,-0.1188567184
4.02,-0.05942691455,-0.1153390922
4.03,-0.06651255206,-0.1113658461
4.04,-0.07333016733,-0.1069534436
4.05,-0.07985228547,-0.1021201645
4.06,-0.08605269408,-0.09688602418
4.07,-0.09190655393,-0.09127268489
4.08,-0.09739050329,-0.08530336051
4.09,-0.1024827555,-0.07900271424
4.1,-0.1071631897,-0.0723967504
4.11,-0.1114134333,-0.06551270029
4.12,-0.1152169374,-0.05837890315
4.13,-0.1185590433,-0.05102468236
4.14,-0.121427041,-0.04348021773
4.15,-0.1238102185,-0.03577641436
4.16,-0.1256999025,-0.02794476866
4.17,-0.12708949,-0.0200172322
4.18,-0.1279744704,-0.01202607399
4.19,-0.1283524385,-0.004003741844
4.2,-0.1282230983,0.004017276616
4.21,-0.1275882575,0.01200459256
4.22,-0.1264518128,0.01992605367
4.23,-0.1248197256,0.02774988022
4.24,-0.1226999897,0.03544479903
4.25,-0.1201025892,0.04298017465
4.26,-0.1170394488,0.05032613714
4.27,-0.113524375,0.05745370596
4.28,-0.1095729899,0.06433490946
4.29,-0.1052026571,0.0709428993
4.3,-0.1004324004,0.07725205949
4.31,-0.09528281581,0.08323810944
4.32,-0.08977597668,0.08887820076
4.33,-0.08393533347,0.09415100717
4.34,-0.0777856076,0.09903680739
4.35,-0.07135268058,0.1035175605
4.36,-0.06466347857,0.1075769738
4.37,-0.05774585316,0.111200562
4.38,-0.05062845872,0.1143756992
4.39,-0.0433406271,0.1170916616
4.4,-0.03591224006,0.1193396621
4.41,-0.02837360021,0.1211128762
4.42,-0.02075530086,0.1224064591
4.43,-0.01308809551,0.1232175541
4.44,-0.005402767534,0.1235452927
4.45,0.002269999409,0.1233907855
4.46,0.009899749603,0.1227571048
4.47,0.01745638161,0.1216492594
4.48,0.02491027217,0.12007416
4.49,0.03223239708,0.1180405779
4.5,0.03939444858,0.115559095
4.51,0.04636894883,0.112642047
4.52,0.05312935876,0.1093034594
4.53,0.05965018212,0.1055589761
4.54,0.06590706418,0.1014257825
4.55,0.07187688466,0.09692252182
4.56,0.0775378446,0.09206920656
4.57,0.08286954679,0.08688712421
4.58,0.08785306947,0.08139873861
4.59,0.09247103307,0.07562758712
4.6,0.09670765973,0.06959817398
4.61,0.1005488254,0.06333586067
4.62,0.1039821043,0.05686675342
4.63,0.1069968058,0.05021758877
4.64,0.1095840037,0.0434156174
4.65,0.111736557,0.03648848694
4.66,0.1134491238,0.02946412426
4.67,0.1147181666,0.02237061772
4.68,0.1155419503,0.01523609991
4.69,0.1159205322,0.008088631445
4.7,0.1158557449,0.0009560862852
4.71,0.1153511714,-0.006133960963
4.72,0.1144121136,-0.01315434524
4.73,0.1130455528,-0.02007841828
4.74,0.111260105,-0.02688015251
4.75,0.1090659683,-0.03353424108
4.76,0.1064748653,-0.04001619379
4.77,0.1034999792,-0.04630242839
4.78,0.1001558845,-0.05237035703
4.79,0.09645847271,-0.05819846742
4.8,0.09242487355,-0.06376639852
4.81,0.08807337175,-0.06905501049
4.82,0.08342331995,-0.07404644855
4.83,0.07849504839,-0.07872420076
4.84,0.07330977153,-0.08307314929
4.85,0.06788949216,-0.08707961534
4.86,0.06225690354,-0.0907313973
4.87,0.05643528983,-0.09401780237
4.88,0.05044842552,-0.09692967133
4.89,0.04432047405,-0.09945939667
4.9,0.03807588628,-0.101600934
4.91,0.03173929913,-0.1033498066
4.92,0.02533543491,-0.1047031039
4.93,0.01888900171,-0.1056594728
4.94,0.01242459529,-0.1062191033
4.95,0.005966602835,-0.1063837073
4.96,-0.0004608909324,-0.1061564922
4.97,-0.006834195064,-0.1055421282
4.98,-0.01313010064,-0.1045467098
4.99,-0.01932596574,-0.1031777132
5,-0.02539979668,-0.1014439471
5.01,-0.03133032543,-0.09935550013
5.02,-0.03709708274,-0.0969236832
5.03,-0.04268046688,-0.09416096799
5.04,-0.0480618077,-0.09108092164
5.05,-0.05322342584,-0.08769813812
5.06,-0.05814868694,-0.08402816652
5.07,-0.06282205072,-0.08008743671
5.08,-0.06722911474,-0.0758931827
5.09,-0.07135665285,-0.07146336402
5.1,-0.07519264824,-0.06681658566
5.11,-0.07872632098,-0.06197201671
5.12,-0.08194815019,-0.05694930826
5.13,-0.08484989069,-0.05176851083
5.14,-0.0874245843,-0.04644999172
5.15,-0.08966656577,-0.04101435264
5.16,-0.0915714635,-0.03548234788
5.17,-0.09313619504,-0.02987480354
5.18,-0.09435895768,-0.0242125379
5.19,-0.09523921408,-0.01851628343
5.2,-0.09577767325,-0.01280661067
5.21,-0.09597626701,-0.007103854184
5.22,-0.09583812212,-0.001428040992
5.23,-0.09536752832,0.004201178398
5.24,-0.09456990253,0.009764596066
5.25,-0.09345174937,0.01524350968
5.26,-0.09202061833,0.02061978222
5.27,-0.09028505782,0.02587589829
5.28,-0.08825456634,0.03099501681
5.29,-0.08593954112,0.03596101998
5.3,-0.08335122442,0.04075855851
5.31,-0.08050164781,0.04537309281
5.32,-0.07740357469,0.04979093031
5.33,-0.07407044139,0.05399925866
5.34,-0.07051629706,0.05798617498
5.35,-0.06675574264,0.06174071095
5.36,-0.06280386921,0.06525285387
5.37,-0.058676196,0.06851356373
5.38,-0.05438860821,0.07151478624
5.39,-0.04995729508,0.074249462
5.4,-0.04539868824,0.07671153174
5.41,-0.0407294008,0.0788959379
5.42,-0.03596616716,0.08079862246
5.43,-0.03112578397,0.08241652137
5.44,-0.02622505236,0.08374755545
5.45,-0.02128072148,0.08479061809
5.46,-0.01630943386,0.08554555989
5.47,-0.01132767239,0.08601317025
5.48,-0.006351709306,0.08619515625
5.49,-0.001397557222,0.08609411891
5.5,0.003519077659,0.08571352702
5.51,0.008382840045,0.08505768869
5.52,0.01317876769,0.08413172091
5.53,0.01789233106,0.08294151714
5.54,0.02250947053,0.0814937133
5.55,0.02701663096,0.07979565219
5.56,0.03140079373,0.07785534663
5.57,0.03564950615,0.0756814415
5.58,0.03975090822,0.07328317473
5.59,0.04369375684,0.07067033762
5.6,0.04746744734,0.06785323451
5.61,0.05106203247,0.06484264201
5.62,0.05446823889,0.06164976793
5.63,0.05767748109,0.05828621015
5.64,0.06068187294,0.05476391548
5.65,0.06347423684,0.05109513862
5.66,0.06604811057,0.04729240151
5.67,0.0683977519,0.04336845301
5.68,0.07051814108,0.03933622911
5.69,0.07240498127,0.03520881384
5.7,0.07405469697,0.03099940076
5.71,0.07546443061,0.02672125539
5.72,0.07663203737,0.0223876784
5.73,0.0775560783,0.01801196985
5.74,0.07823581185,0.01360739434
5.75,0.07867118393,0.009187147295
5.76,0.07886281665,0.004764322246
5.77,0.0788119956,0.0003518793257
5.78,0.07852065616,-0.004037385134
5.79,0.07799136852,-0.008390867831
5.8,0.07722732179,-0.01269618653
5.81,0.07623230717,-0.01694120695
5.82,0.07501070023,-0.0211140684
5.83,0.07356744246,-0.02520320833
5.84,0.07190802214,-0.02919738565
5.85,0.07003845453,-0.03308570289
5.86,0.06796526152,-0.03685762733
5.87,0.0656954508,-0.04050301088
5.88,0.06323649452,-0.04401210893
5.89,0.06059630758,-0.04737559823
5.9,0.05778322557,-0.05058459354
5.91,0.0548059823,-0.05363066347
5.92,0.05167368714,-0.05650584519
5.93,0.04839580201,-0.05920265826
5.94,0.04498211814,-0.06171411753
5.95,0.04144273262,-0.06403374506
5.96,0.03778802474,-0.06615558125
5.97,0.03402863207,-0.06807419504
5.98,0.03017542641,-0.06978469324
5.99,0.02623948952,-0.07128272912
6,0.02223208864,-0.07256451007
