"Freq [GHz]","re(S(Tx_p1,Tx_p1)) []","im(S(Tx_p1,Tx_p1)) []"
1,-0.1452846,0.06953563068
1.01,-0.1405027117,0.0778528832
1.02,-0.1352341264,0.08585291115
1.03,-0.1294998883,0.09350612994
1.04,-0.1233229084,0.1007844011
1.05,-0.1167278606,0.1076611518
1.06,-0.1097410694,0.114111487
1.07,-0.1023903916,0.1201122928
1.08,-0.09470509047,0.1256423319
1.09,-0.08671570532,0.1306823295
1.1,-0.07845391502,0.1352150501
1.11,-0.0699523975,0.1392253646
1.12,-0.06124468537,0.1427003076
1.13,-0.05236501847,0.1456291246
1.14,-0.04334819395,0.1480033089
1.15,-0.03422941483,0.1498166283
1.16,-0.02504413743,0.1510651412
1.17,-0.01582791865,0.1517472025
1.18,-0.006616263694,0.1518634596
1.19,0.002555525072,0.1514168368
1.2,0.0116524974,0.1504125116
1.21,0.02064020192,0.148857879
1.22,0.02948482973,0.1467625077
1.23,0.03815335411,0.1441380863
1.24,0.04661366592,0.1409983603
1.25,0.05483470381,0.1373590607
1.26,0.062786579,0.1332378237
1.27,0.07044069381,0.1286541036
1.28,0.07776985369,0.1236290772
1.29,0.08474837207,0.1181855417
1.3,0.0913521678,0.1123478061
1.31,0.09755885464,0.1061415774
1.32,0.1033478225,0.09959384027
1.33,0.1087003103,0.09273273339
1.34,0.1135994698,0.08558742073
1.35,0.1180304206,0.07818795996
1.36,0.1219802958,0.07056516788
1.37,0.1254382787,0.06275048367
1.38,0.1283956295,0.05477583075
1.39,0.1308457033,0.04667347769
1.4,0.1327839579,0.03847589894
1.41,0.1342079532,0.03021563603
1.42,0.1351173403,0.02192515983
1.43,0.1355138422,0.01363673443
1.44,0.1354012251,0.00538228346
1.45,0.1347852618,-0.002806740836
1.46,0.1336736852,-0.01089948496
1.47,0.1320761351,-0.01886581757
1.48,0.1300040964,-0.02667644831
1.49,0.12747083,-0.03430304165
1.5,0.1244912965,-0.04171832516
1.51,0.121082074,-0.04889619194
1.52,0.1172612683,-0.05581179657
1.53,0.1130484191,-0.06244164451
1.54,0.1084643999,-0.06876367433
1.55,0.1035313135,-0.07475733263
1.56,0.09827238341,-0.08040364144
1.57,0.09271184187,-0.08568525768
1.58,0.08687481465,-0.09058652474
1.59,0.08078720344,-0.09509351587
1.6,0.07447556642,-0.09919406936
1.61,0.06796699757,-0.1028778155
1.62,0.06128900516,-0.106136195
1.63,0.05446939027,-0.1089624696
1.64,0.04753612558,-0.1113517242
1.65,0.04051723521,-0.1133008604
1.66,0.03344067612,-0.1148085834
1.67,0.02633422152,-0.1158753793
1.68,0.01922534683,-0.1165034869
1.69,0.01214111876,-0.1166968601
1.7,0.00510808792,-0.1164611248
1.71,-0.001847814655,-0.1158035284
1.72,-0.008701376499,-0.114732883
1.73,-0.01542819795,-0.1132595025
1.74,-0.0220047812,-0.1113951341
1.75,-0.02840861386,-0.1091528848
1.76,-0.03461824672,-0.1065471425
1.77,-0.04061336541,-0.1035934935
1.78,-0.04637485577,-0.1003086354
1.79,-0.05188486269,-0.09671028705
1.8,-0.05712684228,-0.09281709522
1.81,-0.06208560724,-0.08864853918
1.82,-0.06674736525,-0.08422483299
1.83,-0.07109975049,-0.07956682647
1.84,-0.07513184807,-0.07469590517
1.85,-0.07883421154,-0.06963388992
1.86,-0.08219887342,-0.0644029363
1.87,-0.08521934887,-0.05902543469
1.88,-0.08789063265,-0.05352391122
1.89,-0.09020918939,-0.04792093012
1.9,-0.09217293751,-0.04223899801
1.91,-0.09378122683,-0.03650047037
1.92,-0.09503481028,-0.03072746072
1.93,-0.09593580973,-0.02494175295
1.94,-0.09648767649,-0.0191647169
1.95,-0.0966951466,-0.01341722792
1.96,-0.0965641912,-0.007719590323
1.97,-0.09610196261,-0.002091465311
1.98,-0.09531673607,0.00344819651
1.99,-0.09421784786,0.008881217771
2,-0.09281563001,0.01419025191
2.01,-0.09112134203,0.01935883555
2.02,-0.08914710006,0.02437143548
2.03,-0.08690580392,0.02921349016
2.04,-0.08441106236,0.03387144576
2.05,-0.08167711698,0.03833278647
2.06,-0.07871876525,0.04258605931
2.07,-0.07555128303,0.04662089323
2.08,-0.07219034692,0.05042801279
2.09,-0.06865195697,0.05399924616
2.1,-0.06495236001,0.05732752792
2.11,-0.06110797403,0.06040689644
2.12,-0.057135314,0.0632324862
2.13,-0.05305091936,0.0658005152
2.14,-0.04887128366,0.06810826754
2.15,-0.04461278651,0.07015407151
2.16,-0.04029162831,0.07193727346
2.17,-0.03592376775,0.07345820745
2.18,-0.03152486265,0.07471816138
2.19,-0.02711021413,0.07571933942
2.2,-0.02269471435,0.07646482142
2.21,-0.01829279811,0.0769585194
2.22,-0.01391839829,0.07720513146
2.23,-0.009584905376,0.07721009357
2.24,-0.005305131119,0.07697952936
2.25,-0.001091276385,0.07652019845
2.26,0.003045096726,0.0758394435
2.27,0.007093088495,0.07494513643
2.28,0.01104248094,0.073845624
2.29,0.01488375294,0.07254967329
2.3,0.01860809117,0.0710664171
2.31,0.02220739697,0.06940529995
2.32,0.02567428919,0.06757602458
2.33,0.02900210321,0.06558849956
2.34,0.03218488613,0.06345278813
2.35,0.03521738855,0.06117905854
2.36,0.03809505285,0.05877753617
2.37,0.04081399831,0.05625845765
2.38,0.04337100327,0.05363202712
2.39,0.04576348456,0.05090837492
2.4,0.04798947435,0.04809751886
2.41,0.05004759482,0.04520932809
2.42,0.05193703071,0.0422534899
2.43,0.05365750025,0.03923947936
2.44,0.05520922448,0.03617653207
2.45,0.05659289541,0.03307361983
2.46,0.05780964323,0.02993942961
2.47,0.05886100283,0.02678234544
2.48,0.05974887988,0.0236104336
2.49,0.06047551684,0.02043143075
2.5,0.06104345893,0.0172527352
2.51,0.06145552062,0.0140814011
2.52,0.06171475255,0.01092413554
2.53,0.06182440941,0.007787298418
2.54,0.06178791876,0.004676904934
2.55,0.06160885117,0.00159863066
2.56,0.06129089169,-0.001442181088
2.57,0.06083781308,-0.004440509667
2.58,0.06025345068,-0.007391645517
2.59,0.05954167925,-0.01029117676
2.6,0.05870639182,-0.0131349742
2.61,0.05775148075,-0.01591917489
2.62,0.05668082091,-0.01864016454
2.63,0.05549825526,-0.02129455898
2.64,0.0542075827,-0.02387918483
2.65,0.05281254832,-0.02639105974
2.66,0.05131683607,-0.02882737228
2.67,0.04972406372,-0.03118546181
2.68,0.04803778021,-0.03346279852
2.69,0.0462614653,-0.03565696381
2.7,0.0443985314,-0.03776563136
2.71,0.04245232757,-0.03978654889
2.72,0.04042614552,-0.041717521
2.73,0.03832322757,-0.04355639315
2.74,0.03614677633,-0.04530103701
2.75,0.0338999661,-0.04694933731
2.76,0.03158595561,-0.0484991804
2.77,0.0292079022,-0.04994844447
2.78,0.02676897701,-0.05129499187
2.79,0.02427238112,-0.05253666327
2.8,0.02172136244,-0.05367127397
2.81,0.01911923306,-0.05469661237
2.82,0.01646938696,-0.05561044062
2.83,0.01377531773,-0.05641049748
2.84,0.01104063626,-0.05709450342
2.85,0.00826908798,-0.05766016792
2.86,0.0054645696,-0.05810519898
2.87,0.002631145069,-0.05842731475
2.88,-0.0002269394669,-0.05862425719
2.89,-0.003105241874,-0.05869380782
2.9,-0.00599911163,-0.0586338052
2.91,-0.008903678975,-0.05844216428
2.92,-0.0118138458,-0.05811689733
2.93,-0.01472427847,-0.05765613634
2.94,-0.0176294026,-0.05705815671
2.95,-0.02052340018,-0.05632140212
2.96,-0.02340020883,-0.05544451022
2.97,-0.02625352359,-0.05442633921
2.98,-0.02907680118,-0.0532659948
2.99,-0.03186326677,-0.05196285751
3,-0.03460592351,-0.05051661013
3.01,-0.03729756455,-0.04892726489
3.02,-0.03993078786,-0.04719519033
3.03,-0.04249801363,-0.0453211375
3.04,-0.04499150437,-0.04330626534
3.05,-0.04740338757,-0.04115216491
3.06,-0.04972568086,-0.03886088233
3.07,-0.0519503197,-0.03643494011
3.08,-0.05406918726,-0.03387735673
3.09,-0.05607414671,-0.03119166423
3.1,-0.0579570754,-0.02838192355
3.11,-0.05970990105,-0.02545273752
3.12,-0.06132463968,-0.02240926121
3.13,-0.06279343503,-0.01925720955
3.14,-0.06410859939,-0.01600286204
3.15,-0.0652626555,-0.01265306442
3.16,-0.06624837934,-0.009215227095
3.17,-0.06705884363,-0.005697320366
3.18,-0.06768746159,-0.002107866221
3.19,-0.06812803097,0.001544073277
3.2,-0.06837477788,0.005248911101
3.21,-0.06842240013,0.008996553879
3.22,-0.06826611004,0.01277642403
3.23,-0.06790167611,0.01657748539
3.24,-0.06732546359,0.02038827233
3.25,-0.06653447336,0.02419692224
3.26,-0.06552637915,0.02799121133
3.27,-0.0642995626,0.03175859368
3.28,-0.06285314599,0.03548624332
3.29,-0.06118702236,0.03916109933
3.3,-0.05930188284,0.04276991362
3.31,-0.05719924082,0.04629930133
3.32,-0.05488145287,0.04973579366
3.33,-0.05235173616,0.05306589275
3.34,-0.04961418209,0.05627612858
3.35,-0.04667376616,0.05935311741
3.36,-0.04353635373,0.06228362169
3.37,-0.04020870159,0.06505461104
3.38,-0.03669845532,0.06765332399
3.39,-0.03301414222,0.07006733025
3.4,-0.02916515976,0.07228459314
3.41,-0.02516175958,0.07429353187
3.42,-0.02101502691,0.07608308332
3.43,-0.01673685552,0.07764276303
3.44,-0.01233991811,0.07896272503
3.45,-0.007837632248,0.08003382019
3.46,-0.003244121967,0.08084765273
3.47,0.001425824971,0.08139663463
3.48,0.006156803946,0.08167403753
3.49,0.01093284438,0.08167404187
3.5,0.01573746446,0.08139178288
3.51,0.02055372956,0.0808233933
3.52,0.025364314,0.07996604228
3.53,0.03015156611,0.07881797044
3.54,0.03489757617,0.0773785207
3.55,0.03958424696,0.07564816472
3.56,0.04419336678,0.07362852458
3.57,0.0487066844,0.07132238978
3.58,0.0531059858,0.0687337291
3.59,0.05737317226,0.06586769733
3.6,0.06149033943,0.06273063673
3.61,0.0654398571,0.05933007309
3.62,0.06920444919,0.05567470628
3.63,0.0727672737,0.0517743953
3.64,0.07611200208,0.04764013784
3.65,0.07922289777,0.04328404421
3.66,0.08208489343,0.03871930584
3.67,0.08468366655,0.03396015828
3.68,0.0870057129,0.02902183892
3.69,0.08903841766,0.0239205394
3.7,0.09077012363,0.01867335295
3.71,0.09219019634,0.01329821683
3.72,0.09328908555,0.00781385004
3.73,0.09405838292,0.002239686512
3.74,0.0944908754,-0.003404195925
3.75,0.09458059419,-0.009097150568
3.76,0.09432285878,-0.01481804053
3.77,0.09371431597,-0.02054532082
3.78,0.09275297353,-0.0262571234
3.79,0.09143822821,-0.03193134496
3.8,0.08977088809,-0.03754573695
3.81,0.0877531889,-0.04307799755
3.82,0.08538880418,-0.04850586509
3.83,0.08268284932,-0.05380721265
3.84,0.07964187917,-0.05896014317
3.85,0.07627387924,-0.063943085
3.86,0.07258825054,-0.06873488702
3.87,0.06859578791,-0.07331491328
3.88,0.0643086519,-0.07766313648
3.89,0.05974033437,-0.08176022987
3.9,0.05490561772,-0.0855876573
3.91,0.049820528,-0.08912776071
3.92,0.04450228197,-0.09236384488
3.93,0.03896922836,-0.09528025892
3.94,0.03324078342,-0.09786247404
3.95,0.02733736111,-0.1000971573
3.96,0.02128029819,-0.1019722409
3.97,0.01509177435,-0.1034769869
3.98,0.008794727909,-0.104602046
3.99,0.002412767224,-0.1053395123
4,-0.004029921665,-0.1056829707
4.01,-0.0105086709,-0.1056275395
4.02,-0.01699842971,-0.1051699061
4.03,-0.02347386593,-0.1043083563
4.04,-0.02990946977,-0.1030427969
4.05,-0.03627965931,-0.1013747717
4.06,-0.04255888727,-0.09930747038
4.07,-0.04872174864,-0.09684572982
4.08,-0.05474308863,-0.09399602916
4.09,-0.06059811052,-0.09076647697
4.1,-0.06626248282,-0.08716679154
4.11,-0.07171244541,-0.08320827389
4.12,-0.07692491402,-0.07890377379
4.13,-0.08187758267,-0.07426764871
4.14,-0.08654902355,-0.06931571593
4.15,-0.09091878392,-0.06406519792
4.16,-0.09496747946,-0.05853466126
4.17,-0.09867688385,-0.05274394925
4.18,-0.1020300139,-0.04671410848
4.19,-0.1050112098,-0.04046730967
4.2,-0.1076062109,-0.0340267631
4.21,-0.1098022247,-0.02741662892
4.22,-0.1115879917,-0.02066192275
4.23,-0.1129538424,-0.01378841698
4.24,-0.1138917488,-0.006822538055
4.25,-0.1143953694,0.000208739622
4.26,-0.1144600859,0.007278002912
4.27,-0.1140830346,0.0143575117
4.28,-0.1132631286,0.02141931276
4.29,-0.1120010738,0.02843535524
4.3,-0.1102993767,0.03537760726
4.31,-0.1081623448,0.04221817303
4.32,-0.1055960786,0.04892941019
4.33,-0.1026084571,0.05548404659
4.34,-0.09920911438,0.06185529617
4.35,-0.09540940908,0.06801697339
4.36,-0.09122238636,0.07394360566
4.37,-0.08666273234,0.07961054329
4.38,-0.08174672126,0.08499406648
4.39,-0.07649215562,0.09007148885
4.4,-0.07091829955,0.09482125703
4.41,-0.06504580552,0.09922304587
4.42,-0.0588966349,0.1032578489
4.43,-0.05249397247,0.1069080633
4.44,-0.04586213542,0.1101575698
4.45,-0.03902647708,0.1129918058
4.46,-0.03201328587,0.1153978331
4.47,-0.02484967987,0.1173643978
4.48,-0.01756349737,0.1188819845
4.49,-0.01018318406,0.1199428624
4.5,-0.002737677121,0.1205411243
4.51,0.004743713161,0.120672718
4.52,0.01223142376,0.1203354699
4.53,0.01969576075,0.1195291007
4.54,0.02710702216,0.1182552328
4.55,0.03443562115,0.1165173903
4.56,0.04165220916,0.1143209902
4.57,0.04872779836,0.1116733261
4.58,0.05563388294,0.1085835435
4.59,0.06234255869,0.1050626073
4.6,0.06882664035,0.1011232619
4.61,0.07505977617,0.09677998282
4.62,0.08101655929,0.09204892161
4.63,0.08667263532,0.08694784325
4.64,0.09200480575,0.08149605655
4.65,0.09699112668,0.07571433796
4.66,0.1016110024,0.06962484893
4.67,0.1058452737,0.06325104731
4.68,0.1096762996,0.05661759314
4.69,0.113088034,0.04975024906
4.7,0.1160660944,0.04267577607
4.71,0.1185978246,0.03542182476
4.72,0.12067235,0.02801682275
4.73,0.1222806253,0.02048985856
4.74,0.1234154747,0.01287056269
4.75,0.1240716241,0.005188986137
4.76,0.1242457257,-0.002524522919
4.77,0.1239363744,-0.01023944382
4.78,0.1231441152,-0.017925209
4.79,0.1218714442,-0.02555132987
4.8,0.1201227995,-0.03308752241
4.81,0.1179045449,-0.04050383209
4.82,0.115224946,-0.04777075738
4.83,0.1120941366,-0.05485937147
4.84,0.1085240794,-0.06174144166
4.85,0.1045285171,-0.06838954581
4.86,0.1001229174,-0.07477718551
4.87,0.09532440995,-0.08087889529
4.88,0.09015171659,-0.0866703476
4.89,0.08462507508,-0.09212845301
4.9,0.07876615621,-0.0972314552
4.91,0.07259797514,-0.1019590203
4.92,0.066144797,-0.1062923205
4.93,0.05943203739,-0.1102141109
4.94,0.05248615808,-0.1137088001
4.95,0.04533455837,-0.1167625138
4.96,0.03800546265,-0.1193631511
4.97,0.03052780453,-0.1215004333
4.98,0.02293110817,-0.1231659449
4.99,0.01524536716,-0.1243531676
5,0.007500921664,-0.1250575054
5.01,-0.0002716658841,-0.1252763021
5.02,-0.008041735766,-0.1250088509
5.03,-0.01577865629,-0.1242563953
5.04,-0.02345194881,-0.1230221225
5.05,-0.03103141194,-0.1213111484
5.06,-0.03848724446,-0.1191304945
5.07,-0.04579016635,-0.1164890575
5.08,-0.05291153749,-0.1133975703
5.09,-0.05982347352,-0.109868556
5.1,-0.06649895835,-0.1059162746
5.11,-0.07291195286,-0.1015566624
5.12,-0.07903749938,-0.09680726435
5.13,-0.08485182143,-0.09168716041
5.14,-0.09033241845,-0.0862168853
5.15,-0.09545815496,-0.08041834248
5.16,-0.1002093439,-0.0743147127
5.17,-0.104567824,-0.0679303575
5.18,-0.1085170301,-0.06129071797
5.19,-0.1120420575,-0.05442220934
5.2,-0.1151297186,-0.04735211185
5.21,-0.1177685926,-0.04010845825
5.22,-0.119949068,-0.03271991856
5.23,-0.121663377,-0.0252156825
5.24,-0.1229056226,-0.01762534006
5.25,-0.1236717981,-0.009978760867
5.26,-0.1239597979,-0.002305972627
5.27,-0.1237694215,0.005362960597
5.28,-0.1231023689,0.01299805995
5.29,-0.1219622288,0.02056955259
5.3,-0.1203544584,0.02804799125
5.31,-0.1182863562,0.03540437208
5.32,-0.1157670268,0.04261025027
5.33,-0.1128073391,0.04963785294
5.34,-0.1094198769,0.05646018892
5.35,-0.1056188824,0.06305115493
5.36,-0.1014201941,0.06938563767
5.37,-0.09684117731,0.07543961156
5.38,-0.09190064942,0.08119023159
5.39,-0.08661879917,0.08661592098
5.4,-0.08101710077,0.09169645337
5.41,-0.07511822312,0.09641302912
5.42,-0.06894593445,0.1007483454
5.43,-0.06252500298,0.10468666
5.44,-0.05588109385,0.1082138486
5.45,-0.04904066288,0.1113174546
5.46,-0.04203084761,0.1139867331
5.47,-0.03487935597,0.1162126861
5.48,-0.02761435323,0.1179880924
5.49,-0.0202643476,0.119307528
5.5,-0.0128580749,0.120167381
5.51,-0.005424382991,0.120565858
5.52,0.002007883818,0.1205029831
5.53,0.009409999679,0.1199805899
5.54,0.01675347111,0.1190023066
5.55,0.02401014936,0.1175735324
5.56,0.03115234082,0.1157014088
5.57,0.03815291495,0.1133947825
5.58,0.04498540949,0.1106641622
5.59,0.05162413222,0.1075216693
5.6,0.05804425926,0.1039809813
5.61,0.06422192917,0.1000572702
5.62,0.07013433268,0.09576713511
5.63,0.07575979775,0.09112852875
5.64,0.08107786947,0.08616067986
5.65,0.08606938464,0.08088401028
5.66,0.0907165407,0.07532004806
5.67,0.09500295884,0.06949133646
5.68,0.09891374092,0.06342133951
5.69,0.1024355202,0.05713434442
5.7,0.1055565055,0.05065536132
5.71,0.108266519,0.04401002066
5.72,0.1105570269,0.03722446889
5.73,0.112421164,0.03032526257
5.74,0.1138537506,0.02333926171
5.75,0.1148513035,0.01629352243
5.76,0.115412039,0.009215189685
5.77,0.1155358705,0.002131390195
5.78,0.1152243981,-0.004930873684
5.79,0.1144808922,-0.01194482898
5.8,0.1133102704,-0.01888403542
5.81,0.1117190683,-0.02572248679
5.82,0.1097154034,-0.03243470975
5.83,0.1073089336,-0.03899585995
5.84,0.1045108099,-0.0453818149
5.85,0.1013336228,-0.05156926328
5.86,0.09779134418,-0.05753579051
5.87,0.09389926404,-0.06325996
5.88,0.0896739219,-0.06872139001
5.89,0.08513303443,-0.07390082579
5.9,0.08029541866,-0.07878020666
5.91,0.07518091154,-0.0833427279
5.92,0.06981028603,-0.08757289726
5.93,0.06420516424,-0.09145658579
5.94,0.0583879278,-0.09498107295
5.95,0.05238162608,-0.09813508586
5.96,0.04620988238,-0.1009088325
5.97,0.03989679878,-0.1032940288
5.98,0.03346685973,-0.1052839198
5.99,0.02694483501,-0.1068732943
6,0.02035568239,-0.108058494
