"Freq [GHz]","re(S(Antenna1_1_1,Antenna1_1_1)) []","im(S(Antenna1_1_1,Antenna1_1_1)) []"
2,-0.00959175948961894,-0.509835899536948
2.008,-0.0311388661908978,-0.508581332207996
2.016,-0.0522198592672979,-0.506461660582818
2.024,-0.0728310804862823,-0.503518500599986
2.032,-0.0929687869619682,-0.499786035520178
2.04,-0.11262727116628,-0.495292147890136
2.048,-0.131797406133258,-0.49005999994837
2.056,-0.150465736653475,-0.484109917486079
2.064,-0.168614185130156,-0.477461397459364
2.072,-0.186220379025359,-0.470135044380803
2.08,-0.203258542727474,-0.462154247019749
2.088,-0.219700837860555,-0.453546434891501
2.096,-0.23551898962936,-0.444343800462587
2.104,-0.250686008449262,-0.434583432712687
2.112,-0.265177809415524,-0.424306873781167
2.12,-0.278974548126656,-0.413559175136654
2.128,-0.292061760383686,-0.402387054574199
2.136,-0.30442989054251,-0.390838071933786
2.144,-0.316074618076865,-0.378960461515984
2.152,-0.326997082017632,-0.366799411350066
2.16,-0.337202118374904,-0.354396853104313
2.168,-0.346696883302907,-0.341790940032913
2.176,-0.355489411660488,-0.329016066968147
2.184,-0.363587309512658,-0.316103417165814
2.192,-0.370996761087159,-0.303081952130549
2.2,-0.377721989897263,-0.28997970224848
2.208,-0.383765255086314,-0.276825175422768
2.216,-0.389127394660913,-0.263648683101941
2.224,-0.393808855689325,-0.250483390526491
2.232,-0.397811086607672,-0.237365930048123
2.24,-0.40113811667477,-0.224336469315634
2.248,-0.40379811878192,-0.211438193675995
2.256,-0.405804649130717,-0.198716624335867
2.264,-0.407177751338204,-0.186217704819777
2.272,-0.407944937542434,-0.173985734967138
2.28,-0.408140380087014,-0.16206140334205
2.288,-0.407803799236602,-0.150479955477187
2.296,-0.406978834579152,-0.139269894717184
2.304,-0.40571107221768,-0.128452306364679
2.312,-0.404045969974787,-0.11804089073754
2.32,-0.402026939847906,-0.108042699209063
2.328,-0.399693830472559,-0.0984594746765616
2.336,-0.397082003766714,-0.0892894160502877
2.344,-0.394222124702577,-0.080529126052281
2.352,-0.391140690250883,-0.0721754711656886
2.36,-0.387861224361587,-0.0642270867233517
2.368,-0.384405972894548,-0.05668529941346
2.376,-0.380797857772547,-0.0495543100368275
2.384,-0.377062403450001,-0.0428405732892446
2.392,-0.37322933801889,-0.0365514176027692
2.4,-0.369333598656876,-0.030693053679387
2.408,-0.365415534813954,-0.0252682119559952
2.416,-0.3615201960868,-0.0202737147160146
2.424,-0.357695704826962,-0.01569831856104
2.432,-0.35399083299998,-0.0115211520710741
2.44,-0.350452014208136,-0.00771102109384311
2.448,-0.347120111009549,-0.00422676458827591
2.456,-0.344027312693153,-0.00101872637059239
2.464,-0.341194551064472,0.00196872470821627
2.472,-0.338629787839033,0.00479382646568712
2.48,-0.336327448555879,0.00751352423098068
2.488,-0.334269161496698,0.0101794443851106
2.496,-0.332425817683422,0.0128341879638222
2.504,-0.330760425720842,0.0155202446047862
2.512,-0.32922200180626,0.0182537651767604
2.52,-0.327769213786835,0.0210196257939105
2.528,-0.326372594884281,0.023801087124988
2.536,-0.325015387975954,0.0265726187484554
2.544,-0.323696016385685,0.0293049176997301
2.552,-0.322428764018822,0.0319705974644551
2.56,-0.321242497649322,0.0345499236621632
2.568,-0.320177478925803,0.0370359381510474
2.576,-0.319280532092888,0.0394383518655809
2.584,-0.318599030909292,0.0417856967559697
2.592,-0.318174321812347,0.0441253989443467
2.6,-0.318035291260384,0.0465216517097098
2.608,-0.318192800897547,0.0490512054913747
2.616,-0.318635650424823,0.0517974271829978
2.624,-0.319328588976771,0.0548431862544416
2.632,-0.320227110298802,0.0582779119203688
2.64,-0.321228672505654,0.0621569167285357
2.648,-0.322231577432651,0.0665113981299872
2.656,-0.323130191551677,0.0713468935860683
2.664,-0.323820833507079,0.0766409037830638
2.672,-0.32421020340213,0.0823446064958366
2.68,-0.324222924588996,0.0883871891910954
2.688,-0.323807388089216,0.0946824066409856
2.696,-0.32293925130549,0.101136723755746
2.704,-0.321622177126234,0.107658220762548
2.712,-0.319885683207325,0.114165338731919
2.72,-0.317780274679117,0.120594540484708
2.728,-0.315370324803263,0.126906057275805
2.736,-0.312725415761812,0.133087076982791
2.744,-0.309911028763518,0.139151986715438
2.752,-0.306985845724636,0.145130846849245
2.76,-0.304005436683634,0.151075279871162
2.768,-0.300955824765203,0.157092096632847
2.776,-0.297801788682441,0.163254848132929
2.784,-0.29447865970202,0.169624092774332
2.792,-0.290897644588362,0.17623807432677
2.8,-0.286953884571452,0.183105546280581
2.808,-0.282536422527982,0.190201506081189
2.816,-0.277539049686704,0.197466296544386
2.824,-0.271870911515358,0.204808177345394
2.832,-0.265465779873376,0.212109104542818
2.84,-0.25828904190038,0.219233119683556
2.848,-0.250341700146619,0.226036478039347
2.856,-0.241660996865552,0.232378466927584
2.864,-0.232317633966374,0.238131798920334
2.872,-0.222409920443263,0.243191517834969
2.88,-0.21205550249301,0.247481521973154
2.888,-0.201381583262508,0.250958070862323
2.896,-0.190514692442001,0.253609970526915
2.904,-0.179571104284623,0.255455492548484
2.912,-0.168648922266367,0.256536434839969
2.92,-0.157822658357211,0.25691003925303
2.928,-0.147140855492393,0.25663970961125
2.936,-0.136626963718033,0.255785598927503
2.944,-0.126283320327278,0.254396142993436
2.952,-0.116097741221897,0.252501508395805
2.96,-0.106051941982786,0.250109708270132
2.968,-0.0961308040735891,0.247205842124826
2.976,-0.0863314063512816,0.243754569141803
2.984,-0.0766707650015542,0.239705565353709
2.992,-0.0671913637395599,0.23500138297448
3,-0.0579637955705194,0.22958686131201
3.008,-0.0490424903786395,0.223410872844054
3.016,-0.0406059238596333,0.216431710260015
3.024,-0.0328056439723591,0.208667120343968
3.032,-0.0257955629192765,0.200174398422259
3.04,-0.0197199976475938,0.19105001826052
3.048,-0.0147025541983507,0.181425479734687
3.056,-0.0108370388141913,0.171459908832121
3.064,-0.00818132228588321,0.161330300909886
3.072,-0.00675472595704855,0.151220546448516
3.08,-0.00653908014303778,0.141310491939745
3.088,-0.00748317690274138,0.131766255710838
3.096,-0.00950994830884526,0.122732844737755
3.104,-0.0125253929157395,0.114329825043014
3.112,-0.0164280819146214,0.106650419814901
3.12,-0.0211180235950494,0.0997639898409191
3.128,-0.0264831827095895,0.0937153127855601
3.136,-0.0324412373295288,0.088515212971433
3.144,-0.0389803518530444,0.0842074694049911
3.152,-0.0460610384516795,0.080850932541944
3.16,-0.0536428236561714,0.0785223084773214
3.168,-0.0616746897650837,0.0773174554940548
3.176,-0.0700852850766113,0.0773490417733815
3.184,-0.0787741629553552,0.0787406666533444
3.192,-0.0876052006258158,0.0816179616083144
3.2,-0.0964031097753528,0.0860975385367152
3.208,-0.10495361153631,0.092274903196624
3.216,-0.11300744816651,0.100212574304043
3.224,-0.12028798861911,0.109929632152292
3.232,-0.126501802120563,0.12139376892195
3.24,-0.131351265099748,0.134516645481953
3.248,-0.134548065525781,0.149153008428572
3.256,-0.13575893456935,0.165098565736206
3.264,-0.134807772898233,0.182063829760516
3.272,-0.131551333651186,0.199767263595865
3.28,-0.125869052453077,0.217913704730256
3.288,-0.117684895316656,0.236198652882041
3.296,-0.106965014117672,0.254316419029424
3.304,-0.0937137822973956,0.27196653590199
3.312,-0.0779689583335075,0.288858144111395
3.32,-0.0597967462217805,0.304712342810445
3.328,-0.039287451071627,0.319262752788482
3.336,-0.0165522763723336,0.332254753732924
3.344,0.00827840133043998,0.343444003048828
3.352,0.0350551875999967,0.352594906514895
3.36,0.0636084075265783,0.359479686910962
3.368,0.0937457960404793,0.363878591258266
3.376,0.125255533270283,0.365587930994963
3.384,0.157938352317857,0.364431015101722
3.392,0.191475759665822,0.36016767907331
3.4,0.225546386759598,0.352643413301139
3.408,0.259801130015308,0.341740441528166
3.416,0.293868163392177,0.327383749366675
3.424,0.327359469773829,0.309546140532819
3.432,0.359878609500395,0.288251918834388
3.44,0.391029340741073,0.263578893991607
3.448,0.420424639545424,0.235658533763781
3.456,0.447695641891283,0.204674220556244
3.464,0.472500046206765,0.17085770414246
3.472,0.494529568516968,0.134483960920455
3.48,0.513516126021255,0.0958647640279586
3.488,0.529236528436942,0.0553413308650482
3.496,0.541515568444702,0.0132764418657113
3.504,0.550220236916127,-0.0299419799164271
3.512,0.555282603955219,-0.0739295316315648
3.52,0.55668428306564,-0.118319423964428
3.528,0.554441849076895,-0.162742320439548
3.536,0.548613800563944,-0.206842269060065
3.544,0.539296820640992,-0.250281624975836
3.552,0.52662153488908,-0.292745093316736
3.56,0.510747959536386,-0.333942880716104
3.568,0.491860814590725,-0.373612983318802
3.576,0.470164851434029,-0.411522669262416
3.584,0.445880315674453,-0.447469234104457
3.592,0.419238636845316,-0.481280118820634
3.6,0.390478409386504,-0.512812483017763
3.608,0.359841706102515,-0.54195232269374
3.616,0.327570747032751,-0.568613214319329
3.624,0.293904933688991,-0.592734757356125
3.632,0.259067853316848,-0.614292061369334
3.64,0.223289849969914,-0.633256459010287
3.648,0.186790545508599,-0.649630605032027
3.656,0.149777931669365,-0.663437381452056
3.664,0.11244820919039,-0.674715928058678
3.672,0.0749848076145034,-0.683519514027726
3.68,0.0375576837382918,-0.689913400754667
3.688,0.000322896057616528,-0.693972718717107
3.696,-0.0365775463280425,-0.695780385201714
3.704,-0.0730155636027834,-0.695425094625331
3.712,-0.108876621828263,-0.692999417726318
3.72,-0.144059101449952,-0.688598048919849
3.728,-0.178473442142402,-0.682316241645358
3.736,-0.212041098566211,-0.674248468884269
3.744,-0.24469335151599,-0.664487339927306
3.752,-0.276365602107696,-0.653122237811549
3.76,-0.306995452582858,-0.640244393465023
3.768,-0.336551433754477,-0.625942404668488
3.776,-0.364994855080379,-0.610295517578393
3.784,-0.392290442871292,-0.593378583109547
3.792,-0.418405043319037,-0.575262604726929
3.8,-0.443306585278921,-0.556015551445271
3.808,-0.466963362260292,-0.535703355000392
3.816,-0.489343668222571,-0.51439099467645
3.824,-0.510415792647336,-0.492143565752716
3.832,-0.530148349593187,-0.469027229134927
3.84,-0.548510885956739,-0.445109950654319
3.848,-0.565474688830302,-0.420461958158985
3.856,-0.581013693228522,-0.395155871216869
3.864,-0.595105381531594,-0.369266489781779
3.872,-0.6077315658871,-0.342870261659317
3.88,-0.618882978501286,-0.316030562509116
3.888,-0.628540701064052,-0.288827940818792
3.896,-0.636696492919619,-0.261349994279677
3.904,-0.64335257400952,-0.233674895014107
3.912,-0.648516547637051,-0.205877345201354
3.92,-0.652200169762226,-0.178027440099452
3.928,-0.654417749145943,-0.150189935063744
3.936,-0.655184308216932,-0.122424026067132
3.944,-0.654513663426677,-0.0947837117687502
3.952,-0.652416599495795,-0.0673187569796963
3.96,-0.648899313098687,-0.0400762266422837
3.968,-0.643962288209942,-0.0131025105849571
3.976,-0.637599738914565,0.0135542837127186
3.984,-0.629799718400587,0.0398417268894953
3.992,-0.620544948383933,0.0657004306998482
4,-0.609814374962575,0.0910615661945275
4.008,-0.597617160200396,0.11582758412872
4.016,-0.583907750437478,0.139938934214517
4.024,-0.568662723212399,0.163290070328909
4.032,-0.551866352801031,0.185758652175022
4.04,-0.533515144772262,0.207206064134966
4.048,-0.513622320523705,0.227479024359697
4.056,-0.492221998372976,0.246412260368486
4.064,-0.469369136356146,0.263839284478824
4.072,-0.445126662074388,0.279599472963461
4.08,-0.419622290145474,0.293476573813933
4.088,-0.393008255222214,0.305296758251755
4.096,-0.365468065926475,0.314901565243468
4.104,-0.337214169320008,0.322154188084289
4.112,-0.308484296614904,0.326945267477752
4.12,-0.279536604087593,0.329197914360683
4.128,-0.250638815114867,0.328857470276062
4.136,-0.222082115072464,0.325908988053852
4.144,-0.194163880692162,0.320420044687523
4.152,-0.167158007414701,0.312478978014785
4.16,-0.141321171451861,0.302212492371041
4.168,-0.116886062961423,0.289781356625613
4.176,-0.0940557625493273,0.275374701444121
4.184,-0.0729995901823832,0.259203215298989
4.192,-0.0538795140576238,0.241521722542262
4.2,-0.0367614641063335,0.222573858392116
4.208,-0.0216697894736043,0.202560207468117
4.216,-0.00862877889959838,0.181686961764703
4.224,0.00235930776611055,0.160145460679358
4.232,0.0113081426899728,0.138110069998571
4.24,0.0182411866619837,0.115737989159577
4.248,0.0231860805309296,0.0931709147004759
4.256,0.0262345229931512,0.070500472148856
4.264,0.0273400963310718,0.0478355630932933
4.272,0.026481878956407,0.0253153924543599
4.28,0.0236645514260392,0.00308078577543199
4.288,0.0188991236020805,-0.0187168762883333
4.296,0.0122083975187752,-0.0399149238595075
4.304,0.00363275278763985,-0.0603407269304369
4.312,-0.00676445047502336,-0.0798151536788416
4.32,-0.0189174549158853,-0.0980776129680775
4.328,-0.0326362749769594,-0.115017253338698
4.336,-0.0477633840611051,-0.130498236170764
4.344,-0.0641236331091872,-0.144403072358532
4.352,-0.0815260940854303,-0.1566422173022
4.36,-0.0997703010543001,-0.167157712783354
4.368,-0.118653491277136,-0.175925074232512
4.376,-0.137983310965376,-0.18294781204392
4.384,-0.157593372774898,-0.188225031376094
4.392,-0.177271515859578,-0.191859534080206
4.4,-0.196875721071435,-0.193947300725519
4.408,-0.216295085148297,-0.194598186501469
4.416,-0.235451234254081,-0.193927302996629
4.424,-0.254297335816542,-0.192046386404651
4.432,-0.272814805174537,-0.189055835771739
4.44,-0.291011614124151,-0.185054775683606
4.448,-0.308930067346341,-0.180115611547694
4.456,-0.326595347902031,-0.174224252661779
4.464,-0.344027665341934,-0.167381277306299
4.472,-0.361237580799617,-0.159566610224919
4.48,-0.378220506176455,-0.150743857522391
4.488,-0.394952754370731,-0.140865823176863
4.496,-0.411389351983231,-0.129880690907346
4.504,-0.427465241528789,-0.117719168898105
4.512,-0.443078700117415,-0.104340724192275
4.52,-0.458120919578843,-0.0897414245313235
4.528,-0.472478244446375,-0.0739140755965248
4.536,-0.48602938162564,-0.0568687515133126
4.544,-0.49864930487255,-0.0386337244778373
4.552,-0.510212933710244,-0.0192554160946263
4.56,-0.520598351664124,0.001202432316135
4.568,-0.529689418633296,0.0226601232922306
4.576,-0.537377729983006,0.0450236375696502
4.584,-0.543563968785752,0.0681862941813524
4.592,-0.548158776720187,0.0920302394995708
4.6,-0.551083324278562,0.116427639616575
4.608,-0.552269786294815,0.141241534907554
4.616,-0.551661921601766,0.166326402299729
4.624,-0.54921591745179,0.19152854826562
4.632,-0.544904634203985,0.216649888459722
4.64,-0.538726550076148,0.241557802838939
4.648,-0.530682034478661,0.266087643423054
4.656,-0.520788960096032,0.290064195444793
4.664,-0.509085530169356,0.313309317866463
4.672,-0.495631999109313,0.335645003950987
4.68,-0.480511743557258,0.356897069101511
4.688,-0.463824192548181,0.376904224194291
4.696,-0.445576776039542,0.395549936193478
4.704,-0.426027055818948,0.412585307869105
4.712,-0.405368974206171,0.427885849083718
4.72,-0.383832317224012,0.441365637988774
4.728,-0.361709259096638,0.453032134698818
4.736,-0.339089688701196,0.462846476620231
4.744,-0.316169382379334,0.470805596695145
4.752,-0.29313414855059,0.476930424804193
4.76,-0.270157621541721,0.481260000752653
4.768,-0.247413726427554,0.483860567525805
4.776,-0.225051394531407,0.484812222782514
4.784,-0.203202507064813,0.484206793827822
4.792,-0.181981983448874,0.482144229990265
4.8,-0.161488658944488,0.478729533469196
4.808,-0.141806692596418,0.474070396954612
4.816,-0.123006395272779,0.468274403878763
4.824,-0.105148356471124,0.461449419193335
4.832,-0.0882841396696354,0.45370628985256
4.84,-0.0724544624667802,0.44515516502639
4.848,-0.0576907822058963,0.435906900469145
4.856,-0.0440150153259568,0.426073216345065
4.864,-0.0314388539329558,0.415766543905243
4.872,-0.0199628498533658,0.405099406011563
4.88,-0.00958557343304576,0.394182403342472
4.888,-0.000278552367462646,0.383131885823646
4.896,0.00800504135564642,0.372053373417995
4.904,0.0153189116463243,0.361041381044844
4.912,0.0217276928809168,0.350179139237435
4.92,0.0273047061226942,0.339536535080045
4.928,0.0321291444115052,0.329168615173938
4.936,0.0362828677126861,0.319114824728523
4.944,0.0398866513101529,0.309421548780135
4.952,0.0429968000847145,0.300054898799231
4.96,0.0456638236248779,0.291001366761778
4.968,0.0479363179659313,0.282249381149336
4.976,0.0495655727490099,0.273606322503885
4.984,0.0507520312124268,0.265367181725537
4.992,0.0516015127850704,0.257578279283042
5,0.052203161170469,0.250245227500242
5.008,0.0536022072087503,0.243450131632827
5.016,0.054901805257834,0.23647854207705
5.024,0.0555180541860085,0.229379124967649
5.032,0.0558214592230962,0.222430656889069
5.04,0.0558101940001261,0.215762089885404
5.048,0.055554403747499,0.209303442789949
5.056,0.0550689517342267,0.203070277768011
5.064,0.0543851119877426,0.197080657028284
5.072,0.053568960557167,0.19133979381955
5.08,0.0525898375551742,0.185817672381289
5.088,0.0514607298191174,0.180517170731518
5.096,0.050199159005035,0.175417924015865
5.104,0.0487962143051279,0.170484572208404
5.112,0.0472409955136455,0.165789808721984
5.12,0.0455554435923217,0.161352333062146
5.128,0.0437760774848583,0.157226240953625
5.136,0.0419818231320456,0.153429737434786
5.144,0.0402050459105172,0.14987133528186
5.152,0.0384639877319585,0.146524622581388
5.16,0.0367700064703329,0.143362538305281
5.168,0.0351281931041994,0.140359166925521
5.176,0.0335384232899913,0.137491130201585
5.184,0.0319966641346129,0.134738492812581
5.192,0.0305031936070546,0.132100096601076
5.2,0.0290594438967709,0.129552136985861
5.208,0.0276499883383341,0.127067526418237
5.216,0.0262600838436982,0.124637593509562
5.224,0.0248755303649195,0.122258764451095
5.232,0.0234839242722956,0.119931779812811
5.24,0.0220755350296274,0.117660651970592
5.248,0.0206437708444138,0.115451510464195
5.256,0.0191673842896097,0.113324873093522
5.264,0.0176681859712203,0.111286587764578
5.272,0.0161571454485514,0.109334874452479
5.28,0.0146379884354226,0.10746983380921
5.288,0.0131140304586598,0.105690887604236
5.296,0.0115880812859108,0.103997232517133
5.304,0.0100625761868594,0.102388244808366
5.312,0.00853988582453505,0.100863749935143
5.32,0.00702272885532986,0.0994240976327211
5.328,0.0055145954427296,0.0980700172036557
5.336,0.00402008767465319,0.096802265012214
5.344,0.00254509436868942,0.0956211114428501
5.352,0.00109674127663586,0.0945257431781823
5.36,-0.000316909908712322,0.093513674784851
5.368,-0.0016874033612949,0.0925802688396525
5.376,-0.00300593672069278,0.0917182607951272
5.384,-0.00426123421379075,0.0909154192040076
5.392,-0.00545399700903291,0.09015971012812
5.4,-0.00658386081462699,0.0894376935527066
5.408,-0.00765404662304725,0.0887360882868491
5.416,-0.00867122977018856,0.088042915268157
5.424,-0.00964503292428665,0.0873485507627006
5.432,-0.0105871930485972,0.0866465675337773
5.44,-0.0115255834336098,0.085942545734522
5.448,-0.0124809029040055,0.0852626822750285
5.456,-0.0134192184230613,0.0845962214604663
5.464,-0.0143430766508939,0.0839416088276285
5.472,-0.0152556723032008,0.0832973649466892
5.48,-0.0161609873364486,0.0826625162610097
5.488,-0.017063699812868,0.0820370870422822
5.496,-0.017968850068929,0.0814225451431368
5.504,-0.0188177399940126,0.0807114763940235
5.512,-0.019619086701838,0.0798235192345444
5.52,-0.0207995229337573,0.0790213969212516
5.528,-0.022286201660567,0.0786186996451408
5.536,-0.0235051745211723,0.0784660248752701
5.544,-0.0244717857089447,0.0783648422047864
5.552,-0.0253187396608737,0.0782849024482218
5.56,-0.0260588318081583,0.0781900760892117
5.568,-0.0267774789813593,0.0780545694333252
5.576,-0.0274623534850623,0.0779062514151947
5.584,-0.0280961343663657,0.077740642077181
5.592,-0.0286914046456451,0.0775492517338523
5.6,-0.0292622505673787,0.0773278389213932
5.608,-0.0298228864415447,0.0770765856439634
5.616,-0.0303863154566777,0.0767998423122396
5.624,-0.0309631562589443,0.0765054817362834
5.632,-0.0316048445751273,0.0762359921812327
5.64,-0.0322521068741977,0.0759970634395603
5.648,-0.032889985895957,0.075784669172897
5.656,-0.0335129454684227,0.0755950314667306
