"Freq [GHz]","re(S(Antenna1_1_1,Antenna1_1_1)) []","im(S(Antenna1_1_1,Antenna1_1_1)) []"
2,-0.0111596217861189,-0.505325269343548
2.008,-0.0315983461206378,-0.503792880338796
2.016,-0.0515285072840979,-0.501662659926018
2.024,-0.0710094054547823,-0.498980808015986
2.032,-0.0901002025704682,-0.495771709951778
2.04,-0.10885489263338,-0.492039257613336
2.048,-0.127317740230658,-0.48776926841045
2.056,-0.145519430426575,-0.482932865539379
2.064,-0.163474134498356,-0.477490628118964
2.072,-0.181177644929459,-0.471397276073303
2.08,-0.198606672934774,-0.464606624557649
2.088,-0.215719336138835,-0.457076528120701
2.096,-0.23245679686602,-0.448773536475287
2.104,-0.248745946807962,-0.439677001530887
2.112,-0.264502975500524,-0.429782408123967
2.12,-0.279637611400956,-0.419103746475454
2.128,-0.294064653595486,-0.407673196462229
2.136,-0.307697599925411,-0.395537735961586
2.144,-0.320440608330565,-0.382771195698384
2.152,-0.332222137830532,-0.369465104412566
2.16,-0.342987108377404,-0.355725420627213
2.168,-0.352699923358388,-0.341668490938513
2.176,-0.361346442747988,-0.327416421271647
2.184,-0.368934804707458,-0.313092129586214
2.192,-0.375495060533459,-0.298814362867769
2.2,-0.381077655878863,-0.284692959249982
2.208,-0.385750856015214,-0.270824618107068
2.216,-0.389597271054613,-0.257289408426641
2.224,-0.392709685296375,-0.244148200862891
2.232,-0.395186430746555,-0.231441154469423
2.24,-0.39712656671461,-0.219187328470734
2.248,-0.39862513432772,-0.207385426098895
2.256,-0.399764280271317,-0.196066549911507
2.264,-0.400648990721204,-0.185160499565437
2.272,-0.401342359830834,-0.174592519079198
2.28,-0.401881455060204,-0.16429681440765
2.288,-0.402281941393652,-0.154205801753687
2.296,-0.402538670482482,-0.144255503458484
2.304,-0.4026275442177,-0.134390617876339
2.312,-0.402508536393887,-0.124568974728939
2.32,-0.402129693767936,-0.114765123033003
2.328,-0.401431885271909,-0.104972847053262
2.336,-0.400354027965674,-0.0952064642761877
2.344,-0.398838492179707,-0.085500825174081
2.352,-0.396836377386583,-0.0759100044350886
2.36,-0.394312355154587,-0.0665047439280517
2.368,-0.391248795860648,-0.057368775781979
2.376,-0.387648930892547,-0.0485942161599275
2.384,-0.383538850333801,-0.0402762737011446
2.392,-0.37896819564519,-0.0325075583849692
2.4,-0.374009474850016,-0.025372304435487
2.408,-0.368756001359464,-0.0189408330524952
2.416,-0.3633185330655,-0.0132645761491146
2.424,-0.357820762194862,-0.00837196035904
2.432,-0.35239387461838,-0.0042654119361741
2.44,-0.347170456074036,-0.000919688941143111
2.448,-0.342278068507649,0.00171832046262409
2.456,-0.337832849358753,0.00372827268880761
2.464,-0.333933497613072,0.00521353995881627
2.472,-0.330656001302733,0.00629698828548712
2.48,-0.328049431299609,0.00711555635598068
2.488,-0.326133076315098,0.00781390575911065
2.496,-0.324895125992322,0.00853747670182215
2.504,-0.324344480344842,0.00942836967208625
2.512,-0.32440413726326,0.0106483667951604
2.52,-0.324910560039835,0.0123088034948905
2.528,-0.325732608460181,0.014481744631788
2.536,-0.326728852312954,0.0172056533601554
2.544,-0.327756021700385,0.0204840290067301
2.552,-0.328677568577122,0.0242861630784551
2.56,-0.329371809311692,0.0285499909581632
2.568,-0.329739135469703,0.0331868839720474
2.576,-0.329707830895888,0.0380881008569809
2.584,-0.329238114955292,0.0431325077989697
2.592,-0.328324139733347,0.0481950897173467
2.6,-0.326993796478384,0.0531557186531198
2.608,-0.325306325335547,0.0579076223287747
2.616,-0.323347863480823,0.0623650091969978
2.624,-0.321225200610171,0.0664693553384416
2.632,-0.319047431682402,0.0701448685583688
2.64,-0.316973449544514,0.0734388294045357
2.648,-0.315125825228251,0.0764095568559872
2.656,-0.313607597154677,0.0791409500820683
2.664,-0.312497666641079,0.0817439001150638
2.672,-0.31184455183113,0.0843494734377366
2.68,-0.311662034733996,0.0871007576307554
2.688,-0.311926966644216,0.0901438861836856
2.696,-0.31257935806049,0.0936188061217461
2.704,-0.313524733955234,0.097650361655548
2.712,-0.314638593652725,0.102340239688919
2.72,-0.315772685876407,0.107760261337708
2.728,-0.316762701788363,0.113947412435805
2.736,-0.317436908633812,0.120900892016791
2.744,-0.317625198262518,0.128581329028438
2.752,-0.317172476550636,0.136933886312245
2.76,-0.315921292266634,0.145893641809172
2.768,-0.313728749216203,0.155247340995647
2.776,-0.310516040645441,0.164821228657929
2.784,-0.30624374412002,0.174429628712332
2.792,-0.300913031841462,0.18388440860177
2.8,-0.294564607434692,0.193004336463581
2.808,-0.287275492790982,0.201623799510189
2.816,-0.279153907389704,0.209600405644386
2.824,-0.270332582754358,0.216821068730394
2.832,-0.260960931885376,0.223206275348318
2.84,-0.25119654449338,0.228712341081356
2.848,-0.241196502483619,0.233331580503347
2.856,-0.231109006542552,0.237090431086584
2.864,-0.221065775534374,0.240045680772334
2.872,-0.211175628465463,0.242279047284969
2.88,-0.20151958764716,0.243890439919054
2.888,-0.192147755716908,0.244990298382323
2.896,-0.183078122620001,0.245691446232915
2.904,-0.174297356911623,0.246100917296484
2.912,-0.165763532294367,0.246312212021769
2.92,-0.157410640958211,0.24639841758783
2.928,-0.149154652950893,0.24640658215475
2.936,-0.140900800052033,0.246353671784503
2.944,-0.132551696322278,0.246224361149436
2.952,-0.124015858763697,0.245970818660805
2.96,-0.115216162537886,0.245514547588132
2.968,-0.106097757691389,0.244750240122826
2.976,-0.0966349893832816,0.243551496139803
2.984,-0.0868369014795542,0.241778157192409
2.992,-0.0767509628815599,0.23928491354788
3,-0.0664647366095194,0.23593076296041
3.008,-0.0558711820436395,0.231639926411054
3.016,-0.0453550876095333,0.226145903194015
3.024,-0.0351515869693591,0.219377734003968
3.032,-0.0255190993632765,0.211317494966259
3.04,-0.0167266903714938,0.20200576712552
3.048,-0.00904030414935074,0.191544013935087
3.056,-0.00270863088719126,0.180093651131521
3.064,0.00205058789811679,0.167871782571986
3.072,0.00506302174595145,0.155143771680816
3.08,0.00620824318686222,0.142213008738545
3.088,0.00542761360762862,0.129408408218838
3.096,0.00272907173145474,0.117070315600755
3.104,-0.00181148927113952,0.105535609858514
3.112,-0.00805236861262137,0.0951228481479008
3.12,-0.0157916293220494,0.0861183078358491
3.128,-0.0248233055358895,0.0788698915373601
3.136,-0.0347874984995288,0.073666272698433
3.144,-0.0452320609646444,0.0704289441479911
3.152,-0.0558281930186495,0.069165921715944
3.16,-0.0662658705315714,0.0698240004423214
3.168,-0.0762663374590837,0.0722971890510548
3.176,-0.0855918160566113,0.0764377781400315
3.184,-0.0940518855883552,0.0820692222693444
3.192,-0.101506209068816,0.0889999063625144
3.2,-0.107863536143353,0.0970368189757152
3.208,-0.11307716247031,0.105998171873624
3.216,-0.11713726596871,0.115724085900043
3.224,-0.120060751073,0.126084601858292
3.232,-0.121879400954263,0.13698446281995
3.24,-0.122627253053748,0.148364338850953
3.248,-0.122328167861781,0.160198410862572
3.256,-0.12123790386035,0.172396823073606
3.264,-0.119190369755233,0.185188604874716
3.272,-0.115983895684186,0.198657094261865
3.28,-0.111452722429077,0.212810487793256
3.288,-0.105398151782656,0.227619260784041
3.296,-0.0975981064048718,0.243005326502424
3.304,-0.0878194671889956,0.25883378352299
3.312,-0.0758324773864075,0.274907890379395
3.32,-0.0614263671145105,0.290967713984445
3.328,-0.044425266342627,0.306692679082482
3.336,-0.0247034451683336,0.321708013090824
3.344,-0.00219894769856002,0.335594848211328
3.352,0.0230752316499967,0.347903523823995
3.36,0.0510231482295783,0.358169440363962
3.368,0.0814616282874793,0.365930660759566
3.376,0.114138256107083,0.370710952674963
3.384,0.148727497993177,0.371869985284722
3.392,0.184603306278222,0.36932739180031
3.4,0.221276542999398,0.362863101235139
3.408,0.258225438561308,0.352337511211166
3.416,0.294911179808777,0.337695790079475
3.424,0.330793870408829,0.318968872008919
3.432,0.365348134796395,0.296271189724088
3.44,0.398077676102074,0.269795351382507
3.448,0.428528173209424,0.239804114520781
3.456,0.456298007574283,0.206620133170244
3.464,0.481046439937265,0.17061404800286
3.472,0.502499002731368,0.132191549150455
3.48,0.520450027169055,0.0917800647559586
3.488,0.534762375781942,0.0498157150676482
3.496,0.545364592912402,0.00673112389991127
3.504,0.552358381246427,-0.0370223310222271
3.512,0.555795794762219,-0.0811302394937648
3.52,0.55562452084214,-0.125286231025128
3.528,0.551934188550595,-0.169148945548228
3.536,0.544846999368444,-0.212404495659065
3.544,0.534511505367992,-0.254768799352236
3.552,0.52109651539678,-0.295988651789936
3.56,0.504785367704586,-0.335841660093904
3.568,0.485770764539025,-0.374135206971402
3.576,0.464250314970529,-0.410704638661516
3.584,0.440422879578653,-0.445410889580857
3.592,0.414485757795816,-0.478137760223434
3.6,0.386632708532604,-0.508789057069263
3.608,0.357052749643715,-0.53728578488714
3.616,0.325929643938551,-0.563563554640329
3.624,0.293441950212491,-0.587570336504125
3.632,0.259742486148248,-0.609210608381434
3.64,0.225046161503614,-0.628492553879027
3.648,0.189525082218299,-0.645409139375397
3.656,0.153341438623665,-0.659954207642055
3.664,0.11665309557679,-0.672128658328577
3.672,0.0796144633513034,-0.681940123352326
3.68,0.0423772313830918,-0.689403017294467
3.688,0.00509087670911653,-0.694538892840027
3.696,-0.0320971194555425,-0.697377014039214
3.704,-0.0690413887716834,-0.697955048491431
3.712,-0.105599141766163,-0.696319774004518
3.72,-0.141630971085052,-0.692527696118349
3.728,-0.177001954537102,-0.686645480108158
3.736,-0.211582997159711,-0.678750114300069
3.744,-0.24525233221113,-0.668928739973906
3.752,-0.277904825571296,-0.657300174660549
3.76,-0.309476774685358,-0.644002458612773
3.768,-0.339862572912577,-0.629066555618488
3.776,-0.368974359055679,-0.612601498455693
3.784,-0.396735610198092,-0.594723387457147
3.792,-0.423082564197237,-0.575553805557529
3.8,-0.447965315444121,-0.555217841471701
3.808,-0.471348482080992,-0.533841805788992
3.816,-0.493211366377371,-0.51155074916545
3.824,-0.513547558955236,-0.488465909666016
3.832,-0.532363970315687,-0.464702226429827
3.84,-0.54967930745204,-0.440366058503219
3.848,-0.565522047256302,-0.415553240785185
3.856,-0.579927989514862,-0.390347593942069
3.864,-0.592937498940594,-0.364819982867389
3.872,-0.6045925659261,-0.339027990155317
3.88,-0.614913278712287,-0.312992079031716
3.888,-0.623931280884752,-0.286767612405292
3.896,-0.631690580071519,-0.260398630774677
3.904,-0.63821870614212,-0.233902331596107
3.912,-0.643533192220036,-0.207288082878974
3.92,-0.647639802353626,-0.180560176482452
3.928,-0.650531371540342,-0.153720962152744
3.936,-0.652187335011932,-0.126774226870132
3.944,-0.652573992892677,-0.0997286700044502
3.952,-0.651645523416795,-0.0726013179855963
3.96,-0.649345724618687,-0.0454207225912537
3.968,-0.645610432313942,-0.0182297945356571
3.976,-0.640370532788565,0.00891186202221859
3.984,-0.633555463187587,0.0359262288074953
3.992,-0.625097072028933,0.0627158573608482
4,-0.614933697331375,0.0891636210785275
4.008,-0.603111882237396,0.11520460173972
4.016,-0.589462243557078,0.140655011049517
4.024,-0.573953862952399,0.165332155615969
4.032,-0.556581976446031,0.189037005892022
4.04,-0.537371792455262,0.211558985283966
4.048,-0.516381322792705,0.232681527460497
4.056,-0.493703082866976,0.252188190074356
4.064,-0.469454470208146,0.269869091414224
4.072,-0.443764508261588,0.285512630515461
4.08,-0.416877617709474,0.298932114929933
4.088,-0.389024425226214,0.309978637738755
4.096,-0.360458680427375,0.318536146696468
4.104,-0.331451157964708,0.324525327985289
4.112,-0.302282889556504,0.327906218244752
4.12,-0.273237995972593,0.328679427822683
4.128,-0.244589022369867,0.326822147063222
4.136,-0.216655342524464,0.322368958019852
4.144,-0.189724738878162,0.315562882040323
4.152,-0.164016013602701,0.306578254003785
4.16,-0.139711002400861,0.295612020700041
4.168,-0.116952204588423,0.282875010307613
4.176,-0.0958425355550273,0.268583006921121
4.184,-0.0764472016593832,0.252948147376989
4.192,-0.0588241567331638,0.236270775079262
4.2,-0.0429025744193335,0.218724136882116
4.208,-0.0286219047226043,0.200367371394117
4.216,-0.0159565990335984,0.181303547544703
4.224,-0.00488598233488945,0.161612641424358
4.232,0.00459880298697279,0.141356285023271
4.24,0.0124895328339837,0.120584310127477
4.248,0.0187577649449296,0.0993425857614759
4.256,0.0235198704521512,0.077626315187856
4.264,0.0265557260240718,0.0554445903282933
4.272,0.027688021283807,0.0329065504003599
4.28,0.0267971542366392,0.010155135458432
4.288,0.0237749439010805,-0.0126269406403333
4.296,0.0185364774807752,-0.0352188791925075
4.304,0.0110313987496398,-0.0573667816234369
4.312,0.00125375564697664,-0.0787917144478416
4.32,-0.0111537450898853,-0.0989901788152775
4.328,-0.0255807797589594,-0.117677501637698
4.336,-0.0417743333941051,-0.134635245650764
4.344,-0.0594759721721872,-0.149681672936532
4.352,-0.0784026865444303,-0.1626854886812
4.36,-0.0982585820169001,-0.173569736599354
4.368,-0.118747136855436,-0.182312779415512
4.376,-0.139580741923376,-0.18896720902592
4.384,-0.160527160982898,-0.193736462581094
4.392,-0.181404946807578,-0.196574102517206
4.4,-0.202010683710435,-0.197608057818519
4.408,-0.222178296186297,-0.19699322410997
4.416,-0.241783375035081,-0.194902034627629
4.424,-0.260745160971542,-0.191514302287651
4.432,-0.279026079311537,-0.187006917839739
4.44,-0.296616421595151,-0.181566311394606
4.448,-0.313562881446141,-0.175370641635694
4.456,-0.329973520101631,-0.168478752062779
4.464,-0.345933433572834,-0.160956330114299
4.472,-0.361533806654617,-0.152832311833919
4.48,-0.376862422905455,-0.144099143146391
4.488,-0.391994589849731,-0.134715237496863
4.496,-0.406984964424231,-0.124609450437246
4.504,-0.421891376826789,-0.113659903960805
4.512,-0.436686278954415,-0.101738048363275
4.52,-0.451284466502843,-0.0887570883799235
4.528,-0.465603679593375,-0.0746139286685248
4.536,-0.47952927751004,-0.0592167800943126
4.544,-0.49291706584518,-0.0424925919868373
4.552,-0.505597653318344,-0.0243936709206263
4.56,-0.517382111766124,-0.004903194742865
4.568,-0.528068662775196,0.0159606096002306
4.576,-0.537450079514006,0.0381417891546503
4.584,-0.545321472802752,0.0615455836600524
4.592,-0.551488125979187,0.0860389646733508
4.6,-0.555773052401562,0.111452753225975
4.608,-0.558023970625815,0.137585213022054
4.616,-0.558119423426766,0.164206962416629
4.624,-0.55597380541259,0.19106700289432
4.632,-0.551485637735785,0.217898953619722
4.64,-0.544701568077448,0.244402101973939
4.648,-0.535678837090161,0.270304499799054
4.656,-0.524507994022732,0.295348045035793
4.664,-0.511317153184456,0.319293881812463
4.672,-0.496267252783013,0.341928626408587
4.68,-0.479546240761258,0.363069405500611
4.688,-0.461372827172181,0.382585376434891
4.696,-0.442040813926542,0.400643811983168
4.704,-0.421550176936948,0.416894932876405
4.712,-0.400126757325171,0.431250593986518
4.72,-0.378007148108012,0.443618685807874
4.728,-0.355505869558638,0.453821479810118
4.736,-0.332867490596796,0.462124759520231
4.744,-0.310287790215534,0.468611298784145
4.752,-0.28793464158897,0.473390729036193
4.76,-0.265940323337721,0.476590628713653
4.768,-0.244414813816654,0.478322579173805
4.776,-0.223440442308907,0.478713472630514
4.784,-0.203073949602813,0.477885692138722
4.792,-0.183350310346874,0.475952157194465
4.8,-0.164287495154488,0.473012692769966
4.808,-0.145891774600418,0.469151887675512
4.816,-0.128162578760779,0.464443143328863
4.824,-0.111095220793124,0.458940665658335
4.832,-0.0946918528416354,0.45267790358096
4.84,-0.0789625696202802,0.44568505497339
4.848,-0.0639270050181963,0.437987116773145
4.856,-0.0496152631444568,0.429608316937065
4.864,-0.0360675104786558,0.420576532056243
4.872,-0.0233323064783658,0.410927338357563
4.88,-0.0114500035029458,0.400688174370072
4.888,-0.000494729879462646,0.389920256025646
4.896,0.00946663894164642,0.378713389786195
4.904,0.0183864037693243,0.367163305471244
4.912,0.0262297248929168,0.355379399221735
4.92,0.0329785643957942,0.343481933181045
4.928,0.0386348448041052,0.331598230703938
4.936,0.0432225933993461,0.319858093158823
4.944,0.0466991666806529,0.308419337988135
4.952,0.0492252652068145,0.297420529934231
4.96,0.0509284908542779,0.286955687913478
4.968,0.0519292907051313,0.277099424901936
4.976,0.0530516471540099,0.267722178699185
4.984,0.0537159488774268,0.258708899602137
4.992,0.0538836695417704,0.250091693463202
5,0.053590758112469,0.241901977750042
5.008,0.0512893195767503,0.235129870767827
5.016,0.049182949904934,0.22958645932805
5.024,0.0482868951312085,0.224589938830649
5.032,0.0477669112174962,0.219998527356069
5.04,0.0475945689590261,0.215478814310505
5.048,0.047726960165499,0.211092586864949
5.056,0.0481299308985267,0.206720425054111
5.064,0.0487230751454426,0.202251186830284
5.072,0.049349632807167,0.19760643527685
5.08,0.0500051033521742,0.192798759965519
5.088,0.0506059081054174,0.187803623926918
5.096,0.051030976605035,0.182665921604765
5.104,0.0511950529231278,0.177507537724604
5.112,0.0511560482174455,0.172244340880984
5.12,0.0508584384833217,0.166904323353146
5.128,0.0502678376946583,0.161408572930625
5.136,0.0492567779824456,0.155732080774786
5.144,0.0477423432540172,0.15017825805056
5.152,0.0457372952652585,0.144859589143888
5.16,0.0432832166957329,0.139882710686781
5.168,0.0404480307249994,0.135341386589121
5.176,0.0373218820617914,0.131310335278535
5.184,0.0340116390893129,0.127840279206681
5.192,0.0306962976375546,0.124902527721376
5.2,0.0274436328147709,0.122465931790561
5.208,0.0242977766360341,0.120542132578637
5.216,0.0213539857195982,0.119091947707862
5.224,0.0186970325902725,0.118054925190995
5.232,0.0163963279559956,0.117352239217611
5.24,0.0145018318975274,0.116890685871992
5.248,0.0130409970087138,0.116567570916395
5.256,0.0121069708050097,0.116249898243422
5.264,0.0115984430570203,0.115803299029678
5.272,0.0114205798906514,0.115141706964689
5.28,0.0114915943797226,0.11419597706596
5.288,0.0117165613351598,0.112919201626736
5.296,0.0119931472612108,0.111289121824433
5.304,0.0122177446914594,0.109309092200466
5.312,0.0122916511214351,0.107007542660143
5.32,0.0121269292318299,0.104435971053821
5.328,0.0116516031113996,0.101665586348256
5.336,0.0108138839499132,0.098782802788114
5.344,0.00958517602288942,0.0958838542030501
5.352,0.00796168641923586,0.0930688505258823
5.36,0.00596454559398768,0.090435632218351
5.368,0.0036384353387051,0.0880737904329525
5.376,0.00103941411610722,0.0860694158106272
5.384,-0.00178229544839075,0.0845579272277476
5.392,-0.00464220614213291,0.0835047359319201
5.4,-0.00743649893512699,0.0829035387002066
5.408,-0.0100671391564473,0.0827230058243491
5.416,-0.0124477338973886,0.082909288559757
5.424,-0.0145085208412867,0.0833898446852006
5.432,-0.0162002050377272,0.0840783121484773
5.44,-0.0173718697075098,0.084777568712122
5.448,-0.0179906051150055,0.0851756852350285
5.456,-0.0184388920613613,0.0854107604453663
5.464,-0.0187729767314939,0.0854728424480285
5.472,-0.0190447431833008,0.0853652125609892
5.48,-0.0192991385106486,0.0851019464957097
5.488,-0.019572451515968,0.0847051018915822
5.496,-0.019891457496229,0.0842017817378468
5.504,-0.0208637614371126,0.0846224220813235
5.512,-0.022140518649038,0.0866217631569444
5.52,-0.0207614074388573,0.0877673687092516
5.528,-0.017648844411637,0.0863695141451408
5.536,-0.0163662307397723,0.0837291630144701
5.544,-0.0166699690908447,0.0809814482170864
5.552,-0.0176801474582737,0.0783270146758218
5.56,-0.0193184460448583,0.0759612228323117
5.568,-0.0210242984839593,0.0741569654753352
5.576,-0.0228523718883623,0.0726888748751947
5.584,-0.0249226978635657,0.071526583041581
5.592,-0.0271592046256451,0.0707242756140523
5.6,-0.0294746487917587,0.0703166579841932
5.608,-0.0317754501668347,0.0703167831298633
5.616,-0.0339669274330777,0.0707150388376396
5.624,-0.0359586673225443,0.0714793655787834
5.632,-0.0373036585953273,0.0727990159741327
5.64,-0.0381630627583977,0.0741926284874603
5.648,-0.038612005744257,0.075508182010257
5.656,-0.0387056170008227,0.0766558807796306
5.664,-0.0386243158038133,0.0771738883925358
