"Freq [GHz]","re(S(Antenna1_1_1,Antenna1_1_1)) []","im(S(Antenna1_1_1,Antenna1_1_1)) []"
2,-0.0164269845361189,-0.503887652374548
2.008,-0.0363972710162378,-0.501093028657796
2.016,-0.0555597195096979,-0.497843385022018
2.024,-0.0740152635923823,-0.494255108388986
2.032,-0.0918809771214682,-0.490411025893778
2.04,-0.10928181461438,-0.486357992125336
2.048,-0.126341972396658,-0.48210644436045
2.056,-0.143176344181575,-0.477631979752379
2.064,-0.159882548573356,-0.472878893433764
2.072,-0.176533981965459,-0.467765503031303
2.08,-0.193174299541774,-0.462190979840849
2.088,-0.209813651777835,-0.456043316023701
2.096,-0.22642690869402,-0.449207986341287
2.104,-0.242953993244962,-0.441576816465887
2.112,-0.259302326096224,-0.433056551048967
2.12,-0.275351262378956,-0.423576624945454
2.128,-0.290971291134386,-0.41309899817423
2.136,-0.30601589962241,-0.401607162899586
2.144,-0.320297000245565,-0.389119998482384
2.152,-0.333649795888532,-0.375706444017566
2.16,-0.345922631345404,-0.361473574280213
2.168,-0.356986004229387,-0.346562792431813
2.176,-0.366740433869988,-0.331143930789647
2.184,-0.375122709171458,-0.315407589653414
2.192,-0.382110128865459,-0.299556152747769
2.2,-0.387722464123863,-0.283794001045982
2.208,-0.392021507688214,-0.268317499377068
2.216,-0.395108217520813,-0.253305348584641
2.224,-0.397117607321375,-0.238909878631891
2.232,-0.398211673065355,-0.225249805707423
2.24,-0.39857076472761,-0.212404891634734
2.248,-0.39838390857172,-0.200412832371895
2.256,-0.397788810354317,-0.189352909970507
2.264,-0.397043966937204,-0.179144607962437
2.272,-0.396334017706834,-0.169661020370398
2.28,-0.395785335186204,-0.16076691278165
2.288,-0.395482388866652,-0.152305322244687
2.296,-0.395464085358482,-0.144108829247484
2.304,-0.3957230279197,-0.136011346576339
2.312,-0.396207725747887,-0.127859684982939
2.32,-0.396827599139206,-0.119524173024003
2.328,-0.397460453065909,-0.110907670962262
2.336,-0.397961939467074,-0.101952421948188
2.344,-0.398176407553707,-0.092644321215081
2.352,-0.397948458327583,-0.0830143464300886
2.36,-0.397134479644587,-0.0731370697710517
2.368,-0.395613443412648,-0.063126353189179
2.376,-0.393296296167548,-0.0531285013559275
2.384,-0.390133364571801,-0.0433133016098446
2.392,-0.38611932286419,-0.0338635070839692
2.4,-0.381295420593016,-0.024963410865487
2.408,-0.375748838009464,-0.0167872102004952
2.416,-0.3696092113865,-0.00948786785711458
2.424,-0.363042540826062,-0.00318714292604
2.432,-0.35624284925538,0.0020326117718259
2.44,-0.349422092783036,0.00613439838685689
2.448,-0.342798922966649,0.00912991977662408
2.456,-0.336586964674753,0.0110801297128076
2.464,-0.330983296253072,0.0120929616208163
2.472,-0.326157800907733,0.0123183753886871
2.48,-0.322244001338609,0.0119410166759807
2.488,-0.319331898094098,0.0111709191072106
2.496,-0.317463211384322,0.0102327881708222
2.504,-0.316709233106842,0.00932534076508625
2.512,-0.31702476465226,0.00872548359416035
2.52,-0.318206959909835,0.00868336846489053
2.528,-0.320083854684281,0.00936423982878803
2.536,-0.322453524043954,0.0108873160171554
2.544,-0.325095980599385,0.0133205540447301
2.552,-0.327785866713122,0.0166784150414551
2.56,-0.330305203726692,0.0209227043211632
2.568,-0.332455472788703,0.0259663844770474
2.576,-0.334068353866888,0.0316800940025809
2.584,-0.335014537838292,0.0379009572829697
2.592,-0.335210145446347,0.0444431510189467
2.6,-0.334620428751384,0.0511096042121198
2.608,-0.333260587399547,0.0577041567437747
2.616,-0.331193694368823,0.0640434877069978
2.624,-0.328525885171771,0.0699681485354416
2.632,-0.325348301046402,0.0752948419813688
2.64,-0.321904096426714,0.0799662599225357
2.648,-0.318392941943251,0.0839618258849872
2.656,-0.315005885019677,0.0873044985260683
2.664,-0.311922269222079,0.0900655772990638
2.672,-0.30929844281513,0.0923604165337366
2.68,-0.307257830333996,0.0943416351877554
2.688,-0.305882898228216,0.0961902198026856
2.696,-0.30520943681049,0.0981050249907462
2.704,-0.305223451774234,0.100291254813548
2.712,-0.305860816340725,0.102948555370919
2.72,-0.307009687037407,0.106259362461708
2.728,-0.308515540550463,0.110378128061805
2.736,-0.310188551994812,0.115421997210791
2.744,-0.311812914967818,0.121463425869438
2.752,-0.313183235795636,0.128549444405245
2.76,-0.314085219555634,0.136725036507172
2.768,-0.314188124854203,0.145837500409647
2.776,-0.313278322825441,0.155735592240929
2.784,-0.31117902716102,0.166223070039332
2.792,-0.307759550385462,0.17706824192277
2.8,-0.302942096918692,0.188015354793581
2.808,-0.296705745731982,0.198797203666189
2.816,-0.289087426586704,0.209148281327386
2.824,-0.280179854643358,0.218817763440394
2.832,-0.270126549502376,0.227581636558318
2.84,-0.25911421905738,0.235253324831356
2.848,-0.247362927364369,0.241692253081347
2.856,-0.235114582440552,0.246809894781584
2.864,-0.222620368551374,0.250572987573334
2.872,-0.210127803445463,0.253003750135969
2.88,-0.19786812156716,0.254177093274154
2.888,-0.186044668286908,0.254214978639323
2.896,-0.174822938347001,0.253278230998915
2.904,-0.164322806862623,0.251556247462484
2.912,-0.154613387073367,0.249255161997769
2.92,-0.145710811666211,0.24658511030783
2.928,-0.137579080463393,0.24374729388475
2.936,-0.130133954487033,0.240921560054503
2.944,-0.123249712915278,0.238255195329436
2.952,-0.116768433390597,0.235853574149805
2.96,-0.110511315882886,0.233773214762132
2.968,-0.104291452752389,0.232017674623826
2.976,-0.0979273592232816,0.230536573349803
2.984,-0.0912565240995542,0.229227869635409
2.992,-0.0841482233415599,0.22794334755788
3,-0.0765148610695194,0.22649709501341
3.008,-0.0680850196776395,0.224990409993054
3.016,-0.0589832306125333,0.222761522669015
3.024,-0.0493412133113591,0.219542829583968
3.032,-0.0393643875443765,0.215098321206259
3.04,-0.0293235069604938,0.20924169763552
3.048,-0.0195420582443507,0.201852209525087
3.056,-0.0103800382421913,0.192887261681521
3.064,-0.00221493637788321,0.182390977902986
3.072,0.00457907698595145,0.170498133855816
3.08,0.00965263339686222,0.157433109889745
3.088,0.0127021348576286,0.143503785645838
3.096,0.0134890235714547,0.129090578425755
3.104,0.0118562356918605,0.114631102665014
3.112,0.00774085237137863,0.100601183831901
3.12,0.00118215008695059,0.0874931807758491
3.128,-0.00785801035758949,0.0758644591173601
3.136,-0.0191766429425288,0.066369889418433
3.144,-0.0320344024916444,0.0593239439979911
3.152,-0.0459488768289495,0.054990386566944
3.16,-0.0603957532305714,0.0535260063883214
3.168,-0.0748343413090837,0.0549748652710548
3.176,-0.0887335962166113,0.0592687742172815
3.184,-0.101597122178355,0.0662339355243444
3.192,-0.112985690998816,0.0756033171175144
3.2,-0.122535953397353,0.0870339801117152
3.208,-0.12997424594031,0.100128275946624
3.216,-0.13512469017571,0.114457587460043
3.224,-0.1379111287186,0.129587123288292
3.232,-0.138352823108263,0.14510019940995
3.24,-0.136554230009748,0.160620461910953
3.248,-0.132689550091881,0.175830621634572
3.256,-0.12717191778535,0.190039742749606
3.264,-0.120362813635233,0.203517461704716
3.272,-0.112428348244186,0.216434735769865
3.28,-0.103514361749077,0.228858931837256
3.288,-0.0937067453326559,0.240896104315041
3.296,-0.0830227136888718,0.252670525376924
3.304,-0.0714079290029956,0.26430252730599
3.312,-0.0587397420424075,0.275886217829395
3.32,-0.0448364140827805,0.287468653434445
3.328,-0.029471786695627,0.299031978892482
3.336,-0.0123944981683336,0.310479866530824
3.344,0.00664946843663998,0.321629326997328
3.352,0.0278923615789967,0.332208628765995
3.36,0.0515199681295783,0.341861677605962
3.368,0.0776483069974793,0.350158793208266
3.376,0.106376660017083,0.356593363922963
3.384,0.137999596114177,0.360374143990722
3.392,0.171694179520222,0.36103253662451
3.4,0.207072451250398,0.358129719926139
3.408,0.243655848168308,0.351293228002166
3.416,0.280890029879177,0.340236034239475
3.424,0.318163726537829,0.324771851642919
3.432,0.354830602687395,0.304825820505088
3.44,0.390232968407073,0.280440020743507
3.448,0.423726074386424,0.251773543617781
3.456,0.454701708702283,0.219097167715244
3.464,0.482609869528265,0.18278298664846
3.472,0.506977415656368,0.143289614954455
3.48,0.527422786781055,0.101143835240959
3.488,0.543666125509942,0.0569197318396482
3.496,0.555534407532402,0.0112164732269113
3.504,0.563058649762427,-0.0351659320312271
3.512,0.566399429295219,-0.0817335079897648
3.52,0.56558780875724,-0.128210739304128
3.528,0.560770313007595,-0.174140950402228
3.536,0.552149329703444,-0.219113260091065
3.544,0.539971620320992,-0.262769320097236
3.552,0.52451620743378,-0.304807379966936
3.56,0.506082237030586,-0.344983698314904
3.568,0.484977378135025,-0.383111450462402
3.576,0.461507258218529,-0.419057397401216
3.584,0.435966346800653,-0.452736675687857
3.592,0.408630596990816,-0.484106137948434
3.6,0.379752042046604,-0.513156717041363
3.608,0.349555427773715,-0.53990530256414
3.616,0.318236848597551,-0.564386607140329
3.624,0.285964250600491,-0.586645463943125
3.632,0.252740350144748,-0.606702183366434
3.64,0.218827209249614,-0.624562914712027
3.648,0.184367640164299,-0.640277186286397
3.656,0.149466678284965,-0.653890778594056
3.664,0.11421601873079,-0.665442331642577
3.672,0.0786982682423034,-0.674961642521326
3.68,0.0429912155170918,-0.682469110820467
3.688,0.00717186306911653,-0.687976261348707
3.696,-0.0286800066565425,-0.691487221607514
3.704,-0.0644789189146834,-0.693000988510431
3.712,-0.100131589486163,-0.692514286498518
3.72,-0.135535692928052,-0.690024798406949
3.728,-0.170579553297102,-0.685534541889158
3.736,-0.205142741859711,-0.679053167469069
3.744,-0.23909751703839,-0.670600968934906
3.752,-0.272293405657796,-0.660251326150549
3.76,-0.304606046878358,-0.648146417923773
3.768,-0.335984563757577,-0.634220798128488
3.776,-0.366296812267479,-0.618530579396693
3.784,-0.395410938487092,-0.601149536490147
3.792,-0.423199303003237,-0.582169818591529
3.8,-0.449542556251121,-0.561701686198171
3.808,-0.474333628499992,-0.539872257281792
3.816,-0.497481400211371,-0.51682330244845
3.824,-0.518913833014236,-0.492708182188016
3.832,-0.538580367883687,-0.467688068104527
3.84,-0.55645343393604,-0.441927631737219
3.848,-0.572528956783302,-0.415590416972185
3.856,-0.586825807246522,-0.388834133367069
3.864,-0.599384186842594,-0.361806116794389
3.872,-0.6102630028701,-0.334639200085317
3.88,-0.619526241424286,-0.307357346792716
3.888,-0.627210714739352,-0.280101455860292
3.896,-0.633406887410519,-0.253018832414677
3.904,-0.63821850856612,-0.226177455848107
3.912,-0.641750460724036,-0.199619084016354
3.92,-0.644102524008626,-0.173359598395452
3.928,-0.645363241339343,-0.147390819030744
3.936,-0.645604228594932,-0.121683759398132
3.944,-0.644875263750677,-0.0961932114770502
3.952,-0.643200460577795,-0.0708634748815963
3.96,-0.640575787121688,-0.0456349750062537
3.968,-0.636968127919942,-0.0204514576196571
3.976,-0.632316016233565,0.00473259540621859
3.984,-0.626532080168587,0.0299447101284953
3.992,-0.619507160289933,0.0551877117048482
4,-0.611115969318175,0.0804339371825275
4.008,-0.601448672913396,0.10559210426572
4.016,-0.590150311745078,0.130692825019517
4.024,-0.577057962187399,0.155595212421909
4.032,-0.562026574570031,0.180109400717022
4.04,-0.544940836256262,0.203999883446966
4.048,-0.525726237724705,0.226991591443497
4.056,-0.504358718592976,0.248778499184356
4.064,-0.480857217625146,0.269064966635224
4.072,-0.455225342714388,0.287593398210461
4.08,-0.427674356429474,0.303868221506933
4.088,-0.398454969697214,0.317561922237755
4.096,-0.367884576544375,0.328388343624468
4.104,-0.336338112677708,0.336117022299289
4.112,-0.304235784348504,0.340585257989752
4.12,-0.272028243627593,0.341707234853683
4.128,-0.240123689480867,0.339386536236062
4.136,-0.209029499250464,0.333600416890852
4.144,-0.179330426669162,0.324683818754323
4.152,-0.151432052576701,0.312924092851075
4.16,-0.125671147005861,0.298674868908041
4.168,-0.102303411621423,0.282338569373613
4.176,-0.0814956898613273,0.264346577271121
4.184,-0.0633230884443832,0.245138185855989
4.192,-0.0479534773721638,0.225246324551262
4.2,-0.0351676131981335,0.205154200735116
4.208,-0.0245923126326043,0.185117211437117
4.216,-0.0159700215035984,0.165359169810703
4.224,-0.00902422768488945,0.146020294202358
4.232,-0.00348175081302721,0.127157728750271
4.24,0.000906031741983695,0.108751641805477
4.248,0.00434437527592962,0.0907164492926759
4.256,0.00734264938815121,0.072950744318856
4.264,0.00973217244507181,0.0550601254182933
4.272,0.011318575898207,0.0368371866203599
4.28,0.0119542784296392,0.018151205508432
4.288,0.0114369865720805,-0.0010738873303333
4.296,0.0095269687741752,-0.0208456420675075
4.304,0.00596733784663985,-0.0410942142604369
4.312,0.000505977736976644,-0.0616690637818416
4.32,-0.00752710775988526,-0.0822423227594775
4.328,-0.0178171403889594,-0.102401423671698
4.336,-0.0303756939991051,-0.121827728766764
4.344,-0.0451790763021871,-0.140183378099532
4.352,-0.0621332039974303,-0.1571268176082
4.36,-0.0810730424559001,-0.172329623320354
4.368,-0.101766165597836,-0.185493136365512
4.376,-0.123939826208376,-0.19636279423492
4.384,-0.147360861804898,-0.204696357447094
4.392,-0.171492487604577,-0.210351287728206
4.4,-0.195920149430435,-0.213292884890519
4.408,-0.220234550122297,-0.213570337453969
4.416,-0.244050775062081,-0.211313160083729
4.424,-0.267026027092542,-0.206723163138651
4.432,-0.288874941039537,-0.200062419070739
4.44,-0.309320959096151,-0.191676719115606
4.448,-0.328198756367141,-0.182000393887694
4.456,-0.345627442697631,-0.171296724067779
4.464,-0.361646293678934,-0.159863038148299
4.472,-0.376357808204617,-0.147962681514919
4.48,-0.389916930044455,-0.135811515312391
4.488,-0.402517437041731,-0.123567374131863
4.496,-0.414376269801731,-0.111323055698246
4.504,-0.425812912676789,-0.0991013042118045
4.512,-0.437029308927415,-0.0867939466622754
4.52,-0.448086716991843,-0.0742837331013235
4.528,-0.459102775489375,-0.0614288196705248
4.536,-0.47014684383204,-0.0480530931563126
4.544,-0.48123268640518,-0.0339588497678373
4.552,-0.492314248416344,-0.0189408587876263
4.56,-0.503284758282124,-0.002801082757865
4.568,-0.513979224678296,0.0146367073982306
4.576,-0.524180226112006,0.0335131796776503
4.584,-0.533626726909752,0.0539212670320524
4.592,-0.542025502321187,0.0758962131823508
4.6,-0.549064624601962,0.0994083731729749
4.608,-0.554428356517815,0.124359172580054
4.616,-0.557812723858766,0.150580478278729
4.624,-0.55894099676059,0.17783747013562
4.632,-0.557408865143785,0.205830610559722
4.64,-0.553196179425448,0.234135922497939
4.648,-0.546241042503161,0.262373101193054
4.656,-0.536526826754732,0.290150654361793
4.664,-0.524108477367456,0.317075375833463
4.672,-0.509111770924713,0.342767015201587
4.68,-0.491729438442258,0.366872514152611
4.688,-0.472240312936181,0.389108222702891
4.696,-0.451193584037542,0.409709668896168
4.704,-0.428401988610948,0.428064713779405
4.712,-0.404201085917171,0.443951090315518
4.72,-0.378963559465012,0.457127764364874
4.728,-0.353221289768638,0.467155941483818
4.736,-0.327476284780796,0.474521115075231
4.744,-0.302101164941534,0.479358822254145
4.752,-0.27742051405797,0.481876618710193
4.76,-0.253689352590721,0.482336145010653
4.768,-0.231125599067654,0.480987200859805
4.776,-0.209874465137407,0.478131500581514
4.784,-0.190012505353813,0.474076813803722
4.792,-0.171549964967874,0.469121539267465
4.8,-0.154436586658488,0.463540490979966
4.808,-0.138570450746418,0.457572663915512
4.816,-0.123820270756779,0.451414706090863
4.824,-0.110016216448124,0.445217206256335
4.832,-0.0969566831606354,0.43906411654656
4.84,-0.0844560884602802,0.43298395440839
4.848,-0.0723438248291963,0.426953047141145
4.856,-0.0604763473774568,0.420902459584065
4.864,-0.0487470437866558,0.414727529148543
4.872,-0.0370933534543658,0.408299379519563
4.88,-0.0254428391280458,0.401482213128072
4.888,-0.0138540968764626,0.394100472329646
4.896,-0.00245568401735358,0.386021281548195
4.904,0.00861755714832426,0.377153372920244
4.912,0.0192010190019168,0.367445875470735
4.92,0.0291120117597942,0.356895007182045
4.928,0.0381627178941052,0.345547608022938
4.936,0.0461736049303461,0.333501311293523
4.944,0.0527932778896529,0.320759972079135
4.952,0.0579859546788145,0.307728207035231
4.96,0.0617501451782779,0.294684635413478
4.968,0.0641025372571313,0.281871977968936
4.976,0.0664929044840099,0.270669842786185
4.984,0.0682769348864268,0.259640621106137
4.992,0.0692968693180704,0.248678102509202
5,0.069505943887469,0.237837777424042
5.008,0.0646005959627503,0.225292181580827
5.016,0.058064998837934,0.21528808195405
5.024,0.0528178955732085,0.208863843686649
5.032,0.0478693381434962,0.204055417039069
5.04,0.0438171921800261,0.200268577520405
5.048,0.040424335570499,0.197525568027949
5.056,0.0378627773175267,0.195581130808111
5.064,0.0362212826564426,0.194105610002284
5.072,0.035399553406167,0.19266252361785
5.08,0.0354050580631741,0.191278476608519
5.088,0.0361767047711174,0.189734475800918
5.096,0.037432978262035,0.187854037916765
5.104,0.0387909782251279,0.185680330277604
5.112,0.0406021477724455,0.183129905323984
5.12,0.0427504472733217,0.180085872792146
5.128,0.0454089324786583,0.176242126864625
5.136,0.0484179040274456,0.171152051216786
5.144,0.0509021394780172,0.16513705400596
5.152,0.0526106999692585,0.158357754601888
5.16,0.0533439669557329,0.151033176367781
5.168,0.0529663139879994,0.143425633721121
5.176,0.0514145605247913,0.135823021489535
5.184,0.0487017139123129,0.128519641956681
5.192,0.0451061613302546,0.121853452776376
5.2,0.0407650211697709,0.115931802050561
5.208,0.0357008872160341,0.110873731874637
5.216,0.0301151915765982,0.106834324037862
5.224,0.0242435073045725,0.103916625467995
5.232,0.0183420457229956,0.102164517725611
5.24,0.0126727506635274,0.101559040820592
5.248,0.00748786083071378,0.102018425752395
5.256,0.00317828991200974,0.103543175617422
5.264,-0.000109752944979662,0.105748721239678
5.272,-0.00232120674734863,0.108320389682789
5.28,-0.00342341125727739,0.11098766996196
5.288,-0.00344942703684021,0.113481684735736
5.296,-0.00249544968668919,0.115550944823433
5.304,-0.000714521131540609,0.116975956151466
5.312,0.00169306329643505,0.117581828400143
5.32,0.00449206228882986,0.117248158446821
5.328,0.0074265662623996,0.115915627157256
5.336,0.0102353913259132,0.113588945093114
5.344,0.0126676761718894,0.11033599933365
5.352,0.0144977633812359,0.106283277305882
5.36,0.0155384949499877,0.101607861261351
5.368,0.0156521506247051,0.0965264855589525
5.376,0.0147229359731072,0.0912752413947272
5.384,0.0125156423576093,0.0861429319167476
5.392,0.00935344840206709,0.0814867155349201
5.4,0.00538544527687301,0.0775236096232066
5.408,0.000807422705552746,0.0744249737343491
5.416,-0.00415118040438856,0.072307117432757
5.424,-0.00924205360508665,0.0712254476302006
5.432,-0.0142135986397272,0.0711724281024773
5.44,-0.0184912627955098,0.072206048820422
5.448,-0.0214112551250055,0.0740205624195285
5.456,-0.0236449876613613,0.0760005721013663
5.464,-0.0252287702374939,0.0779930652750285
5.472,-0.0262285263463008,0.0798674046419892
5.48,-0.0267320128176486,0.0815199382291097
5.488,-0.026840661028968,0.0828763933711822
5.496,-0.026661597536229,0.0838921525088468
5.504,-0.0288896964381126,0.0846525701833235
5.512,-0.034162760729038,0.0865115743729444
5.52,-0.0347242254064573,0.0919601542512516
5.528,-0.028778857047637,0.0975538915211408
5.536,-0.0226337742289723,0.0983228356484701
5.544,-0.0180760057618447,0.0959302256930864
5.552,-0.0145333872322737,0.0922136150272218
5.56,-0.0123023190908583,0.0875574555313117
5.568,-0.0113128158869593,0.0833120123003352
5.576,-0.0112126417403623,0.0791931388681947
5.584,-0.0120563645815657,0.074996154286581
5.592,-0.0138380928396451,0.0709560660790523
5.6,-0.0164952924681587,0.0672993482691932
5.608,-0.0199125371438347,0.0642306047098634
5.616,-0.0239283327490777,0.0619205274506396
5.624,-0.0283446161595443,0.0604958434107834
5.632,-0.0329270729283273,0.0609787924911327
5.64,-0.0369882126733977,0.0624817152994603
5.648,-0.040329472599257,0.064669391086957
5.656,-0.0428441819448227,0.0673146372196306
