"Freq [GHz]","re(S(Tx_p1,Tx_p1)) []","im(S(Tx_p1,Tx_p1)) []"
1,-0.0003923962572,5.799045145E-05
1.01,-0.0003879021079,7.998449471E-05
1.02,-0.000382151232,0.0001016876076
1.03,-0.000375161255,0.000123025176
1.04,-0.0003669544201,0.0001439237065
1.05,-0.0003575575083,0.0001643111188
1.06,-0.0003470017392,0.0001841170309
1.07,-0.0003353226544,0.0002032730379
1.08,-0.0003225599846,0.0002217129813
1.09,-0.0003087574979,0.0002393732102
1.1,-0.0002939628344,0.000256192831
1.11,-0.0002782273236,0.0002721139461
1.12,-0.0002616057883,0.0002870818804
1.13,-0.0002441563348,0.0003010453945
1.14,-0.0002259401294,0.0003139568833
1.15,-0.0002070211642,0.0003257725612
1.16,-0.000187466011,0.0003364526303
1.17,-0.0001673435659,0.0003459614334
1.18,-0.0001467247846,0.0003542675905
1.19,-0.0001256824105,0.0003613441172
1.2,-0.0001042906956,0.0003671685267
1.21,-8.262511604E-05,0.0003717229128
1.22,-6.076208362E-05,0.0003749940154
1.23,-3.877865353E-05,0.0003769732677
1.24,-1.675223056E-05,0.0003776568235
1.25,5.239725797E-06,0.0003770455682
1.26,2.711999585E-05,0.0003751451086
1.27,4.881189266E-05,0.0003719657465
1.28,7.02395524E-05,0.0003675224321
1.29,9.132822079E-05,0.0003618347007
1.3,0.0001120045347,0.0003549265909
1.31,0.0001321967977,0.000346826545
1.32,0.0001518352481,0.0003375672936
1.33,0.0001708523197,0.0003271857226
1.34,0.0001891828923,0.000315722725
1.35,0.0002067645327,0.0003032230369
1.36,0.0002235377245,0.0002897350597
1.37,0.0002394460859,0.0002753106677
1.38,0.0002544365747,0.0002600050031
1.39,0.0002684596799,0.0002438762592
1.4,0.0002814695986,0.0002269854515
1.41,0.0002934243987,0.0002093961793
1.42,0.0003042861656,0.0001911743777
1.43,0.0003140211325,0.0001723880612
1.44,0.0003225997954,0.0001531070601
1.45,0.0003299970098,0.000133402751
1.46,0.000336192071,0.0001133477815
1.47,0.000341168777,9.301579168E-05
1.48,0.0003449154733,7.248113221E-05
1.49,0.00034742508,5.18185809E-05
1.5,0.0003486951014,3.110305854E-05
1.51,0.0003487276177,1.040934523E-05
1.52,0.0003475292585,-1.018820163E-05
1.53,0.0003451111597,-3.06159267E-05
1.54,0.0003414889026,-5.080115221E-05
1.55,0.0003366824356,-7.06724486E-05
1.56,0.0003307159807,-9.015989924E-05
1.57,0.0003236179219,-0.0001091953582
1.58,0.00031542068,-0.0001277127002
1.59,0.0003061605707,-0.0001456480614
1.6,0.000295877649,-0.0001629400707
1.61,0.0002846155398,-0.0001795300702
1.62,0.0002724212555,-0.0001953623242
1.63,0.0002593450006,-0.0002103842159
1.64,0.000245439966,-0.0002245464313
1.65,0.0002307621117,-0.0002378031295
1.66,0.0002153699403,-0.0002501120979
1.67,0.0001993242619,-0.0002614348941
1.68,0.0001826879506,-0.000271736971
1.69,0.0001655256947,-0.0002809877875
1.7,0.0001479037413,-0.0002891609017
1.71,0.0001298896355,-0.0002962340493
1.72,0.0001115519565,-0.0003021892042
1.73,9.296005064E-05,-0.0003070126229
1.74,7.418376346E-05,-0.0003106948716
1.75,5.529317062E-05,-0.0003132308376
1.76,3.63583098E-05,-0.000314619722
1.77,1.744891404E-05,-0.0003148650176
1.78,-1.365852144E-06,-0.0003139744689
1.79,-2.001765304E-05,-0.0003119600166
1.8,-3.843923726E-05,-0.0003088377253
1.81,-5.656468761E-05,-0.0003046276971
1.82,-7.432966427E-05,-0.0002993539679
1.83,-9.167164046E-05,-0.000293044391
1.84,-0.0001085301296,-0.0002857305052
1.85,-0.0001248469034,-0.0002774473899
1.86,-0.0001405661991,-0.0002682335073
1.87,-0.0001556349169,-0.0002581305326
1.88,-0.0001700028052,-0.0002471831716
1.89,-0.0001836226331,-0.0002354389694
1.9,-0.0001964503512,-0.0002229481077
1.91,-0.0002084452379,-0.0002097631942
1.92,-0.0002195700324,-0.0001959390427
1.93,-0.0002297910528,-0.0001815324474
1.94,-0.0002390783001,-0.00016660195
1.95,-0.0002474055464,-0.0001512076017
1.96,-0.0002547504085,-0.000135410721
1.97,-0.0002610944052,-0.0001192736482
1.98,-0.0002664229992,-0.0001028594974
1.99,-0.0002707256241,-8.62319074E-05
2,-0.0002739956938,-6.945479196E-05
2.01,-0.0002762305984,-5.259209108E-05
2.02,-0.0002774316828,-3.570752367E-05
2.03,-0.0002776042107,-1.886434292E-05
2.04,-0.0002767573134,-2.125095311E-06
2.05,-0.0002749039239,1.444861599E-05
2.06,-0.000272060696,3.079636216E-05
2.07,-0.00026824791,4.685911355E-05
2.08,-0.0002634893641,6.257945728E-05
2.09,-0.0002578122538,7.790180688E-05
2.1,-0.0002512470375,9.277260314E-05
2.11,-0.0002438272913,0.0001071405055
2.12,-0.0002355895521,0.0001209565729
2.13,-0.0002265731503,0.0001341744347
2.14,-0.0002168200328,0.0001467504488
2.15,-0.000206374577,0.0001586438485
2.16,-0.0001952833965,0.0001698168772
2.17,-0.0001835951397,0.0001802349093
2.18,-0.0001713602818,0.000189866558
2.19,-0.0001586309114,0.0001986837698
2.2,-0.0001454605118,0.0002066619044
2.21,-0.0001319037397,0.0002137798008
2.22,-0.0001180161996,0.0002200198291
2.23,-0.0001038542175,0.0002253679273
2.24,-8.947461264E-05,0.0002298136243
2.25,-7.493447028E-05,0.0002333500479
2.26,-6.029091402E-05,0.0002359739184
2.27,-4.560088088E-05,0.0002376855283
2.28,-3.092089853E-05,0.0002384887077
2.29,-1.630686626E-05,0.0002383907755
2.3,-1.813840193E-06,0.0002374024778
2.31,1.250417614E-05,0.0002355379123
2.32,2.659443533E-05,0.0002328144408
2.33,4.040564271E-05,0.0002292525886
2.34,5.388814548E-05,0.0002248759324
2.35,6.699411357E-05,0.0002197109772
2.36,7.967771156E-05,0.0002137870221
2.37,9.189526108E-05,0.000207136016
2.38,0.000103605393,0.0001997924046
2.39,0.0001147691892,0.000191792968
2.4,0.0001253503125,0.0001831766506
2.41,0.0001353151262,0.0001739843838
2.42,0.0001446328001,0.0001642589025
2.43,0.0001532754056,0.0001540445557
2.44,0.0001612179974,0.0001433871124
2.45,0.0001684386822,0.0001323335636
2.46,0.0001749186753,0.000120931921
2.47,0.0001806423429,0.0001092310141
2.48,0.0001855972323,9.72802846E-05
2.49,0.0001897740879,8.512958186E-05
2.5,0.0001931668547,7.282895724E-05
2.51,0.0001957726685,6.042846039E-05
2.52,0.0001975918332,4.797793723E-05
2.53,0.0001986277855,3.552683074E-05
2.54,0.0001988870468,2.312398529E-05
2.55,0.0001983791633,1.081745536E-05
2.56,0.0001971166342,-1.345680647E-06
2.57,0.0001951148283,-1.331950083E-05
2.58,0.0001923918902,-2.505941362E-05
2.59,0.0001889686352,-3.652232448E-05
2.6,0.0001848684349,-4.766679481E-05
2.61,0.0001801170933,-5.845319242E-05
2.62,0.0001747427139,-6.884383307E-05
2.63,0.0001687755588,-7.880311261E-05
2.64,0.0001622479002,-8.829762913E-05
2.65,0.0001551938653,-9.729629481E-05
2.66,0.0001476492748,-0.0001057704371
2.67,0.0001396514764,-0.0001136938888
2.68,0.000131239173,-0.0001210430668
2.69,0.0001224522481,-0.0001277970395
2.7,0.0001133315866,-0.0001339375823
2.71,0.0001039188948,-0.000139449221
2.72,9.425651793E-05,-0.0001443192642
2.73,8.438725685E-05,-0.0001485378228
2.74,7.435418532E-05,-0.0001520978178
2.75,6.420046756E-05,-0.0001549949768
2.76,5.396917747E-05,-0.0001572278181
2.77,4.370312017E-05,-0.0001587976236
2.78,3.344465641E-05,-0.0001597084007
2.79,2.323553085E-05,-0.000159966832
2.8,1.311670458E-05,-0.0001595822162
2.81,3.128192832E-06,-0.0001585663962
2.82,-6.691091694E-06,-0.0001569336794
2.83,-1.630348913E-05,-0.0001547007473
2.84,-2.567273586E-05,-0.0001518865559
2.85,-3.476410054E-05,-0.0001485122282
2.86,-4.354451212E-05,-0.0001446009382
2.87,-5.198267947E-05,-0.0001401777875
2.88,-6.004920219E-05,-0.000135269675
2.89,-6.77166721E-05,-0.0001299051605
2.9,-7.495976528E-05,-0.0001241143226
2.91,-8.17553241E-05,-0.0001179286113
2.92,-8.808242915E-05,-0.0001113806971
2.93,-9.392246086E-05,-0.0001045043154
2.94,-9.925915051E-05,-9.733410926E-05
2.95,-0.0001040786207,-8.990546877E-05
2.96,-0.000108369415,-8.22543698E-05
2.97,-0.0001121225168,-7.441721151E-05
2.98,-0.0001153313578,-6.643065395E-05
2.99,-0.0001179918154,-5.833145619E-05
3,-0.0001201021996,-5.015631588E-05
3.01,-0.0001216632299,-4.194171073E-05
3.02,-0.0001226780013,-3.372374263E-05
3.03,-0.0001231519413,-2.553798517E-05
3.04,-0.0001230927562,-1.741933499E-05
3.05,-0.0001225103687,-9.401867789E-06
3.06,-0.0001214168465,-1.51869939E-06
3.07,-0.0001198263217,6.198147492E-06
3.08,-0.000117754903,1.371787025E-05
3.09,-0.0001152205789,2.101100669E-05
3.1,-0.0001122431153,2.804954815E-05
3.11,-0.0001088439447,3.480704505E-05
3.12,-0.0001050460505,4.125870437E-05
3.13,-0.0001008738449,4.738147893E-05
3.14,-9.635304261E-05,5.315414783E-05
3.15,-9.151052902E-05,5.855738809E-05
3.16,-8.637422568E-05,6.357383705E-05
3.17,-8.097295198E-05,6.818814548E-05
3.18,-7.533628438E-05,7.238702109E-05
3.19,-6.949441391E-05,7.615926249E-05
3.2,-6.34780023E-05,7.949578348E-05
3.21,-5.731803754E-05,8.238962757E-05
3.22,-5.10456895E-05,8.483597293E-05
3.23,-4.46921662E-05,8.683212762E-05
3.24,-3.828857146E-05,8.837751536E-05
3.25,-3.186576441E-05,8.9473652E-05
3.26,-2.545422159E-05,9.012411269E-05
3.27,-1.908390217E-05,9.033449019E-05
3.28,-1.278411687E-05,9.011234451E-05
3.29,-6.583401143E-06,8.946714408E-05
3.3,-5.093931599E-07,8.841019896E-05
3.31,5.411282946E-06,8.695458629E-05
3.32,1.115312804E-05,8.511506854E-05
3.33,1.669187272E-05,8.290800479E-05
3.34,2.200457546E-05,8.035125572E-05
3.35,2.706971371E-05,7.746408262E-05
3.36,3.186726756E-05,7.426704097E-05
3.37,3.637879587E-05,7.078186913E-05
3.38,4.058750428E-05,6.703137273E-05
3.39,4.447830508E-05,6.303930515E-05
3.4,4.80378687E-05,5.883024489E-05
3.41,5.125466654E-05,5.442947019E-05
3.42,5.411900516E-05,4.986283165E-05
3.43,5.662305166E-05,4.515662335E-05
3.44,5.876085022E-05,4.03374531E-05
3.45,6.052832981E-05,3.54321124E-05
3.46,6.192330304E-05,3.046744676E-05
3.47,6.294545637E-05,2.547022685E-05
3.48,6.359633158E-05,2.046702116E-05
3.49,6.387929881E-05,1.548407073E-05
3.5,6.379952134E-05,1.054716644E-05
3.51,6.336391222E-05,5.681529482E-06
3.52,6.258108313E-05,9.116954598E-07
3.53,6.146128571E-05,-3.738597304E-06
3.54,6.001634566E-05,-8.24651483E-06
3.55,5.825958998E-05,-1.259022943E-05
3.56,5.620576778E-05,-1.674901612E-05
3.57,5.387096496E-05,-2.070334307E-05
3.58,5.127251328E-05,-2.443495575E-05
3.59,4.842889429E-05,-2.79269544E-05
3.6,4.535963843E-05,-3.116386453E-05
3.61,4.208522009E-05,-3.413170013E-05
3.62,3.862694882E-05,-3.681801945E-05
3.63,3.50068574E-05,-3.921197299E-05
3.64,3.124758734E-05,-4.130434361E-05
3.65,2.737227219E-05,-4.308757867E-05
3.66,2.340441933E-05,-4.455581401E-05
3.67,1.93677908E-05,-4.570488972E-05
3.68,1.528628364E-05,-4.653235773E-05
3.69,1.11838104E-05,-4.703748119E-05
3.7,7.084180272E-06,-4.722122568E-05
3.71,3.010981513E-06,-4.708624235E-05
3.72,-1.012534457E-06,-4.663684316E-05
3.73,-4.963566617E-06,-4.587896825E-05
3.74,-8.819875121E-06,-4.482014576E-05
3.75,-1.255988878E-05,-4.346944429E-05
3.76,-1.616280876E-05,-4.183741819E-05
3.77,-1.9608708E-05,-3.993604604E-05
3.78,-2.287862602E-05,-3.777866268E-05
3.79,-2.595465854E-05,-3.537988495E-05
3.8,-2.882004162E-05,-3.275553175E-05
3.81,-3.145922998E-05,-2.992253865E-05
3.82,-3.385796905E-05,-2.689886757E-05
3.83,-3.600336054E-05,-2.370341184E-05
3.84,-3.788392119E-05,-2.035589729E-05
3.85,-3.94896345E-05,-1.687677968E-05
3.86,-4.081199522E-05,-1.328713906E-05
3.87,-4.184404635E-05,-9.608571501E-06
3.88,-4.258040859E-05,-5.863078739E-06
3.89,-4.301730216E-05,-2.072956301E-06
3.9,-4.31525607E-05,1.739319459E-06
3.91,-4.298563755E-05,5.55120481E-06
3.92,-4.251760408E-05,9.34020207E-06
3.93,-4.175114032E-05,1.308397249E-05
3.94,-4.069051784E-05,1.676044806E-05
3.95,-3.934157505E-05,2.034794171E-05
3.96,-3.771168501E-05,2.382525543E-05
3.97,-3.580971594E-05,2.717178576E-05
3.98,-3.364598466E-05,3.036762623E-05
3.99,-3.123220311E-05,3.339366623E-05
4,-2.858141834E-05,3.623168584E-05
4.01,-2.570794613E-05,3.886444628E-05
4.02,-2.262729868E-05,4.127577549E-05
4.03,-1.935610663E-05,4.34506484E-05
4.04,-1.591203584E-05,4.537526172E-05
4.05,-1.231369932E-05,4.703710271E-05
4.06,-8.580564681E-06,4.842501167E-05
4.07,-4.732857617E-06,4.952923802E-05
4.08,-7.914617957E-07,5.034148947E-05
4.09,3.222184294E-06,5.085497424E-05
4.1,7.286193117E-06,5.106443615E-05
4.11,1.137833596E-05,5.096618226E-05
4.12,1.547615241E-05,5.055810315E-05
4.13,1.955706091E-05,4.983968558E-05
4.14,2.359846993E-05,4.88120176E-05
4.15,2.757788914E-05,4.747778602E-05
4.16,3.147304019E-05,4.584126631E-05
4.17,3.526196648E-05,4.390830489E-05
4.18,3.892314151E-05,4.168629407E-05
4.19,4.243557522E-05,3.918413952E-05
4.2,4.577891786E-05,3.641222068E-05
4.21,4.893356096E-05,3.338234406E-05
4.22,5.188073488E-05,3.010768981E-05
4.23,5.460260247E-05,2.66027518E-05
4.24,5.708234851E-05,2.288327129E-05
4.25,5.930426441E-05,1.896616485E-05
4.26,6.125382779E-05,1.486944645E-05
4.27,6.291777673E-05,1.061214442E-05
4.28,6.428417806E-05,6.214213513E-06
4.29,6.534248968E-05,1.696442378E-06
4.3,6.608361639E-05,-2.9196429E-06
4.31,6.649995911E-05,-7.611878967E-06
4.32,6.658545721E-05,-1.23575685E-05
4.33,6.633562372E-05,-1.713358622E-05
4.34,6.574757333E-05,-2.191648709E-05
4.35,6.4820043E-05,-2.66826163E-05
4.36,6.355340504E-05,-3.140822036E-05
4.37,6.194967276E-05,-3.606955905E-05
4.38,6.001249836E-05,-4.064301745E-05
4.39,5.774716341E-05,-4.510521778E-05
4.4,5.516056169E-05,-4.943313032E-05
4.41,5.226117456E-05,-5.36041831E-05
4.42,4.905903903E-05,-5.759636974E-05
4.43,4.556570846E-05,-6.138835501E-05
4.44,4.179420636E-05,-6.495957757E-05
4.45,3.775897315E-05,-6.829034948E-05
4.46,3.347580643E-05,-7.136195202E-05
4.47,2.896179477E-05,-7.415672731E-05
4.48,2.423524545E-05,-7.665816546E-05
4.49,1.931560645E-05,-7.885098665E-05
4.5,1.422338297E-05,-8.072121795E-05
4.51,8.980048887E-06,-8.225626443E-05
4.52,3.607953565E-06,-8.344497422E-05
4.53,-1.869775621E-06,-8.427769729E-05
4.54,-7.429334595E-06,-8.474633761E-05
4.55,-1.304634728E-05,-8.484439843E-05
4.56,-1.869597324E-05,-8.456702062E-05
4.57,-2.435301772E-05,-8.391101363E-05
4.58,-2.999204378E-05,-8.287487916E-05
4.59,-3.558748573E-05,-8.145882728E-05
4.6,-4.111376367E-05,-7.966478493E-05
4.61,-4.654539847E-05,-7.749639683E-05
4.62,-5.185712664E-05,-7.495901866E-05
4.63,-5.702401472E-05,-7.205970265E-05
4.64,-6.202157256E-05,-6.880717549E-05
4.65,-6.682586508E-05,-6.521180877E-05
4.66,-7.141362191E-05,-6.128558203E-05
4.67,-7.576234456E-05,-5.704203845E-05
4.68,-7.985041044E-05,-5.249623359E-05
4.69,-8.365717354E-05,-4.766467715E-05
4.7,-8.716306104E-05,-4.256526818E-05
4.71,-9.034966561E-05,-3.721722387E-05
4.72,-9.319983292E-05,-3.164100235E-05
4.73,-9.569774394E-05,-2.585821965E-05
4.74,-9.78289917E-05,-1.98915614E-05
4.75,-9.958065212E-05,-1.376468944E-05
4.76,-0.0001009413487,-7.502143804E-06
4.77,-0.0001019013106,-1.129240604E-06
4.78,-0.0001024524239,5.328033963E-06
4.79,-0.000102588276,1.184313284E-05
4.8,-0.0001023041926,1.838906018E-05
4.81,-0.0001015972674,2.493848583E-05
4.82,-0.0001004663842,3.146386161E-05
4.83,-9.891223122E-05,3.793753902E-05
4.84,-9.693730781E-05,4.433188776E-05
4.85,-9.454592341E-05,5.061941465E-05
4.86,-9.174418851E-05,5.677288234E-05
4.87,-8.853999797E-05,6.276542741E-05
4.88,-8.494300656E-05,6.857067721E-05
4.89,-8.096459683E-05,7.416286509E-05
4.9,-7.661783954E-05,7.951694336E-05
4.91,-7.19174466E-05,8.460869365E-05
4.92,-6.687971694E-05,8.941483406E-05
4.93,-6.152247531E-05,9.391312272E-05
4.94,-5.586500447E-05,9.808245724E-05
4.95,-4.992797078E-05,0.0001019029697
4.96,-4.373334383E-05,0.0001053561166
4.97,-3.730431009E-05,0.0001084247637
4.98,-3.066518121E-05,0.0001110932651
4.99,-2.384129718E-05,0.000113347536
5,-1.685892486E-05,0.0001151751194
5.01,-9.745152187E-06,0.0001165652462
5.02,-2.527778644E-06,0.0001175088882
5.03,4.764797702E-06,0.0001179988039
5.04,1.210369602E-05,0.000118029577
5.05,1.945967093E-05,0.0001175976473
5.06,2.680323268E-05,0.0001167013341
5.07,3.410476864E-05,0.0001153408515
5.08,4.133466581E-05,0.0001135183158
5.09,4.846343362E-05,0.0001112377456
5.1,5.546182664E-05,0.0001085050527
5.11,6.230096661E-05,0.0001053280264
5.12,6.895246339E-05,0.000101716309
5.13,7.538853409E-05,9.76813639E-05
5.14,8.158212021E-05,9.323643593E-05
5.15,8.750700193E-05,8.83965042E-05
5.16,9.313790942E-05,8.317822752E-05
5.17,9.845063034E-05,7.759988275E-05
5.18,0.0001034221135,7.168129629E-05
5.19,0.0001080305676,6.54437689E-05
5.2,0.0001122555557,5.890999426E-05
5.21,0.0001160780836,5.210397152E-05
5.22,0.000119480683,4.505091226E-05
5.23,0.0001224474883,3.777714217E-05
5.24,0.0001249643075,3.030999789E-05
5.25,0.0001270186855,2.267771944E-05
5.26,0.0001285999614,1.490933863E-05
5.27,0.0001296993179,7.034563951E-06
5.28,0.0001303098235,-9.163375698E-07
5.29,0.0001304264673,-8.912661144E-06
5.3,0.0001300461853,-1.692338704E-05
5.31,0.0001291678797,-2.4917305E-05
5.32,0.0001277924297,-3.286313972E-05
5.33,0.0001259226941,-4.072967687E-05
5.34,0.0001235635063,-4.84858892E-05
5.35,0.0001207216608,-5.610106206E-05
5.36,0.000117405892,-6.354491806E-05
5.37,0.0001136268452,-7.078774009E-05
5.38,0.0001093970388,-7.780049241E-05
5.39,0.0001047308202,-8.455493913E-05
5.4,9.964431329E-05,-9.102375981E-05
5.41,9.415535859E-05,-9.718066143E-05
5.42,8.828344698E-05,-0.0001030004865
5.43,8.204964599E-05,-0.0001084593169
5.44,7.547651983E-05,-0.0001135345726
5.45,6.858804324E-05,-0.0001182051052
5.46,6.140950942E-05,-0.0001224512863
5.47,5.396743249E-05,-0.0001262550894
5.48,4.628944492E-05,-0.0001296001655
5.49,3.840419021E-05,-0.0001324719125
5.5,3.034121134E-05,-0.0001348575371
5.51,2.213083551E-05,-0.0001367461098
5.52,1.380405538E-05,-0.000138128613
5.53,5.392407663E-06,-0.0001389979801
5.54,-3.072150823E-06,-0.0001393491286
5.55,-1.155736884E-05,-0.0001391789836
5.56,-2.003082785E-05,-0.0001384864949
5.57,-2.846006988E-05,-0.0001372726444
5.58,-3.681272583E-05,-0.0001355404469
5.59,-4.50566435E-05,-0.0001332949412
5.6,-5.316001489E-05,-0.0001305431748
5.61,-6.109150238E-05,-0.000127294179
5.62,-6.882036304E-05,-0.0001235589374
5.63,-7.63165708E-05,-0.0001193503451
5.64,-8.355093584E-05,-0.0001146831618
5.65,-9.049522078E-05,-0.0001095739564
5.66,-9.712225322E-05,-0.0001040410443
5.67,-0.0001034060341,-9.810441857E-05
5.68,-0.0001093218413,-9.178567357E-05
5.69,-0.0001148463291,-8.510792231E-05
5.7,-0.0001199576206,-7.809570792E-05
5.71,-0.0001246353962,-7.077490923E-05
5.72,-0.000128860975,-6.317264103E-05
5.73,-0.0001326173894,-5.531714928E-05
5.74,-0.0001358894543,-4.723770194E-05
5.75,-0.0001386638275,-3.896447547E-05
5.76,-0.0001409290644,-3.052843786E-05
5.77,-0.0001426756646,-2.196122836E-05
5.78,-0.0001438961105,-1.329503455E-05
5.79,-0.0001445848983,-4.562467161E-06
5.8,-0.0001447385619,4.203566792E-06
5.81,-0.000144355687,1.296999212E-05
5.82,-0.000143436919,2.170369426E-05
5.83,-0.0001419849614,3.037164822E-05
5.84,-0.0001400045666,3.89410473E-05
5.85,-0.000137502519,4.737943085E-05
5.86,-0.0001344876091,5.565481079E-05
5.87,-0.000130970601,6.373579617E-05
5.88,-0.0001269641907,7.159171552E-05
5.89,-0.000122482958,7.919273624E-05
5.9,-0.0001175433106,8.650998074E-05
5.91,-0.0001121634205,9.351563888E-05
5.92,-0.0001063631544,0.0001001830761
5.93,-0.0001001639967,0.0001064869368
5.94,-9.358896637E-05,0.0001124032432
5.95,-8.666252824E-05,0.0001179094881
5.96,-7.941049801E-05,0.0001229847223
5.97,-7.18599424E-05,0.0001276096354
5.98,-6.403907428E-05,0.0001317666312
5.99,-5.597714343E-05,0.0001354398947
6,-4.770432324E-05,0.0001386154538
