"Freq [GHz]","re(S(Tx_p1,Tx_p1)) []","im(S(Tx_p1,Tx_p1)) []"
1,-0.02444790424,-0.1495368217
1.01,-0.02956924937,-0.1484342836
1.02,-0.03466296852,-0.1471531239
1.03,-0.03972184709,-0.1456936122
1.04,-0.04473871105,-0.1440563511
1.05,-0.04970643998,-0.142242268
1.06,-0.05461797945,-0.1402526074
1.07,-0.05946635263,-0.1380889217
1.08,-0.06424467136,-0.1357530634
1.09,-0.06894614649,-0.1332471763
1.1,-0.07356409762,-0.1305736866
1.11,-0.07809196227,-0.1277352949
1.12,-0.08252330452,-0.1247349669
1.13,-0.086851823,-0.1215759252
1.14,-0.09107135849,-0.1182616406
1.15,-0.09517590098,-0.1147958238
1.16,-0.09915959629,-0.1111824167
1.17,-0.1030167522,-0.1074255842
1.18,-0.1067418445,-0.1035297065
1.19,-0.110329522,-0.09949937031
1.2,-0.1137746121,-0.09533936142
1.21,-0.1170721253,-0.09105465685
1.22,-0.1202172598,-0.08665041717
1.23,-0.1232054059,-0.08213197904
1.24,-0.1260321499,-0.07750484787
1.25,-0.1286932783,-0.0727746906
1.26,-0.1311847809,-0.06794732865
1.27,-0.1335028551,-0.06302873095
1.28,-0.1356439089,-0.05802500707
1.29,-0.1376045644,-0.05294240052
1.3,-0.139381661,-0.04778728205
1.31,-0.1409722589,-0.04256614309
1.32,-0.1423736418,-0.03728558915
1.33,-0.1435833203,-0.03195233338
1.34,-0.1445990352,-0.02657319003
1.35,-0.1454187603,-0.02115506795
1.36,-0.1460407054,-0.01570496408
1.37,-0.1464633198,-0.01022995687
1.38,-0.146685295,-0.004737199622
1.39,-0.1467055682,0.0007660862375
1.4,-0.1465233247,0.006272618003
1.41,-0.1461380017,0.01177505867
1.42,-0.1455492907,0.01726602409
1.43,-0.1447571409,0.02273809024
1.44,-0.1437617621,0.02818380077
1.45,-0.1425636275,0.03359567466
1.46,-0.1411634763,0.03896621422
1.47,-0.1395623171,0.04428791321
1.48,-0.1377614297,0.0495532653
1.49,-0.135762368,0.05475477278
1.5,-0.1335669625,0.05988495551
1.51,-0.1311773217,0.06493636019
1.52,-0.1285958347,0.06990156991
1.53,-0.1258251726,0.074773214
1.54,-0.1228682897,0.07954397813
1.55,-0.1197284249,0.08420661476
1.56,-0.1164091021,0.08875395385
1.57,-0.1129141308,0.09317891383
1.58,-0.109247606,0.09747451289
1.59,-0.105413908,0.1016338804
1.6,-0.101417701,0.1056502689
1.61,-0.09726393225,0.1095170659
1.62,-0.09295782976,0.1132278058
1.63,-0.08850490015,0.116776183
1.64,-0.08391092553,0.1201560637
1.65,-0.07918195994,0.1233614991
1.66,-0.07432432511,0.1263867375
1.67,-0.06934460571,0.1292262379
1.68,-0.06424964375,0.1318746823
1.69,-0.05904653248,0.1343269887
1.7,-0.0537426095,0.136578324
1.71,-0.04834544921,0.1386241167
1.72,-0.0428628545,0.1404600691
1.73,-0.03730284777,0.1420821703
1.74,-0.03167366121,0.1434867081
1.75,-0.02598372631,0.144670281
1.76,-0.02024166268,0.1456298097
1.77,-0.01445626616,0.1463625484
1.78,-0.008636496176,0.1468660959
1.79,-0.002791462388,0.1471384059
1.8,0.003069589304,0.1471777967
1.81,0.008937291477,0.1469829608
1.82,0.01480217054,0.1465529739
1.83,0.02065466271,0.1458873024
1.84,0.02648513061,0.1449858115
1.85,0.03228388041,0.1438487715
1.86,0.03804117955,0.1424768641
1.87,0.0437472749,0.1408711872
1.88,0.04939241145,0.1390332594
1.89,0.05496685137,0.1369650236
1.9,0.06046089349,0.134668849
1.91,0.06586489304,0.1321475329
1.92,0.07116928171,0.1294043015
1.93,0.07636458796,0.126442809
1.94,0.08144145742,0.1232671365
1.95,0.08639067345,0.119881789
1.96,0.09120317776,0.1162916924
1.97,0.095870091,0.1125021882
1.98,0.1003827333,0.1085190283
1.99,0.1047326446,0.1043483677
2,0.108911605,0.09999675663
2.01,0.1129116544,0.09547113171
2.02,0.1167251127,0.09077880555
2.03,0.1203445982,0.08592745563
2.04,0.1237630473,0.08092511201
2.05,0.126973732,0.07578014395
2.06,0.129970278,0.07050124561
2.07,0.1327466819,0.06509742065
2.08,0.135297327,0.05957796589
2.09,0.1376169994,0.05395245411
2.1,0.1397009029,0.04823071582
2.11,0.1415446723,0.04242282028
2.12,0.1431443871,0.03653905568
2.13,0.144496583,0.03058990854
2.14,0.1455982635,0.02458604238
2.15,0.1464469091,0.01853827582
2.16,0.147040487,0.01245755993
2.17,0.1473774581,0.006354955229
2.18,0.1474567842,0.0002416079999
2.19,0.1472779326,-0.005871273646
2.2,0.1468408809,-0.01197244414
2.21,0.1461461194,-0.01805064509
2.22,0.1451946529,-0.0240946301
2.23,0.1439880009,-0.03009318979
2.24,0.1425281966,-0.03603517679
2.25,0.1408177845,-0.04190953084
2.26,0.1388598169,-0.04770530369
2.27,0.1366578489,-0.05341168399
2.28,0.1342159321,-0.0590180218
2.29,0.1315386071,-0.06451385294
2.3,0.1286308947,-0.06988892286
2.31,0.1254982861,-0.07513321014
2.32,0.1221467309,-0.08023694947
2.33,0.1185826255,-0.085190654
2.34,0.1148127986,-0.08998513706
2.35,0.1108444972,-0.09461153323
2.36,0.1066853701,-0.09906131853
2.37,0.1023434512,-0.1033263298
2.38,0.09782714153,-0.1073987834
2.39,0.09314519043,-0.1112712924
2.4,0.08830667566,-0.1149368834
2.41,0.08332098285,-0.1183890121
2.42,0.07819778403,-0.1216215774
2.43,0.07294701557,-0.1246289348
2.44,0.06757885536,-0.1274059087
2.45,0.06210369949,-0.1299478029
2.46,0.05653213833,-0.1322504104
2.47,0.05087493222,-0.134310022
2.48,0.04514298683,-0.1361234328
2.49,0.03934732806,-0.1376879487
2.5,0.0334990769,-0.13900139
2.51,0.02760942402,-0.1400620955
2.52,0.02168960431,-0.1408689234
2.53,0.01575087141,-0.1414212523
2.54,0.009804472323,-0.1417189802
2.55,0.003861622176,-0.1417625222
2.56,-0.002066520841,-0.1415528071
2.57,-0.007968880211,-0.1410912728
2.58,-0.01383448549,-0.14037986
2.59,-0.01965249626,-0.139421005
2.6,-0.02541222563,-0.1382176314
2.61,-0.03110316314,-0.13677314
2.62,-0.03671499706,-0.1350913987
2.63,-0.04223763602,-0.1331767298
2.64,-0.04766122987,-0.1310338978
2.65,-0.05297618982,-0.128668095
2.66,-0.05817320767,-0.1260849266
2.67,-0.06324327417,-0.123290395
2.68,-0.06817769645,-0.1202908834
2.69,-0.07296811452,-0.1170931378
2.7,-0.07760651668,-0.1137042493
2.71,-0.08208525392,-0.1101316349
2.72,-0.08639705332,-0.1063830182
2.73,-0.09053503018,-0.1024664097
2.74,-0.09449269922,-0.09839008567
2.75,-0.09826398453,-0.09416256783
2.76,-0.1018432284,-0.08979260183
2.77,-0.1052251989,-0.08528913585
2.78,-0.1084050965,-0.08066129881
2.79,-0.1113785595,-0.07591837856
2.8,-0.1141416679,-0.07106979988
2.81,-0.1166909465,-0.06612510255
2.82,-0.1190233669,-0.06109391944
2.83,-0.1211363484,-0.05598595468
2.84,-0.1230277569,-0.05081096204
2.85,-0.1246959043,-0.04557872359
2.86,-0.1261395454,-0.04029902852
2.87,-0.1273578744,-0.03498165245
2.88,-0.1283505203,-0.02963633709
2.89,-0.1291175416,-0.0242727703
2.9,-0.1296594193,-0.01890056671
2.91,-0.1299770499,-0.01352924893
2.92,-0.1300717368,-0.008168229238
2.93,-0.1299451814,-0.002826792002
2.94,-0.1295994732,0.002485923286
2.95,-0.1290370791,0.007760938247
2.96,-0.1282608323,0.01298945113
2.97,-0.1272739202,0.01816285154
2.98,-0.1260798721,0.02327273445
2.99,-0.1246825461,0.02831091329
3,-0.1230861157,0.03326943235
3.01,-0.1212950559,0.03814057822
3.02,-0.1193141289,0.04291689047
3.03,-0.1171483696,0.04759117144
3.04,-0.1148030707,0.05215649517
3.05,-0.1122837677,0.05660621547
3.06,-0.1095962239,0.06093397318
3.07,-0.1067464147,0.06513370247
3.08,-0.1037405126,0.06919963644
3.09,-0.1005848717,0.07312631179
3.1,-0.09728601221,0.0769085727
3.11,-0.09385060557,0.08054157391
3.12,-0.09028545898,0.08402078305
3.13,-0.08659750058,0.0873419822
3.14,-0.08279376465,0.09050126866
3.15,-0.07888137713,0.09349505512
3.16,-0.07486754128,0.09632006907
3.17,-0.07075952383,0.09897335158
3.18,-0.06656464129,0.1014522555
3.19,-0.06229024675,0.103754443
3.2,-0.05794371697,0.1058778827
3.21,-0.05353243995,0.1078208461
3.22,-0.04906380289,0.1095819035
3.23,-0.0445451806,0.1111599202
3.24,-0.03998392433,0.1125540506
3.25,-0.03538735117,0.1137637343
3.26,-0.03076273378,0.1147886894
3.27,-0.02611729072,0.1156289076
3.28,-0.02145817722,0.1162846475
3.29,-0.01679247639,0.1167564286
3.3,-0.01212719102,0.1170450249
3.31,-0.007469235742,0.1171514577
3.32,-0.002825429737,0.1170769895
3.33,0.001797510122,0.1168231167
3.34,0.006392975664,0.1163915625
3.35,0.01095447339,0.1157842704
3.36,0.01547562998,0.1150033967
3.37,0.01995019744,0.114051304
3.38,0.02437205783,0.1129305536
3.39,0.0287352276,0.1116438993
3.4,0.0330338616,0.1101942801
3.41,0.03726225673,0.1085848136
3.42,0.04141485531,0.1068187895
3.43,0.04548624813,0.104899663
3.44,0.04947117725,0.1028310484
3.45,0.05336453852,0.1006167131
3.46,0.05716138393,0.09826057143
3.47,0.06085692373,0.09576667861
3.48,0.06444652837,0.09313922529
3.49,0.06792573032,0.09038253181
3.5,0.0712902257,0.08750104285
3.51,0.07453587585,0.08449932218
3.52,0.0776587088,0.08138204754
3.53,0.08065492068,0.07815400573
3.54,0.08352087704,0.07482008781
3.55,0.08625311419,0.07138528436
3.56,0.08884834049,0.06785468103
3.57,0.09130343765,0.06423345398
3.58,0.09361546206,0.06052686561
3.59,0.09578164611,0.05674026024
3.6,0.09779939956,0.05287905991
3.61,0.099666311,0.04894876019
3.62,0.1013801493,0.04495492607
3.63,0.102938865,0.04090318781
3.64,0.1043405924,0.03679923678
3.65,0.1055836503,0.03264882134
3.66,0.1066665448,0.02845774263
3.67,0.1075879702,0.02423185022
3.68,0.1083468113,0.01997703788
3.69,0.1089421451,0.015699239
3.7,0.1093732427,0.01140442212
3.71,0.1096395715,0.007098586161
3.72,0.109740797,0.002787755615
3.73,0.1096767845,-0.001522024506
3.74,0.1094476016,-0.005824693845
3.75,0.10905352,-0.0101141821
3.76,0.1084950172,-0.0143844146
3.77,0.1077727785,-0.01862931814
3.78,0.1068876989,-0.02284282696
3.79,0.1058408848,-0.02701888902
3.8,0.1046336552,-0.03115147252
3.81,0.1032675439,-0.03523457255
3.82,0.1017442998,-0.03926221814
3.83,0.1000658889,-0.04322847939
3.84,0.09823449466,-0.04712747494
3.85,0.09625251876,-0.05095337965
3.86,0.09412258161,-0.05470043247
3.87,0.09184752236,-0.05836294458
3.88,0.08943039879,-0.06193530771
3.89,0.08687448674,-0.06541200265
3.9,0.08418327927,-0.06878760797
3.91,0.08136048547,-0.07205680887
3.92,0.07841002879,-0.07521440621
3.93,0.07533604504,-0.07825532569
3.94,0.07214287992,-0.08117462703
3.95,0.0688350861,-0.0839675134
3.96,0.06541741986,-0.08662934075
3.97,0.06189483726,-0.0891556273
3.98,0.05827248975,-0.09154206293
3.99,0.05455571936,-0.09378451867
4,0.05075005334,-0.095879056
4.01,0.04686119828,-0.09782193616
4.02,0.04289503369,-0.09960962936
4.03,0.03885760512,-0.1012388237
4.04,0.03475511665,-0.1027064342
4.05,0.03059392296,-0.1040096112
4.06,0.02638052075,-0.1051457488
4.07,0.02212153978,-0.1061124932
4.08,0.01782373331,-0.10690775
4.09,0.01349396806,-0.1075296922
4.1,0.009139213653,-0.1079767667
4.11,0.004766531685,-0.1082477012
4.12,0.0003830642208,-0.1083415104
4.13,-0.004003978076,-0.1082575017
4.14,-0.00838732824,-0.10799528
4.15,-0.0127596757,-0.1075547528
4.16,-0.01711367932,-0.1069361341
4.17,-0.02144198079,-0.1061399478
4.18,-0.02573721832,-0.1051670303
4.19,-0.02999204061,-0.1040185333
4.2,-0.03419912102,-0.1026959246
4.21,-0.03835117199,-0.1012009895
4.22,-0.04244095962,-0.09953583046
4.23,-0.04646131836,-0.09770286684
4.24,-0.05040516579,-0.09570483325
4.25,-0.05426551742,-0.09354477762
4.26,-0.0580355016,-0.09122605828
4.27,-0.06170837425,-0.08875234032
4.28,-0.06527753361,-0.08612759121
4.29,-0.06873653483,-0.08335607563
4.3,-0.07207910441,-0.08044234949
4.31,-0.0752991544,-0.07739125331
4.32,-0.07839079634,-0.07420790467
4.33,-0.081348355,-0.07089769007
4.34,-0.08416638159,-0.06746625596
4.35,-0.0868396668,-0.06391949908
4.36,-0.08936325322,-0.06026355611
4.37,-0.09173244744,-0.0565047926
4.38,-0.09394283155,-0.05264979131
4.39,-0.0959902741,-0.04870533983
4.4,-0.09787094057,-0.04467841765
4.41,-0.09958130308,-0.04057618263
4.42,-0.1011181495,-0.03640595698
4.43,-0.102478592,-0.03217521264
4.44,-0.1036600746,-0.02789155623
4.45,-0.1046603803,-0.02356271362
4.46,-0.1054776372,-0.01919651401
4.47,-0.1061103237,-0.01480087372
4.48,-0.1065572737,-0.01038377966
4.49,-0.1068176796,-0.005953272492
4.5,-0.1068910957,-0.001517429652
4.51,-0.1067774401,0.002915651873
4.52,-0.1064769958,0.007337872858
4.53,-0.105990411,0.01174114924
4.54,-0.1053186984,0.01611742955
4.55,-0.1044632341,0.02045871232
4.56,-0.1034257546,0.02475706342
4.57,-0.1022083539,0.02900463327
4.58,-0.1008134794,0.03319367392
4.59,-0.09924392646,0.03731655587
4.6,-0.09750283295,0.04136578465
4.61,-0.09559367223,0.0453340171
4.62,-0.0935202457,0.04921407726
4.63,-0.09128667438,0.05299897189
4.64,-0.08889738978,0.05668190555
4.65,-0.08635712395,0.06025629514
4.66,-0.08367089887,0.06371578401
4.67,-0.08084401507,0.06705425539
4.68,-0.07788203964,0.07026584528
4.69,-0.07479079356,0.0733449547
4.7,-0.07157633844,0.07628626128
4.71,-0.06824496277,0.07908473004
4.72,-0.06480316751,0.08173562363
4.73,-0.06125765136,0.08423451161
4.74,-0.05761529548,0.08657727908
4.75,-0.05388314786,0.08876013447
4.76,-0.05006840738,0.09077961648
4.77,-0.0461784075,0.0926326002
4.78,-0.04222059973,0.09431630242
4.79,-0.03820253692,0.09582828598
4.8,-0.03413185638,0.09716646337
4.81,-0.03001626285,0.09832909937
4.82,-0.02586351144,0.09931481282
4.83,-0.02168139058,0.1001225776
4.84,-0.01747770499,0.1007517225
4.85,-0.01326025867,0.1012019308
4.86,-0.00903683814,0.101473238
4.87,-0.00481519573,0.1015660298
4.88,-0.0006030331757,0.1014810385
4.89,0.003592014561,0.101219339
4.9,0.007762395159,0.1007823436
4.91,0.01190065446,0.1001717965
4.92,0.0159994516,0.09938976713
4.93,0.02005157371,0.09843864314
4.94,0.02404995019,0.09732112237
4.95,0.02798766643,0.09604020429
4.96,0.03185797705,0.09459918087
4.97,0.03565431857,0.09300162674
4.98,0.03937032151,0.09125138882
4.99,0.04299982182,0.08935257547
5,0.04653687175,0.08730954511
5.01,0.04997575002,0.08512689433
5.02,0.05331097129,0.08280944571
5.03,0.05653729505,0.0803622352
5.04,0.05964973364,0.07779049912
5.05,0.0626435597,0.07509966097
5.06,0.06551431279,0.07229531792
5.07,0.06825780536,0.06938322711
5.08,0.07087012792,0.0663692918
5.09,0.07334765349,0.06325954737
5.1,0.07568704133,0.06006014727
5.11,0.07788523996,0.05677734889
5.12,0.07993948935,0.05341749943
5.13,0.08184732253,0.04998702186
5.14,0.08360656635,0.04649240089
5.15,0.08521534168,0.04294016907
5.16,0.08667206282,0.03933689307
5.17,0.08797543628,0.03568916009
5.18,0.08912445897,0.03200356456
5.19,0.09011841561,0.02828669501
5.2,0.09095687573,0.02454512125
5.21,0.09163968993,0.02078538192
5.22,0.09216698565,0.01701397224
5.23,0.0925391624,0.01323733227
5.24,0.09275688648,0.00946183544
5.25,0.09282108522,0.005693777572
5.26,0.09273294075,0.001939366255
5.27,0.09249388342,-0.001795289287
5.28,0.09210558473,-0.005504187885
5.29,0.09156995,-0.009181445644
5.3,0.09088911063,-0.01282130467
5.31,0.09006541611,-0.01641814131
5.32,0.0891014258,-0.0199664739
5.33,0.08799990037,-0.02346096995
5.34,0.08676379313,-0.02689645293
5.35,0.08539624118,-0.03026790843
5.36,0.08390055638,-0.03357048984
5.37,0.08228021624,-0.0367995236
5.38,0.0805388547,-0.03995051382
5.39,0.07868025291,-0.04301914647
5.4,0.07670832996,-0.0460012931
5.41,0.07462713356,-0.04889301401
5.42,0.07244083084,-0.05169056097
5.43,0.07015369913,-0.05439037955
5.44,0.06777011687,-0.05698911086
5.45,0.06529455459,-0.05948359302
5.46,0.06273156598,-0.06187086204
5.47,0.06008577918,-0.06414815246
5.48,0.05736188812,-0.0663128975
5.49,0.05456464418,-0.06836272886
5.5,0.05169884784,-0.07029547621
5.51,0.04876934073,-0.07210916634
5.52,0.04578099778,-0.07380202194
5.53,0.0427387196,-0.07537246019
5.54,0.03964742514,-0.07681909099
5.55,0.03651204454,-0.07814071502
5.56,0.03333751228,-0.07933632152
5.57,0.03012876052,-0.08040508588
5.58,0.02689071275,-0.08134636703
5.59,0.02362827764,-0.08215970468
5.6,0.02034634321,-0.08284481643
5.61,0.01704977117,-0.08340159469
5.62,0.01374339161,-0.08383010355
5.63,0.01043199783,-0.08413057551
5.64,0.007120341505,-0.08430340819
5.65,0.003813128012,-0.08434916093
5.66,0.0005150120491,-0.08426855132
5.67,-0.002769406575,-0.08406245182
5.68,-0.006035586914,-0.08373188621
5.69,-0.009279050668,-0.08327802615
5.7,-0.01249538576,-0.08270218767
5.71,-0.01568024977,-0.08200582773
5.72,-0.01882937312,-0.08119054076
5.73,-0.02193856222,-0.08025805527
5.74,-0.02500370234,-0.07921023048
5.75,-0.02802076047,-0.07804905295
5.76,-0.03098578793,-0.07677663336
5.77,-0.03389492303,-0.07539520324
5.78,-0.03674439347,-0.0739071118
5.79,-0.03953051876,-0.07231482279
5.8,-0.04224971254,-0.07062091143
5.81,-0.04489848484,-0.0688280614
5.82,-0.04747344426,-0.06693906182
5.83,-0.04997130018,-0.06495680434
5.84,-0.05238886486,-0.06288428024
5.85,-0.05472305556,-0.06072457753
5.86,-0.05697089664,-0.05848087814
5.87,-0.05912952169,-0.05615645505
5.88,-0.06119617557,-0.05375466955
5.89,-0.06316821656,-0.05127896836
5.9,-0.06504311845,-0.04873288082
5.91,-0.06681847269,-0.04612001608
5.92,-0.06849199054,-0.04344406025
5.93,-0.07006150522,-0.04070877342
5.94,-0.07152497414,-0.03791798683
5.95,-0.07288048106,-0.03507559976
5.96,-0.07412623839,-0.03218557652
5.97,-0.07526058937,-0.02925194331
5.98,-0.07628201041,-0.02627878492
5.99,-0.07718911328,-0.02327024146
6,-0.07798064746,-0.02023050487
