"Freq [GHz]","re(S(Tx_p1,Tx_p1)) []","im(S(Tx_p1,Tx_p1)) []"
1,-0.03716479603,-0.06059878966
1.01,-0.0395423143,-0.05907532696
1.02,-0.04186642343,-0.05745596014
1.03,-0.0441330137,-0.0557423299
1.04,-0.04633803065,-0.0539362474
1.05,-0.04847747952,-0.05203969188
1.06,-0.05054742973,-0.05005480846
1.07,-0.05254401926,-0.04798390614
1.08,-0.05446345915,-0.04582945589
1.09,-0.05630203804,-0.04359408897
1.1,-0.05805612688,-0.04128059529
1.11,-0.0597221837,-0.03889192192
1.12,-0.06129675868,-0.03643117164
1.13,-0.06277649924,-0.03390160144
1.14,-0.06415815552,-0.03130662111
1.15,-0.06543858599,-0.02864979175
1.16,-0.06661476329,-0.02593482411
1.17,-0.0676837804,-0.02316557695
1.18,-0.06864285699,-0.02034605505
1.19,-0.06948934607,-0.01748040718
1.2,-0.07022074083,-0.01457292366
1.21,-0.07083468178,-0.01162803372
1.22,-0.07132896404,-0.008650302468
1.23,-0.07170154495,-0.005644427519
1.24,-0.0719505517,-0.00261523514
1.25,-0.07207428924,0.0004323240069
1.26,-0.07207124828,0.003493179651
1.27,-0.07194011331,0.006562147211
1.28,-0.07167977077,0.009633933662
1.29,-0.07128931717,0.01270314399
1.3,-0.07076806714,0.01576428822
1.31,-0.07011556145,0.01881178916
1.32,-0.06933157486,0.02183999069
1.33,-0.06841612378,0.02484316675
1.34,-0.06736947367,0.02781553102
1.35,-0.06619214616,0.03075124724
1.36,-0.06488492577,0.03364444017
1.37,-0.06344886625,0.03648920726
1.38,-0.06188529639,0.03927963091
1.39,-0.06019582535,0.04200979141
1.4,-0.05838234732,0.04467378046
1.41,-0.05644704558,0.04726571521
1.42,-0.0543923958,0.04977975298
1.43,-0.05222116867,0.05221010635
1.44,-0.04993643154,0.05455105879
1.45,-0.04754154938,0.05679698068
1.46,-0.04504018469,0.0589423457
1.47,-0.0424362965,0.06098174751
1.48,-0.03973413841,0.06290991673
1.49,-0.0369382555,0.06472173804
1.5,-0.03405348031,0.06641226744
1.51,-0.03108492758,0.06797674954
1.52,-0.02803798802,0.06941063478
1.53,-0.02491832087,0.07070959665
1.54,-0.02173184536,0.07186954862
1.55,-0.018484731,0.07288666087
1.56,-0.01518338677,0.07375737664
1.57,-0.01183444916,0.07447842819
1.58,-0.008444769103,0.07504685224
1.59,-0.005021397809,0.07546000479
1.6,-0.001571571514,0.07571557535
1.61,0.001897304781,0.07581160031
1.62,0.005377674585,0.07574647561
1.63,0.008861848148,0.0755189684
1.64,0.01234202159,0.07512822779
1.65,0.01581029687,0.0745737945
1.66,0.01925870259,0.0738556095
1.67,0.02267921542,0.07297402131
1.68,0.02606378231,0.07192979226
1.69,0.02940434312,0.07072410328
1.7,0.03269285388,0.06935855751
1.71,0.03592131037,0.06783518239
1.72,0.03908177205,0.06615643045
1.73,0.04216638622,0.0643251786
1.74,0.0451674123,0.06234472593
1.75,0.04807724617,0.06021879006
1.76,0.05088844441,0.05795150195
1.77,0.05359374843,0.0555473992
1.78,0.05618610828,0.05301141792
1.79,0.05865870621,0.05034888296
1.8,0.06100497958,0.0475654968
1.81,0.06321864342,0.04466732689
1.82,0.0652937122,0.04166079158
1.83,0.06722452086,0.03855264471
1.84,0.06900574503,0.03534995876
1.85,0.0706324203,0.03206010676
1.86,0.07209996043,0.02869074299
1.87,0.07340417446,0.0252497824
1.88,0.07454128268,0.02174537904
1.89,0.07550793122,0.01818590336
1.9,0.07630120544,0.0145799186
1.91,0.07691864177,0.01093615633
1.92,0.07735823822,0.007263491177
1.93,0.07761846327,0.003570914865
1.94,0.07769826325,-0.0001324903032
1.95,0.07759706815,-0.003837578468
1.96,0.07731479568,-0.00753516762
1.97,0.07685185379,-0.01121606727
1.98,0.07620914144,-0.01487110632
1.99,0.07538804771,-0.01849116094
2,0.07439044918,-0.02206718244
2.01,0.07321870567,-0.02559022498
2.02,0.07187565424,-0.02905147298
2.03,0.07036460159,-0.0324422682
2.04,0.06868931478,-0.03575413628
2.05,0.06685401034,-0.03897881275
2.06,0.06486334188,-0.04210826828
2.07,0.06272238612,-0.04513473322
2.08,0.06043662751,-0.04805072117
2.09,0.05801194139,-0.05084905163
2.1,0.05545457592,-0.05352287156
2.11,0.0527711326,-0.05606567579
2.12,0.04996854578,-0.05847132619
2.13,0.04705406093,-0.06073406958
2.14,0.04403521199,-0.06284855422
2.15,0.04091979771,-0.06480984488
2.16,0.0377158573,-0.06661343652
2.17,0.03443164521,-0.06825526629
2.18,0.03107560539,-0.06973172409
2.19,0.02765634495,-0.07103966147
2.2,0.0241826075,-0.07217639892
2.21,0.02066324609,-0.07313973151
2.22,0.017107196,-0.07392793288
2.23,0.01352344742,-0.0745397576
2.24,0.00992101816,-0.07497444178
2.25,0.006308926441,-0.0752317022
2.26,0.002696163965,-0.07531173361
2.27,-0.0009083307309,-0.07521520463
2.28,-0.004495698477,-0.07494325195
2.29,-0.008057185145,-0.07449747303
2.3,-0.01158416671,-0.07387991739
2.31,-0.01506817361,-0.0730930763
2.32,-0.01850091427,-0.07213987131
2.33,-0.02187429782,-0.07102364129
2.34,-0.02518045578,-0.0697481283
2.35,-0.02841176278,-0.0683174623
2.36,-0.03156085614,-0.0667361447
2.37,-0.03462065437,-0.06500903096
2.38,-0.03758437435,-0.06314131222
2.39,-0.0404455474,-0.06113849609
2.4,-0.0431980339,-0.05900638667
2.41,-0.04583603673,-0.05675106393
2.42,-0.04835411322,-0.05437886247
2.43,-0.05074718583,-0.05189634988
2.44,-0.05301055132,-0.04931030459
2.45,-0.05513988868,-0.04662769355
2.46,-0.05713126544,-0.04385564963
2.47,-0.05898114277,-0.04100144894
2.48,-0.0606863791,-0.03807248815
2.49,-0.06224423235,-0.03507626182
2.5,-0.06365236087,-0.03202033996
2.51,-0.06490882302,-0.02891234581
2.52,-0.06601207547,-0.02575993395
2.53,-0.06696097024,-0.02257076876
2.54,-0.06775475058,-0.01935250345
2.55,-0.06839304563,-0.01611275957
2.56,-0.06887586405,-0.01285910714
2.57,-0.06920358655,-0.009599045487
2.58,-0.06937695744,-0.006339984765
2.59,-0.06939707533,-0.003089228298
2.6,-0.06926538285,0.000146044277
2.61,-0.06898365573,0.003358792997
2.62,-0.06855399101,0.006542132654
2.63,-0.06797879475,0.009689346943
2.64,-0.06726076908,0.01279390167
2.65,-0.06640289875,0.01584945697
2.66,-0.06540843731,0.01884987855
2.67,-0.06428089288,0.02178924794
2.68,-0.06302401365,0.02466187177
2.69,-0.06164177319,0.02746228998
2.7,-0.06013835561,0.03018528317
2.71,-0.0585181406,0.03282587887
2.72,-0.05678568853,0.03537935691
2.73,-0.05494572552,0.03784125389
2.74,-0.05300312871,0.04020736666
2.75,-0.05096291161,0.04247375504
2.76,-0.04883020971,0.04463674359
2.77,-0.04661026638,0.04669292268
2.78,-0.04430841901,0.04863914873
2.79,-0.04193008558,0.05047254374
2.8,-0.03948075157,0.05219049423
2.81,-0.03696595729,0.0537906494
2.82,-0.03439128572,0.05527091886
2.83,-0.03176235075,0.05662946973
2.84,-0.02908478595,0.05786472336
2.85,-0.02636423385,0.05897535145
2.86,-0.02360633571,0.05996027202
2.87,-0.02081672188,0.06081864485
2.88,-0.01800100259,0.06154986673
2.89,-0.01516475935,0.0621535665
2.9,-0.01231353683,0.06262959981
2.91,-0.009452835253,0.06297804386
2.92,-0.006588103283,0.06319919191
2.93,-0.003724731393,0.06329354785
2.94,-0.0008680456982,0.06326182063
2.95,0.001976697786,0.06310491883
2.96,0.004804318464,0.06282394517
2.97,0.007609716105,0.06242019113
2.98,0.01038787543,0.06189513171
2.99,0.01313387036,0.06125042024
3,0.01584286801,0.06048788335
3.01,0.01851013238,0.05960951617
3.02,0.02113102787,0.05861747758
3.03,0.02370102254,0.05751408568
3.04,0.02621569128,0.05630181351
3.05,0.02867071882,0.05498328483
3.06,0.03106190265,0.05356127015
3.07,0.03338515591,0.0520386829
3.08,0.03563651022,0.05041857577
3.09,0.03781211851,0.04870413721
3.1,0.03990825794,0.04689868804
3.11,0.04192133279,0.04500567816
3.12,0.04384787749,0.04302868337
3.13,0.0456845597,0.04097140228
3.14,0.04742818358,0.0388376532
3.15,0.04907569307,0.03663137112
3.16,0.05062417545,0.03435660458
3.17,0.05207086495,0.03201751261
3.18,0.05341314653,0.02961836148
3.19,0.05464855986,0.02716352142
3.2,0.05577480341,0.02465746318
3.21,0.05678973871,0.0221047544
3.22,0.05769139472,0.01951005579
3.23,0.0584779724,0.01687811708
3.24,0.05914784926,0.01421377268
3.25,0.05969958415,0.01152193709
3.26,0.06013192204,0.008807599961
3.27,0.06044379882,0.006075820782
3.28,0.06063434618,0.003331723271
3.29,0.06070289646,0.0005804893064
3.3,0.06064898739,-0.002172647514
3.31,0.06047236685,-0.004922408748
3.32,0.06017299742,-0.007663478418
3.33,0.05975106084,-0.01039051077
3.34,0.05920696217,-0.01309813845
3.35,0.05854133384,-0.01578098122
3.36,0.0577550393,-0.01843365499
3.37,0.0568491764,-0.02105078142
3.38,0.05582508039,-0.02362699789
3.39,0.05468432646,-0.02615696789
3.4,0.0534287319,-0.02863539186
3.41,0.05206035771,-0.03105701837
3.42,0.05058150963,-0.03341665565
3.43,0.04899473868,-0.03570918351
3.44,0.04730284099,-0.03792956548
3.45,0.04550885705,-0.04007286128
3.46,0.0436160702,-0.04213423945
3.47,0.04162800445,-0.04410899018
3.48,0.03954842156,-0.04599253834
3.49,0.03738131725,-0.04778045644
3.5,0.03513091677,-0.04946847778
3.51,0.03280166952,-0.05105250949
3.52,0.03039824294,-0.05252864554
3.53,0.02792551549,-0.05389317956
3.54,0.02538856886,-0.05514261752
3.55,0.02279267929,-0.05627369013
3.56,0.02014330807,-0.05728336498
3.57,0.01744609122,-0.05816885819
3.58,0.01470682832,-0.05892764578
3.59,0.01193147061,-0.05955747441
3.6,0.009126108211,-0.06005637167
3.61,0.00629695671,-0.06042265567
3.62,0.003450342937,-0.06065494402
3.63,0.0005926900994,-0.06075216208
3.64,-0.002269497728,-0.06071355039
3.65,-0.005129651721,-0.06053867131
3.66,-0.007981154972,-0.06022741476
3.67,-0.01081735965,-0.05978000308
3.68,-0.0136316046,-0.05919699484
3.69,-0.01641723336,-0.05847928771
3.7,-0.01916761241,-0.05762812032
3.71,-0.0218761498,-0.05664507297
3.72,-0.02453631389,-0.05553206728
3.73,-0.02714165218,-0.0542913648
3.74,-0.02968581027,-0.05292556436
3.75,-0.03216255074,-0.0514375984
3.76,-0.03456577196,-0.04983072807
3.77,-0.03688952665,-0.04810853724
3.78,-0.0391280403,-0.04627492531
3.79,-0.04127572919,-0.04433409897
3.8,-0.043327218,-0.04229056276
3.81,-0.04527735699,-0.0401491086
3.82,-0.0471212386,-0.03791480416
3.83,-0.04885421346,-0.03559298033
3.84,-0.05047190564,-0.03318921753
3.85,-0.05197022719,-0.0307093312
3.86,-0.0533453919,-0.02815935624
3.87,-0.05459392807,-0.0255455307
3.88,-0.05571269043,-0.02287427858
3.89,-0.05669887097,-0.02015219189
3.9,-0.05755000885,-0.01738601207
3.91,-0.05826399908,-0.01458261071
3.92,-0.0588391001,-0.01174896978
3.93,-0.05927394028,-0.008892161312
3.94,-0.05956752305,-0.006019326749
3.95,-0.05971923093,-0.003137655893
3.96,-0.0597288282,-0.0002543656519
3.97,-0.05959646239,0.002623321414
3.98,-0.05932266442,0.005488198617
3.99,-0.05890834745,0.008333096688
4,-0.05835480446,0.01115090523
4.01,-0.05766370455,0.01393459403
4.02,-0.05683708792,0.01667723411
4.03,-0.05587735967,0.01937201849
4.04,-0.05478728227,0.02201228247
4.05,-0.05356996688,0.02459152354
4.06,-0.05222886351,0.02710342067
4.07,-0.05076774999,0.02954185293
4.08,-0.04919071985,0.0319009175
4.09,-0.04750216923,0.0341749468
4.1,-0.04570678269,0.03635852492
4.11,-0.04380951818,0.038446503
4.12,-0.04181559103,0.04043401379
4.13,-0.03973045722,0.04231648507
4.14,-0.03755979585,0.04408965216
4.15,-0.03530949095,0.04574956923
4.16,-0.03298561271,0.04729261947
4.17,-0.0305943981,0.04871552415
4.18,-0.02814223117,0.05001535047
4.19,-0.02563562287,0.05118951811
4.2,-0.02308119059,0.05223580462
4.21,-0.02048563757,0.05315234957
4.22,-0.01785573209,0.05393765737
4.23,-0.01519828664,0.05459059886
4.24,-0.01252013714,0.05511041169
4.25,-0.00982812226,0.0554966994
4.26,-0.00712906291,0.05574942928
4.27,-0.00442974203,0.05586892905
4.28,-0.001736884695,0.05585588233
4.29,0.0009428613461,0.05571132296
4.3,0.00360294466,0.05543662821
4.31,0.006236928559,0.05503351093
4.32,0.008838508913,0.0545040106
4.33,0.01140153129,0.05385048348
4.34,0.01392000736,0.05307559178
4.35,0.01638813048,0.05218229193
4.36,0.01880029054,0.05117382207
4.37,0.02115108779,0.05005368877
4.38,0.02343534582,0.04882565304
4.39,0.02564812363,0.0474937157
4.4,0.02778472663,0.04606210224
4.41,0.02984071663,0.04453524709
4.42,0.03181192088,0.04291777758
4.43,0.03369443997,0.04121449746
4.44,0.03548465469,0.03943037013
4.45,0.03717923192,0.03757050176
4.46,0.03877512926,0.03564012414
4.47,0.04026959879,0.03364457754
4.48,0.04166018969,0.03158929354
4.49,0.04294474978,0.02947977791
4.5,0.04412142612,0.02732159365
4.51,0.04518866456,0.02512034422
4.52,0.04614520832,0.02288165698
4.53,0.04699009563,0.02061116698
4.54,0.04772265646,0.01831450115
4.55,0.04834250836,0.01599726282
4.56,0.04884955148,0.01366501683
4.57,0.04924396283,0.01132327503
4.58,0.04952618969,0.008977482452
4.59,0.04969694246,0.006633004035
4.6,0.04975718675,0.004295111955
4.61,0.04970813492,0.001968973673
4.62,0.0495512371,-0.0003403593552
4.63,0.04928817166,-0.002627962247
4.64,0.04892083532,-0.004889046529
4.65,0.04845133278,-0.007118969226
4.66,0.04788196615,-0.009313241186
4.67,0.04721522403,-0.01146753465
4.68,0.04645377034,-0.01357769006
4.69,0.04560043314,-0.01563972208
4.7,0.04465819318,-0.01764982487
4.71,0.04363017247,-0.01960437664
4.72,0.04251962287,-0.02149994341
4.73,0.04132991466,-0.02333328209
4.74,0.04006452523,-0.02510134286
4.75,0.03872702793,-0.02680127084
4.76,0.03732108101,-0.02843040715
4.77,0.03585041689,-0.02998628931
4.78,0.03431883158,-0.03146665103
4.79,0.03273017442,-0.03286942149
4.8,0.03108833811,-0.03419272406
4.81,0.02939724914,-0.03543487451
4.82,0.02766085851,-0.03659437878
4.83,0.02588313281,-0.03766993031
4.84,0.02406804584,-0.03866040703
4.85,0.02221957047,-0.03956486796
4.86,0.020341671,-0.04038254951
4.87,0.01843829599,-0.04111286156
4.88,0.01651337143,-0.04175538323
4.89,0.01457079443,-0.04230985853
4.9,0.01261442727,-0.04277619184
4.91,0.0106480919,-0.04315444323
4.92,0.008675564925,-0.04344482377
4.93,0.006700572851,-0.04364769071
4.94,0.00472678787,-0.0437635427
4.95,0.002757823941,-0.04379301501
4.96,0.0007972332561,-0.04373687474
4.97,-0.001151496955,-0.04359601618
4.98,-0.003084947298,-0.04337145615
4.99,-0.00499976879,-0.04306432956
5,-0.006892685162,-0.04267588498
5.01,-0.008760494912,-0.04220748046
5.02,-0.01060007313,-0.0416605794
5.03,-0.01240837315,-0.04103674667
5.04,-0.01418242796,-0.04033764482
5.05,-0.01591935158,-0.03956503057
5.06,-0.01761634021,-0.03872075135
5.07,-0.01927067336,-0.03780674212
5.08,-0.02087971486,-0.03682502229
5.09,-0.02244091389,-0.03577769289
5.1,-0.02395180591,-0.03466693382
5.11,-0.02541001368,-0.03349500131
5.12,-0.02681324822,-0.03226422546
5.13,-0.02815930988,-0.03097700799
5.14,-0.02944608943,-0.02963582001
5.15,-0.03067156924,-0.02824319993
5.16,-0.03183382453,-0.02680175146
5.17,-0.03293102479,-0.02531414163
5.18,-0.0339614352,-0.02378309885
5.19,-0.03492341826,-0.02221141097
5.2,-0.0358154355,-0.02060192338
5.21,-0.03663604933,-0.01895753701
5.22,-0.03738392497,-0.01728120635
5.23,-0.03805783261,-0.01557593728
5.24,-0.03865664952,-0.0138447849
5.25,-0.03917936244,-0.01209085121
5.26,-0.03962506998,-0.0103172826
5.27,-0.03999298506,-0.008527267229
5.28,-0.04028243757,-0.006724032194
5.29,-0.04049287694,-0.004910840481
5.3,-0.04062387483,-0.003090987721
5.31,-0.04067512781,-0.001267798695
5.32,-0.04064646005,0.0005553764032
5.33,-0.04053782601,0.002375165974
5.34,-0.040349313,0.00418818128
5.35,-0.04008114374,0.005991020996
5.36,-0.03973367879,0.007780276038
5.37,-0.03930741886,0.009552534685
5.38,-0.03880300695,0.01130438797
5.39,-0.0382212303,0.01303243536
5.4,-0.03756302216,0.01473329074
5.41,-0.03682946324,0.0164035886
5.42,-0.03602178303,0.01803999055
5.43,-0.03514136062,0.01963919203
5.44,-0.03418972541,0.02119792931
5.45,-0.03316855731,0.02271298661
5.46,-0.03207968662,0.02418120353
5.47,-0.03092509356,0.02559948252
5.48,-0.02970690726,0.02696479663
5.49,-0.02842740444,0.02827419726
5.5,-0.02708900752,0.02952482208
5.51,-0.02569428235,0.03071390297
5.52,-0.02424593539,0.03183877399
5.53,-0.02274681037,0.03289687937
5.54,-0.02119988454,0.03388578142
5.55,-0.01960826427,0.03480316839
5.56,-0.01797518026,0.03564686222
5.57,-0.01630398213,0.03641482609
5.58,-0.01459813254,0.03710517184
5.59,-0.01286120081,0.03771616713
5.6,-0.01109685599,0.03824624235
5.61,-0.009308859448,0.03869399719
5.62,-0.007501057019,0.03905820691
5.63,-0.005677370644,0.03933782821
5.64,-0.003841789577,0.03953200469
5.65,-0.001998361181,0.03964007184
5.66,-0.0001511813159,0.0396615616
5.67,0.001695615635,0.03959620634
5.68,0.003537867081,0.03944394234
5.69,0.005371392844,0.03920491269
5.7,0.00719200605,0.03887946957
5.71,0.00899552425,0.03846817592
5.72,0.01077778074,0.03797180649
5.73,0.01253463603,0.03739134819
5.74,0.01426198944,0.03672799979
5.75,0.01595579073,0.03598317093
5.76,0.01761205179,0.0351584804
5.77,0.01922685828,0.03425575377
5.78,0.02079638121,0.03327702026
5.79,0.02231688844,0.03222450893
5.8,0.02378475592,0.03110064416
5.81,0.02519647885,0.02990804043
5.82,0.02654868247,0.02864949641
5.83,0.02783813261,0.02732798841
5.84,0.0290617459,0.02594666309
5.85,0.03021659951,0.02450882961
5.86,0.03129994059,0.02301795115
5.87,0.03230919508,0.02147763583
5.88,0.03324197612,0.01989162703
5.89,0.03409609186,0.0182637933
5.9,0.0348695527,0.0165981176
5.91,0.03556057784,0.01489868628
5.92,0.03616760129,0.01316967747
5.93,0.03668927712,0.0114153492
5.94,0.03712448401,0.009640027163
5.95,0.03747232908,0.007848092172
5.96,0.037732151,0.006043967386
5.97,0.03790352226,0.004232105351
5.98,0.03798625075,0.002416974888
5.99,0.03798038052,0.0006030478972
6,0.0378861917,-0.001205213887
