"Freq [GHz]","re(S(Tx_p1,Tx_p1)) []","im(S(Tx_p1,Tx_p1)) []"
1,-0.0001188387143,0.0001705363112
1.01,-0.0001050394104,0.0001744334018
1.02,-9.121814455E-05,0.0001772595361
1.03,-7.745757352E-05,0.0001790273929
1.04,-6.383858549E-05,0.0001797561172
1.05,-5.043978689E-05,0.0001794711316
1.06,-3.733700804E-05,0.0001782039062
1.07,-2.460283064E-05,0.0001759916898
1.08,-1.230614033E-05,0.0001728772047
1.09,-5.117069978E-07,0.0001689083057
1.1,1.072020435E-05,0.0001641376081
1.11,2.133418982E-05,0.0001586220849
1.12,3.128002767E-05,0.0001524226382
1.13,4.051296226E-05,0.0001456036466
1.14,4.899394919E-05,0.0001382324922
1.15,5.668986009E-05,0.0001303790707
1.16,6.357364602E-05,0.0001221152865
1.17,6.962445854E-05,0.0001135145392
1.18,7.482772782E-05,0.000104651202
1.19,7.917519748E-05,9.56000971E-05
1.2,8.266491618E-05,8.643597147E-05
1.21,8.530118617E-05,7.723297653E-05
1.22,8.709446939E-05,6.806415482E-05
1.23,8.80612519E-05,5.900093758E-05
1.24,8.822386775E-05,5.011265628E-05
1.25,8.761028374E-05,4.146607155E-05
1.26,8.625384652E-05,3.312492241E-05
1.27,8.419299408E-05,2.514949894E-05
1.28,8.147093361E-05,1.759624107E-05
1.29,7.813528807E-05,1.051736614E-05
1.3,7.423771395E-05,3.960527639E-06
1.31,6.983349303E-05,-2.031492648E-06
1.32,6.498110083E-05,-7.421057217E-06
1.33,5.974175485E-05,-1.217590831E-05
1.34,5.417894581E-05,-1.626936489E-05
1.35,4.835795484E-05,-1.968047985E-05
1.36,4.234536032E-05,-2.239415651E-05
1.37,3.62085374E-05,-2.440122388E-05
1.38,3.001515382E-05,-2.569846999E-05
1.39,2.383266541E-05,-2.628863357E-05
1.4,1.77278146E-05,-2.618035383E-05
1.41,1.176613551E-05,-2.538807917E-05
1.42,6.011468787E-06,-2.393193521E-05
1.43,5.254895619E-07,-2.183755331E-05
1.44,-4.632748326E-06,-1.91358608E-05
1.45,-9.407248792E-06,-1.58628343E-05
1.46,-1.374548771E-05,-1.205921806E-05
1.47,-1.759880209E-05,-7.770208998E-06
1.48,-2.092275164E-05,-3.045110973E-06
1.49,-2.367745027E-05,2.063039669E-06
1.5,-2.582786534E-05,7.497874492E-06
1.51,-2.734408268E-05,1.320011666E-05
1.52,-2.820153555E-05,1.910802502E-05
1.53,-2.838119609E-05,2.51578556E-05
1.54,-2.786972793E-05,3.12843373E-05
1.55,-2.665959893E-05,3.742115871E-05
1.56,-2.474915334E-05,4.350146259E-05
1.57,-2.21426429E-05,4.945834486E-05
1.58,-1.885021653E-05,5.52253546E-05
1.59,-1.488786887E-05,6.073699175E-05
1.6,-1.027734781E-05,6.592919919E-05
1.61,-5.046021721E-06,7.073984578E-05
1.62,7.732928399E-07,7.510919729E-05
1.63,7.142541742E-06,7.898037185E-05
1.64,1.401868094E-05,8.229977702E-05
1.65,2.135395948E-05,8.501752538E-05
1.66,2.909623615E-05,8.708782598E-05
1.67,3.718932746E-05,8.846934891E-05
1.68,4.557338504E-05,8.912556048E-05
1.69,5.418529965E-05,8.902502686E-05
1.7,6.29591294E-05,8.81416839E-05
1.71,7.182654933E-05,8.645507153E-05
1.72,8.071731932E-05,8.395053078E-05
1.73,8.955976746E-05,8.061936234E-05
1.74,9.828128553E-05,7.64589453E-05
1.75,0.0001068088335,7.147281531E-05
1.76,0.0001150694498,6.567070139E-05
1.77,0.0001229907634,5.906852123E-05
1.78,0.0001305015058,5.168833471E-05
1.79,0.0001375320178,4.355825588E-05
1.8,0.0001440147487,3.471232389E-05
1.81,0.0001498847448,2.519033349E-05
1.82,0.0001550801235,1.503762612E-05
1.83,0.00015954253,4.304842837E-06
1.84,0.0001632175737,-6.9523595E-06
1.85,0.0001660552411,-1.867362709E-05
1.86,0.0001680102827,-3.07942611E-05
1.87,0.0001690425715,-4.32456005E-05
1.88,0.0001691174305,-5.595543354E-05
1.89,0.0001682059259,-6.884843524E-05
1.9,0.0001662851264,-8.18466282E-05
1.91,0.0001633383244,-9.486986395E-05
1.92,0.0001593552187,-0.0001078363218
1.93,0.0001543320574,-0.0001206630219
1.94,0.0001482717396,-0.0001332663498
1.95,0.0001411838749,-0.0001455625886
1.96,0.000133084801,-0.0001574684557
1.97,0.0001239975578,-0.0001689016407
1.98,0.0001139518192,-0.0001797813414
1.99,0.0001029837826,-0.0001900287934
2,9.113601534E-05,-0.0001995677915
2.01,7.845726096E-05,-0.0002083251985
2.02,6.500220465E-05,-0.0002162314383
2.03,5.083119992E-05,-0.0002232209704
2.04,3.600995779E-05,-0.000229232743
2.05,2.060920041E-05,-0.0002342106206
2.06,4.704281007E-06,-0.000238103785
2.07,-1.162522756E-05,-0.0002408671061
2.08,-2.829597334E-05,-0.0002424614796
2.09,-4.522129217E-05,-0.0002428541305
2.1,-6.231169828E-05,-0.0002420188804
2.11,-7.947539557E-05,-0.0002399363747
2.12,-9.661880664E-05,-0.0002365942714
2.13,-0.0001136471163,-0.0002319873874
2.14,-0.0001304648263,-0.0002261178026
2.15,-0.000146976318,-0.0002189949205
2.16,-0.0001630864197,-0.0002106354855
2.17,-0.0001787009746,-0.0002010635552
2.18,-0.000193727407,-0.0001903104288
2.19,-0.0002080752819,-0.0001784145322
2.2,-0.0002216568562,-0.0001654212587
2.21,-0.0002343876168,-0.0001513827675
2.22,-0.0002461868029,-0.000136357741
2.23,-0.0002569779089,-0.000120411101
2.24,-0.0002666891656,-0.0001036136869
2.25,-0.0002752539961,-8.604189658E-05
2.26,-0.0002826114432,-6.77772925E-05
2.27,-0.0002887065668,-4.890617498E-05
2.28,-0.0002934908074,-2.951912531E-05
2.29,-0.000296922315,-9.710521178E-06
2.3,-0.0002989662399,1.042197275E-05
2.31,-0.000299594984,3.077793614E-05
2.32,-0.0002987884117,5.125474318E-05
2.33,-0.0002965340176,7.174812835E-05
2.34,-0.0002928270517,9.215276449E-05
2.35,-0.0002876705993,0.0001123628499
2.36,-0.0002810756161,0.0001322727009
2.37,-0.0002730609184,0.0001517773463
2.38,-0.0002636531276,0.0001707731207
2.39,-0.0002528865693,0.0001891582524
2.4,-0.0002408031283,0.0002068334434
2.41,-0.0002274520585,0.000223702437
2.42,-0.0002128897515,0.0002396725708
2.43,-0.0001971794617,0.0002546553105
2.44,-0.0001803909922,0.0002685667631
2.45,-0.0001626003424,0.0002813281642
2.46,-0.0001438893182,0.0002928663386
2.47,-0.0001243451089,0.0003031141305
2.48,-0.0001040598313,0.0003120108007
2.49,-8.313004545E-05,0.0003195023884
2.5,-6.165624278E-05,0.000325542036
2.51,-3.974231159E-05,0.0003300902747
2.52,-1.749498144E-05,0.0003331152682
2.53,4.976749773E-06,0.0003345930152
2.54,2.756220266E-05,0.0003345075073
2.55,5.014961405E-05,0.0003328508424
2.56,7.262674189E-05,0.000329623293
2.57,9.488147402E-05,0.0003248333286
2.58,0.0001168024371,0.0003184975922
2.59,0.0001382796026,0.0003106408306
2.6,0.0001592048858,0.0003012957798
2.61,0.0001794727347,0.0002905030054
2.62,0.000198980706,0.0002783106987
2.63,0.0002176300233,0.0002647744306
2.64,0.0002353261158,0.0002499568639
2.65,0.0002519791346,0.0002339274258
2.66,0.0002675044413,0.0002167619427
2.67,0.0002818230697,0.0001985422395
2.68,0.0002948621543,0.0001793557051
2.69,0.0003065553266,0.0001592948271
2.7,0.000316843074,0.0001384566986
2.71,0.0003256730609,0.0001169424991
2.72,0.0003330004107,9.485695336E-05
2.73,0.0003387879452,7.230777068E-05
2.74,0.0003430063819,4.940506835E-05
2.75,0.0003456344874,2.626078205E-05
2.76,0.0003466591859,2.988066943E-06
2.77,0.0003460756226,-2.029930725E-05
2.78,0.0003438871821,-4.348756379E-05
2.79,0.0003401054604,-6.646352553E-05
2.8,0.0003347501926,-8.911521726E-05
2.81,0.0003278491351,-0.0001113324602
2.82,0.0003194379043,-0.0001330074557
2.83,0.0003095597724,-0.0001540353541
2.84,0.0002982654211,-0.0001743148065
2.85,0.0002856126555,-0.0001937484958
2.86,0.0002716660793,-0.0002122436439
2.87,0.0002564967339,-0.0002297124928
2.88,0.0002401817027,-0.0002460727566
2.89,0.0002228036838,-0.0002612480422
2.9,0.0002044505326,-0.0002751682356
2.91,0.0001852147789,-0.0002877698535
2.92,0.0001651931183,-0.0002989963559
2.93,0.0001444858843,-0.0003087984205
2.94,0.000123196501,-0.0003171341759
2.95,0.0001014309226,-0.0003239693927
2.96,7.929705979E-05,-0.0003292776324
2.97,5.690419905E-05,-0.0003330403525
2.98,3.436241653E-05,-0.0003352469679
2.99,1.178199042E-05,-0.000335894868
3,-1.072718487E-05,-0.0003349893906
3.01,-3.305617956E-05,-0.0003325437517
3.02,-5.509760098E-05,-0.0003285789327
3.03,-7.674615458E-05,-0.000323123525
3.04,-9.789919036E-05,-0.000316213535
3.05,-0.0001184572316,-0.0003078921475
3.06,-0.0001383244833,-0.0002982094531
3.07,-0.0001574093168,-0.0002872221375
3.08,-0.0001756247294,-0.0002749931379
3.09,-0.0001928887747,-0.0002615912661
3.1,-0.0002091249631,-0.0002470908022
3.11,-0.000224262629,-0.0002315710612
3.12,-0.0002382372644,-0.0002151159343
3.13,-0.0002509908149,-0.0001978134083
3.14,-0.0002624719392,-0.0001797550664
3.15,-0.0002726362295,-0.0001610355717
3.16,-0.0002814463918,-0.000141752139
3.17,-0.0002888723852,-0.0001220039953
3.18,-0.0002948915215,-0.0001018918339
3.19,-0.0002994885219,-8.151726516E-05
3.2,-0.0003026555329,-6.098226544E-05
3.21,-0.0003043921016,-4.038862984E-05
3.22,-0.0003047051092,-1.983742975E-05
3.23,-0.0003036086655,5.715207295E-07
3.24,-0.0003011239635,2.07401867E-05
3.25,-0.0002972790965,4.057282E-05
3.26,-0.0002921088386,5.997644939E-05
3.27,-0.00028565439,7.886135091E-05
3.28,-0.0002779630887,9.714149567E-05
3.29,-0.0002690880916,0.000114734973
3.3,-0.0002590880255,0.0001315643865
3.31,-0.0002480266116,0.0001475572212
3.32,-0.0002359722652,0.0001626461794
3.33,-0.0002229976731,0.0001767694847
3.34,-0.0002091793518,0.0001898711517
3.35,-0.0001945971886,0.0002019012203
3.36,-0.0001793339692,0.0002128159541
3.37,-0.0001634748934,0.0002225780018
3.38,-0.0001471070832,0.0002311565209
3.39,-0.0001303190855,0.0002385272635
3.4,-0.0001132003718,0.0002446726242
3.41,-9.584083899E-05,0.0002495816497
3.42,-7.833031345E-05,0.0002532500116
3.43,-6.075806099E-05,0.000255679941
3.44,-4.321230602E-05,0.0002568801279
3.45,-2.577976238E-05,0.0002568655843
3.46,-8.545178317E-06,0.0002556574741
3.47,8.409101719E-06,0.0002532829093
3.48,2.500355618E-05,0.0002497747156
3.49,4.116188418E-05,0.000245171168
3.5,5.681137985E-05,0.0002395156987
3.51,7.188328133E-05,0.0002328565798
3.52,8.631309261E-05,0.0002252465818
3.53,0.0001000408768,0.0002167426111
3.54,0.0001130115192,0.0002074053291
3.55,0.0001251749592,0.0001972987534
3.56,0.0001364863897,0.000186489847
3.57,0.0001469064242,0.0001750480945
3.58,0.0001564012287,0.0001630450704
3.59,0.0001649426215,0.0001505540012
3.6,0.0001725081374,0.000137649324
3.61,0.0001790810577,0.0001244062447
3.62,0.0001846504077,0.000110900297
3.63,0.0001892109186,9.72069078E-05
3.64,0.0001927629583,8.34009674E-05
3.65,0.0001953124291,6.955641088E-05
3.66,0.0001968706348,5.574581049E-05
3.67,0.0001974541176,4.203998242E-05
3.68,0.0001970844672,2.850760991E-05
3.69,0.0001957881018,1.521488468E-05
3.7,0.0001935960247,2.225168766E-06
3.71,0.0001905435569,-1.040132168E-05
3.72,0.0001866700484,-2.260780879E-05
3.73,0.0001820185694,-3.434122025E-05
3.74,0.0001766355843,-4.555243009E-05
3.75,0.0001705706107,-5.619647191E-05
3.76,0.0001638758648,-6.623272353E-05
3.77,0.0001566058966,-7.562506248E-05
3.78,0.0001488172169,-8.434199151E-05
3.79,0.0001405679176,-9.235673401E-05
3.8,0.0001319172896,-9.964729895E-05
3.81,0.0001229254386,-0.0001061965154
3.82,0.0001136529033,-0.0001119920371
3.83,0.0001041602757,-0.0001170263168
3.84,9.450782917E-05,-0.0001212965513
3.85,8.475515287E-05,-0.0001248045988
3.86,7.496079785E-05,-0.0001275568673
3.87,6.518193486E-05,-0.0001295641773
3.88,5.547402668E-05,-0.0001308415992
3.89,4.589051674E-05,-0.0001314082657
3.9,3.648253563E-05,-0.0001312871627
3.91,2.729862718E-05,-0.0001305048992
3.92,1.838449566E-05,-0.000129091457
3.93,9.782775233E-06,-0.0001270799245
3.94,1.532823052E-06,-0.000124506214
3.95,-6.329463216E-06,-0.0001214087657
3.96,-1.377180242E-05,-0.0001178282411
3.97,-2.076566093E-05,-0.0001138072061
3.98,-2.728635712E-05,-0.0001093898076
3.99,-3.331313892E-05,-0.0001046214449
4,-3.882923441E-05,-9.954843867E-05
4.01,-4.382187533E-05,-9.42176986E-05
4.02,-4.828229386E-05,-8.867639347E-05
4.03,-5.220569285E-05,-8.297162421E-05
4.04,-5.55911902E-05,-7.715010299E-05
4.05,-5.844173792E-05,-7.125784003E-05
4.06,-6.076401679E-05,-6.533984004E-05
4.07,-6.256830768E-05,-5.943981035E-05
4.08,-6.386834039E-05,-5.359988224E-05
4.09,-6.468112167E-05,-4.78603474E-05
4.1,-6.502674338E-05,-4.225941085E-05
4.11,-6.492817262E-05,-3.683296199E-05
4.12,-6.44110252E-05,-3.161436485E-05
4.13,-6.350332433E-05,-2.663426888E-05
4.14,-6.223524608E-05,-2.192044122E-05
4.15,-6.063885366E-05,-1.749762137E-05
4.16,-5.874782231E-05,-1.338739899E-05
4.17,-5.65971567E-05,-9.608115366E-06
4.18,-5.422290294E-05,-6.174788916E-06
4.19,-5.166185703E-05,-3.099065139E-06
4.2,-4.895127192E-05,-3.891909159E-07
4.21,-4.612856496E-05,1.949986796E-06
4.22,-4.323102793E-05,3.916998142E-06
4.23,-4.029554141E-05,5.513703795E-06
4.24,-3.735829547E-05,6.745225175E-06
4.25,-3.445451852E-05,7.619852134E-06
4.26,-3.161821601E-05,8.148928938E-06
4.27,-2.888192075E-05,8.346719513E-06
4.28,-2.627645647E-05,8.230253034E-06
4.29,-2.383071604E-05,7.819151089E-06
4.3,-2.157145579E-05,7.135437719E-06
4.31,-1.952310719E-05,6.203333786E-06
4.32,-1.770760718E-05,5.049037177E-06
4.33,-1.614424794E-05,3.700490453E-06
4.34,-1.484954717E-05,2.187137628E-06
4.35,-1.383713967E-05,5.396718085E-07
4.36,-1.311769062E-05,-1.210224505E-06
4.37,-1.269883125E-05,-3.03014464E-06
4.38,-1.25851171E-05,-4.88722663E-06
4.39,-1.2778009E-05,-6.748423883E-06
4.4,-1.327587687E-05,-8.580775779E-06
4.41,-1.407402617E-05,-1.035167632E-05
4.42,-1.516474667E-05,-1.2029139E-05
4.43,-1.653738315E-05,-1.35820561E-05
4.44,-1.81784274E-05,-1.498045062E-05
4.45,-2.007163094E-05,-1.619571919E-05
4.46,-2.219813736E-05,-1.720086423E-05
4.47,-2.453663362E-05,-1.797071395E-05
4.48,-2.706351888E-05,-1.848212853E-05
4.49,-2.975308999E-05,-1.87141913E-05
4.5,-3.257774195E-05,-1.864838342E-05
4.51,-3.550818232E-05,-1.826874114E-05
4.52,-3.851365777E-05,-1.75619944E-05
4.53,-4.156219136E-05,-1.6517686E-05
4.54,-4.462082883E-05,-1.512827037E-05
4.55,-4.765589232E-05,-1.338919157E-05
4.56,-5.063323958E-05,-1.129893969E-05
4.57,-5.351852713E-05,-8.859085564E-06
4.58,-5.627747538E-05,-6.07429333E-06
4.59,-5.8876134E-05,-2.952310981E-06
4.6,-6.128114579E-05,4.960612021E-07
4.61,-6.346000707E-05,4.25702403E-06
4.62,-6.538132302E-05,8.31385427E-06
4.63,-6.701505618E-05,1.26470005E-05
4.64,-6.833276635E-05,1.723419933E-05
4.65,-6.930784036E-05,2.205061118E-05
4.66,-6.991571009E-05,2.706897482E-05
4.67,-7.013405734E-05,3.225977955E-05
4.68,-6.994300406E-05,3.759145395E-05
4.69,-6.932528663E-05,4.303056996E-05
4.7,-6.82664132E-05,4.854206096E-05
4.71,-6.675480269E-05,5.40894524E-05
4.72,-6.478190478E-05,5.963510349E-05
4.73,-6.234229985E-05,6.514045839E-05
4.74,-5.943377825E-05,7.05663052E-05
4.75,-5.605739832E-05,7.587304115E-05
4.76,-5.22175227E-05,8.102094216E-05
4.77,-4.792183258E-05,8.597043508E-05
4.78,-4.31813199E-05,9.06823708E-05
4.79,-3.801025725E-05,9.511829647E-05
4.8,-3.242614575E-05,9.924072501E-05
4.81,-2.644964123E-05,0.0001030134001
4.82,-2.010445885E-05,0.0001064015553
4.83,-1.341725709E-05,0.0001093721646
4.84,-6.41750141E-06,0.0001118941841
4.85,8.626913262E-07,0.0001139387826
4.86,8.388726894E-06,0.0001154795586
4.87,1.612372511E-05,0.0001164927442
4.88,2.402872742E-05,0.0001169573932
4.89,3.206291949E-05,0.0001168555524
4.9,4.018386725E-05,0.000116172415
4.91,4.834776523E-05,0.0001148964551
4.92,5.650969535E-05,0.0001130195426
4.93,6.462389478E-05,0.000110537037
4.94,7.264403115E-05,0.0001074478604
4.95,8.052348341E-05,0.000103754548
4.96,8.821562651E-05,9.94632771E-05
4.97,9.567411832E-05,9.458387272E-05
4.98,0.0001028531868,8.912979125E-05
4.99,0.0001097079159,8.311808109E-05
5,0.0001161945277,7.656932088E-05
5.01,0.0001222706606,6.950753553E-05
5.02,0.0001278956395,6.196009054E-05
5.03,0.0001330307385,5.395756501E-05
5.04,0.000137639433,4.553360433E-05
5.05,0.0001416876408,3.672475306E-05
5.06,0.0001451439486,2.757026919E-05
5.07,0.0001479798257,1.811192075E-05
5.08,0.0001501698204,8.393765959E-06
5.09,0.0001516917394,-1.538081791E-06
5.1,0.0001525268093,-1.163570277E-05
5.11,0.0001526598182,-2.184963202E-05
5.12,0.000152079237,-3.212913134E-05
5.13,0.0001507773198,-4.242247038E-05
5.14,0.0001487501819,-5.267721528E-05
5.15,0.0001459978562,-6.284052313E-05
5.16,0.0001425243266,-7.285944043E-05
5.17,0.0001383375375,-8.268120391E-05
5.18,0.0001334493815,-9.225354173E-05
5.19,0.0001278756628,-0.0001015249735
5.2,0.0001216360386,-0.0001104451069
5.21,0.0001147539366,-0.0001189649299
5.22,0.0001072564515,-0.0001270370961
5.23,9.917421871E-05,-0.0001346162013
5.24,9.054126771E-05,-0.000141659051
5.25,8.139485485E-05,-0.0001481249155
5.26,7.177527709E-05,-0.0001539757724
5.27,6.172566739E-05,-0.0001591765342
5.28,5.129177317E-05,-0.0001636952602
5.29,4.052171889E-05,-0.0001675033508
5.3,2.946575434E-05,-0.0001705757242
5.31,1.817598988E-05,-0.0001728909729
5.32,6.706120267E-06,-0.0001744314999
5.33,-4.88886135E-06,-0.0001751836345
5.34,-1.655295761E-05,-0.0001751377249
5.35,-2.822946764E-05,-0.0001742882098
5.36,-3.98612925E-05,-0.0001726336658
5.37,-5.139124361E-05,-0.0001701768325
5.38,-6.276235241E-05,-0.0001669246138
5.39,-7.391817939E-05,-0.0001628880561
5.4,-8.480312083E-05,-0.0001580823029
5.41,-9.53627114E-05,-0.0001525265268
5.42,-0.0001055439208,-0.0001462438388
5.43,-0.000115295443,-0.0001392611751
5.44,-0.0001245679762,-0.0001316091629
5.45,-0.0001333144917,-0.0001233219655
5.46,-0.0001414904909,-0.0001144371071
5.47,-0.0001490542482,-0.0001049952799
5.48,-0.0001559670385,-9.504013197E-05
5.49,-0.0001621933485,-8.461804038E-05
5.5,-0.0001677010706,-7.377786785E-05
5.51,-0.0001724616772,-6.25707064E-05
5.52,-0.0001764503761,-5.104960843E-05
5.53,-0.0001796462448,-3.926930721E-05
5.54,-0.0001820323439,-2.728592812E-05
5.55,-0.0001835958082,-1.515669252E-05
5.56,-0.0001843279155,-2.939615749E-06
5.57,-0.0001842241329,9.306798951E-06
5.58,-0.0001832841397,2.152386882E-05
5.59,-0.0001815118279,3.365304059E-05
5.6,-0.0001789152786,4.563619838E-05
5.61,-0.0001755067171,5.741596869E-05
5.62,-0.0001713024442,6.893602083E-05
5.63,-0.0001663227459,8.014136112E-05
5.64,-0.000160591782,9.097861919E-05
5.65,-0.0001541374533,0.0001013963248
5.66,-0.0001469912489,0.0001113451738
5.67,-0.0001391880753,0.0001207782815
5.68,-0.0001307660658,0.0001296514222
5.69,-0.0001217663747,0.0001379232538
5.7,-0.0001122329548,0.0001455555261
5.71,-0.0001022123204,0.0001525132715
5.72,-9.175329804E-05,0.0001587649775
5.73,-8.09067651E-05,0.00016428274
5.74,-6.972537825E-05,0.0001690423962
5.75,-5.826329373E-05,0.000173023637
5.76,-4.657588044E-05,0.0001762100985
5.77,-3.471942785E-05,0.0001785894313
5.78,-2.27508502E-05,0.0001801533483
5.79,-1.072738873E-05,0.0001808976502
5.8,1.293686483E-06,0.0001808222291
5.81,1.325537325E-05,0.0001799310498
5.82,2.510123117E-05,0.0001782321096
5.83,3.677567088E-05,0.0001757373767
5.84,4.822423717E-05,0.0001724627074
5.85,5.939388445E-05,0.0001684277427
5.86,7.023324309E-05,0.0001636557864
5.87,8.069287507E-05,0.0001581736625
5.88,9.072551789E-05,0.0001520115561
5.89,0.0001002863152,0.0001452028364
5.9,0.000109333033,0.0001377838646
5.91,0.0001178262605,0.0001297937861
5.92,0.0001257295945,0.00012127431
5.93,0.0001330098064,0.0001122694764
5.94,0.0001396369908,0.0001028254119
5.95,0.0001455846957,9.299007724E-05
5.96,0.0001508300327,8.281300581E-05
5.97,0.0001553537682,7.234503629E-05
5.98,0.0001591403934,6.163804028E-05
5.99,0.0001621781741,5.074464661E-05
6,0.0001644591806,3.971796377E-05
