"Freq [GHz]","re(S(Tx_p1,Tx_p1)) []","im(S(Tx_p1,Tx_p1)) []"
1,-0.02174646942,-0.005824567893
1.01,-0.02199891329,-0.004735624756
1.02,-0.02219790893,-0.003633860451
1.03,-0.02234270005,-0.002521889999
1.04,-0.02243265757,-0.001402372766
1.05,-0.02246728172,-0.0002780068118
1.06,-0.02244620416,0.0008484768303
1.07,-0.02236918984,0.001974319977
1.08,-0.02223613873,0.00309674322
1.09,-0.02204708738,0.004212951958
1.1,-0.02180221028,0.005320142546
1.11,-0.0215018211,0.006415508576
1.12,-0.02114637359,0.007496247271
1.13,-0.02073646242,0.008559566016
1.14,-0.02027282364,0.009602689025
1.15,-0.019756335,0.01062286413
1.16,-0.01918801591,0.01161736969
1.17,-0.0185690272,0.01258352164
1.18,-0.01790067045,0.01351868066
1.19,-0.01718438713,0.0144202594
1.2,-0.01642175727,0.01528572986
1.21,-0.01561449782,0.0161126308
1.22,-0.01476446061,0.01689857524
1.23,-0.01387362993,0.01764125797
1.24,-0.01294411959,0.01833846311
1.25,-0.01197816968,0.01898807163
1.26,-0.01097814274,0.01958806887
1.27,-0.009946519587,0.02013655193
1.28,-0.008885894547,0.02063173707
1.29,-0.007798970286,0.02107196688
1.3,-0.006688552121,0.02145571733
1.31,-0.005557541835,0.0217816046
1.32,-0.00440893101,0.02204839174
1.33,-0.003245793864,0.02225499491
1.34,-0.002071279612,0.02240048947
1.35,-0.0008886043572,0.02248411561
1.36,0.0002989574832,0.0225052836
1.37,0.001488082181,0.02246357862
1.38,0.002675406127,0.02235876513
1.39,0.003857535649,0.0221907907
1.4,0.005031057203,0.02195978934
1.41,0.006192547895,0.02166608414
1.42,0.007338586303,0.02131018945
1.43,0.008465763568,0.0208928123
1.44,0.009570694698,0.02041485318
1.45,0.01065003006,0.01987740613
1.46,0.01170046699,0.01928175809
1.47,0.01271876152,0.01862938753
1.48,0.01370174009,0.01792196232
1.49,0.01464631125,0.01716133679
1.5,0.01554947737,0.01634954809
1.51,0.01640834606,0.01548881171
1.52,0.01722014157,0.01458151624
1.53,0.01798221584,0.01363021738
1.54,0.01869205931,0.01263763112
1.55,0.0193473113,0.01160662627
1.56,0.01994577009,0.01054021614
1.57,0.02048540243,0.009441549645
1.58,0.02096435257,0.008313901595
1.59,0.02138095072,0.007160662433
1.6,0.02173372091,0.005985327317
1.61,0.02202138809,0.004791484635
1.62,0.02224288462,0.003582803997
1.63,0.02239735597,0.002363023739
1.64,0.02248416555,0.001135937999
1.65,0.02250289884,-9.461658196E-05
1.66,0.02245336656,-0.001324774482
1.67,0.02233560696,-0.002550655173
1.68,0.02214988729,-0.003768377202
1.69,0.02189670421,-0.0049740724
1.7,0.02157678338,-0.006163900157
1.71,0.02119107803,-0.007334061709
1.72,0.02074076661,-0.008480814352
1.73,0.02022724952,-0.009600485525
1.74,0.01965214482,-0.0106894867
1.75,0.01901728312,-0.01174432698
1.76,0.01832470148,-0.01276162642
1.77,0.01757663649,-0.01373812889
1.78,0.01677551641,-0.01467071451
1.79,0.01592395259,-0.01555641157
1.8,0.01502473003,-0.01639240785
1.81,0.01408079719,-0.01717606132
1.82,0.01309525519,-0.01790491016
1.83,0.01207134622,-0.01857668203
1.84,0.01101244148,-0.01918930259
1.85,0.009922028527,-0.01974090314
1.86,0.008803698107,-0.02022982747
1.87,0.00766113063,-0.02065463782
1.88,0.00649808225,-0.02101411985
1.89,0.005318370664,-0.02130728673
1.9,0.00412586069,-0.02153338231
1.91,0.002924449686,-0.02169188326
1.92,0.001718052888,-0.02178250023
1.93,0.0005105887246,-0.0218051781
1.94,-0.0006940358139,-0.02176009522
1.95,-0.001891939685,-0.02164766168
1.96,-0.003079282119,-0.02146851662
1.97,-0.004252276694,-0.02122352466
1.98,-0.005407205089,-0.0209137714
1.99,-0.006540430465,-0.02054055797
2,-0.007648410402,-0.02010539488
2.01,-0.008727709352,-0.0196099949
2.02,-0.009775010539,-0.0190562653
2.03,-0.01078712726,-0.01844629928
2.04,-0.01176101356,-0.01778236676
2.05,-0.0126937742,-0.01706690454
2.06,-0.01358267391,-0.01630250585
2.07,-0.01442514591,-0.01549190945
2.08,-0.0152187996,-0.01463798823
2.09,-0.0159614275,-0.01374373736
2.1,-0.0166510113,-0.01281226221
2.11,-0.01728572711,-0.01184676586
2.12,-0.01786394983,-0.01085053651
2.13,-0.01838425668,-0.009826934673
2.14,-0.01884542986,-0.008779380236
2.15,-0.01924645832,-0.007711339578
2.16,-0.01958653877,-0.006626312641
2.17,-0.01986507572,-0.00552782011
2.18,-0.02008168085,-0.00441939073
2.19,-0.02023617143,-0.00330454882
2.2,-0.0203285681,-0.002186802025
2.21,-0.02035909178,-0.001069629376
2.22,-0.02032815998,4.353031721E-05
2.23,-0.02023638234,0.001149289674
2.24,-0.02008455553,0.002244323536
2.25,-0.01987365764,0.003325379285
2.26,-0.01960484185,0.004389286664
2.27,-0.01927942972,0.005432967072
2.28,-0.01889890393,0.006453442303
2.29,-0.01846490062,0.007447842702
2.3,-0.0179792013,0.00841341473
2.31,-0.01744372448,0.009347527919
2.32,-0.01686051698,0.0102476812
2.33,-0.01623174502,0.01111150859
2.34,-0.01555968509,0.0119367843
2.35,-0.01484671467,0.01272142713
2.36,-0.01409530291,0.01346350429
2.37,-0.01330800113,0.01416123459
2.38,-0.01248743343,0.014812991
2.39,-0.01163628725,0.01541730266
2.4,-0.010757304,0.01597285621
2.41,-0.009853269817,0.01647849669
2.42,-0.008927006419,0.01693322775
2.43,-0.007981362157,0.01733621146
2.44,-0.007019203236,0.01768676756
2.45,-0.006043405166,0.01798437225
2.46,-0.005056844458,0.01822865653
2.47,-0.004062390579,0.01841940414
2.48,-0.003062898199,0.0185565491
2.49,-0.002061199724,0.01864017292
2.5,-0.00106009815,0.01867050142
2.51,-6.236023239E-05,0.01864790131
2.52,0.0009292900156,0.0185728765
2.53,0.001912177494,0.0184460641
2.54,0.002883681848,0.01826823033
2.55,0.003841242974,0.0180402661
2.56,0.004782366185,0.01776318256
2.57,0.005704627052,0.01743810644
2.58,0.006605675923,0.01706627529
2.59,0.007483242134,0.01664903265
2.6,0.008335137901,0.01618782314
2.61,0.009159261935,0.01568418753
2.62,0.009953602762,0.01513975768
2.63,0.01071624177,0.0145562516
2.64,0.01144535603,0.01393546839
2.65,0.0121392208,0.01327928325
2.66,0.01279621188,0.01258964245
2.67,0.01341480773,0.01186855839
2.68,0.01399359131,0.01111810463
2.69,0.01453125184,0.01034041094
2.7,0.0150265863,0.009537658478
2.71,0.01547850079,0.008712074858
2.72,0.01588601174,0.007865929372
2.73,0.01624824695,0.007001528179
2.74,0.01656444653,0.006121209534
2.75,0.01683396366,0.00522733904
2.76,0.01705626524,0.004322304923
2.77,0.01723093243,0.003408513308
2.78,0.01735766111,0.002488383507
2.79,0.01743626209,0.001564343309
2.8,0.01746666138,0.0006388242552
2.81,0.0174489002,-0.0002857430906
2.82,0.01738313492,-0.001206933896
2.83,0.01726963692,-0.002122333833
2.84,0.01710879223,-0.003029543886
2.85,0.01690110109,-0.003926185188
2.86,0.01664717738,-0.004809903893
2.87,0.0163477478,-0.005678376085
2.88,0.01600365103,-0.006529312731
2.89,0.01561583657,-0.00736046466
2.9,0.01518536349,-0.008169627589
2.91,0.01471339896,-0.008954647173
2.92,0.01420121652,-0.00971342408
2.93,0.0136501942,-0.01044391909
2.94,0.01306181235,-0.0111441582
2.95,0.01243765127,-0.01181223773
2.96,0.01177938854,-0.01244632941
2.97,0.01108879607,-0.01304468547
2.98,0.01036773698,-0.01360564362
2.99,0.009618162028,-0.01412763206
3,0.008842105875,-0.01460917435
3.01,0.008041682999,-0.01504889422
3.02,0.007219083302,-0.01544552019
3.03,0.006376567419,-0.01579789019
3.04,0.005516461718,-0.01610495585
3.05,0.004641152984,-0.01636578673
3.06,0.003753082804,-0.01657957428
3.07,0.002854741652,-0.01674563558
3.08,0.001948662679,-0.01686341681
3.09,0.001037415218,-0.01693249642
3.1,0.0001235980188,-0.01695258802
3.11,-0.0007901677725,-0.01692354294
3.12,-0.00170124588,-0.01684535234
3.13,-0.002606992381,-0.01671814906
3.14,-0.0035047634,-0.01654220898
3.15,-0.004391922967,-0.01631795195
3.16,-0.005265851043,-0.01604594233
3.17,-0.006123951663,-0.01572688902
3.18,-0.006963661177,-0.01536164501
3.19,-0.007782456558,-0.01495120641
3.2,-0.008577863741,-0.01449671107
3.21,-0.009347465964,-0.01399943653
3.22,-0.01008891207,-0.01346079759
3.23,-0.01079992475,-0.01288234323
3.24,-0.01147830864,-0.0122657531
3.25,-0.01212195832,-0.01161283341
3.26,-0.01272886611,-0.01092551229
3.27,-0.01329712959,-0.01020583468
3.28,-0.01382495898,-0.009455956681
3.29,-0.0143106841,-0.008678139377
3.3,-0.01475276104,-0.007874742237
3.31,-0.01514977849,-0.007048215999
3.32,-0.01550046363,-0.006201095139
3.33,-0.01580368754,-0.00533598991
3.34,-0.01605847027,-0.004455578003
3.35,-0.01626398521,-0.003562595826
3.36,-0.01641956312,-0.002659829477
3.37,-0.01652469549,-0.001750105404
3.38,-0.01657903734,-0.0008362808189
3.39,-0.01658240944,7.876611422E-05
3.4,-0.0165347999,0.0009921462674
3.41,-0.01643636509,0.001900969673
3.42,-0.01628742998,0.002802355744
3.43,-0.01608848776,0.003693443538
3.44,-0.01584019883,0.004571402033
3.45,-0.01554338913,0.005433440352
3.46,-0.01519904777,0.006276817907
3.47,-0.01480832402,0.007098854405
3.48,-0.0143725237,0.007896939674
3.49,-0.01389310481,0.00866854326
3.5,-0.01337167267,0.009411223764
3.51,-0.01280997433,0.01012263785
3.52,-0.01220989248,0.01080054891
3.53,-0.01157343877,0.01144283533
3.54,-0.01090274657,0.0120474983
3.55,-0.01020006327,0.01261266917
3.56,-0.009467742051,0.01313661631
3.57,-0.00870823329,0.0136177514
3.58,-0.007924075494,0.01405463517
3.59,-0.007117885928,0.01444598253
3.6,-0.006292350896,0.01479066707
3.61,-0.005450215768,0.01508772499
3.62,-0.004594274758,0.01533635823
3.63,-0.003727360539,0.01553593708
3.64,-0.002852333705,0.01568600201
3.65,-0.001972072161,0.01578626485
3.66,-0.001089460456,0.01583660921
3.67,-0.0002073791416,0.01583709033
3.68,0.0006713058288,0.01578793411
3.69,0.001543753588,0.01568953552
3.7,0.002407158694,0.01554245631
3.71,0.003258761278,0.01534742209
3.72,0.004095856947,0.01510531875
3.73,0.004915806403,0.0148171882
3.74,0.005716044736,0.01448422361
3.75,0.006494090361,0.01410776402
3.76,0.007247553539,0.01368928834
3.77,0.007974144476,0.01323040898
3.78,0.008671680937,0.01273286486
3.79,0.009338095376,0.01219851405
3.8,0.009971441527,0.01162932597
3.81,0.01056990045,0.01102737321
3.82,0.01113178603,0.01039482308
3.83,0.01165554979,0.009733928768
3.84,0.01213978528,0.009047020375
3.85,0.01258323165,0.008336495634
3.86,0.01298477674,0.007604810549
3.87,0.01334345946,0.006854469882
3.88,0.01365847161,0.006088017584
3.89,0.013929159,0.005308027194
3.9,0.01415502201,0.004517092257
3.91,0.01433571546,0.003717816795
3.92,0.01447104796,0.002912805888
3.93,0.01456098056,0.002104656384
3.94,0.01460562498,0.001295947797
3.95,0.01460524109,0.0004892334132
3.96,0.01456023402,-0.0003129683492
3.97,0.01447115066,-0.001108182295
3.98,0.0143386757,-0.001893984497
3.99,0.01416362722,-0.002668009991
4,0.01394695185,-0.003427960109
4.01,0.01368971953,-0.004171609411
4.02,0.01339311784,-0.004896812212
4.03,0.01305844614,-0.005601508661
4.04,0.01268710924,-0.006283730388
4.05,0.01228061094,-0.006941605674
4.06,0.01184054724,-0.007573364157
4.07,0.01136859944,-0.00817734105
4.08,0.01086652701,-0.008751980882
4.09,0.01033616039,-0.009295840742
4.1,0.009779393617,-0.009807593037
4.11,0.009198177016,-0.01028602777
4.12,0.008594509751,-0.01073005431
4.13,0.007970432454,-0.01113870275
4.14,0.007328019864,-0.01151112473
4.15,0.006669373542,-0.01184659384
4.16,0.005996614682,-0.01214450557
4.17,0.005311877046,-0.0124043769
4.18,0.004617300044,-0.01262584534
4.19,0.003915021985,-0.01280866777
4.2,0.003207173527,-0.01295271872
4.21,0.002495871333,-0.01305798845
4.22,0.001783211955,-0.0131245806
4.23,0.001071265971,-0.01315270961
4.24,0.0003620723701,-0.01314269781
4.25,-0.0003423667816,-0.01309497224
4.26,-0.001040091405,-0.01301006132
4.27,-0.00172918818,-0.01288859117
4.28,-0.002407795027,-0.01273128185
4.29,-0.003074105287,-0.01253894342
4.3,-0.003726371614,-0.01231247179
4.31,-0.00436290956,-0.01205284453
4.32,-0.004982100866,-0.01176111654
4.33,-0.005582396457,-0.0114384156
4.34,-0.006162319154,-0.01108593799
4.35,-0.006720466094,-0.01070494389
4.36,-0.007255510881,-0.01029675294
4.37,-0.007766205458,-0.00986273962
4.38,-0.008251381731,-0.009404328805
4.39,-0.008709952936,-0.008922991203
4.4,-0.009140914766,-0.008420238915
4.41,-0.009543346268,-0.007897621006
4.42,-0.009916410531,-0.007356719144
4.43,-0.01025935516,-0.006799143301
4.44,-0.01057151254,-0.006226527529
4.45,-0.01085229997,-0.005640525811
4.46,-0.01110121956,-0.005042808004
4.47,-0.01131785802,-0.004435055862
4.48,-0.01150188624,-0.003818959154
4.49,-0.01165305884,-0.003196211872
4.5,-0.01177121343,-0.002568508531
4.51,-0.01185626993,-0.001937540562
4.52,-0.01190822964,-0.001304992799
4.53,-0.01192717428,-0.0006725400446
4.54,-0.0119132649,-4.184373819E-05
4.55,-0.01186674073,0.0005854513071
4.56,-0.01178791793,0.001207720079
4.57,-0.01167718825,0.001823360464
4.58,-0.01153501764,0.002430796279
4.59,-0.01136194476,0.003028480222
4.6,-0.01115857944,0.003614896769
4.61,-0.01092560107,0.004188565002
4.62,-0.01066375691,0.004748041381
4.63,-0.0103738603,0.005291922457
4.64,-0.01005678887,0.005818847538
4.65,-0.009713482622,0.006327501296
4.66,-0.00934494193,0.006816616332
4.67,-0.008952225506,0.007284975684
4.68,-0.008536448239,0.007731415294
4.69,-0.008098778971,0.008154826416
4.7,-0.007640438174,0.00855415798
4.71,-0.007162695535,0.008928418899
4.72,-0.00666686744,0.009276680317
4.73,-0.00615431436,0.009598077799
4.74,-0.005626438128,0.009891813449
4.75,-0.005084679103,0.01015715796
4.76,-0.004530513229,0.0103934526
4.77,-0.003965448973,0.01060011105
4.78,-0.003391024148,0.01077662126
4.79,-0.002808802616,0.01092254706
4.8,-0.00222037088,0.01103752981
4.81,-0.001627334543,0.01112128976
4.82,-0.001031314668,0.01117362745
4.83,-0.0004339440121,0.01119442482
4.84,0.0001631368494,0.01118364626
4.85,0.0007582834988,0.01114133945
4.86,0.001349851758,0.01106763601
4.87,0.001936201862,0.010962752
4.88,0.002515702718,0.01082698822
4.89,0.003086736242,0.01066073022
4.9,0.003647701759,0.01046444823
4.91,0.00419702046,0.01023869668
4.92,0.004733139899,0.009984113673
4.93,0.005254538522,0.009701420046
4.94,0.0057597302,0.009391418267
4.95,0.006247268774,0.009054991038
4.96,0.006715752563,0.008693099634
4.97,0.007163828854,0.00830678197
4.98,0.007590198321,0.007897150393
4.99,0.007993619383,0.007465389191
5,0.008372912461,0.007012751832
5.01,0.008726964125,0.006540557918
5.02,0.009054731111,0.006050189872
5.03,0.009355244185,0.005543089353
5.04,0.009627611826,0.005020753403
5.05,0.009871023734,0.00448473034
5.06,0.01008475411,0.003936615412
5.07,0.0102681647,0.003378046197
5.08,0.01042070761,0.002810697798
5.09,0.01054192786,0.002236277813
5.1,0.01063146559,0.001656521116
5.11,0.01068905804,0.001073184463
5.12,0.01071454118,0.0004880409372
5.13,0.01070785098,-9.712575318E-05
5.14,0.0106690244,-0.0006805270831
5.15,0.0105982,-0.001260375625
5.16,0.01049561813,-0.00183489103
5.17,0.01036162083,-0.002402306066
5.18,0.01019665132,-0.002960872671
5.19,0.01000125308,-0.003508868012
5.2,0.009776068571,-0.004044600514
5.21,0.009521837584,-0.004566415834
5.22,0.009239395167,-0.005072702757
5.23,0.008929669193,-0.005561898984
5.24,0.008593677547,-0.006032496783
5.25,0.008232524942,-0.006483048484
5.26,0.007847399373,-0.006912171781
5.27,0.007439568229,-0.007318554832
5.28,0.00701037406,-0.007700961113
5.29,0.006561230032,-0.00805823401
5.3,0.006093615069,-0.00838930114
5.31,0.005609068718,-0.00869317835
5.32,0.005109185745,-0.008968973401
5.33,0.004595610489,-0.009215889307
5.34,0.004070030994,-0.009433227304
5.35,0.003534172949,-0.009620389449
5.36,0.002989793456,-0.009776880823
5.37,0.002438674658,-0.00990231133
5.38,0.001882617248,-0.009996397087
5.39,0.001323433899,-0.01005896138
5.4,0.0007629426258,-0.01008993521
5.41,0.0002029601337,-0.01008935739
5.42,-0.0003547048435,-0.01005737421
5.43,-0.000908258166,-0.009994238684
5.44,-0.001455926849,-0.00990030936
5.45,-0.001995965535,-0.009776048684
5.46,-0.00252666284,-0.009622020981
5.47,-0.003046347553,-0.009438889998
5.48,-0.003553394657,-0.009227416066
5.49,-0.004046231147,-0.008988452871
5.5,-0.004523341612,-0.008722943857
5.51,-0.004983273565,-0.008431918279
5.52,-0.005424642495,-0.008116486918
5.53,-0.005846136613,-0.007777837492
5.54,-0.006246521281,-0.007417229767
5.55,-0.006624643099,-0.007035990414
5.56,-0.006979433634,-0.006635507608
5.57,-0.007309912776,-0.006217225428
5.58,-0.007615191711,-0.005782638055
5.59,-0.007894475498,-0.005333283816
5.6,-0.008147065238,-0.004870739094
5.61,-0.008372359833,-0.00439661213
5.62,-0.008569857327,-0.003912536757
5.63,-0.008739155832,-0.003420166085
5.64,-0.008879954027,-0.002921166167
5.65,-0.00899205125,-0.002417209685
5.66,-0.009075347168,-0.001909969674
5.67,-0.009129841044,-0.001401113313
5.68,-0.009155630604,-0.0008922958234
5.69,-0.009152910513,-0.0003851544821
5.7,-0.00912197048,0.0001186972079
5.71,-0.009063192993,0.0006176751753
5.72,-0.00897705071,0.001110230237
5.73,-0.008864103522,0.001594853335
5.74,-0.008724995294,0.002070080529
5.75,-0.008560450326,0.002534497734
5.76,-0.008371269538,0.00298674517
5.77,-0.008158326402,0.003425521527
5.78,-0.007922562657,0.003849587813
5.79,-0.007664983812,0.00425777089
5.8,-0.007386654483,0.004648966675
5.81,-0.007088693567,0.005022143
5.82,-0.006772269299,0.005376342131
5.83,-0.006438594196,0.005710682939
5.84,-0.006088919936,0.006024362711
5.85,-0.005724532181,0.006316658617
5.86,-0.005346745372,0.006586928821
5.87,-0.004956897529,0.006834613246
5.88,-0.00455634507,0.007059233995
5.89,-0.004146457674,0.007260395438
5.9,-0.003728613217,0.007437783964
5.91,-0.003304192799,0.007591167425
5.92,-0.002874575875,0.007720394264
5.93,-0.002441135524,0.007825392356
5.94,-0.002005233857,0.007906167562
5.95,-0.001568217601,0.007962802022
5.96,-0.001131413852,0.007995452198
5.97,-0.0006961260292,0.008004346683
5.98,-0.0002636300311,0.007989783796
5.99,0.000164829389,0.007952128982
6,0.0005880420218,0.007891812029
