"Freq [GHz]","re(S(Tx_p1,Tx_p1)) []","im(S(Tx_p1,Tx_p1)) []"
1,-0.02143709644,-0.1052069199
1.01,-0.02513572787,-0.1042742542
1.02,-0.02880905688,-0.1032074273
1.03,-0.03245144945,-0.1020068246
1.04,-0.036057303,-0.1006730984
1.05,-0.03962105747,-0.09920716318
1.06,-0.04313720605,-0.09761018981
1.07,-0.04660030536,-0.0958835999
1.08,-0.05000498527,-0.09402905977
1.09,-0.05334595832,-0.09204847429
1.1,-0.05661802865,-0.08994398057
1.11,-0.05981610061,-0.08771794146
1.12,-0.0629351869,-0.085372939
1.13,-0.0659704164,-0.08291176763
1.14,-0.06891704155,-0.08033742742
1.15,-0.07177044545,-0.07765311711
1.16,-0.07452614855,-0.07486222718
1.17,-0.07717981501,-0.07196833274
1.18,-0.07972725878,-0.06897518645
1.19,-0.08216444928,-0.06588671133
1.2,-0.0844875169,-0.06270699364
1.21,-0.08669275807,-0.05944027556
1.22,-0.08877664016,-0.05609094802
1.23,-0.09073580606,-0.05266354335
1.24,-0.09256707852,-0.04916272806
1.25,-0.09426746423,-0.04559329548
1.26,-0.09583415767,-0.04196015846
1.27,-0.09726454475,-0.03826834204
1.28,-0.09855620619,-0.03452297607
1.29,-0.09970692073,-0.03072928788
1.3,-0.1007146681,-0.02689259485
1.31,-0.1015776319,-0.02301829708
1.32,-0.1022942019,-0.01911186988
1.33,-0.1028629769,-0.0151788564
1.34,-0.1032827666,-0.01122486009
1.35,-0.1035525936,-0.007255537225
1.36,-0.1036716957,-0.003276589346
1.37,-0.1036395269,0.0007062443272
1.38,-0.1034557595,0.004687194529
1.39,-0.1031202849,0.008660469626
1.4,-0.1026332152,0.01262026335
1.41,-0.1019948835,0.01656076259
1.42,-0.1012058452,0.02047615524
1.43,-0.1002668783,0.02436063807
1.44,-0.09917898336,0.02820842475
1.45,-0.09794338426,0.03201375383
1.46,-0.09656152748,0.03577089686
1.47,-0.09503508198,0.03947416653
1.48,-0.09336593854,0.04311792488
1.49,-0.0915562089,0.04669659158
1.5,-0.08960822461,0.05020465226
1.51,-0.08752453564,0.05363666686
1.52,-0.08530790869,0.05698727807
1.53,-0.08296132521,0.06025121978
1.54,-0.08048797911,0.06342332558
1.55,-0.07789127417,0.06649853722
1.56,-0.07517482114,0.06947191315
1.57,-0.07234243443,0.07233863704
1.58,-0.06939812853,0.07509402627
1.59,-0.0663461141,0.07773354035
1.6,-0.06319079356,0.08025278942
1.61,-0.05993675651,0.08264754255
1.62,-0.05658877458,0.08491373602
1.63,-0.05315179604,0.08704748156
1.64,-0.04963093993,0.08904507439
1.65,-0.04603148986,0.09090300113
1.66,-0.04235888739,0.09261794764
1.67,-0.03861872502,0.09418680657
1.68,-0.03481673875,0.09560668481
1.69,-0.03095880033,0.09687491063
1.7,-0.02705090902,0.09798904066
1.71,-0.02309918304,0.09894686653
1.72,-0.0191098506,0.09974642125
1.73,-0.01508924055,0.1003859853
1.74,-0.0110437727,0.1008640922
1.75,-0.006979947744,0.1011795342
1.76,-0.00290433689,0.1013313669
1.77,0.001176428883,0.1013189139
1.78,0.005255669853,0.101141771
1.79,0.009326668886,0.1007998098
1.8,0.01338268304,0.1002931811
1.81,0.01741695544,0.09962231713
1.82,0.02142272733,0.09878793408
1.83,0.02539325043,0.09779103366
1.84,0.02932179938,0.09663290415
1.85,0.0332016844,0.0953151209
1.86,0.03702626409,0.09383954626
1.87,0.04078895822,0.09220832891
1.88,0.04448326079,0.09042390256
1.89,0.04810275292,0.08848898401
1.9,0.05164111588,0.08640657067
1.91,0.05509214405,0.08417993733
1.92,0.05844975782,0.08181263234
1.93,0.06170801643,0.07930847318
1.94,0.06486113058,0.07667154132
1.95,0.06790347503,0.07390617648
1.96,0.07082960085,0.07101697022
1.97,0.07363424755,0.06800875895
1.98,0.07631235486,0.06488661623
1.99,0.07885907423,0.06165584452
2,0.08126978003,0.0583219663
2.01,0.08354008029,0.0548907146
2.02,0.08566582712,0.05136802296
2.03,0.0876431266,0.04776001482
2.04,0.08946834828,0.04407299242
2.05,0.09113813409,0.04031342508
2.06,0.09264940679,0.03648793713
2.07,0.0939993778,0.03260329528
2.08,0.09518555446,0.02866639557
2.09,0.09620574668,0.02468424997
2.1,0.09705807288,0.0206639725
2.11,0.09774096538,0.01661276514
2.12,0.09825317499,0.01253790333
2.13,0.09859377497,0.008446721248
2.14,0.09876216423,0.004346596831
2.15,0.09875806978,0.0002449366376
2.16,0.09858154848,-0.003850839482
2.17,0.09823298797,-0.007933313821
2.18,0.09771310689,-0.01199508632
2.19,0.09702295426,-0.0160287901
2.2,0.09616390815,-0.02002710703
2.21,0.0951376735,-0.02398278317
2.22,0.09394627923,-0.02788864418
2.23,0.09259207455,-0.03173761062
2.24,0.09107772446,-0.03552271297
2.25,0.08940620458,-0.03923710654
2.26,0.08758079512,-0.04287408608
2.27,0.08560507426,-0.04642710009
2.28,0.08348291066,-0.04988976478
2.29,0.08121845535,-0.05325587772
2.3,0.078816133,-0.05651943095
2.31,0.07628063235,-0.05967462381
2.32,0.07361689622,-0.0627158751
2.33,0.07083011078,-0.0656378349
2.34,0.06792569426,-0.06843539568
2.35,0.06490928514,-0.07110370296
2.36,0.06178672986,-0.07363816525
2.37,0.05856406992,-0.07603446347
2.38,0.0552475287,-0.07828855957
2.39,0.05184349775,-0.0803967046
2.4,0.04835852273,-0.08235544601
2.41,0.04479928907,-0.0841616342
2.42,0.04117260729,-0.08581242839
2.43,0.03748539802,-0.08730530172
2.44,0.03374467696,-0.08863804558
2.45,0.02995753948,-0.08980877315
2.46,0.02613114524,-0.09081592218
2.47,0.02227270262,-0.091658257
2.48,0.01838945321,-0.09233486974
2.49,0.01448865618,-0.09284518072
2.5,0.01057757278,-0.09318893812
2.51,0.006663450901,-0.09336621686
2.52,0.002753509707,-0.09337741665
2.53,-0.00114507549,-0.09322325941
2.54,-0.005025188205,-0.09290478583
2.55,-0.008879785506,-0.09242335121
2.56,-0.01270191245,-0.09178062068
2.57,-0.01648471619,-0.09097856361
2.58,-0.0202214598,-0.09001944743
2.59,-0.0239055356,-0.08890583075
2.6,-0.02753047819,-0.08764055587
2.61,-0.03108997692,-0.08622674071
2.62,-0.03457788798,-0.08466777011
2.63,-0.03798824593,-0.08296728667
2.64,-0.04131527472,-0.08112918098
2.65,-0.04455339815,-0.07915758149
2.66,-0.04769724973,-0.07705684377
2.67,-0.05074168205,-0.07483153954
2.68,-0.0536817754,-0.07248644516
2.69,-0.05651284583,-0.07002652988
2.7,-0.05923045262,-0.06745694373
2.71,-0.061830405,-0.06478300518
2.72,-0.06430876829,-0.06201018848
2.73,-0.06666186933,-0.05914411093
2.74,-0.06888630127,-0.05619051986
2.75,-0.07097892765,-0.0531552796
2.76,-0.07293688589,-0.05004435825
2.77,-0.07475758998,-0.04686381448
2.78,-0.07643873261,-0.04361978431
2.79,-0.07797828665,-0.04031846784
2.8,-0.07937450584,-0.0369661161
2.81,-0.08062592502,-0.03356901799
2.82,-0.0817313596,-0.03013348727
2.83,-0.08268990446,-0.02666584979
2.84,-0.08350093224,-0.02317243083
2.85,-0.08416409105,-0.01965954269
2.86,-0.08467930163,-0.01613347251
2.87,-0.08504675389,-0.01260047034
2.88,-0.08526690301,-0.009066737543
2.89,-0.08534046498,-0.005538415448
2.9,-0.08526841169,-0.002021574397
2.91,-0.08505196553,0.001477796883
2.92,-0.08469259355,0.00495380152
2.93,-0.08419200127,0.008400644349
2.94,-0.08355212603,0.01181264136
2.95,-0.08277513004,0.0151842287
2.96,-0.08186339306,0.01850997129
2.97,-0.08081950484,0.02178457094
2.98,-0.07964625716,0.02500287406
2.99,-0.07834663579,0.02815987887
3,-0.07692381207,0.03125074219
3.01,-0.07538113443,0.03427078571
3.02,-0.07372211964,0.03721550185
3.03,-0.07195044395,0.04008055907
3.04,-0.07006993419,0.04286180682
3.05,-0.06808455864,0.04555527989
3.06,-0.06599841797,0.04815720242
3.07,-0.06381573608,0.0506639914
3.08,-0.0615408509,0.05307225967
3.09,-0.05917820523,0.05537881859
3.1,-0.05673233765,0.05758068018
3.11,-0.05420787339,0.05967505888
3.12,-0.0516095153,0.06165937289
3.13,-0.04894203495,0.06353124511
3.14,-0.04621026382,0.06528850371
3.15,-0.04341908452,0.06692918226
3.16,-0.04057342229,0.06845151963
3.17,-0.03767823655,0.06985395941
3.18,-0.03473851263,0.07113514905
3.19,-0.03175925372,0.07229393875
3.2,-0.02874547291,0.07332937996
3.21,-0.02570218556,0.07424072365
3.22,-0.02263440171,0.07502741828
3.23,-0.01954711884,0.07568910758
3.24,-0.01644531475,0.07622562804
3.25,-0.01333394069,0.07663700619
3.26,-0.01021791474,0.07692345574
3.27,-0.007102115328,0.07708537442
3.28,-0.003991375083,0.07712334079
3.29,-0.00089047481,0.07703811078
3.3,0.002195862249,0.07683061411
3.31,0.005262975956,0.07650195067
3.32,0.008306274595,0.07605338666
3.33,0.01132123998,0.07548635073
3.34,0.01430343234,0.07480242992
3.35,0.017248495,0.07400336569
3.36,0.02015215889,0.07309104966
3.37,0.0230102468,0.07206751951
3.38,0.02581867747,0.07093495466
3.39,0.02857346954,0.069695672
3.4,0.03127074526,0.06835212155
3.41,0.03390673405,0.06690688211
3.42,0.03647777588,0.06536265686
3.43,0.03898032458,0.06372226895
3.44,0.04141095084,0.06198865711
3.45,0.04376634522,0.06016487115
3.46,0.04604332093,0.05825406759
3.47,0.04823881652,0.05625950515
3.48,0.05034989844,0.05418454031
3.49,0.05237376346,0.05203262281
3.5,0.05430774101,0.04980729122
3.51,0.05614929537,0.0475121684
3.52,0.05789602781,0.04515095702
3.53,0.05954567859,0.04272743505
3.54,0.06109612887,0.04024545122
3.55,0.06254540253,0.03770892047
3.56,0.06389166792,0.03512181939
3.57,0.06513323948,0.03248818161
3.58,0.06626857932,0.02981209319
3.59,0.06729629866,0.02709768795
3.6,0.06821515922,0.02434914281
3.61,0.06902407452,0.02157067302
3.62,0.06972211106,0.0187665274
3.63,0.07030848945,0.01594098353
3.64,0.0707825854,0.01309834287
3.65,0.07114393065,0.01024292584
3.66,0.07139221375,0.007379066847
3.67,0.07152728081,0.00451110922
3.68,0.07154913603,0.001643400146
3.69,0.07145794221,-0.001219714508
3.7,0.07125402108,-0.004073895412
3.71,0.0709378535,-0.006914815063
3.72,0.07051007956,-0.009738163127
3.73,0.06997149848,-0.01253965186
3.74,0.06932306839,-0.01531502156
3.75,0.06856590596,-0.01806004613
3.76,0.0677012858,-0.02077053863
3.77,0.06673063976,-0.02344235694
3.78,0.06565555601,-0.02607140943
3.79,0.0644777779,-0.02865366069
3.8,0.06319920264,-0.03118513729
3.81,0.06182187981,-0.03366193361
3.82,0.06034800957,-0.03608021759
3.83,0.05877994074,-0.03843623663
3.84,0.05712016853,-0.04072632335
3.85,0.05537133218,-0.0429469015
3.86,0.05353621222,-0.04509449168
3.87,0.05161772756,-0.04716571722
3.88,0.04961893231,-0.04915730986
3.89,0.04754301232,-0.05106611545
3.9,0.04539328145,-0.0528890996
3.91,0.04317317768,-0.05462335322
3.92,0.04088625875,-0.056266098
3.93,0.03853619775,-0.0578146917
3.94,0.03612677831,-0.05926663343
3.95,0.03366188954,-0.06061956873
3.96,0.03114552074,-0.0618712945
3.97,0.02858175582,-0.06301976375
3.98,0.02597476745,-0.06406309022
3.99,0.02332881103,-0.06499955271
4,0.02064821827,-0.06582759932
4.01,0.0179373907,-0.06654585129
4.02,0.01520079276,-0.06715310676
4.03,0.01244294487,-0.06764834414
4.04,0.009668416104,-0.0680307253
4.05,0.006881816743,-0.06829959837
4.06,0.004087790657,-0.06845450031
4.07,0.001291007457,-0.06849515912
4.08,-0.001503845488,-0.06842149575
4.09,-0.004292071189,-0.06823362559
4.1,-0.007068971311,-0.06793185972
4.11,-0.009829854563,-0.06751670565
4.12,-0.01257004518,-0.06698886782
4.13,-0.01528489148,-0.06634924761
4.14,-0.01796977452,-0.06559894299
4.15,-0.02062011674,-0.0647392478
4.16,-0.02323139066,-0.06377165056
4.17,-0.02579912754,-0.06269783292
4.18,-0.02831892611,-0.06151966764
4.19,-0.03078646112,-0.06023921622
4.2,-0.03319749195,-0.05885872607
4.21,-0.03554787104,-0.05738062722
4.22,-0.03783355227,-0.05580752871
4.23,-0.04005059918,-0.0541422145
4.24,-0.04219519301,-0.05238763895
4.25,-0.04426364064,-0.05054692195
4.26,-0.04625238222,-0.04862334364
4.27,-0.04815799869,-0.0466203387
4.28,-0.04997721894,-0.04454149031
4.29,-0.05170692683,-0.04239052371
4.3,-0.0533441678,-0.04017129939
4.31,-0.05488615527,-0.03788780601
4.32,-0.05633027665,-0.03554415289
4.33,-0.05767409905,-0.03314456226
4.34,-0.05891537461,-0.03069336117
4.35,-0.06005204542,-0.02819497317
4.36,-0.0610822481,-0.02565390966
4.37,-0.06200431793,-0.02307476107
4.38,-0.06281679259,-0.02046218781
4.39,-0.06351841541,-0.01782091096
4.4,-0.06410813822,-0.01515570286
4.41,-0.06458512374,-0.01247137753
4.42,-0.06494874745,-0.009772780936
4.43,-0.06519859908,-0.0070647812
4.44,-0.06533448348,-0.004352258676
4.45,-0.06535642119,-0.001640096028
4.46,-0.06526464833,0.001066831753
4.47,-0.06505961613,0.003763667314
4.48,-0.06474198993,0.006445580889
4.49,-0.06431264765,0.009107780194
4.5,-0.06377267786,0.01174552024
4.51,-0.06312337729,0.01435411305
4.52,-0.06236624788,0.01692893723
4.53,-0.06150299339,0.01946544744
4.54,-0.06053551553,0.02195918358
4.55,-0.05946590959,0.0244057799
4.56,-0.05829645976,0.02680097377
4.57,-0.05702963383,0.0291406143
4.58,-0.05566807769,0.03142067058
4.59,-0.05421460923,0.03363723974
4.6,-0.05267221202,0.0357865546
4.61,-0.05104402852,0.03786499104
4.62,-0.04933335299,0.03986907501
4.63,-0.04754362403,0.04179548915
4.64,-0.04567841693,0.04364107902
4.65,-0.04374143553,0.04540285898
4.66,-0.04173650404,0.0470780176
4.67,-0.03966755847,0.04866392264
4.68,-0.03753863789,0.05015812564
4.69,-0.0353538755,0.05155836601
4.7,-0.03311748955,0.05286257469
4.71,-0.03083377405,0.05406887735
4.72,-0.02850708946,0.05517559708
4.73,-0.02614185321,0.05618125667
4.74,-0.02374253019,0.05708458031
4.75,-0.02131362316,0.05788449498
4.76,-0.01885966321,0.05858013115
4.77,-0.01638520018,0.05917082318
4.78,-0.0138947931,0.05965610918
4.79,-0.01139300076,0.06003573036
4.8,-0.0088843723,0.06030962998
4.81,-0.006373437913,0.06047795184
4.82,-0.003864699722,0.06054103827
4.83,-0.001362622769,0.06049942776
4.84,0.001128373799,0.06035385206
4.85,0.003603925355,0.06010523302
4.86,0.006059730195,0.05975467883
4.87,0.008491557704,0.05930348007
4.88,0.01089525627,0.05875310528
4.89,0.01326676091,0.05810519614
4.9,0.01560210064,0.05736156247
4.91,0.01789740549,0.05652417673
4.92,0.02014891325,0.05559516834
4.93,0.02235297584,0.05457681768
4.94,0.02450606538,0.05347154981
4.95,0.02660477985,0.05228192799
4.96,0.02864584845,0.05101064697
4.97,0.03062613654,0.04966052605
4.98,0.03254265019,0.04823450201
4.99,0.03439254043,0.04673562182
5,0.036173107,0.04516703532
5.01,0.0378818018,0.0435319877
5.02,0.03951623189,0.04183381188
5.03,0.0410741621,0.04007592093
5.04,0.04255351731,0.03826180033
5.05,0.04395238427,0.03639500023
5.06,0.04526901303,0.03447912777
5.07,0.04650181808,0.03251783934
5.08,0.04764937897,0.03051483289
5.09,0.04871044071,0.02847384034
5.1,0.04968391368,0.02639861998
5.11,0.05056887329,0.02429294905
5.12,0.05136455919,0.02216061636
5.13,0.05207037425,0.02000541507
5.14,0.05268588315,0.01783113559
5.15,0.05321081069,0.01564155866
5.16,0.05364503975,0.01344044855
5.17,0.05398860906,0.0112315465
5.18,0.05424171059,0.00901856428
5.19,0.05440468677,0.006805178057
5.2,0.05447802743,0.004595022364
5.21,0.05446236646,0.002391684358
5.22,0.05435847837,0.0001986982944
5.23,0.05416727459,-0.001980459769
5.24,0.05388979952,-0.00414237702
5.25,0.05352722658,-0.006283708693
5.26,0.05308085393,-0.008401182617
5.27,0.05255210018,-0.01049160351
5.28,0.05194249992,-0.01255185703
5.29,0.05125369918,-0.01457891352
5.3,0.05048745076,-0.01656983158
5.31,0.04964560952,-0.0185217613
5.32,0.0487301276,-0.02043194728
5.33,0.04774304956,-0.0222977314
5.34,0.04668650757,-0.0241165553
5.35,0.04556271649,-0.02588596268
5.36,0.04437396897,-0.02760360131
5.37,0.0431226306,-0.0292672248
5.38,0.04181113501,-0.0308746942
5.39,0.04044197906,-0.0324239793
5.4,0.03901771797,-0.03391315977
5.41,0.03754096063,-0.03534042605
5.42,0.03601436486,-0.0367040801
5.43,0.03444063275,-0.03800253588
5.44,0.03282250612,-0.03923431971
5.45,0.031162762,-0.04039807043
5.46,0.02946420821,-0.04149253937
5.47,0.02772967905,-0.04251659021
5.48,0.02596203105,-0.04346919865
5.49,0.02416413884,-0.04434945195
5.5,0.02233889108,-0.04515654839
5.51,0.02048918657,-0.04588979651
5.52,0.01861793033,-0.0465486143
5.53,0.01672802993,-0.04713252831
5.54,0.01482239185,-0.04764117258
5.55,0.0129039179,-0.04807428756
5.56,0.01097550185,-0.04843171892
5.57,0.009040026072,-0.04871341627
5.58,0.007100358306,-0.04891943182
5.59,0.005159348563,-0.04904991901
5.6,0.003219826064,-0.04910513106
5.61,0.001284596308,-0.04908541946
5.62,-0.0006435617808,-0.04899123244
5.63,-0.002561898625,-0.04882311341
5.64,-0.004467696676,-0.04858169931
5.65,-0.006358273022,-0.04826771902
5.66,-0.008230981928,-0.04788199164
5.67,-0.01008321729,-0.04742542486
5.68,-0.01191241505,-0.04689901316
5.69,-0.01371605552,-0.04630383617
5.7,-0.01549166565,-0.04564105682
5.71,-0.01723682131,-0.04491191965
5.72,-0.01894914939,-0.04411774897
5.73,-0.02062633,-0.04325994703
5.74,-0.02226609851,-0.04233999226
5.75,-0.02386624765,-0.04135943733
5.76,-0.02542462947,-0.04031990734
5.77,-0.02693915739,-0.0392230979
5.78,-0.02840780807,-0.03807077318
5.79,-0.02982862341,-0.03686476401
5.8,-0.03119971241,-0.03560696584
5.81,-0.03251925303,-0.03429933675
5.82,-0.03378549407,-0.03294389537
5.83,-0.03499675696,-0.03154271881
5.84,-0.03615143756,-0.03009794049
5.85,-0.03724800795,-0.02861174798
5.86,-0.03828501818,-0.02708638071
5.87,-0.03926109795,-0.02552412771
5.88,-0.04017495833,-0.02392732525
5.89,-0.04102539341,-0.02229835442
5.9,-0.04181128192,-0.02063963862
5.91,-0.0425315888,-0.01895364106
5.92,-0.04318536678,-0.01724286211
5.93,-0.04377175785,-0.01550983661
5.94,-0.04428999468,-0.0137571311
5.95,-0.04473940209,-0.01198734097
5.96,-0.0451193983,-0.01020308758
5.97,-0.04542949626,-0.008407015167
5.98,-0.04566930478,-0.006601787854
5.99,-0.04583852973,-0.00479008642
6,-0.04593697499,-0.002974605082
