"Freq [GHz]","re(S(Tx_p1,Tx_p1)) []","im(S(Tx_p1,Tx_p1)) []"
1,0.01394303762,-0.1626574509
1.01,0.009033450126,-0.1626366372
1.02,0.004117970546,-0.1624702424
1.03,-0.0007978420922,-0.1621574147
1.04,-0.005708447016,-0.1616975955
1.05,-0.01060833565,-0.1610905101
1.06,-0.01549204469,-0.1603361582
1.07,-0.02035416829,-0.1594348033
1.08,-0.0251893694,-0.1583869626
1.09,-0.02999239023,-0.1571933963
1.1,-0.03475806182,-0.1558550969
1.11,-0.03948131283,-0.1543732782
1.12,-0.0441571774,-0.1527493642
1.13,-0.04878080226,-0.1509849781
1.14,-0.05334745299,-0.1490819313
1.15,-0.05785251945,-0.1470422123
1.16,-0.06229152051,-0.1448679759
1.17,-0.06666010796,-0.1425615321
1.18,-0.07095406968,-0.1401253355
1.19,-0.07516933217,-0.1375619749
1.2,-0.07930196232,-0.1348741631
1.21,-0.0833481686,-0.132064727
1.22,-0.08730430153,-0.1291365975
1.23,-0.09116685368,-0.1260928006
1.24,-0.09493245902,-0.1229364482
1.25,-0.09859789182,-0.1196707299
1.26,-0.102160065,-0.116298904
1.27,-0.1056160281,-0.1128242905
1.28,-0.1089629647,-0.1092502637
1.29,-0.1121981899,-0.105580245
1.3,-0.1153191468,-0.1018176969
1.31,-0.1183234031,-0.09796611712
1.32,-0.1212086478,-0.09402903307
1.33,-0.1239726869,-0.09000999727
1.34,-0.1266134393,-0.08591258286
1.35,-0.1291289331,-0.08174037991
1.36,-0.1315173009,-0.07749699208
1.37,-0.1337767758,-0.07318603388
1.38,-0.1359056869,-0.06881112838
1.39,-0.1379024552,-0.06437590546
1.4,-0.1397655894,-0.05988400047
1.41,-0.1414936819,-0.05533905345
1.42,-0.1430854049,-0.05074470869
1.43,-0.1445395064,-0.04610461483
1.44,-0.1458548073,-0.04142242528
1.45,-0.1470301975,-0.03670179904
1.46,-0.1480646336,-0.03194640193
1.47,-0.1489571356,-0.0271599081
1.48,-0.1497067849,-0.02234600185
1.49,-0.1503127225,-0.01750837972
1.5,-0.1507741469,-0.01265075283
1.51,-0.1510903133,-0.007776849395
1.52,-0.1512605326,-0.002890417473
1.53,-0.1512841711,0.002004772231
1.54,-0.1511606504,0.006904923416
1.55,-0.1508894479,0.01180621118
1.56,-0.1504700979,0.01670477902
1.57,-0.1499021929,0.02159673577
1.58,-0.149185385,0.02647815273
1.59,-0.1483193887,0.03134506072
1.6,-0.1473039833,0.03619344736
1.61,-0.1461390159,0.04101925454
1.62,-0.1448244053,0.04581837599
1.63,-0.1433601453,0.05058665515
1.64,-0.1417463098,0.05531988331
1.65,-0.1399830566,0.06001379808
1.66,-0.1380706332,0.06466408207
1.67,-0.1360093817,0.06926636211
1.68,-0.1337997445,0.07381620876
1.69,-0.1314422701,0.07830913625
1.7,-0.1289376197,0.0827406029
1.71,-0.126286573,0.08710601199
1.72,-0.1234900352,0.09140071315
1.73,-0.1205490432,0.09562000424
1.74,-0.1174647728,0.09975913376
1.75,-0.1142385455,0.1038133038
1.76,-0.1108718349,0.1077776736
1.77,-0.1073662743,0.1116473635
1.78,-0.1037236629,0.11541746
1.79,-0.09994597296,0.1190830203
1.8,-0.09603535603,0.1226390789
1.81,-0.09199414959,0.1260806534
1.82,-0.08782488319,0.1294027516
1.83,-0.08353028437,0.1326003793
1.84,-0.0791132843,0.1356685481
1.85,-0.0745770231,0.1386022841
1.86,-0.06992485469,0.1413966371
1.87,-0.06516035135,0.1440466902
1.88,-0.06028730769,0.14654757
1.89,-0.05530974422,0.1488944572
1.9,-0.05023191031,0.1510825977
1.91,-0.04505828665,0.1531073139
1.92,-0.03979358701,0.1549640169
1.93,-0.0344427595,0.1566482181
1.94,-0.02901098703,0.1581555422
1.95,-0.02350368717,0.1594817401
1.96,-0.01792651125,0.160622701
1.97,-0.01228534274,0.1615744668
1.98,-0.006586294874,0.1623332444
1.99,-0.0008357074613,0.1628954198
2,0.004959857052,0.1632575712
2.01,0.01079361835,0.1634164829
2.02,0.01665858381,0.1633691583
2.03,0.02254755491,0.1631128335
2.04,0.02845313447,0.1626449909
2.05,0.03436773463,0.1619633713
2.06,0.0402835858,0.1610659878
2.07,0.04619274627,0.1599511375
2.08,0.05208711273,0.1586174142
2.09,0.05795843156,0.1570637199
2.1,0.0637983109,0.155289276
2.11,0.06959823343,0.1532936346
2.12,0.07534957,0.1510766886
2.13,0.08104359386,0.1486386812
2.14,0.08667149566,0.1459802152
2.15,0.09222439908,0.1431022616
2.16,0.09769337706,0.1400061669
2.17,0.1030694687,0.1366936601
2.18,0.1083436965,0.1331668591
2.19,0.1135070846,0.1294282757
2.2,0.1185506768,0.12548082
2.21,0.1234655555,0.1213278042
2.22,0.1282428608,0.1169729446
2.23,0.1328738102,0.1124203637
2.24,0.1373497182,0.1076745905
2.25,0.1416620162,0.1027405602
2.26,0.1458022728,0.09762361236
2.27,0.1497622141,0.09232948905
2.28,0.1535337436,0.08686433064
2.29,0.1571089632,0.08123467142
2.3,0.1604801928,0.07544743378
2.31,0.1636399905,0.0695099214
2.32,0.1665811728,0.0634298113
2.33,0.169296834,0.05721514483
2.34,0.1717803658,0.05087431765
2.35,0.1740254757,0.0444160685
2.36,0.1760262065,0.03784946711
2.37,0.1777769533,0.03118390087
2.38,0.1792724817,0.02442906071
2.39,0.1805079448,0.01759492577
2.4,0.1814788987,0.01069174731
2.41,0.1821813187,0.003730031557
2.42,0.182611614,-0.003279478291
2.43,0.1827666412,-0.0103258209
2.44,0.1826437177,-0.01739783651
2.45,0.1822406339,-0.02448418731
2.46,0.1815556641,-0.03157337869
2.47,0.1805875768,-0.03865378103
2.48,0.1793356439,-0.04571365223
2.49,0.1777996485,-0.05274116068
2.5,0.1759798921,-0.05972440892
2.51,0.1738772002,-0.0666514576
2.52,0.1714929267,-0.07351034991
2.53,0.1688289576,-0.08028913639
2.54,0.165887713,-0.08697589994
2.55,0.1626721479,-0.09355878107
2.56,0.1591857518,-0.1000260033
2.57,0.1554325474,-0.1063658987
2.58,0.1514170874,-0.1125669332
2.59,0.14714445,-0.1186177323
2.6,0.1426202341,-0.1245071061
2.61,0.137850552,-0.1302240748
2.62,0.1328420215,-0.1357578931
2.63,0.1276017566,-0.1410980751
2.64,0.1221373567,-0.1462344182
2.65,0.1164568954,-0.151157027
2.66,0.1105689068,-0.1558563365
2.67,0.1044823715,-0.1603231343
2.68,0.09820670167,-0.1645485829
2.69,0.09175172397,-0.1685242408
2.7,0.08512766233,-0.172242083
2.71,0.07834511929,-0.1756945203
2.72,0.0714150563,-0.1788744184
2.73,0.06434877319,-0.1817751156
2.74,0.05715788668,-0.1843904392
2.75,0.04985430796,-0.186714722
2.76,0.04245021957,-0.1887428162
2.77,0.03495805147,-0.1904701073
2.78,0.02739045638,-0.1918925266
2.79,0.01976028454,-0.1930065621
2.8,0.0120805579,-0.1938092685
2.81,0.004364443731,-0.194298276
2.82,-0.003374772127,-0.1944717973
2.83,-0.01112371245,-0.1943286343
2.84,-0.01886893609,-0.193868182
2.85,-0.0265969657,-0.1930904327
2.86,-0.03429431563,-0.1919959773
2.87,-0.0419475199,-0.1905860063
2.88,-0.0495431602,-0.1888623091
2.89,-0.05706789391,-0.1868272714
2.9,-0.06450848189,-0.1844838725
2.91,-0.07185181626,-0.1818356796
2.92,-0.07908494774,-0.1788868422
2.93,-0.08619511276,-0.1756420842
2.94,-0.09316976026,-0.1721066953
2.95,-0.09999657782,-0.1682865203
2.96,-0.1066635175,-0.1641879484
2.97,-0.1131588209,-0.1598178996
2.98,-0.1194710437,-0.1551838117
2.99,-0.1255890795,-0.1502936245
3,-0.1315021826,-0.1451557639
3.01,-0.1371999905,-0.1397791243
3.02,-0.142672545,-0.1341730507
3.03,-0.1479103124,-0.1283473187
3.04,-0.1529042032,-0.1223121144
3.05,-0.1576455904,-0.1160780135
3.06,-0.1621263265,-0.1096559584
3.07,-0.16633876,-0.103057236
3.08,-0.1702757501,-0.09629345375
3.09,-0.1739306807,-0.08937651541
3.1,-0.1772974729,-0.08231859609
3.11,-0.1803705966,-0.07513211684
3.12,-0.1831450801,-0.06782971867
3.13,-0.1856165194,-0.06042423617
3.14,-0.1877810854,-0.05292867089
3.15,-0.1896355303,-0.04535616424
3.16,-0.191177192,-0.03771997037
3.17,-0.1924039982,-0.03003342879
3.18,-0.1933144681,-0.02230993696
3.19,-0.1939077136,-0.01456292287
3.2,-0.1941834385,-0.006805817654
3.21,-0.1941419368,0.0009479716377
3.22,-0.1937840897,0.008685089079
3.23,-0.1931113611,0.01639225666
3.24,-0.1921257919,0.02405630075
3.25,-0.1908299929,0.03166417816
3.26,-0.1892271369,0.03920300178
3.27,-0.1873209494,0.0466600657
3.28,-0.1851156976,0.05402286974
3.29,-0.1826161792,0.0612791434
3.3,-0.1798277095,0.06841686907
3.31,-0.1767561073,0.07542430461
3.32,-0.1734076807,0.08229000504
3.33,-0.1697892107,0.08900284348
3.34,-0.1659079348,0.0955520312
3.35,-0.1617715292,0.1019271367
3.36,-0.1573880908,0.1081181041
3.37,-0.1527661176,0.1141152699
3.38,-0.147914489,0.1199093797
3.39,-0.1428424452,0.1254916031
3.4,-0.1375595664,0.1308535475
3.41,-0.1320757506,0.1359872715
3.42,-0.1264011916,0.1408852966
3.43,-0.1205463567,0.1455406178
3.44,-0.1145219636,0.1499467132
3.45,-0.1083389568,0.1540975525
3.46,-0.1020084849,0.1579876042
3.47,-0.09554187607,0.1616118416
3.48,-0.08895061483,0.1649657479
3.49,-0.08224631799,0.1680453198
3.5,-0.07544071086,0.17084707
3.51,-0.06854560343,0.1733680288
3.52,-0.0615728667,0.1756057444
3.53,-0.05453440917,0.1775582818
3.54,-0.04744215358,0.1792242213
3.55,-0.04030801385,0.180602655
3.56,-0.03314387251,0.1816931831
3.57,-0.0259615583,0.1824959086
3.58,-0.01877282442,0.1830114312
3.59,-0.01158932708,0.1832408402
3.6,-0.004422604673,0.1831857065
3.61,0.002715942492,0.1828480735
3.62,0.009815071903,0.1822304473
3.63,0.01686371787,0.1813357864
3.64,0.02385100986,0.1801674897
3.65,0.03076629018,0.1787293846
3.66,0.03759913085,0.1770257141
3.67,0.04433934973,0.1750611232
3.68,0.05097702587,0.1728406446
3.69,0.05750251402,0.1703696841
3.7,0.06390645828,0.1676540054
3.71,0.07017980494,0.1646997139
3.72,0.07631381443,0.1615132411
3.73,0.08230007237,0.1581013277
3.74,0.08813049977,0.154471007
3.75,0.09379736229,0.1506295872
3.76,0.09929327861,0.1465846347
3.77,0.1046112279,0.1423439561
3.78,0.1097445566,0.1379155806
3.79,0.1146869836,0.1333077422
3.8,0.1194326056,0.1285288618
3.81,0.1239759009,0.1235875297
3.82,0.128311732,0.1184924873
3.83,0.1324353485,0.1132526099
3.84,0.136342388,0.1078768888
3.85,0.1400288767,0.102374414
3.86,0.1434912295,0.09675435727
3.87,0.1467262483,0.09102595493
3.88,0.149731121,0.08519849132
3.89,0.1525034186,0.07928128252
3.9,0.1550410919,0.07328366034
3.91,0.1573424679,0.06721495678
3.92,0.1594062452,0.06108448882
3.93,0.161231489,0.0549015437
3.94,0.1628176252,0.04867536462
3.95,0.1641644342,0.04241513696
3.96,0.1652720443,0.03612997498
3.97,0.1661409246,0.02982890902
3.98,0.166771877,0.02352087325
3.99,0.1671660284,0.01721469398
4,0.1673248222,0.01091907851
4.01,0.1672500094,0.004642604508
4.02,0.1669436398,-0.001606289955
4.03,0.1664080527,-0.007819315874
4.04,0.1656458669,-0.01398834216
4.05,0.1646599713,-0.02010540393
4.06,0.1634535152,-0.02616271022
4.07,0.1620298976,-0.03215265109
4.08,0.1603927578,-0.03806780424
4.09,0.1585459646,-0.04390094097
4.1,0.1564936064,-0.04964503171
4.11,0.154239981,-0.05529325084
4.12,0.1517895852,-0.06083898118
4.13,0.1491471047,-0.06627581783
4.14,0.1463174039,-0.07159757155
4.15,0.1433055162,-0.07679827167
4.16,0.1401166341,-0.08187216854
4.17,0.1367560991,-0.08681373553
4.18,0.1332293926,-0.09161767056
4.19,0.1295421262,-0.09627889733
4.2,0.1257000329,-0.1007925661
4.21,0.1217089579,-0.105154054
4.22,0.1175748496,-0.1093589653
4.23,0.113303752,-0.113403131
4.24,0.1089017954,-0.1172826086
4.25,0.1043751893,-0.1209936809
4.26,0.09973021396,-0.1245328554
4.27,0.09497321365,-0.1278968625
4.28,0.09011058898,-0.1310826548
4.29,0.0851487902,-0.1340874048
4.3,0.08009431055,-0.1369085034
4.31,0.0749536799,-0.1395435581
4.32,0.06973345865,-0.1419903908
4.33,0.06444023195,-0.1442470357
4.34,0.05908060408,-0.1463117373
4.35,0.0536611932,-0.148182948
4.36,0.04818862619,-0.149859326
4.37,0.04266953389,-0.1513397328
4.38,0.03711054642,-0.1526232315
4.39,0.0315182888,-0.1537090837
4.4,0.0258993767,-0.1545967482
4.41,0.02026041242,-0.1552858781
4.42,0.01460798101,-0.1557763194
4.43,0.00894864658,-0.1560681083
4.44,0.003288948656,-0.1561614698
4.45,-0.002364601228,-0.1560568154
4.46,-0.008005522916,-0.1557547417
4.47,-0.0136273709,-0.1552560285
4.48,-0.01922373752,-0.1545616374
4.49,-0.02478825613,-0.1536727101
4.5,-0.03031460419,-0.1525905672
4.51,-0.03579650638,-0.1513167069
4.52,-0.0412277377,-0.1498528036
4.53,-0.04660212657,-0.1482007075
4.54,-0.05191355797,-0.1463624425
4.55,-0.05715597662,-0.1443402065
4.56,-0.06232339023,-0.1421363697
4.57,-0.06740987285,-0.1397534741
4.58,-0.07240956819,-0.137194233
4.59,-0.07731669323,-0.1344615301
4.6,-0.08212554176,-0.1315584187
4.61,-0.08683048814,-0.1284881216
4.62,-0.09142599117,-0.1252540301
4.63,-0.09590659809,-0.1218597034
4.64,-0.1002669488,-0.1183088681
4.65,-0.1045017799,-0.1146054175
4.66,-0.1086059296,-0.1107534107
4.67,-0.1125743419,-0.1067570721
4.68,-0.1164020716,-0.1026207899
4.69,-0.1200842892,-0.09834911592
4.7,-0.123616286,-0.09394676364
4.71,-0.1269934792,-0.08941860739
4.72,-0.1302114176,-0.08476968074
4.73,-0.1332657869,-0.08000517483
4.74,-0.1361524155,-0.07513043657
4.75,-0.1388672804,-0.07015096652
4.76,-0.1414065129,-0.06507241663
4.77,-0.1437664051,-0.05990058765
4.78,-0.1459434155,-0.05464142632
4.79,-0.1479341758,-0.04930102225
4.8,-0.1497354969,-0.04388560449
4.81,-0.1513443752,-0.03840153785
4.82,-0.1527579993,-0.0328553188
4.83,-0.1539737565,-0.02725357111
4.84,-0.1549892386,-0.02160304109
4.85,-0.1558022493,-0.01591059253
4.86,-0.1564108095,-0.0101832012
4.87,-0.1568131646,-0.004427949029
4.88,-0.15700779,0.001347982101
4.89,-0.1569933977,0.007137316967
4.9,-0.1567689418,0.01293269398
4.91,-0.156333625,0.01872667256
4.92,-0.1556869036,0.02451174089
4.93,-0.1548284933,0.03028032406
4.94,-0.1537583742,0.0360247926
4.95,-0.1524767959,0.04173747135
4.96,-0.1509842822,0.04741064879
4.97,-0.1492816352,0.05303658658
4.98,-0.1473699396,0.05860752965
4.99,-0.1452505662,0.06411571642
5,-0.1429251752,0.06955338952
5.01,-0.1403957191,0.0749128067
5.02,-0.1376644451,0.08018625213
5.03,-0.134733897,0.08536604788
5.04,-0.1316069171,0.09044456574
5.05,-0.1282866467,0.09541423922
5.06,-0.1247765268,0.1002675758
5.07,-0.1210802983,0.1049971694
5.08,-0.1172020011,0.1095957128
5.09,-0.1131459731,0.1140560106
5.1,-0.1089168485,0.118370992
5.11,-0.1045195555,0.1225337234
5.12,-0.09995931312,0.126537422
5.13,-0.09524162801,0.1303754682
5.14,-0.09037229012,0.1340414189
5.15,-0.08535736792,0.1375290202
5.16,-0.08020320298,0.1408322208
5.17,-0.07491640391,0.143945184
5.18,-0.06950383966,0.1468623011
5.19,-0.06397263219,0.149578203
5.2,-0.05833014846,0.1520877734
5.21,-0.05258399183,0.15438616
5.22,-0.04674199287,0.1564687865
5.23,-0.04081219946,0.1583313641
5.24,-0.03480286633,0.1599699025
5.25,-0.02872244404,0.1613807204
5.26,-0.02257956735,0.1625604561
5.27,-0.01638304297,0.1635060769
5.28,-0.01014183688,0.1642148889
5.29,-0.003865061007,0.1646845454
5.3,0.002438040502,0.1649130555
5.31,0.00875810558,0.1648987915
5.32,0.01508566893,0.1646404965
5.33,0.02141117718,0.1641372904
5.34,0.02772500442,0.1633886762
5.35,0.03401746814,0.1623945446
5.36,0.04027884548,0.1611551791
5.37,0.04649938977,0.1596712594
5.38,0.05266934744,0.1579438644
5.39,0.05877897502,0.1559744748
5.4,0.06481855649,0.153764974
5.41,0.07077842071,0.1513176495
5.42,0.07664895898,0.1486351923
5.43,0.08242064273,0.1457206961
5.44,0.08808404122,0.1425776556
5.45,0.09362983928,0.1392099641
5.46,0.09904885498,0.1356219099
5.47,0.1043320573,0.1318181722
5.48,0.1094705834,0.1278038161
5.49,0.1144557566,0.1235842866
5.5,0.1192791026,0.119165402
5.51,0.1239323671,0.1145533463
5.52,0.1284075323,0.1097546609
5.53,0.132696833,0.1047762356
5.54,0.1367927726,0.0996252987
5.55,0.1406881388,0.09430940595
5.56,0.1443760187,0.08883642954
5.57,0.1478498132,0.08321454576
5.58,0.1511032512,0.07745222213
5.59,0.1541304034,0.07155820382
5.6,0.156925695,0.06554149945
5.61,0.1594839179,0.05941136621
5.62,0.1618002429,0.05317729434
5.63,0.1638702304,0.04684899114
5.64,0.1656898404,0.04043636433
5.65,0.1672554426,0.03394950494
5.66,0.1685638249,0.02739866974
5.67,0.1696122015,0.02079426319
5.68,0.1703982196,0.01414681903
5.69,0.1709199666,0.007466981495
5.7,0.1711759746,0.0007654861795
5.71,0.1711652259,-0.005946859329
5.72,0.1708871559,-0.01265919509
5.73,0.1703416565,-0.01936062863
5.74,0.1695290778,-0.02604025493
5.75,0.168450229,-0.03268717648
5.76,0.1671063786,-0.03929052347
5.77,0.1654992533,-0.0458394739
5.78,0.1636310365,-0.05232327378
5.79,0.1615043654,-0.05873125713
5.8,0.1591223274,-0.06505286599
5.81,0.1564884555,-0.07127767015
5.82,0.1536067227,-0.0773953868
5.83,0.150481536,-0.08339589979
5.84,0.1471177287,-0.08926927873
5.85,0.1435205524,-0.09500579766
5.86,0.1396956682,-0.1005959534
5.87,0.1356491365,-0.1060304833
5.88,0.1313874068,-0.1113003831
5.89,0.1269173057,-0.1163969234
5.9,0.1222460251,-0.1213116663
5.91,0.117381109,-0.1260364813
5.92,0.1123304402,-0.1305635604
5.93,0.1071022252,-0.1348854328
5.94,0.1017049801,-0.1389949787
5.95,0.09614751416,-0.1428854426
5.96,0.09043891404,-0.1465504459
5.97,0.08458852691,-0.1499839983
5.98,0.07860594315,-0.153180509
5.99,0.07250097859,-0.1561347971
6,0.06628365635,-0.1588421001
