"Freq [GHz]","re(S(Tx_p1,Tx_p1)) []","im(S(Tx_p1,Tx_p1)) []"
1,-0.0035486167,-0.002446976149
1.01,-0.00365290358,-0.002272086746
1.02,-0.003748644528,-0.002092274221
1.03,-0.003835575007,-0.001907976271
1.04,-0.003913455094,-0.001719645457
1.05,-0.003982070246,-0.001527747727
1.06,-0.004041231991,-0.0013327609
1.07,-0.004090778514,-0.001135173124
1.08,-0.004130575164,-0.000935481305
1.09,-0.004160514867,-0.0007341895183
1.1,-0.004180518445,-0.0005318074083
1.11,-0.004190534847,-0.0003288485744
1.12,-0.004190541283,-0.0001258289553
1.13,-0.004180543271,7.673478772E-05
1.14,-0.004160574587,0.0002783268803
1.15,-0.004130697132,0.000478434035
1.16,-0.004091000699,0.000676547035
1.17,-0.004041602661,0.0008721622971
1.18,-0.003982647567,0.00106478341
1.19,-0.003914306656,0.001253922642
1.2,-0.003836777283,0.001439102413
1.21,-0.003750282271,0.001619856732
1.22,-0.003655069179,0.001795732583
1.23,-0.003551409502,0.001966291271
1.24,-0.003439597788,0.002131109713
1.25,-0.0033199507,0.002289781676
1.26,-0.003192805999,0.002441918951
1.27,-0.003058521471,0.002587152468
1.28,-0.002917473804,0.002725133351
1.29,-0.002770057391,0.002855533892
1.3,-0.002616683106,0.002978048466
1.31,-0.002457777017,0.003092394366
1.32,-0.002293779065,0.003198312564
1.33,-0.002125141704,0.003295568392
1.34,-0.001952328514,0.003383952151
1.35,-0.001775812776,0.003463279625
1.36,-0.001596076034,0.00353339253
1.37,-0.001413606633,0.003594158867
1.38,-0.001228898244,0.003645473199
1.39,-0.001042448385,0.003687256837
1.4,-0.0008547569287,0.003719457951
1.41,-0.0006663246221,0.00374205159
1.42,-0.000477651603,0.003755039622
1.43,-0.0002892359306,0.003758450588
1.44,-0.0001015721304,0.003752339481
1.45,8.485024181E-05,0.003736787439
1.46,0.0002695480123,0.003711901359
1.47,0.0004520457736,0.003677813437
1.48,0.0006318772357,0.00363468063
1.49,0.0008085865422,0.00358268405
1.5,0.0009817295443,0.003522028279
1.51,0.001150875033,0.003452940623
1.52,0.00131560592,0.003375670301
1.53,0.001475520372,0.003290487566
1.54,0.001630232887,0.003197682772
1.55,0.001779375316,0.003097565389
1.56,0.001922597818,0.002990462953
1.57,0.002059569764,0.002876719984
1.58,0.002189980563,0.002756696848
1.59,0.002313540427,0.002630768585
1.6,0.002429981068,0.002499323694
1.61,0.002539056322,0.002362762892
1.62,0.002640542694,0.002221497843
1.63,0.002734239843,0.00207594986
1.64,0.00281997098,0.001926548591
1.65,0.002897583196,0.001773730688
1.66,0.002966947716,0.001617938465
1.67,0.003027960068,0.001459618549
1.68,0.003080540189,0.001299220531
1.69,0.003124632443,0.001137195617
1.7,0.003160205575,0.0009739952831
1.71,0.003187252577,0.0008100699455
1.72,0.003205790495,0.0006458676431
1.73,0.003215860154,0.0004818327383
1.74,0.003217525816,0.0003184046409
1.75,0.003210874767,0.0001560165588
1.76,0.003196016841,-4.905721431E-06
1.77,0.003173083873,-0.0001639450198
1.78,0.003142229092,-0.0003206939109
1.79,0.003103626458,-0.0004747558314
1.8,0.003057469932,-0.0006257461428
1.81,0.003003972702,-0.0007732931485
1.82,0.002943366345,-0.0009170390605
1.83,0.002875899953,-0.001056640913
1.84,0.002801839205,-0.001191771425
1.85,0.002721465398,-0.001322119796
1.86,0.002635074445,-0.001447392459
1.87,0.002542975827,-0.001567313755
1.88,0.002445491527,-0.001681626558
1.89,0.002342954926,-0.001790092829
1.9,0.00223570968,-0.001892494106
1.91,0.002124108577,-0.001988631934
1.92,0.002008512374,-0.002078328217
1.93,0.001889288626,-0.002161425514
1.94,0.001766810508,-0.00223778726
1.95,0.001641455624,-0.002307297924
1.96,0.001513604826,-0.002369863095
1.97,0.00138364103,-0.002425409508
1.98,0.001251948039,-0.002473884995
1.99,0.001118909382,-0.002515258377
2,0.0009849071562,-0.002549519291
2.01,0.0008503209032,-0.00257667795
2.02,0.0007155264921,-0.002596764842
2.03,0.0005808950355,-0.002609830377
2.04,0.0004467918307,-0.00261594446
2.05,0.0003135753331,-0.002615196024
2.06,0.0001815961632,-0.002607692499
2.07,5.119615118E-05,-0.002593559228
2.08,-7.729257929E-05,-0.002572938846
2.09,-0.0002035484845,-0.002545990593
2.1,-0.0003272614294,-0.002512889603
2.11,-0.0004481334702,-0.002473826134
2.12,-0.0005658795869,-0.002429004776
2.13,-0.0006802283657,-0.002378643609
2.14,-0.0007909226294,-0.002322973342
2.15,-0.000897720013,-0.002262236411
2.16,-0.001000393485,-0.002196686065
2.17,-0.001098731811,-0.002126585416
2.18,-0.001192539964,-0.002052206481
2.19,-0.001281639472,-0.001973829205
2.2,-0.001365868711,-0.001891740468
2.21,-0.001445083137,-0.001806233092
2.22,-0.001519155463,-0.001717604834
2.23,-0.001587975774,-0.001626157384
2.24,-0.001651451589,-0.001532195363
2.25,-0.001709507855,-0.001436025324
2.26,-0.001762086899,-0.001337954763
2.27,-0.001809148313,-0.001238291142
2.28,-0.001850668789,-0.001137340925
2.29,-0.001886641897,-0.001035408633
2.3,-0.001917077818,-0.0009327959214
2.31,-0.001942003019,-0.0008298006753
2.32,-0.00196145988,-0.000726716138
2.33,-0.001975506282,-0.0006238300633
2.34,-0.001984215142,-0.000521423902
2.35,-0.001987673908,-0.0004197720206
2.36,-0.001985984015,-0.0003191409566
2.37,-0.0019792603,-0.0002197887121
2.38,-0.001967630387,-0.0001219640861
2.39,-0.001951234036,-2.590605006E-05
2.4,-0.001930222458,6.815683473E-05
2.41,-0.001904757612,0.0001600069544
2.42,-0.001875011468,0.000249438134
2.43,-0.001841165257,0.0003362560826
2.44,-0.001803408694,0.0004202787897
2.45,-0.001761939193,0.0005013368739
2.46,-0.001716961064,0.0005792738824
2.47,-0.001668684702,0.000653946541
2.48,-0.001617325769,0.0007252249546
2.49,-0.001563104373,0.0007929927582
2.5,-0.001506244247,0.000857147219
2.51,-0.001446971926,0.0009175992886
2.52,-0.001385515934,0.0009742736079
2.53,-0.001322105974,0.001027108463
2.54,-0.001256972133,0.001076055698
2.55,-0.001190344097,0.001121080572
2.56,-0.001122450383,0.001162161586
2.57,-0.001053517592,0.001199290256
2.58,-0.0009837696739,0.001232470845
2.59,-0.0009134272273,0.00126172006
2.6,-0.000842706816,0.001287066705
2.61,-0.0007718203164,0.001308551298
2.62,-0.0007009742932,0.001326225661
2.63,-0.0006303694068,0.001340152462
2.64,-0.0005601998527,0.001350404743
2.65,-0.0004906528361,0.001357065407
2.66,-0.000421908082,0.001360226686
2.67,-0.000354137382,0.001359989583
2.68,-0.0002875041795,0.00135646329
2.69,-0.0002221631942,0.001349764596
2.7,-0.0001582600859,0.001340017267
2.71,-9.593115942E-05,0.001327351421
2.72,-3.530311018E-05,0.001311902891
2.73,2.350718909E-05,0.00129381257
2.74,8.039285981E-05,0.001273225768
2.75,0.0001352571478,0.001250291546
2.76,0.0001880135121,0.001225162063
2.77,0.000238585673,0.001197991919
2.78,0.0002869076193,0.0011689375
2.79,0.0003329235757,0.00113815634
2.8,0.0003765879313,0.001105806477
2.81,0.0004178651294,0.001072045829
2.82,0.0004567295202,0.001037031589
2.83,0.0004931651777,0.001000919619
2.84,0.0005271656813,0.000963863882
2.85,0.0005587338642,0.0009260158754
2.86,0.0005878815301,0.0008875240995
2.87,0.0006146291393,0.0008485335427
2.88,0.0006390054664,0.0008091851931
2.89,0.0006610472309,0.000769615578
2.9,0.0006807987035,0.0007299563302
2.91,0.0006983112891,0.0006903337842
2.92,0.0007136430888,0.0006508686034
2.93,0.0007268584431,0.0006116754379
2.94,0.0007380274591,0.0005728626163
2.95,0.0007472255219,0.0005345318696
2.96,0.0007545327953,0.0004967780895
2.97,0.0007600337107,0.0004596891212
2.98,0.0007638164498,0.0004233455909
2.99,0.0007659724206,0.0003878207684
3,0.0007665957308,0.0003531804648
3.01,0.0007657826597,0.0003194829643
3.02,0.0007636311312,0.0002867789927
3.03,0.0007602401906,0.000255111718
3.04,0.0007557094869,0.0002245167866
3.05,0.0007501387615,0.0001950223922
3.06,0.0007436273485,0.0001666493771
3.07,0.0007362736852,0.0001394113655
3.08,0.0007281748365,0.0001133149274
3.09,0.0007194260352,8.835977207E-05
3.1,0.0007101202389,6.453896976E-05
3.11,0.0007003477064,4.183920082E-05
3.12,0.0006901955943,2.024103018E-05
3.13,0.0006797475751,-2.807938527E-07
3.14,0.0006690834801,-1.975701833E-05
3.15,0.000658278965,-3.822354342E-05
3.16,0.0006474052035,-5.57210611E-05
3.17,0.0006365286059,-7.229467637E-05
3.18,0.0006257105666,-8.799351307E-05
3.19,0.0006150072402,-0.0001028703061
3.2,0.0006044693466,-0.0001169809817
3.21,0.000594142006,-0.0001303842287
3.22,0.0005840646045,-0.0001431410615
3.23,0.0005742706902,-0.0001553143773
3.24,0.0005647879,-0.0001669685106
3.25,0.0005556379176,-0.0001781687847
3.26,0.0005468364618,-0.0001889810652
3.27,0.0005383933056,-0.0001994713145
3.28,0.0005303123256,-0.0002097051516
3.29,0.0005225915814,-0.0002197474178
3.3,0.0005152234233,-0.0002296617507
3.31,0.0005081946296,-0.0002395101687
3.32,0.0005014865707,-0.0002493526668
3.33,0.0004950754006,-0.0002592468262
3.34,0.0004889322738,-0.0002692474402
3.35,0.0004830235867,-0.0002794061551
3.36,0.0004773112426,-0.0002897711318
3.37,0.0004717529389,-0.0003003867255
3.38,0.0004663024742,-0.0003112931878
3.39,0.0004609100757,-0.000322526391
3.4,0.0004555227429,-0.0003341175757
3.41,0.0004500846085,-0.0003460931239
3.42,0.0004445373128,-0.0003584743571
3.43,0.0004388203908,-0.0003712773615
3.44,0.0004328716703,-0.0003845128398
3.45,0.0004266276788,-0.0003981859915
3.46,0.0004200240571,-0.0004122964212
3.47,0.000412995979,-0.0004268380756
3.48,0.0004054785733,-0.0004417992097
3.49,0.0003974073481,-0.0004571623816
3.5,0.0003887186136,-0.0004729044771
3.51,0.0003793499036,-0.0004889967625
3.52,0.000369240392,-0.0005054049668
3.53,0.0003583313029,-0.0005220893918
3.54,0.0003465663138,-0.0005390050503
3.55,0.0003338919477,-0.0005561018318
3.56,0.0003202579545,-0.0005733246942
3.57,0.0003056176789,-0.0005906138824
3.58,0.0002899284132,-0.0006079051704
3.59,0.0002731517339,-0.0006251301284
3.6,0.0002552538199,-0.0006422164123
3.61,0.0002362057516,-0.0006590880743
3.62,0.000215983789,-0.0006756658948
3.63,0.0001945696273,-0.0006918677319
3.64,0.00017195063,-0.0007076088892
3.65,0.0001481200366,-0.0007228024994
3.66,0.0001230771456,-0.0007373599216
3.67,9.682747096E-05,-0.000751191152
3.68,6.938287128E-05,-0.0007642052449
3.69,4.076165149E-05,-0.0007763107436
3.7,1.098863593E-05,-0.0007874161173
3.71,-1.990478726E-05,-0.0007974302055
3.72,-5.188065092E-05,-0.0008062626643
3.73,-8.489442308E-05,-0.0008138244156
3.74,-0.0001188950506,-0.0008200280959
3.75,-0.0001538250322,-0.0008247885031
3.76,-0.0001896205211,-0.0008280230397
3.77,-0.0002262114565,-0.0008296521499
3.78,-0.0002635217238,-0.0008295997499
3.79,-0.0003014693434,-0.000827793648
3.8,-0.0003399666865,-0.000824165954
3.81,-0.0003789207186,-0.0008186534756
3.82,-0.0004182332688,-0.0008111981006
3.83,-0.000457801324,-0.0008017471617
3.84,-0.0004975173481,-0.0007902537846
3.85,-0.0005372696235,-0.0007766772164
3.86,-0.000576942615,-0.0007609831324
3.87,-0.000616417354,-0.0007431439217
3.88,-0.0006555718421,-0.0007231389488
3.89,-0.0006942814724,-0.0007009547901
3.9,-0.0007324194666,-0.0006765854448
3.91,-0.0007698573276,-0.0006500325193
3.92,-0.000806465304,-0.0006213053829
3.93,-0.0008421128663,-0.0005904212957
3.94,-0.0008766691928,-0.0005574055059
3.95,-0.0009100036625,-0.0005222913189
3.96,-0.0009419863542,-0.000485120134
3.97,-0.0009724885493,-0.0004459414514
3.98,-0.001001383237,-0.0004048128476
3.99,-0.001028545617,-0.0003617999199
4,-0.001053853608,-0.0003169761989
4.01,-0.00107718834,-0.0002704230301
4.02,-0.001098434651,-0.0002222294248
4.03,-0.001117481574,-0.0001724918795
4.04,-0.001134222812,-0.0001213141657
4.05,-0.001148557203,-6.880708959E-05
4.06,-0.00116038917,-1.50882225E-05
4.07,-0.001169629162,3.971839645E-05
4.08,-0.00117619407,9.548258561E-05
4.09,-0.001180007628,0.0001520683723
4.1,-0.001181000799,0.0002093343696
4.11,-0.001179112131,0.0002671341777
4.12,-0.001174288093,0.0003253168074
4.13,-0.001166483392,0.0003837271259
4.14,-0.001155661253,0.0004422063222
4.15,-0.001141793685,0.0005005923913
4.16,-0.001124861704,0.000558720635
4.17,-0.001104855543,0.0006164241782
4.18,-0.001081774817,0.0006735344986
4.19,-0.001055628669,0.0007298819679
4.2,-0.001026435873,0.0007852964035
4.21,-0.0009942249136,0.0008396076276
4.22,-0.0009590340292,0.0008926460319
4.23,-0.0009209112206,0.0009442431479
4.24,-0.0008799142275,0.0009942322174
4.25,-0.0008361104715,0.001042448765
4.26,-0.0007895769643,0.001088731166
4.27,-0.0007404001826,0.001132921214
4.28,-0.0006886759095,0.001174864681
4.29,-0.0006345090423,0.001214411865
4.3,-0.0005780133678,0.001251418138
4.31,-0.0005193113057,0.00128574447
4.32,-0.0004585336191,0.001317257951
4.33,-0.000395819096,0.001345832287
4.34,-0.0003313141992,0.001371348286
4.35,-0.0002651726884,0.00139369432
4.36,-0.0001975552141,0.001412766768
4.37,-0.0001286288847,0.001428470439
4.38,-5.85668086E-05,0.001440718964
4.39,1.24523878E-05,0.00144943517
4.4,8.424506438E-05,0.00145455142
4.41,0.0001566230926,0.00145600993
4.42,0.0002293943998,0.001453763053
4.43,0.0003023635314,0.001447773533
4.44,0.0003753322284,0.001438014728
4.45,0.0004481000186,0.001424470799
4.46,0.0005204648206,0.001407136865
4.47,0.0005922235569,0.001386019124
4.48,0.0006631727756,0.001361134942
4.49,0.0007331092776,0.0013325129
4.5,0.0008018307483,0.001300192813
4.51,0.0008691363909,0.001264225703
4.52,0.0009348275593,0.001224673749
4.53,0.0009987083887,0.001181610187
4.54,0.001060586422,0.001135119182
4.55,0.001120273231,0.001085295663
4.56,0.001177585024,0.001032245123
4.57,0.00123234325,0.0009760833791
4.58,0.001284375186,0.0009169363031
4.59,0.001333514507,0.0008549395182
4.6,0.001379601849,0.00079023806
4.61,0.001422485339,0.0007229860072
4.62,0.00146202112,0.0006533460812
4.63,0.001498073842,0.000581489216
4.64,0.001530517137,0.0005075940988
4.65,0.001559234063,0.0004318466849
4.66,0.001584117523,0.0003544396853
4.67,0.001605070659,0.0002755720314
4.68,0.001622007209,0.0001954483161
4.69,0.001634851839,0.0001142782151
4.7,0.00164354044,3.227588872E-05
4.71,0.00164802039,-5.034063417E-05
4.72,0.001648250786,-0.0001333500862
4.73,0.001644202636,-0.0002165286059
4.74,0.001635859017,-0.0002996503929
4.75,0.001623215196,-0.0003824883728
4.76,0.001606278717,-0.0004648148684
4.77,0.001585069441,-0.0005464022773
4.78,0.00155961956,-0.000627023751
4.79,0.001529973565,-0.0007064538756
4.8,0.001496188177,-0.000784469351
4.81,0.00145833224,-0.000860849666
4.82,0.001416486583,-0.0009353777684
4.83,0.001370743831,-0.001007840727
4.84,0.00132120819,-0.001078030382
4.85,0.001267995195,-0.001145743988
4.86,0.001211231411,-0.001210784835
4.87,0.001151054117,-0.001272962862
4.88,0.001087610941,-0.001332095246
4.89,0.001021059466,-0.001388006975
4.9,0.0009515668089,-0.001440531393
4.91,0.0008793091648,-0.001489510733
4.92,0.0008044713211,-0.001534796608
4.93,0.0007272461466,-0.001576250493
4.94,0.0006478340528,-0.001613744164
4.95,0.0005664424311,-0.001647160114
4.96,0.0004832850672,-0.001676391937
4.97,0.0003985815337,-0.001701344676
4.98,0.0003125565643,-0.001721935143
4.99,0.0002254394103,-0.001738092198
5,0.0001374631815,-0.001749756997
5.01,4.886417462E-05,-0.001756883197
5.02,-4.011881097E-05,-0.001759437134
5.03,-0.0001292451651,-0.001757397952
5.04,-0.0002182731668,-0.0017507577
5.05,-0.0003069606884,-0.001739521389
5.06,-0.0003950659028,-0.001723707008
5.07,-0.0004823479908,-0.001703345504
5.08,-0.0005685678472,-0.00167848072
5.09,-0.0006534887822,-0.001649169297
5.1,-0.0007368772177,-0.001615480532
5.11,-0.0008185033742,-0.001577496204
5.12,-0.0008981419485,-0.001535310361
5.13,-0.0009755727778,-0.001489029062
5.14,-0.00105058149,-0.001438770095
5.15,-0.001122960137,-0.001384662649
5.16,-0.001192507809,-0.001326846958
5.17,-0.001259031232,-0.001265473907
5.18,-0.001322345333,-0.001200704608
5.19,-0.001382273797,-0.001132709948
5.2,-0.001438649582,-0.001061670097
5.21,-0.001491315418,-0.0009877740004
5.22,-0.00154012427,-0.0009112188379
5.23,-0.001584939776,-0.0008322094573
5.24,-0.001625636651,-0.0007509577879
5.25,-0.001662101057,-0.0006676822303
5.26,-0.001694230936,-0.0005826070279
5.27,-0.001721936321,-0.0004959616202
5.28,-0.001745139594,-0.0004079799809
5.29,-0.001763775716,-0.0003188999416
5.3,-0.001777792423,-0.0002289625056
5.31,-0.001787150372,-0.0001384111501
5.32,-0.001791823265,-4.749112342E-05
5.33,-0.001791797915,4.35512646E-05
5.34,-0.001787074291,0.0001344693542
5.35,-0.001777665512,0.0002250168485
5.36,-0.001763597804,0.0003149485244
5.37,-0.001744910426,0.0004040209405
5.38,-0.001721655543,0.0004919931387
5.39,-0.001693898074,0.0005786273381
5.4,-0.001661715496,0.0006636896193
5.41,-0.001625197611,0.0007469505958
5.42,-0.001584446278,0.000828186072
5.43,-0.00153957511,0.000907177685
5.44,-0.001490709134,0.0009837135279
5.45,-0.001437984419,0.001057588754
5.46,-0.001381547673,0.001128606158
5.47,-0.001321555809,0.001196576736
5.48,-0.001258175476,0.001261320218
5.49,-0.001191582572,0.001322665574
5.5,-0.00112196172,0.001380451495
5.51,-0.001049505724,0.00143452684
5.52,-0.0009744150064,0.001484751056
5.53,-0.000896897011,0.001530994561
5.54,-0.0008171656008,0.001573139101
5.55,-0.0007354404285,0.001611078068
5.56,-0.0006519462948,0.001644716779
5.57,-0.0005669124924,0.00167397273
5.58,-0.000480572138,0.001698775806
5.59,-0.0003931614945,0.001719068452
5.6,-0.0003049192857,0.001734805813
5.61,-0.0002160860053,0.001745955832
5.62,-0.0001269032227,0.00175249931
5.63,-3.761288658E-05,0.001754429932
5.64,5.154336926E-05,0.001751754248
5.65,0.0001403249189,0.001744491622
5.66,0.000228492831,0.00173267414
5.67,0.0003158105496,0.001716346485
5.68,0.0004020445648,0.001695565769
5.69,0.0004869650737,0.001670401334
5.7,0.0005703466267,0.001640934513
5.71,0.0006519687606,0.001607258366
5.72,0.000731616614,0.001569477366
5.73,0.000809081524,0.001527707072
5.74,0.0008841616032,0.001482073752
5.75,0.0009566622942,0.00143271399
5.76,0.001026396901,0.001379774256
5.77,0.001093187095,0.001323410451
5.78,0.001156863395,0.001263787425
5.79,0.001217265617,0.001201078475
5.8,0.0012742433,0.001135464813
5.81,0.001327656096,0.001067135015
5.82,0.001377374132,0.000996284457
5.83,0.001423278338,0.0009231147237
5.84,0.001465260744,0.0008478330078
5.85,0.001503224738,0.0007706514929
5.86,0.001537085301,0.0006917867255
5.87,0.00156676919,0.000611458976
5.88,0.0015922151,0.0005298915922
5.89,0.001613373785,0.0004473103466
5.9,0.00163020814,0.0003639427796
5.91,0.001642693253,0.0002800175406
5.92,0.001650816415,0.0001957637289
5.93,0.001654577099,0.0001114102365
5.94,0.001653986901,2.718509496E-05
5.95,0.001649069444,-5.668517234E-05
5.96,0.001639860252,-0.0001399761897
5.97,0.001626406583,-0.0002224663595
5.98,0.001608767236,-0.0003039374808
5.99,0.00158701232,-0.0003841753548
6,0.001561222992,-0.0004629703756
