"Freq [GHz]","re(S(Tx_p1,Tx_p1)) []","im(S(Tx_p1,Tx_p1)) []"
1,-0.03461275168,-0.0116850175
1.01,-0.03513956637,-0.009992008766
1.02,-0.03558629019,-0.008272147105
1.03,-0.03595140162,-0.006529132374
1.04,-0.03623354302,-0.00476674826
1.05,-0.03643152438,-0.002988856366
1.06,-0.03654432701,-0.001199390219
1.07,-0.03657110734,0.0005976508707
1.08,-0.03651120061,0.002398208097
1.09,-0.03636412465,0.004198169655
1.1,-0.03612958351,0.005993377459
1.11,-0.03580747121,0.007779634126
1.12,-0.03539787525,0.009552710243
1.13,-0.03490108018,0.01130835195
1.14,-0.03431757097,0.01304228889
1.15,-0.03364803621,0.01475024246
1.16,-0.0328933712,0.0164279345
1.17,-0.03205468071,0.01807109637
1.18,-0.0311332815,0.01967547839
1.19,-0.03013070455,0.02123685972
1.2,-0.02904869685,0.02275105863
1.21,-0.02788922282,0.0242139432
1.22,-0.02665446521,0.02562144235
1.23,-0.02534682549,0.02696955733
1.24,-0.02396892372,0.02825437346
1.25,-0.02252359767,0.02947207229
1.26,-0.0210139014,0.03061894399
1.27,-0.01944310301,0.03169140001
1.28,-0.01781468169,0.03268598593
1.29,-0.01613232392,0.03359939451
1.3,-0.01439991886,0.03442847882
1.31,-0.01262155282,0.03517026536
1.32,-0.01080150286,0.03582196727
1.33,-0.008944229423,0.03638099739
1.34,-0.007054368035,0.03684498113
1.35,-0.00513672003,0.03721176915
1.36,-0.003196242308,0.03747944976
1.37,-0.001238036116,0.03764636087
1.38,0.0007326651356,0.03771110148
1.39,0.002710509012,0.03767254267
1.4,0.004690038123,0.03752983791
1.41,0.0066657051,0.03728243265
1.42,0.008631888441,0.03693007316
1.43,0.01058290919,0.03647281447
1.44,0.01251304837,0.03591102735
1.45,0.0144165652,0.03524540431
1.46,0.01628771589,0.03447696442
1.47,0.01812077307,0.03360705708
1.48,0.01991004577,0.03263736453
1.49,0.02164989975,0.03156990301
1.5,0.02333477822,0.03040702272
1.51,0.02495922285,0.02915140632
1.52,0.02651789483,0.02780606605
1.53,0.02800559611,0.02637433947
1.54,0.0294172905,0.02485988364
1.55,0.03074812468,0.02326666791
1.56,0.03199344884,0.02159896523
1.57,0.0331488371,0.01986134196
1.58,0.0342101073,0.01805864625
1.59,0.0351733403,0.01619599497
1.6,0.03603489847,0.01427875927
1.61,0.03679144348,0.01231254867
1.62,0.03743995305,0.010303194
1.63,0.03797773679,0.008256728911
1.64,0.03840245081,0.006179370309
1.65,0.03871211119,0.004077497595
1.66,0.03890510608,0.001957630899
1.67,0.03898020647,-0.0001735916557
1.68,0.0389365754,-0.002309437539
1.69,0.03877377574,-0.004443104164
1.7,0.03849177625,-0.006567743877
1.71,0.03809095604,-0.008676489495
1.72,0.03757210736,-0.01076248025
1.73,0.03693643652,-0.01281888802
1.74,0.03618556319,-0.01483894378
1.75,0.03532151777,-0.01681596401
1.76,0.03434673706,-0.0187433771
1.77,0.03326405807,-0.0206147495
1.78,0.03207671006,-0.0224238115
1.79,0.03078830479,-0.02416448256
1.8,0.0294028251,-0.02583089607
1.81,0.02792461169,-0.02741742326
1.82,0.02635834832,-0.0289186964
1.83,0.02470904542,-0.03032963088
1.84,0.02298202217,-0.03164544631
1.85,0.02118288711,-0.03286168635
1.86,0.01931751746,-0.03397423727
1.87,0.01739203713,-0.03497934505
1.88,0.01541279359,-0.03587363107
1.89,0.0133863337,-0.03665410616
1.9,0.01131937858,-0.03731818298
1.91,0.009218797686,-0.03786368676
1.92,0.007091582189,-0.03828886422
1.93,0.004944817796,-0.03859239063
1.94,0.002785657139,-0.03877337512
1.95,0.0006212918689,-0.03883136399
1.96,-0.001541075412,-0.03876634221
1.97,-0.003694259233,-0.03857873297
1.98,-0.005831119228,-0.03826939534
1.99,-0.007944587857,-0.03783962006
2,-0.01002769774,-0.03729112344
2.01,-0.01207360849,-0.03662603944
2.02,-0.01407563286,-0.03584691002
2.03,-0.01602726218,-0.0349566737
2.04,-0.01792219083,-0.0339586525
2.05,-0.0197543398,-0.03285653725
2.06,-0.02151787905,-0.03165437146
2.07,-0.02320724871,-0.03035653368
2.08,-0.02481717897,-0.02896771864
2.09,-0.02634270854,-0.02749291705
2.1,-0.02777920166,-0.0259373944
2.11,-0.02912236359,-0.02430666868
2.12,-0.03036825448,-0.02260648725
2.13,-0.03151330156,-0.02084280294
2.14,-0.03255430969,-0.0190217495
2.15,-0.03348847015,-0.01714961658
2.16,-0.03431336767,-0.01523282426
2.17,-0.03502698577,-0.01327789737
2.18,-0.03562771022,-0.01129143968
2.19,-0.03611433091,-0.009280108047
2.2,-0.0364860418,-0.007250586757
2.21,-0.03674243933,-0.005209562028
2.22,-0.03688351902,-0.003163696936
2.23,-0.03690967056,-0.001119606796
2.24,-0.03682167118,0.0009161648577
2.25,-0.03662067767,0.002937169602
2.26,-0.03630821683,0.004937076661
2.27,-0.03588617456,0.006909694553
2.28,-0.03535678371,0.008848991758
2.29,-0.03472261069,0.01074911635
2.3,-0.03398654092,0.01260441447
2.31,-0.03315176334,0.01440944765
2.32,-0.03222175395,0.01615900889
2.33,-0.03120025853,0.01784813738
2.34,-0.03009127463,0.01947213201
2.35,-0.02889903299,0.0210265634
2.36,-0.02762797843,0.02250728461
2.37,-0.02628275032,0.02391044048
2.38,-0.02486816278,0.0252324755
2.39,-0.0233891847,0.02647014036
2.4,-0.02185091964,0.02762049704
2.41,-0.02025858576,0.02868092262
2.42,-0.01861749585,0.02964911166
2.43,-0.01693303758,0.03052307738
2.44,-0.01521065399,0.03130115147
2.45,-0.01345582439,0.03198198275
2.46,-0.01167404571,0.03256453464
2.47,-0.009870814321,0.03304808157
2.48,-0.008051608533,0.03343220423
2.49,-0.006221871635,0.03371678394
2.5,-0.004386995705,0.0339019961
2.51,-0.002552306141,0.03398830273
2.52,-0.0007230469889,0.03397644431
2.53,0.001095632921,0.03386743091
2.54,0.00289869298,0.03366253264
2.55,0.004681212951,0.03336326971
2.56,0.006438404227,0.03297140182
2.57,0.00816562022,0.03248891736
2.58,0.009858365847,0.03191802217
2.59,0.01151230615,0.03126112806
2.6,0.01312327406,0.03052084124
2.61,0.01468727725,0.02969995055
2.62,0.01620050426,0.02880141568
2.63,0.01765932973,0.02782835545
2.64,0.01906031892,0.02678403601
2.65,0.02040023145,0.02567185938
2.66,0.02167602443,0.02449535194
2.67,0.02288485477,0.02325815326
2.68,0.02402408112,0.0219640051
2.69,0.02509126498,0.02061674075
2.7,0.02608417151,0.01922027457
2.71,0.02700076972,0.01777859195
2.72,0.02783923234,0.01629573952
2.73,0.0285979352,0.01477581572
2.74,0.02927545641,0.01322296178
2.75,0.02987057513,0.01164135293
2.76,0.03038227015,0.01003519005
2.77,0.03080971829,0.008408691607
2.78,0.03115229261,0.006766085904
2.79,0.03140956043,0.005111603664
2.8,0.03158128136,0.003449470861
2.81,0.0316674052,0.001783901833
2.82,0.03166806976,0.0001190926196
2.83,0.03158359875,-0.001540785495
2.84,0.03141449954,-0.003191592256
2.85,0.03116146104,-0.00482922457
2.86,0.03082535149,-0.006449622514
2.87,0.03040721632,-0.008048775269
2.88,0.02990827603,-0.009622726981
2.89,0.02932992401,-0.01116758262
2.9,0.02867372445,-0.01267951381
2.91,0.02794141013,-0.01415476471
2.92,0.02713488026,-0.01558965798
2.93,0.02625619823,-0.01698060073
2.94,0.02530758927,-0.01832409065
2.95,0.02429143804,-0.01961672223
2.96,0.02321028603,-0.02085519308
2.97,0.02206682886,-0.02203631039
2.98,0.02086391331,-0.02315699758
2.99,0.01960453419,-0.02421430097
3,0.01829183087,-0.0252053967
3.01,0.01692908354,-0.02612759771
3.02,0.01551970912,-0.02697836086
3.03,0.01406725683,-0.02775529408
3.04,0.01257540327,-0.02845616372
3.05,0.01104794715,-0.02907890179
3.06,0.009488803478,-0.02962161331
3.07,0.00790199728,-0.03008258364
3.08,0.006291656794,-0.03046028568
3.09,0.004662006108,-0.03075338704
3.1,0.003017357248,-0.03096075701
3.11,0.00136210167,-0.03108147336
3.12,-0.0002992988117,-0.03111482888
3.13,-0.001962321709,-0.03106033763
3.14,-0.003622394116,-0.03091774078
3.15,-0.005274903563,-0.03068701213
3.16,-0.006915209433,-0.03036836304
3.17,-0.008538654939,-0.02996224694
3.18,-0.01014057964,-0.02946936319
3.19,-0.01171633244,-0.0288906603
3.2,-0.01326128511,-0.02822733845
3.21,-0.01477084615,-0.02748085129
3.22,-0.01624047518,-0.0266529069
3.23,-0.01766569749,-0.02574546793
3.24,-0.01904211906,-0.0247607508
3.25,-0.02036544164,-0.02370122399
3.26,-0.02163147811,-0.02256960538
3.27,-0.02283616788,-0.02136885853
3.28,-0.02397559227,-0.02010218798
3.29,-0.02504598993,-0.01877303348
3.3,-0.02604377204,-0.01738506313
3.31,-0.02696553735,-0.01594216547
3.32,-0.02780808686,-0.01444844052
3.33,-0.02856843821,-0.01290818968
3.34,-0.02924383951,-0.01132590461
3.35,-0.02983178272,-0.009706255096
3.36,-0.03033001627,-0.008054075844
3.37,-0.0307365571,-0.006374352315
3.38,-0.03104970182,-0.004672205625
3.39,-0.031268037,-0.002952876537
3.4,-0.03139044857,-0.001221708614
3.41,-0.03141613009,0.0005158694182
3.42,-0.03134459007,0.002254362016
3.43,-0.03117565798,0.003988225815
3.44,-0.03090948921,0.005711889198
3.45,-0.0305465686,0.007419772336
3.46,-0.03008771281,0.009106307638
3.47,-0.02953407125,0.0107659605
3.48,-0.02888712563,0.01239325026
3.49,-0.02814868815,0.01398277128
3.5,-0.02732089821,0.015529214
3.51,-0.02640621773,0.01702738595
3.52,-0.025407425,0.01847223251
3.53,-0.02432760708,0.0198588574
3.54,-0.02317015085,0.02118254275
3.55,-0.02193873258,0.02243876862
3.56,-0.0206373062,0.02362323198
3.57,-0.01927009022,0.02473186488
3.58,-0.01784155334,0.02576085184
3.59,-0.0163563989,0.02670664633
3.6,-0.01481954809,0.02756598626
3.61,-0.01323612214,0.02833590828
3.62,-0.01161142347,0.02901376103
3.63,-0.009950915833,0.02959721705
3.64,-0.008260203754,0.03008428338
3.65,-0.006545011088,0.03047331079
3.66,-0.004811158996,0.03076300157
3.67,-0.003064543353,0.03095241578
3.68,-0.001311111718,0.03104097603
3.69,0.0004431600269,0.03102847063
3.7,0.002192291253,0.03091505522
3.71,0.00393032026,0.03070125271
3.72,0.005651327945,0.03038795166
3.73,0.007349461328,0.02997640305
3.74,0.009018956839,0.02946821543
3.75,0.01065416324,0.02886534847
3.76,0.01224956407,0.02817010502
3.77,0.01379979949,0.02738512158
3.78,0.01529968747,0.02651335737
3.79,0.01674424412,0.02555808191
3.8,0.01812870317,0.02452286131
3.81,0.01944853441,0.02341154325
3.82,0.02069946111,0.02222824074
3.83,0.02187747617,0.02097731474
3.84,0.02297885714,0.01966335582
3.85,0.02400017983,0.01829116474
3.86,0.02493833059,0.01686573233
3.87,0.02579051715,0.0153922185
3.88,0.02655427795,0.01387593071
3.89,0.02722749003,0.01232230186
3.9,0.02780837524,0.01073686778
3.91,0.02829550505,0.009125244423
3.92,0.02868780362,0.007493104874
3.93,0.02898454937,0.005846156275
3.94,0.02918537496,0.004190116816
3.95,0.02929026572,0.002530692867
3.96,0.02929955647,0.0008735563891
3.97,0.02921392691,-0.0007756772828
3.98,0.02903439546,-0.002411471165
3.99,0.02876231177,-0.004028387769
4,0.02839934773,-0.005621109555
4.01,0.02794748729,-0.007184458616
4.02,0.02740901495,-0.008713415483
4.03,0.02678650313,-0.010203137
4.04,0.02608279842,-0.01164897314
4.05,0.02530100685,-0.01304648282
4.06,0.02444447817,-0.0143914484
4.07,0.02351678942,-0.01567988918
4.08,0.02252172769,-0.01690807345
4.09,0.02146327224,-0.01807252938
4.1,0.02034557612,-0.01917005454
4.11,0.01917294738,-0.02019772406
4.12,0.01794982988,-0.02115289744
4.13,0.01668078394,-0.022033224
4.14,0.01537046686,-0.02283664696
4.15,0.01402361334,-0.02356140616
4.16,0.01264501609,-0.02420603942
4.17,0.01123950652,-0.0247693826
4.18,0.009811935693,-0.02525056838
4.19,0.008367155706,-0.02564902376
4.2,0.00691000142,-0.0259644664
4.21,0.005445272747,-0.02619689972
4.22,0.003977717528,-0.02634660701
4.23,0.002512015053,-0.02641414437
4.24,0.00105276033,-0.02640033281
4.25,-0.0003955508831,-0.02630624932
4.26,-0.001828536199,-0.02613321719
4.27,-0.003241939846,-0.02588279551
4.28,-0.004631644989,-0.025556768
4.29,-0.005993685102,-0.02515713129
4.3,-0.007324254363,-0.02468608256
4.31,-0.008619717048,-0.02414600688
4.32,-0.009876615923,-0.02353946407
4.33,-0.01109167962,-0.02286917529
4.34,-0.01226182898,-0.02213800955
4.35,-0.01338418245,-0.02134896989
4.36,-0.01445606042,-0.0205051797
4.37,-0.01547498859,-0.01960986894
4.38,-0.01643870046,-0.01866636053
4.39,-0.01734513885,-0.01767805682
4.4,-0.0181924565,-0.01664842638
4.41,-0.01897901589,-0.01558099098
4.42,-0.01970338823,-0.01447931294
4.43,-0.0203643517,-0.01334698291
4.44,-0.02096088896,-0.01218760797
4.45,-0.02149218404,-0.01100480034
4.46,-0.02195761856,-0.009802166439
4.47,-0.02235676753,-0.008583296621
4.48,-0.02268939451,-0.007351755345
4.49,-0.02295544641,-0.006111071994
4.5,-0.02315504795,-0.00486473225
4.51,-0.02328849571,-0.003616170065
4.52,-0.02335625197,-0.002368760229
4.53,-0.02335893834,-0.001125811534
4.54,-0.02329732918,0.0001094394799
4.55,-0.02317234499,0.001333834203
4.56,-0.02298504568,0.002544297071
4.57,-0.02273662382,0.003737840145
4.58,-0.02242839794,0.004911567173
4.59,-0.02206180591,0.006062677161
4.6,-0.02163839837,0.007188467482
4.61,-0.02115983231,0.008286336553
4.62,-0.02062786482,0.009353786116
4.63,-0.02004434703,0.01038842316
4.64,-0.01941121817,0.01138796151
4.65,-0.01873049994,0.01235022312
4.66,-0.01800429107,0.01327313915
4.67,-0.01723476202,0.01415475076
4.68,-0.01642415009,0.01499320979
4.69,-0.01557475456,0.01578677924
4.7,-0.01468893221,0.01653383372
4.71,-0.01376909295,0.01723285967
4.72,-0.0128176957,0.01788245573
4.73,-0.01183724444,0.01848133291
4.74,-0.01083028443,0.01902831488
4.75,-0.009799398571,0.01952233822
4.76,-0.008747203854,0.01996245275
4.77,-0.007676347977,0.0203478219
4.78,-0.00658950597,0.02067772317
4.79,-0.005489376874,0.02095154869
4.8,-0.004378680447,0.02116880577
4.81,-0.003260153839,0.02132911767
4.82,-0.002136548227,0.02143222438
4.83,-0.001010625374,0.02147798348
4.84,0.0001148459072,0.0214663711
4.85,0.001237093423,0.02139748288
4.86,0.002353345419,0.02127153508
4.87,0.003460834571,0.02108886558
4.88,0.004556802175,0.02084993494
4.89,0.005638502543,0.02055532747
4.9,0.006703207634,0.0202057522
4.91,0.00774821192,0.01980204372
4.92,0.008770837495,0.019345163
4.93,0.009768439445,0.01883619802
4.94,0.01073841147,0.01827636417
4.95,0.01167819174,0.01766700452
4.96,0.01258526904,0.01700958973
4.97,0.01345718908,0.01630571777
4.98,0.0142915611,0.01555711325
4.99,0.01508606462,0.01476562643
5,0.0158384564,0.0139332318
5.01,0.01654657754,0.01306202625
5.02,0.01720836071,0.01215422684
5.03,0.01782183749,0.01121216797
5.04,0.01838514569,0.01023829821
5.05,0.01889653682,0.009235176441
5.06,0.01935438337,0.008205467564
5.07,0.01975718618,0.007151937617
5.08,0.02010358159,0.006077448317
5.09,0.02039234842,0.004984951042
5.1,0.02062241482,0.00387748023
5.11,0.02079286481,0.00275814621
5.12,0.02090294444,0.001630127465
5.13,0.02095206769,0.000496662342
5.14,0.0209398219,-0.0006389597764
5.15,0.02086597273,-0.001773407814
5.16,0.0207304686,-0.002903318835
5.17,0.0205334446,-0.004025308339
5.18,0.02027522575,-0.005135980982
5.19,0.01995632962,-0.006231941676
5.2,0.01957746826,-0.00730980704
5.21,0.0191395494,-0.008366217142
5.22,0.01864367691,-0.009397847487
5.23,0.01809115038,-0.01040142119
5.24,0.01748346402,-0.01137372129
5.25,0.01682230456,-0.01231160311
5.26,0.01610954844,-0.01321200671
5.27,0.01534725806,-0.01407196912
5.28,0.01453767711,-0.01488863667
5.29,0.01368322517,-0.01565927694
5.3,0.01278649126,-0.01638129057
5.31,0.0118502267,-0.01705222269
5.32,0.01087733701,-0.017669774
5.33,0.009870873042,-0.0182318114
5.34,0.008834021293,-0.018736378
5.35,0.007770093486,-0.01918170272
5.36,0.006682515402,-0.01956620907
5.37,0.005574815036,-0.01988852331
5.38,0.004450610124,-0.02014748187
5.39,0.003313595084,-0.0203421379
5.4,0.002167527437,-0.02047176701
5.41,0.001016213761,-0.02053587206
5.42,-0.0001365047517,-0.02053418703
5.43,-0.001286767067,-0.02046667991
5.44,-0.002430707346,-0.02033355461
5.45,-0.003564470162,-0.02013525179
5.46,-0.004684225833,-0.01987244866
5.47,-0.005786185789,-0.01954605774
5.48,-0.006866617886,-0.01915722455
5.49,-0.007921861607,-0.0187073242
5.5,-0.008948343054,-0.01819795697
5.51,-0.009942589663,-0.0176309428
5.52,-0.01090124455,-0.0170083148
5.53,-0.01182108045,-0.01633231171
5.54,-0.0126990131,-0.01560536941
5.55,-0.01353211407,-0.01483011151
5.56,-0.01431762296,-0.01400933902
5.57,-0.01505295884,-0.01314601918
5.58,-0.01573573093,-0.01224327354
5.59,-0.01636374845,-0.01130436524
5.6,-0.01693502955,-0.01033268568
5.61,-0.01744780936,-0.009331740505
5.62,-0.01790054698,-0.008305135171
5.63,-0.01829193149,-0.007256559933
5.64,-0.01862088693,-0.006189774518
5.65,-0.01888657615,-0.005108592459
5.66,-0.01908840358,-0.004016865216
5.67,-0.01922601692,-0.00291846614
5.68,-0.01929930763,-0.001817274379
5.69,-0.01930841039,-0.0007171588019
5.7,-0.01925370136,0.0003780379783
5.71,-0.01913579541,0.001464515395
5.72,-0.01895554219,0.002538530459
5.73,-0.01871402119,0.003596412939
5.74,-0.01841253573,0.004634580136
5.75,-0.018052606,0.005649551146
5.76,-0.01763596106,0.006637960576
5.77,-0.01716453004,0.007596571614
5.78,-0.01664043235,0.008522288415
5.79,-0.01606596725,0.00941216772
5.8,-0.01544360251,0.01026342968
5.81,-0.0147759625,0.01107346781
5.82,-0.01406581567,0.01183985803
5.83,-0.0133160614,0.01256036683
5.84,-0.0125297165,0.01323295833
5.85,-0.01170990126,0.0138558005
5.86,-0.01085982516,0.01442727022
5.87,-0.0099827724,0.01494595739
5.88,-0.009082087254,0.01541066793
5.89,-0.008161159329,0.01582042581
5.9,-0.007223408844,0.01617447397
5.91,-0.006272271969,0.01647227419
5.92,-0.005311186332,0.01671350604
5.93,-0.004343576737,0.01689806471
5.94,-0.003372841193,0.01702605795
5.95,-0.0024023373,0.01709780204
5.96,-0.001435369073,0.01711381684
5.97,-0.0004751742598,0.01707482003
5.98,0.0004750877947,0.01698172049
5.99,0.001412347667,0.01683561092
6,0.002333636727,0.01663775976
