"Freq [GHz]","re(S(Antenna1_1_1,Antenna1_1_1)) []","im(S(Antenna1_1_1,Antenna1_1_1)) []"
4,-0.0362586475808143,-0.165852835139007
4.012,-0.0450198627955694,-0.167415934905438
4.024,-0.0538716668454353,-0.168505426540968
4.036,-0.0627894551629021,-0.169114082023145
4.048,-0.0717465521119426,-0.169234817711814
4.06,-0.0807121687911115,-0.168862859879774
4.072,-0.0896534338741319,-0.167997073385597
4.084,-0.0985358810698895,-0.16664131161212
4.096,-0.107325867978461,-0.164804729490921
4.108,-0.115992025192365,-0.162501887502445
4.12,-0.124507285993338,-0.159751047340703
4.132,-0.132849595068249,-0.156572031681609
4.144,-0.141001872377913,-0.152985023073879
4.156,-0.148950814080372,-0.149008283276403
4.168,-0.156685826848342,-0.144656764481459
4.18,-0.164196695847153,-0.139942784534324
4.192,-0.171472008835454,-0.134875959989508
4.204,-0.178498139619115,-0.12946505401105
4.216,-0.185258879755445,-0.123719447862233
4.228,-0.191736551548363,-0.117650962630554
4.24,-0.197912805633373,-0.111274308628885
4.252,-0.203770562374731,-0.104607883302607
4.264,-0.209295731395176,-0.0976724989394582
4.276,-0.214477426865271,-0.09049025484131
4.288,-0.21930896726301,-0.0830827985736119
4.3,-0.223786177678964,-0.0754695063019519
4.312,-0.227906458202297,-0.0676672062533258
4.324,-0.231666661253501,-0.0596894463834084
4.336,-0.23506167346658,-0.0515481915212211
4.348,-0.238083176758747,-0.0432547836559395
4.36,-0.240720219198168,-0.0348226276782149
4.372,-0.242959549092507,-0.02626838523643
4.384,-0.244788265555389,-0.0176143308133948
4.396,-0.246195957704238,-0.00888721158373261
4.408,-0.247176842639033,-0.000117791701832048
4.42,-0.247732162698129,0.00866129870630301
4.432,-0.247870231645379,0.0174185261738878
4.444,-0.247605700658484,0.0261266330560514
4.456,-0.246957663331449,0.0347639907087103
4.468,-0.24594645156699,0.0433178396807226
4.48,-0.244590377994223,0.0517817370692364
4.492,-0.242903003322751,0.0601558745453052
4.504,-0.240890333303022,0.0684432205159445
4.516,-0.2385508950482,0.0766459467607507
4.528,-0.235876235331095,0.0847626157365154
4.54,-0.232853501391757,0.0927842574574494
4.552,-0.229469087770334,0.100693816008825
4.564,-0.225712420211552,0.10846544931558
4.576,-0.221579269687575,0.116066511001114
4.588,-0.217074872851755,0.123461061499117
4.6,-0.212213795536924,0.130613207614874
4.612,-0.207020592237369,0.137491109438403
4.624,-0.201526471579056,0.144070912204283
4.636,-0.195766119274755,0.15033794176609
4.648,-0.189773740170515,0.156287660602126
4.66,-0.183579452277199,0.161924303713246
4.672,-0.177205772009213,0.167257841187458
4.684,-0.170666890099269,0.172301084367241
4.696,-0.163968420455757,0.177065281111665
4.708,-0.157108898584986,0.181556922394093
4.72,-0.150083436305314,0.185775445133857
4.732,-0.142886054926406,0.189712439252956
4.744,-0.135514308097895,0.19335194645591
4.756,-0.127971444057076,0.19667316898595
4.768,-0.120268127146593,0.199652377578248
4.78,-0.112423004314232,0.202267194983983
4.792,-0.104461692585228,0.204499054566693
4.804,-0.0964143969148172,0.206335451645586
4.816,-0.0883132388308854,0.207771236912895
4.828,-0.0801897477129131,0.208808331652883
4.84,-0.072071594354951,0.209454796926595
4.852,-0.0639818561609486,0.209722413866352
4.864,-0.0559380606711404,0.20962418616104
4.876,-0.0479528368286357,0.209172408209458
4.888,-0.0400349869212503,0.208376967784921
4.9,-0.0321919727235921,0.207244351593263
4.912,-0.0244311655576956,0.20577746716311
4.924,-0.0167616898479857,0.203977022674971
4.936,-0.00919539623750074,0.201842446084532
4.948,-0.00174687723651049,0.199373529467448
4.96,0.00556725725392269,0.196572441331534
4.972,0.0127289895328127,0.193443276798452
4.984,0.0197206288266867,0.189993509523575
4.996,0.0265261916971153,0.186232441166606
5.008,0.0331312887980403,0.182171200687943
5.02,0.0395242145520504,0.177820534126324
5.032,0.0456943318681795,0.173190920444666
5.044,0.051631984718413,0.168290564576021
5.056,0.0573269003337713,0.163126955667928
5.068,0.0627665427219057,0.15770586222387
5.08,0.0679366641083543,0.152034272772702
5.092,0.072819569283579,0.146120990198393
5.104,0.0773967201115914,0.139978210993829
5.116,0.0816491520396641,0.133622538803039
5.128,0.0855596933986498,0.127075667069671
5.14,0.0891151083642232,0.120363490842848
5.152,0.0923073542649076,0.113513913977138
5.164,0.0951349476966789,0.106555386230417
5.176,0.0976026536222571,0.0995146449994626
5.188,0.0997200706929893,0.0924131430473932
5.2,0.101498924559518,0.0852665361595482
5.212,0.102951603126371,0.0780842189994439
5.224,0.104086490073072,0.0708685620735002
5.236,0.104906969995327,0.0636185557429738
5.248,0.1054090648298,0.0563313621297709
5.26,0.105581595630743,0.0490070414037549
5.272,0.105407333727111,0.0416506029660125
5.284,0.104866319318477,0.0342745725118754
5.296,0.103938135931188,0.0269015762914081
5.308,0.102606953632125,0.0195619884779341
5.32,0.100864844511238,0.0122938134246567
5.332,0.0987134210570136,0.00513755873640598
5.344,0.0961655047831653,-0.0018665680375805
5.356,0.0932438250637725,-0.00868358402867682
5.368,0.0899785217787528,-0.0152867454230701
5.38,0.0864026904797766,-0.0216602510781616
5.392,0.0825487864515882,-0.027799652983483
5.404,0.0784432139055199,-0.0337089938965654
5.416,0.0741037637781911,-0.0393990576721629
5.428,0.0695382687559972,-0.0448817487585523
5.44,0.0647439730798862,-0.0501665702215186
5.452,0.0597114007847633,-0.0552552195702273
5.464,0.054427077958873,-0.0601397436315593
5.476,0.048879705739499,-0.0648023769685124
5.488,0.0430625910839047,-0.0692155495976874
5.5,0.0369790968575314,-0.0733466437218393
5.512,0.0306433356263104,-0.077161598130381
5.524,0.0240801750925881,-0.0806289412942723
5.536,0.0173225316425921,-0.083725808423227
5.548,0.0104080036976811,-0.0864384901412597
5.56,0.00337400731034069,-0.0887641714967621
5.572,-0.00374569916497101,-0.090709337856527
5.584,-0.0109254217915009,-0.092286345707027
5.596,-0.0181481196517357,-0.0935104347936896
5.608,-0.0254042210797397,-0.0943938862292616
5.62,-0.0326903777806803,-0.094944721391227
5.632,-0.0400052862214362,-0.0951636167632523
5.644,-0.0473460752110786,-0.0950443041624566
5.656,-0.0547050048348081,-0.0945764194256528
5.668,-0.0620680086739855,-0.0937470376825412
5.68,-0.0694141660381531,-0.0925454848844737
5.692,-0.076717268417642,-0.0909655412021978
5.704,-0.0839491587286497,-0.0890080023144762
5.716,-0.0910823843361112,-0.0866806478446234
5.728,-0.0980937837851073,-0.0839964929500197
5.74,-0.104966197872092,-0.0809718802122092
5.752,-0.111688117230483,-0.0776219531860016
5.764,-0.118254336284847,-0.0739597698654973
5.776,-0.124660800382953,-0.0699920468456297
5.788,-0.130902969329388,-0.065719843485511
5.8,-0.136971659256144,-0.0611408550752667
5.812,-0.142851850423862,-0.0562497972073439
5.824,-0.1485218833626,-0.0510444267595077
5.836,-0.153954146244303,-0.0455276109088392
5.848,-0.159119692068369,-0.0397100794951412
5.86,-0.163989392337865,-0.0336113281217474
5.872,-0.168540371273441,-0.0272581922453736
5.884,-0.172757276148257,-0.0206826103663216
5.896,-0.176634204517297,-0.0139174724068852
5.908,-0.180174480411323,-0.00699230251839292
5.92,-0.183387638435228,7.0232639084081E-05
5.932,-0.186285625763764,0.00725614498828778
5.944,-0.188879269546532,0.014558994652024
5.956,-0.191174121671176,0.0219805916563225
5.968,-0.193167514343251,0.0295254541225524
5.98,-0.194848359190158,0.0371978144485044
5.992,-0.196198131741612,0.0449970918870219
6.004,-0.197193470256468,0.0529146918874837
6.016,-0.197810388597782,0.0609334503319921
6.028,-0.198028289216197,0.0690267940921828
6.04,-0.197832748948755,0.0771621648120169
6.052,-0.197218867508135,0.0853030421723229
6.064,-0.196189470241182,0.0934142149289053
6.076,-0.194755935859939,0.101463281484321
6.088,-0.192934657676725,0.109424488632706
6.1,-0.190743971291666,0.117278949381282
6.112,-0.188201523938559,0.125014711281491
6.124,-0.185321527407217,0.132624610043055
6.136,-0.182113437299286,0.140104037475002
6.148,-0.178582363076151,0.147448437173852
6.16,-0.174729290896069,0.154651543592909
6.172,-0.170553410485318,0.161703753965094
6.184,-0.166053369345138,0.168591760785649
6.196,-0.161229338191228,0.175298945498425
6.208,-0.156084258912278,0.181806289582078
6.22,-0.150623791668765,0.188094185628226
6.232,-0.144856702930665,0.194142982038433
6.244,-0.13879474288062,0.199933428319946
6.256,-0.13245101612989,0.205448934200331
6.268,-0.125839843095621,0.210673392499304
6.28,-0.118976915517313,0.215592647750856
6.292,-0.111878020145622,0.220193378174409
6.304,-0.104560242064343,0.22446341062068
6.316,-0.0970409482295136,0.228391722260304
6.328,-0.089338426789699,0.231968544195539
6.34,-0.0814718652552283,0.235185714968365
6.352,-0.0734603424435202,0.238036558619253
6.364,-0.0653228848466618,0.24051681135127
6.376,-0.0570775797655617,0.242623580582368
6.388,-0.0487414184531249,0.244354339798256
6.4,-0.0403303345939363,0.245707816059423
6.412,-0.0318590351191168,0.246682038796263
6.424,-0.023342222799952,0.247274488305398
6.436,-0.0147943110341277,0.247481876611155
6.448,-0.00623095854655615,0.247300370952829
6.46,0.00233061738971168,0.246725892046632
6.472,0.0108721174821555,0.245755646511521
6.484,0.0193734808035294,0.244387682248467
6.496,0.0278143522693268,0.242622240932709
6.508,0.0361738142307354,0.240461570962059
6.52,0.0444318498842855,0.237909438629237
6.532,0.0525692272107622,0.234971277124372
6.544,0.0605678903881036,0.231652509020131
6.556,0.0684101317038661,0.227959607004889
6.568,0.076078423954822,0.2238983732008
6.58,0.0835548606130142,0.219474916845906
6.592,0.0908203893187471,0.214696154807345
6.604,0.0978551049572451,0.209570468205983
6.616,0.104638447355563,0.204108354697365
6.628,0.111149862087125,0.198323505691761
6.64,0.117370401696108,0.192232321090103
6.652,0.123283403063608,0.185854104451979
6.664,0.128875862178451,0.179209541467849
6.676,0.134138346753173,0.172319391399182
6.688,0.139064754425903,0.165203276468513
6.7,0.143651873717859,0.157878042025181
6.712,0.147896761658392,0.150357637056495
6.724,0.151796295225795,0.142652516049173
6.736,0.155344579900355,0.134770915452983
6.748,0.158532427232131,0.126720405833833
6.76,0.161346990934943,0.118509880884689
6.772,0.163772290513471,0.110151101737844
6.784,0.165790904260285,0.101660410507405
6.796,0.167385669615379,0.0930597526174949
6.808,0.168542202246678,0.0843757648960251
6.82,0.169250654190726,0.075639090412304
6.832,0.169506598309731,0.0668828227467451
6.844,0.169312171043578,0.0581396513004536
6.856,0.1686748765204,0.0494400594224652
6.868,0.167606332357236,0.0408108506921922
6.88,0.166120692034664,0.0322738738244522
6.892,0.164232019719695,0.0238462400485811
6.904,0.161953208105224,0.0155409110092359
6.916,0.159294151483785,0.00736838002145085
6.928,0.1562614658483,-0.00066181979848384
6.94,0.15285892327857,-0.0085392118755946
6.952,0.149088208235925,-0.0162513574786455
6.964,0.144950191925172,-0.0237829837079544
6.976,0.140446610224602,-0.0311155112119222
6.988,0.135581104595741,-0.0382278598062143
7,0.130360443965668,-0.0450973832805441
7.012,0.124794649095447,-0.0517007645186924
7.024,0.118897221713918,-0.0580151070922497
7.036,0.112684845150736,-0.0640189113525784
7.048,0.106176491956144,-0.0696928039360505
7.06,0.0993930425731321,-0.0750196257938132
7.072,0.0923567120947686,-0.0799848617923874
7.084,0.0850902809663717,-0.08457609278532
7.096,0.0776170571679836,-0.0887834166186253
7.108,0.0699602856398778,-0.0925992438530643
7.12,0.0621428780982976,-0.0960179117697624
7.132,0.0541874807806975,-0.0990358098479466
7.144,0.0461155648929158,-0.101651128848402
7.156,0.0379474488061919,-0.103863460020098
7.168,0.0297018369942507,-0.105673453411524
7.18,0.0213962042502573,-0.10708189119109
7.192,0.0130462991552958,-0.108089437863292
7.204,0.00466731158489516,-0.108696099777618
7.216,-0.00372601483052954,-0.108900332477896
7.228,-0.0121178631403752,-0.108700026000518
7.24,-0.0204916378319514,-0.108091602416814
7.252,-0.0288281378156075,-0.107071768691764
7.264,-0.0371061297099335,-0.105637916075648
7.276,-0.0453020859865357,-0.103789219894807
7.288,-0.0533905064295937,-0.10152763338449
7.3,-0.0613454866036095,-0.0988584854681309
7.312,-0.069141071649777,-0.0957904931323207
7.324,-0.076752544334654,-0.0923361487377109
7.336,-0.0841573429550434,-0.0885107611651842
7.348,-0.0913359585541535,-0.0843316691250117
7.36,-0.0982713888975287,-0.0798174157616253
7.372,-0.104950343935312,-0.0749869928173521
7.384,-0.111361551508953,-0.0698587472482526
7.396,-0.11749597481003,-0.0644500767525113
7.408,-0.123345984854805,-0.0587773232853881
7.42,-0.128904941838925,-0.052855402363702
7.432,-0.134166385535645,-0.0466979883540169
7.444,-0.139123814811907,-0.0403179816765269
7.456,-0.143770400013132,-0.0337275306337312
7.468,-0.148098964020381,-0.0269385638474792
7.48,-0.152101248471805,-0.0199627254332855
7.492,-0.155768314388734,-0.0128122806403642
7.504,-0.159090597916374,-0.00550014715481191
7.516,-0.162057238334283,0.00195910349523104
7.528,-0.164657522641326,0.00954922631269695
7.54,-0.166880806450721,0.0172513277611463
7.552,-0.168716893506465,0.0250438103380594
7.564,-0.1701589238005,0.0329022825719566
7.576,-0.171202311274502,0.0407998271489649
7.588,-0.171846962360572,0.0487091279219664
7.6,-0.172097630820298,0.0566023118061694
7.612,-0.171963225373105,0.0644530283178967
7.624,-0.17145703466348,0.0722389569720032
7.636,-0.170593993300542,0.0799417905017213
7.648,-0.169391626586614,0.0875475578138961
7.66,-0.16786410709626,0.0950485396968777
7.672,-0.166024564576747,0.102439843156765
7.684,-0.163879620205796,0.109719548854674
7.696,-0.161433230459192,0.116885134760472
7.708,-0.158683496363683,0.12393253496506
7.72,-0.155626294448478,0.130853147331595
7.732,-0.152256202969626,0.137633127337533
7.744,-0.148569311711941,0.144253239793513
7.756,-0.144566153332266,0.150689891734553
7.768,-0.140252734381736,0.156916344702419
7.78,-0.135641607237917,0.16290570230497
7.792,-0.130752279246853,0.168633258610516
7.804,-0.125609308278804,0.174079244033049
7.816,-0.120240901248798,0.179230016144038
7.828,-0.114674714766293,0.18407967905647
7.84,-0.10893739332527,0.188627660950689
7.852,-0.10305078693939,0.192879363709253
7.864,-0.0970307216305448,0.196841989022223
7.876,-0.0908881997694303,0.200523245326809
7.888,-0.0846283690306405,0.203928221368436
7.9,-0.0782539134878563,0.207057958724283
7.912,-0.0717664249689142,0.209908408057147
7.924,-0.0651691299840014,0.212471198980039
7.936,-0.0584689541946386,0.214734663538151
7.948,-0.0516774081698117,0.216685573052393
7.96,-0.044810559997523,0.218311475906329
7.972,-0.0378892617902537,0.219602883015628
7.984,-0.0309364747272667,0.220554459647279
7.996,-0.0239757455931527,0.221165357897212
8.008,-0.0170303153373305,0.221439153716528
8.02,-0.0101201580685928,0.221383378536457
8.032,-0.00326182059401907,0.221006364341611
8.044,0.00353022255031488,0.220317765772891
8.056,0.0102451936554303,0.219325334024127
8.068,0.0168733451846314,0.218035951564843
8.08,0.0234048034199422,0.216454451762706
8.092,0.0298288447461321,0.214584246201034
8.104,0.0361330843678936,0.212428946130166
8.116,0.0423042017565379,0.209992731504418
8.128,0.0483271877005301,0.207282054047186
8.14,0.0541879038063057,0.204305331315925
8.152,0.0598726584488735,0.201072919359173
8.164,0.0653703626326641,0.197597467760417
8.176,0.0706723605864366,0.193891342793399
8.188,0.0757721565672798,0.189965810386603
8.2,0.0806650380921142,0.185831095895611
8.212,0.0853458955037538,0.181494416476384
8.224,0.0898091806166788,0.176961787035721
8.236,0.0940471392734957,0.172237753980227
8.248,0.0980492178305497,0.167327083766173
8.26,0.101801978132516,0.162235650446032
8.272,0.105290545859551,0.156973479921308
8.284,0.108499975876327,0.151554412885725
8.296,0.111416117713752,0.145995709655583
8.308,0.11402822385511,0.140318375841359
8.32,0.116330421020455,0.13454587021423
8.332,0.1183209917895,0.128701136246442
8.344,0.120002847024702,0.122805795117178
8.356,0.121382255278854,0.116878105519971
8.368,0.122467035669082,0.110932327800314
8.38,0.123264841176556,0.104978716962718
8.392,0.12378127935452,0.0990240297057985
8.404,0.124018976156463,0.093073241245251
8.416,0.123976907703293,0.0871311201961038
8.428,0.123651035584222,0.0812039881324341
8.44,0.123035165210416,0.0753012411737147
8.452,0.122122821872039,0.0694356838238188
8.464,0.12090843423361,0.0636236751704157
8.476,0.11938940003244,0.0578850152758414
8.488,0.1175660188782,0.0522406110144673
8.5,0.115442954643031,0.0467118232294487
8.512,0.113028171841803,0.041319169026795
8.524,0.110332543801671,0.0360807841324472
8.536,0.107368361872975,0.0310127495761469
8.548,0.104149179757203,0.0261280783195334
8.56,0.10068800787108,0.0214377071972532
8.572,0.0969972857899769,0.0169508011513045
8.584,0.0930886328385333,0.0126757001612297
8.596,0.0889728025273219,0.00861992144945367
8.608,0.0846601877907972,0.00479133843877574
8.62,0.0801608479015991,0.00119765719475181
8.632,0.0754850125597373,-0.00215333150975471
8.644,0.0706433560706494,-0.00525381785281032
8.656,0.0656460575206407,-0.00809647945103935
8.668,0.0605046007375319,-0.0106732361734685
8.68,0.0552299770965955,-0.0129769991545582
8.692,0.0498337778647094,-0.0149999846597684
8.704,0.0443281446802443,-0.0167342610619386
8.716,0.0387260998677917,-0.0181722141113312
8.728,0.0330420843644122,-0.0193057517409815
8.74,0.0272918412992008,-0.0201275661820937
8.752,0.0214929200111884,-0.020631306270712
8.764,0.0156641116637451,-0.0208120607640258
8.776,0.00982528823099179,-0.0206672015520962
8.788,0.00399671702931386,-0.0201962728392064
8.8,-0.00180164300629495,-0.0194014656899574
8.812,-0.00755089960566479,-0.0182868061401517
8.824,-0.0132336562274919,-0.0168581985966242
8.836,-0.0188337847100432,-0.0151221051357426
8.848,-0.0243371747516891,-0.0130855762239065
8.86,-0.0297303513140151,-0.0107554231911951
8.872,-0.0350010759692535,-0.00813783202881025
8.884,-0.0401366128569196,-0.00523900398220443
8.896,-0.0451244278116395,-0.00206467612109228
8.908,-0.0499513781044104,0.00137908258013875
8.92,-0.0546039128823635,0.00508556853554509
8.932,-0.059068465237508,0.00904709033756551
8.944,-0.063331252565988,0.013254851294872
8.956,-0.0673789410795506,0.0176993630507396
8.968,-0.0711991240919696,0.0223700309170706
8.98,-0.0747794256187823,0.0272556298361812
8.992,-0.0781080373052169,0.0323444614826582
9.004,-0.0811736440272027,0.0376243414022243
9.016,-0.0839647632077536,0.0430823910428985
9.028,-0.0864701131369124,0.0487048622656106
9.04,-0.0886786352815393,0.0544760810372522
9.052,-0.0905801029200008,0.0603791223499477
9.064,-0.0921655390869774,0.0663951530532054
9.076,-0.0934281123132322,0.0725038808398143
9.088,-0.0943635546562245,0.0786841751220613
9.1,-0.0949705037218016,0.0849146297313229
9.112,-0.0952506041902881,0.0911748219722844
9.124,-0.0952073636287448,0.0974461483926172
9.136,-0.094846228174982,0.103712314804148
9.148,-0.094172908770204,0.109959571564589
9.16,-0.0931924248933961,0.11617618420515
9.172,-0.0919081255161385,0.122352745191319
9.184,-0.0903215072567374,0.128479357285505
9.196,-0.0884319368974039,0.134545934924447
9.208,-0.0862370033070647,0.140540418948442
9.22,-0.0837345196759849,0.146448127554367
9.232,-0.0809225238034986,0.152251197616528
9.244,-0.0778014419732252,0.157929465798113
9.256,-0.0743748903365023,0.163460799196238
9.268,-0.0706505344149939,0.168822178489422
9.28,-0.0666401414357767,0.17399197809081
9.292,-0.062358917028349,0.178950144531187
9.304,-0.0578249608357938,0.183680047411451
9.316,-0.0530577497725427,0.188169005492928
9.328,-0.0480769612790724,0.192408164566991
9.34,-0.0429010129398264,0.196392153232466
9.352,-0.0375458705037848,0.200117969758451
9.364,-0.0320252731716426,0.203584071198546
9.376,-0.0263499965800487,0.206788940753691
9.388,-0.0205285776488894,0.209729916240602
9.4,-0.0145685184337324,0.212403008218362
9.412,-0.00847665538796965,0.214800968364261
9.424,-0.00226136570029323,0.216915265413771
9.436,0.00406742086376538,0.218735343536827
9.448,0.0104967444942108,0.220249983306412
9.46,0.0170115921370525,0.221448241256672
