"Freq [GHz]","re(S(Antenna1_1_p1,Antenna1_1_p1)) []","im(S(Antenna1_1_p1,Antenna1_1_p1)) []"
3,0.0970932625463872,-0.080938076666587
3.002,0.0972046905829999,-0.0827955769391278
3.004,0.0972358015919265,-0.084725562218213
3.006,0.0971828939855175,-0.0867134670868325
3.008,0.0970316683700517,-0.0887606139320777
3.01,0.0967867962832745,-0.0908521330578913
3.012,0.0964312995359965,-0.0929915852872454
3.014,0.0959774729037069,-0.09516222626084
3.016,0.0954041891881895,-0.097357401341087
3.018,0.0947310323192424,-0.099568491851679
3.02,0.0939273015663935,-0.101787373359505
3.022,0.0930210578706598,-0.104010588667512
3.024,0.0919962331263809,-0.106230961444068
3.026,0.0908508736731175,-0.108423015590792
3.028,0.0895936845975956,-0.110597008982353
3.03,0.0882267929857071,-0.112734926928811
3.032,0.0867465489546373,-0.114829636690385
3.034,0.0851606246050112,-0.11687932606126
3.036,0.0834689124531525,-0.118866324402279
3.038,0.0816776225334368,-0.120790351441175
3.04,0.0797899124807017,-0.122640467827268
3.042,0.077819455652807,-0.124421645391676
3.044,0.07575021969324,-0.126102450154039
3.046,0.0736141826568701,-0.127694639172736
3.048,0.071402409483786,-0.129193041336616
3.05,0.0691301444772692,-0.130588851592254
3.052,0.066806567843858,-0.131882518520705
3.054,0.06442759860455,-0.133061305723839
3.056,0.0620043960301328,-0.134134073010182
3.058,0.0595601987046504,-0.135084719120212
3.06,0.0570854332101762,-0.13591929422134
3.062,0.0545937591125629,-0.136643370112313
3.064,0.0520922259232852,-0.137248109627263
3.066,0.0496096166324716,-0.137736895259194
3.068,0.0471176028450752,-0.138108116863156
3.07,0.0446569887329626,-0.1383543684589
3.072,0.0422224203984154,-0.138498603453082
3.074,0.0398321473527382,-0.138533999691131
3.076,0.0374656866990651,-0.138463932428602
3.078,0.0351715807113133,-0.138291062312142
3.08,0.0329064108552896,-0.138029709790073
3.082,0.0307260897700308,-0.13766326091249
3.084,0.028622426350247,-0.137228733460999
3.086,0.0265733551879667,-0.136705172864127
3.088,0.0246151610624046,-0.136114547101151
3.09,0.0227538972159499,-0.135469944213669
3.092,0.020967801600368,-0.134756814840825
3.094,0.0192685308332107,-0.133985611987958
3.096,0.0176708988544003,-0.133181391939094
3.098,0.0161732898429856,-0.132349826026897
3.1,0.0147667721741464,-0.131495481527356
3.102,0.0134783442163232,-0.13063229627108
3.104,0.0122655179088112,-0.129748460438592
3.106,0.011160442928891,-0.128868288445469
3.108,0.0101483979200803,-0.127986121582813
3.11,0.0092327295599295,-0.127143430374959
3.112,0.0084095978982531,-0.126297042861783
3.114,0.0076775204355584,-0.125497165386964
3.116,0.0070237766217158,-0.124738264011707
3.118,0.0064535321448076,-0.12403760775327
3.12,0.0059568248101886,-0.123365179120144
3.122,0.0055351235398488,-0.122762399324856
3.124,0.0051662930678793,-0.122228928816503
3.126,0.0048580367522858,-0.121760123013957
3.128,0.0046010905009227,-0.121366588447773
3.13,0.0043869547807671,-0.121049996951722
3.132,0.00419676727832008,-0.120831907614102
3.134,0.004044257015284,-0.120677755468731
3.136,0.00391805507752099,-0.120602060515617
3.138,0.00380388097047483,-0.120625251491332
3.14,0.0036849168026765,-0.120739857009134
3.142,0.00356156994634423,-0.12093925988881
3.144,0.00341757485030222,-0.121232289786205
3.146,0.00326949906054882,-0.121597585902471
3.148,0.00306831928836578,-0.122058326963098
3.15,0.00285868588628789,-0.122598475616622
3.152,0.00259033350693698,-0.123217752343115
3.154,0.00227063647817696,-0.12390639613237
3.156,0.0018756263084208,-0.124668623191885
3.158,0.00144922022223433,-0.125498679104539
3.16,0.000943653078193199,-0.126392969446072
3.162,0.000333015372996001,-0.127324003528263
3.164,-0.000339321570214799,-0.12831874523796
3.166,-0.0010873909071991,-0.12935019968577
3.168,-0.0019393949477878,-0.130412485208574
3.17,-0.0028908358907379,-0.131496878621821
3.172,-0.003929300668365,-0.132609185516584
3.174,-0.005068492710902,-0.133727869029355
3.176,-0.0063197400505904,-0.134831797192713
3.178,-0.0076541100655646,-0.135958056749655
3.18,-0.0090986511733719,-0.137057303579031
3.182,-0.0106491823543407,-0.138120189768046
3.184,-0.0123000122246394,-0.139173675343555
3.186,-0.0140282456290488,-0.140190897891373
3.188,-0.0158771766735233,-0.14114387965675
3.19,-0.0178124123974359,-0.142044413339557
3.192,-0.0198353410356117,-0.142872663454312
3.194,-0.0219489779100576,-0.143659736990998
3.196,-0.0241387373814375,-0.144350581746725
3.198,-0.0264090676802961,-0.144969263508217
3.2,-0.0287356515279762,-0.145485942778068
3.202,-0.0311255497523491,-0.145901637556932
3.204,-0.033589090012184,-0.146243408477445
3.206,-0.0360879331783099,-0.146467208897038
3.208,-0.0386323128164999,-0.146578609790586
3.21,-0.0411989947020784,-0.14657163581289
3.212,-0.0437991343112741,-0.146464287511009
3.214,-0.0464200417502763,-0.146240345376442
3.216,-0.0490522166192783,-0.145894250857167
3.218,-0.0516746287207802,-0.145432735609524
3.22,-0.0542965735018896,-0.144851771450005
3.222,-0.0569033180513105,-0.144161355176815
3.224,-0.0594806455651017,-0.143339671471418
3.226,-0.0620365164989182,-0.14241006976985
3.228,-0.0645364102604161,-0.141367425263954
3.23,-0.0669920625832065,-0.140218517212507
3.232,-0.0693932056904913,-0.138961376172175
3.234,-0.0717287067774804,-0.137606107728403
3.236,-0.073995506625483,-0.136154195486159
3.238,-0.0761847124688185,-0.134608010750569
3.24,-0.0782923263823694,-0.132982238342458
3.242,-0.0803012060499061,-0.131274097847793
3.244,-0.0822230320991684,-0.129501909487981
3.246,-0.084052021526613,-0.127656338985128
3.248,-0.0857769055519803,-0.125757359392137
3.25,-0.0873794410524992,-0.123814054592781
3.252,-0.0888853314369234,-0.121822436293633
3.254,-0.0902814653592231,-0.119799296738938
3.256,-0.0915646662820309,-0.117756607439083
3.258,-0.0927274692898637,-0.115695537870805
3.26,-0.093783538682013,-0.113626555483794
3.262,-0.0947252803152309,-0.111558982374253
3.264,-0.0955607875861025,-0.109499812039867
3.266,-0.0962858975831733,-0.107456868552483
3.268,-0.0968984298488425,-0.105448715150469
3.27,-0.0974128327109247,-0.103468032055985
3.272,-0.09781559083403,-0.101522973409156
3.274,-0.0981319097105963,-0.099634017920265
3.276,-0.0983596130117412,-0.097799102511829
3.278,-0.0984978445477944,-0.096025124290619
3.28,-0.0985485873345796,-0.094314226648684
3.282,-0.0985446461504739,-0.092679026120279
3.284,-0.0984585639101423,-0.091120397480745
3.286,-0.0983212391290687,-0.089649714565387
3.288,-0.0981352683788109,-0.088260365548274
3.29,-0.0978936988679762,-0.086964298951023
3.292,-0.0976289096809712,-0.085753176211529
3.294,-0.0973155856774589,-0.084644442672683
3.296,-0.097000283484102,-0.083624832431055
3.298,-0.0966534896930166,-0.082702755825541
3.3,-0.0963295496954852,-0.081878028035977
3.302,-0.095998087075401,-0.0811478003717829
3.304,-0.095672617171971,-0.0805048562204987
3.306,-0.095377760602186,-0.0799644651163946
3.308,-0.095114444161481,-0.0795095568090116
3.31,-0.094883084686183,-0.079134192641678
3.312,-0.094692431451738,-0.0788519622001005
3.314,-0.094563229300602,-0.0786307302608205
3.316,-0.094482706338956,-0.0784946183697823
3.318,-0.094468222319156,-0.0784195973608324
3.32,-0.094515675354918,-0.0784101380232342
3.322,-0.094655923106244,-0.0784461654401902
3.324,-0.094863933124161,-0.0785340211663709
3.326,-0.095154065815144,-0.0786653617894426
3.328,-0.095534289325334,-0.0788284401555907
3.33,-0.096005214484514,-0.0790066681811052
3.332,-0.096571671249803,-0.0792026394408989
3.334,-0.097229010579151,-0.0794150141263291
3.336,-0.097978623884604,-0.0796232405599856
3.338,-0.098826531825247,-0.0798220242962834
3.34,-0.099771118760002,-0.0800048859651442
3.342,-0.100810636790126,-0.0801658383326365
3.344,-0.101934090061499,-0.0802865520504825
3.346,-0.103152575176659,-0.0803672630585703
3.348,-0.104457988976631,-0.0804024259927129
3.35,-0.105840558592474,-0.080372737689455
3.352,-0.107310474626631,-0.0802848567718617
3.354,-0.108848541904032,-0.0801214197904176
3.356,-0.110452256842974,-0.0798827622828962
3.358,-0.112123633585741,-0.0795589051563293
3.36,-0.113848091541048,-0.0791419764679887
3.362,-0.115620146911194,-0.0786328753444171
3.364,-0.117435452913034,-0.0780241570905198
3.366,-0.119280123165697,-0.0773065432586916
3.368,-0.121148935981099,-0.0764898455680128
3.37,-0.123052483495204,-0.0755545519934807
3.372,-0.124947132402098,-0.0745102795153162
3.374,-0.126843748395688,-0.0733520391583304
3.376,-0.128737816943842,-0.0720831358513154
3.378,-0.130617312318772,-0.0706977677065588
3.38,-0.13247589846618,-0.0691899616193595
3.382,-0.134277934119734,-0.0675871010176676
3.384,-0.136049705891887,-0.0658695439617444
3.386,-0.137771777183414,-0.064034661853935
3.388,-0.139430828450689,-0.0621070774584745
3.39,-0.141018364328798,-0.0600777932913831
3.392,-0.142538888889399,-0.0579468324704763
3.394,-0.143969213595402,-0.0557307925853839
3.396,-0.145313117927427,-0.0534234933777036
3.398,-0.146562783886031,-0.0510497380211993
3.4,-0.147707447967788,-0.0486026772131265
3.402,-0.148749715831073,-0.0460818056686012
3.404,-0.149678182311757,-0.0435171090950835
3.406,-0.150499191548559,-0.0408941136029242
3.408,-0.151184263698336,-0.03824561357905
3.41,-0.151756285361074,-0.0355594463346889
3.412,-0.152202608794713,-0.0328567692882155
3.414,-0.152525656059788,-0.0301322695650991
3.416,-0.15272255455385,-0.0274081677519436
3.418,-0.152795580025692,-0.0246838707996081
3.42,-0.152735457769408,-0.0219785668484765
3.422,-0.152557793568225,-0.0192936352707805
3.424,-0.152262067038167,-0.016645279178063
3.426,-0.151841031821508,-0.0140435235787225
3.428,-0.151310134140079,-0.0114747365116846
3.43,-0.150664774598331,-0.0089747901111962
3.432,-0.149911997176248,-0.0065418918616924
3.434,-0.149065728962069,-0.0041672790408036
3.436,-0.148114139624843,-0.0018894996674868
3.438,-0.147087621666747,0.000307505072754601
3.44,-0.145972872183315,0.0024153551654898
3.442,-0.144775825819395,0.0044204191249245
3.444,-0.143528210962002,0.0063311472112631
3.446,-0.142222431333934,0.00813194313801339
3.448,-0.140862096109294,0.0098189346191348
3.45,-0.139461915124751,0.0113987289460523
3.452,-0.138029475607194,0.0128557384345778
3.454,-0.136579733245179,0.0142090532016536
3.456,-0.135116635827762,0.0154408494520192
3.458,-0.133643731014086,0.0165503995846751
3.46,-0.132187780035375,0.0175553433793084
3.462,-0.13074731379174,0.0184409934424702
3.464,-0.129318017326315,0.0192133709937169
3.466,-0.12793643120724,0.01988459898154
3.468,-0.126586508704509,0.0204380993892047
3.47,-0.12527884473762,0.0209051990804226
3.472,-0.124032239728117,0.0212750929148729
3.474,-0.12285329224093,0.0215519385936166
3.476,-0.121752525346626,0.0217442768943116
3.478,-0.120716060560446,0.0218648714053468
3.48,-0.119764377931248,0.0219135216647556
3.482,-0.118916151080277,0.0219105607120513
3.484,-0.118142243549791,0.0218387487218373
3.486,-0.117470794141562,0.0217281672163406
3.488,-0.116902210355227,0.0215803608227411
3.49,-0.116430982856493,0.0214087596063574
3.492,-0.116061993575232,0.0212121233912897
3.494,-0.115801646433395,0.0210148987812793
3.496,-0.115653794912865,0.020813958807463
3.498,-0.115593486103101,0.0206202060598831
3.5,-0.115648769768696,0.0204497052329316
3.502,-0.115797104056824,0.0203013968869651
3.504,-0.116048674604503,0.0201974729863738
3.506,-0.116388498215821,0.0201344710405141
3.508,-0.116826417118933,0.0201280356604342
3.51,-0.117350629833048,0.0201829239894722
3.512,-0.117954103225218,0.0202951252736368
3.514,-0.118621826157046,0.0204943195799
3.516,-0.119364908961291,0.0207776304642318
3.518,-0.120163548980324,0.0211505612835331
3.52,-0.121029534394516,0.0216192322473474
3.522,-0.121911549504488,0.0221774560094514
3.524,-0.12285194223727,0.0228376547792149
3.526,-0.123820988221351,0.0236126366328455
3.528,-0.124794540679635,0.0244962898244167
3.53,-0.125791308445279,0.0254796118467345
3.532,-0.126783863469472,0.0265989872520362
3.534,-0.127755353491063,0.0278040836924984
3.536,-0.128710915078135,0.0291320634805535
3.538,-0.129647267673494,0.030586931849104
3.54,-0.13054072312202,0.0321266307514222
3.542,-0.131379064203001,0.0337818081710213
3.544,-0.13217032412531,0.0355489494112127
3.546,-0.13289970749755,0.0373977199245896
3.548,-0.133557293309099,0.0393704859322344
3.55,-0.134115679841067,0.0414146233328438
3.552,-0.134604425846199,0.0435357367915516
3.554,-0.134988145964678,0.0457441064686826
3.556,-0.135277269818874,0.0480239183282487
3.558,-0.135453717418016,0.0503669957132887
3.56,-0.135513471282794,0.0527578228280024
3.562,-0.135467362459887,0.0551940851407256
3.564,-0.135280305246437,0.0576794017827101
3.566,-0.134991066994482,0.0601705001196854
3.568,-0.13456307501527,0.0626926691982709
3.57,-0.134004540463569,0.0652356249142099
3.572,-0.133323805851901,0.0677569519002531
3.574,-0.132497546484728,0.0702766162785179
3.576,-0.131559226742573,0.0727748011421303
3.578,-0.130485285196098,0.075239198542669
3.58,-0.129285056040155,0.0776623113459463
3.582,-0.127962149477755,0.0800437254881691
3.584,-0.126510118184027,0.082358975702838
3.586,-0.124962191630117,0.0846215825064247
3.588,-0.123284647857043,0.0867957881778896
3.59,-0.121515088889549,0.0888863211539944
3.592,-0.119651894179871,0.0908948764184159
3.594,-0.117691284281522,0.0928014740746786
3.596,-0.115646571823021,0.0946002687708876
3.598,-0.113527548047576,0.0962865467643024
3.6,-0.111344058451798,0.0978612375456428
3.602,-0.109094731698316,0.099316320433311
3.604,-0.106800363665454,0.100645406647309
3.606,-0.104461053992802,0.101846391903068
3.608,-0.102106868504851,0.102918304935005
3.61,-0.0997185493467481,0.103854219719927
3.612,-0.0973157499428813,0.104673832020241
3.614,-0.09492684349843,0.105350548726968
3.616,-0.0925335685199138,0.105899912442559
3.618,-0.0901664887207556,0.106305722133539
3.62,-0.0878232415295832,0.106599448442946
3.622,-0.0855250843088115,0.10676535972256
3.624,-0.0832534358331408,0.106805897634985
3.626,-0.0810576945921196,0.106746094975515
3.628,-0.0789259738566849,0.106568009833809
3.63,-0.0768570158057032,0.106281086185369
3.632,-0.0748776243745401,0.105887340602858
3.634,-0.0729675032816142,0.105406267737207
3.636,-0.0711658355720088,0.104856108788514
3.638,-0.069456708301026,0.104224890535804
3.64,-0.0678531705878427,0.103519756827567
3.642,-0.0663536804891157,0.102755205468104
3.644,-0.0649627875426463,0.101938488135696
3.646,-0.0636948990410528,0.101087636888607
3.648,-0.0625414654054769,0.100206516309864
3.65,-0.0615047494093152,0.0992989687435599
3.652,-0.0605903454619752,0.098383786049808
3.654,-0.0597882068426551,0.097470909491948
3.656,-0.0591060670441943,0.096563535952621
3.658,-0.0585459705769053,0.095665118943148
3.66,-0.0580858787824804,0.094815969207507
3.662,-0.0577435598879445,0.093988335964842
3.664,-0.0575078084696043,0.093209174393797
3.666,-0.0573740160270947,0.092480396255651
3.668,-0.0573325243074271,0.091812967351292
3.67,-0.0573769384191147,0.091224713187007
3.672,-0.0575156673463519,0.090701976793068
3.674,-0.0577233255831932,0.090276298801169
3.676,-0.0580154794908499,0.089926227501703
3.678,-0.0583446584850144,0.089690850730789
3.68,-0.0587309104052285,0.089536840757218
3.682,-0.0591634118163316,0.089494116949147
3.684,-0.0596336579859687,0.089559970980662
3.686,-0.0601157723641483,0.089739286378165
3.688,-0.060629872414082,0.090021713066555
3.69,-0.0611467415619625,0.090422687565286
3.692,-0.0616522554152549,0.090943247764221
3.694,-0.062144801795515,0.091560285059341
3.696,-0.0626160133813013,0.092308569008246
3.698,-0.0630472466354635,0.093145168995544
3.7,-0.063444369962104,0.09409825234803
3.702,-0.0637804727947052,0.095151340249723
3.704,-0.0640585426293483,0.096306757086724
3.706,-0.0642647925890189,0.097554584081918
3.708,-0.0644079100429834,0.098891343029536
3.71,-0.0644582044642514,0.1003119128095
3.712,-0.0644174494981272,0.101807575571676
3.714,-0.064275103687879,0.103358915909918
3.716,-0.0640295362204147,0.104983715934981
3.718,-0.0636787192621621,0.106655643694269
3.72,-0.0632139411849527,0.108362287592434
3.722,-0.0626267035920388,0.110113015022807
3.724,-0.061924456534209,0.111879085058697
3.726,-0.0610891932159882,0.113657781254529
3.728,-0.0601366277919552,0.115451377153723
3.73,-0.0590615096031279,0.117226045534862
3.732,-0.0578600581235063,0.118992935863342
3.734,-0.0565368790566625,0.120734394244959
3.736,-0.0550889679524823,0.122441021478801
3.738,-0.0535158942539859,0.124095620629592
3.74,-0.0518353512642767,0.125705926292037
3.742,-0.0500354380735766,0.12725433195079
3.744,-0.048126164996405,0.1287211827423
3.746,-0.0461145305788577,0.130112256290493
3.748,-0.0440008057759832,0.13141626459637
3.75,-0.041809524919317,0.132627607297433
3.752,-0.0395239816344924,0.133725756823967
3.754,-0.0371610001089863,0.134719004840228
3.756,-0.0347399345580003,0.135601250415486
3.758,-0.0322497168764503,0.136353316324918
3.76,-0.0297174313360652,0.136982401390421
3.762,-0.0271506178716571,0.137482435251226
3.764,-0.0245427299384565,0.137850368004489
3.766,-0.0219154287836317,0.138090842595677
3.768,-0.0192769388181991,0.138188359708851
3.77,-0.0166366708352739,0.138147818956864
3.772,-0.0139986516049708,0.137983846071422
3.774,-0.0113888295034069,0.137674520012995
3.776,-0.0088125916243638,0.137223453980683
3.778,-0.0062703721412697,0.136657869691911
3.78,-0.0037747470956254,0.135960770232047
3.782,-0.0013423879205656,0.135133251903885
3.784,0.0010304121664397,0.134193099847062
3.786,0.00332055337575378,0.13314098084731
3.788,0.00553077231058185,0.131970115515673
3.79,0.00765132509085449,0.130711228057565
3.792,0.00968282832295933,0.129350012921754
3.794,0.0115904391593377,0.127906969059247
3.796,0.0133959587579187,0.126382908044083
3.798,0.0150811226914331,0.124794476066006
3.8,0.0166516556565532,0.123147316314077
3.802,0.0181016843729092,0.121445481092191
3.804,0.019416688711936,0.119707289743454
3.806,0.0206053300955755,0.117935385976585
3.808,0.0216624543548525,0.116144204829174
3.81,0.0225892990082498,0.114339728618413
3.812,0.023381528319983,0.112551037358143
3.814,0.0240414835680902,0.110748876936862
3.816,0.0245777376523718,0.108975730294147
3.818,0.0249897940721842,0.107245266293396
3.82,0.0252765138040711,0.105546456629597
3.822,0.0254471550592572,0.103892878862044
3.824,0.0254935297109409,0.102294456219941
3.826,0.0254427765114711,0.100772238906983
3.828,0.0252855929093591,0.099305025644835
3.83,0.0250357005861134,0.097943707902572
3.832,0.0246940951629344,0.09666392916403
3.834,0.024266135817221,0.095483153095142
3.836,0.0237740191869614,0.094394543881143
3.838,0.0232194657309229,0.093416537463797
3.84,0.0226035877646799,0.092551871088522
3.842,0.0219585924615272,0.091797067931449
3.844,0.0212724077901687,0.091162619076506
3.846,0.020557415410273,0.090650598392342
3.848,0.019826312099173,0.090250697069313
3.85,0.0190966175555855,0.089980738836336
3.852,0.018368661022659,0.08983059058777
3.854,0.0176555856188963,0.089797415240213
3.856,0.0169684011943614,0.089881999619251
3.858,0.0163160706449444,0.090078338276237
3.86,0.015704018629777,0.090399050564943
3.862,0.0151501971954504,0.09081074487826
3.864,0.0146685981890784,0.091331293324821
3.866,0.0142501230192071,0.091948900465613
3.868,0.0139120913095446,0.092658375180543
3.87,0.0136656906895121,0.093448138145022
3.872,0.0135007010476653,0.094323715096482
3.874,0.0134444792049071,0.095259274000894
3.876,0.0134910320875539,0.096255424176267
3.878,0.0136465491702417,0.09729442596913
3.88,0.0139307535786352,0.098374625629995
3.882,0.0143199030820098,0.099492875282816
3.884,0.0148224238156259,0.100633809860439
3.886,0.0154570417929743,0.101782482656821
3.888,0.0162137523578174,0.102936292680379
3.89,0.0170887988260879,0.104075057895916
3.892,0.0180954404976088,0.105204226771054
3.894,0.0192206754176607,0.106288537169631
3.896,0.0204631959983541,0.10734528412988
3.898,0.0218259680898694,0.108348530803923
3.9,0.0232966204715106,0.109294298693221
3.902,0.0248724546325812,0.110174354988045
3.904,0.0265547057631329,0.110975679422914
3.906,0.0283331615345004,0.111688582298086
