"Freq [GHz]","re(S(Antenna1_1_p1,Antenna1_1_p1)) []","im(S(Antenna1_1_p1,Antenna1_1_p1)) []"
3,0.0813041713743872,-0.099843750602587
3.002,0.0799124798909999,-0.100342072931128
3.004,0.0785475455299265,-0.100791634561213
3.006,0.0772297600605175,-0.101195527074833
3.008,0.0759491742950517,-0.101557955773078
3.01,0.0747167756152745,-0.101875024901891
3.012,0.0735233289049965,-0.102156140176245
3.014,0.0723822870707069,-0.10241238875484
3.016,0.0712911077721895,-0.102644218908087
3.018,0.0702526071192424,-0.102856197314379
3.02,0.0692619480703935,-0.103052607749905
3.022,0.0683241263636598,-0.103241535371112
3.024,0.0674396426533809,-0.103427217971568
3.026,0.0666061233291175,-0.103612381825792
3.028,0.0658230327825956,-0.103807542863353
3.03,0.0650872612637071,-0.104013486778811
3.032,0.0643990992576373,-0.104233997876385
3.034,0.0637522237970112,-0.10448118402926
3.036,0.0631499042041525,-0.104745731551279
3.038,0.0625829482784368,-0.105044585534175
3.04,0.0620492859757017,-0.105377255642268
3.042,0.061546038546807,-0.105747923018676
3.044,0.06107212895224,-0.106155118348039
3.046,0.0606215174398701,-0.106607695228736
3.048,0.060182648911786,-0.107105893269616
3.05,0.0597613031582692,-0.107652594180254
3.052,0.059346932086858,-0.108245077829705
3.054,0.05892956601735,-0.108887920635839
3.056,0.0585143064010328,-0.109586449857182
3.058,0.0580912912078504,-0.110330034337212
3.06,0.0576531204089762,-0.11112572710434
3.062,0.0571988930415629,-0.111975161100313
3.064,0.0567248294922852,-0.112870780892263
3.066,0.0562089936044716,-0.113814500387194
3.068,0.0556743066260752,-0.114801944007156
3.07,0.0551016687309626,-0.1158349654029
3.072,0.0544767203834154,-0.116908815441082
3.074,0.0537988295367382,-0.118014430856131
3.076,0.0530869118920651,-0.119161581571602
3.078,0.0523025706643133,-0.120331099224142
3.08,0.0514754450832896,-0.121532148289073
3.082,0.0505839704030308,-0.12274915532549
3.084,0.049618395540247,-0.123979540094999
3.086,0.0486035207829667,-0.125231773986127
3.088,0.0475111305884046,-0.126483225833151
3.09,0.0463455789239499,-0.127727042888669
3.092,0.045117485885368,-0.128971543615425
3.094,0.0438215931062107,-0.130218550803538
3.096,0.0424523460104003,-0.131437204344694
3.098,0.0410130935919856,-0.132637822165897
3.1,0.0395028725211464,-0.133815402092316
3.102,0.0379286703023232,-0.13494779722508
3.104,0.0362843367768112,-0.136048652404592
3.106,0.034583442835891,-0.137111015842469
3.108,0.0328183829470803,-0.138136060341813
3.11,0.0309970198329295,-0.139091147809959
3.112,0.0291205053082531,-0.140007152850783
3.114,0.0271931930615584,-0.140854577204964
3.116,0.0252230905767158,-0.141638707665707
3.118,0.0232157517828076,-0.14234963380027
3.12,0.0211582729561886,-0.142999829617144
3.122,0.0190783702838488,-0.143576026308856
3.124,0.0169651966158793,-0.144072091061503
3.126,0.0148397448272858,-0.144491306435957
3.128,0.0126919939349227,-0.144836221686773
3.13,0.0105331278026671,-0.145100831264722
3.132,0.00837728647302008,-0.145281291235102
3.134,0.006213611259284,-0.145387500962731
3.136,0.00404789093152099,-0.145416582948617
3.138,0.00190496859217483,-0.145365678584332
3.14,-0.0002248401219235,-0.145238524129134
3.142,-0.00233008358165577,-0.14503424053281
3.144,-0.00439976872769778,-0.144761956507205
3.146,-0.00645753450045118,-0.144411893087471
3.148,-0.00846105223963422,-0.144000040797098
3.15,-0.0104402248837121,-0.143520261794622
3.152,-0.012363595039063,-0.142982370822115
3.154,-0.014241813091823,-0.14238845546737
3.156,-0.0160598250795792,-0.141746395147885
3.158,-0.0178362385687657,-0.141051276530539
3.16,-0.0195507786168068,-0.140317610895072
3.162,-0.021194125400004,-0.139546533905263
3.164,-0.0227849350762148,-0.13874321230496
3.166,-0.0243194759561991,-0.13790174638377
3.168,-0.0257832362467878,-0.137047459725574
3.17,-0.0271827384107379,-0.136181932414421
3.172,-0.028519534403365,-0.135288151536584
3.174,-0.029793035268902,-0.134398963084355
3.176,-0.0310025431255904,-0.133510311899713
3.178,-0.0321522561245646,-0.132617292209705
3.18,-0.0332368467263719,-0.131737615873031
3.182,-0.0342671297503407,-0.130875772099046
3.184,-0.0352461289576394,-0.130030856170555
3.186,-0.0361594953080488,-0.129207471948373
3.188,-0.0370364534885233,-0.12840350315375
3.19,-0.0378620781914359,-0.127632158254557
3.192,-0.0386506994106117,-0.126906680495312
3.194,-0.0393956109960576,-0.126203309197998
3.196,-0.0401077497614375,-0.125542117489725
3.198,-0.0407950664012961,-0.124926814015217
3.2,-0.0414522250329762,-0.124352480678068
3.202,-0.0420987349983491,-0.123830499858932
3.204,-0.042719213355284,-0.123341828152445
3.206,-0.0433333412765099,-0.122908608034038
3.208,-0.0439404638246999,-0.122517252661586
3.21,-0.0445598951800784,-0.12218230168089
3.212,-0.0451744885792741,-0.121887228373009
3.214,-0.0457992165702763,-0.121634536524442
3.216,-0.0464423656570783,-0.121427674565167
3.218,-0.0470991428069802,-0.121266672547524
3.22,-0.0477849242648896,-0.121139794567005
3.222,-0.0484934139753105,-0.121052014769815
3.224,-0.0492311850251017,-0.121000454266418
3.226,-0.0500151302869182,-0.12097262567985
3.228,-0.0508276415354161,-0.120980441844954
3.23,-0.0516857306152065,-0.121008949826507
3.232,-0.0525889480264913,-0.121054288895175
3.234,-0.0535369810264804,-0.121120569842403
3.236,-0.054537075370483,-0.121190824340159
3.238,-0.0555857353668185,-0.121269528105569
3.24,-0.0566837572863694,-0.121355204257458
3.242,-0.0578365727479061,-0.121434571749793
3.244,-0.0590443389541684,-0.121501938094981
3.246,-0.060302438228613,-0.121557576615128
3.248,-0.0616089352389803,-0.121591774030137
3.25,-0.0629720632754992,-0.121605190322781
3.252,-0.0643829916319234,-0.121596938128633
3.254,-0.0658415223622231,-0.121546113915938
3.256,-0.0673514607830309,-0.121466849954383
3.258,-0.0689028326008637,-0.121344155673805
3.26,-0.070496398671013,-0.121172629307794
3.262,-0.0721253658252309,-0.120959650255253
3.264,-0.0737897180061025,-0.120685261235867
3.266,-0.0754898468881733,-0.120360344086483
3.268,-0.0772164728468425,-0.119973342798469
3.27,-0.0789653564119247,-0.119531427038985
3.272,-0.08072663998203,-0.119017541266156
3.274,-0.0825059504135963,-0.118440043362265
3.276,-0.0842993244237412,-0.117797609040829
3.278,-0.0860936195667944,-0.117082363460619
3.28,-0.0878845424209796,-0.116307603543684
3.282,-0.0896748094878739,-0.115454008082279
3.284,-0.0914550750151423,-0.114529167280745
3.286,-0.0932182952300687,-0.113542805039387
3.288,-0.0949687316718109,-0.112483379674274
3.29,-0.0966847668639762,-0.111357919982023
3.292,-0.0983779843599712,-0.110164997093529
3.294,-0.100031654348459,-0.108915096939683
3.296,-0.101649739183602,-0.107596651300055
3.298,-0.103220874056017,-0.106225725494541
3.3,-0.104757293418485,-0.104791896625977
3.302,-0.106234963640401,-0.103312235235783
3.304,-0.107662029542971,-0.101779340888499
3.306,-0.109031195270186,-0.100205109516395
3.308,-0.110340806578481,-0.0985815186320116
3.31,-0.111593155243183,-0.096928481264678
3.312,-0.112783919740738,-0.0952399514661005
3.314,-0.113900014646602,-0.0935225099298205
3.316,-0.114955840792956,-0.0917843724187823
3.318,-0.115938618018156,-0.0900270072448324
3.32,-0.116856731146918,-0.0882558560611342
3.322,-0.117704479898244,-0.0864743948196902
3.324,-0.118481027004161,-0.0846889276533709
3.326,-0.119193108351144,-0.0829059625214426
3.328,-0.119841111167334,-0.0811228794955907
3.33,-0.120417931015514,-0.0793561457561052
3.332,-0.120932990091803,-0.0775969943998989
3.334,-0.121384488916151,-0.0758610699431291
3.336,-0.121777416347604,-0.0741473338047856
3.338,-0.122111658963247,-0.0724614212042834
3.34,-0.122390632458002,-0.0708007240041442
3.342,-0.122622958280126,-0.0691758819136365
3.344,-0.122802219582499,-0.0675865063334825
3.346,-0.122936015035659,-0.0660353501365703
3.348,-0.123031477026631,-0.0645312606287129
3.35,-0.123090512904474,-0.063062067100455
3.352,-0.123118513046631,-0.0616440418538617
3.354,-0.123118174541032,-0.0602735076824176
3.356,-0.123099476306974,-0.0589520718908962
3.358,-0.123052301800141,-0.0576794515023293
3.36,-0.122991025005948,-0.0564515579299887
3.362,-0.122922872627494,-0.0552808266554171
3.364,-0.122848612969034,-0.0541584061245198
3.366,-0.122767896301697,-0.0530824103726916
3.368,-0.122693822283099,-0.0520574473950128
3.37,-0.122631798413204,-0.0510663841194807
3.372,-0.122566428197098,-0.0501328390923162
3.374,-0.122528048925788,-0.0492372459353304
3.376,-0.122504822644842,-0.0483855301683154
3.378,-0.122502872030772,-0.0475666682155588
3.38,-0.12252079365818,-0.0467813579153595
3.382,-0.122576188764734,-0.0460324113196676
3.384,-0.122658614124887,-0.0453085930017444
3.386,-0.122771929748414,-0.044609023689935
3.388,-0.122920387543689,-0.0439314803594745
3.39,-0.123105137891798,-0.0432761517103831
3.392,-0.123328757919399,-0.0426266781654763
3.394,-0.123590567561402,-0.0419916239353839
3.396,-0.123890698525427,-0.0413598870719036
3.398,-0.124237778089031,-0.0407264432709313
3.4,-0.124622428778788,-0.0400889084429265
3.402,-0.125044076235073,-0.0394452349126012
3.404,-0.125509279234757,-0.0387907189080835
3.406,-0.126015832060559,-0.0381116329779242
3.408,-0.126553328983336,-0.03742645769505
3.41,-0.127125287549074,-0.0367120734106889
3.412,-0.127733657208713,-0.0359694740322155
3.414,-0.128372750010788,-0.0351950174860991
3.416,-0.12904085092985,-0.0343890436339436
3.418,-0.129732518683692,-0.0335395859066081
3.42,-0.130452547332408,-0.0326584217124765
3.422,-0.131183941581225,-0.0317231869877805
3.424,-0.131939318528167,-0.030750892502063
3.426,-0.132704896274508,-0.0297295010197225
3.428,-0.133474698297079,-0.0286546747346846
3.43,-0.134257193847331,-0.0275352803221962
3.432,-0.135030293745248,-0.0263597671446924
3.434,-0.135806238546669,-0.0251327889908036
3.436,-0.136568372061443,-0.0238531274294868
3.438,-0.137326851526747,-0.0225190750162454
3.44,-0.138063525604315,-0.0211329772795102
3.442,-0.138776911292395,-0.0196946745560755
3.444,-0.139469744414002,-0.0182021308037369
3.446,-0.140137851996934,-0.0166585659469866
3.448,-0.140762788251294,-0.0150755009838652
3.45,-0.141354622331751,-0.0134382980649477
3.452,-0.141906938759694,-0.0117594299634222
3.454,-0.142416886206179,-0.0100340325883464
3.456,-0.142872706876762,-0.00827478357698083
3.458,-0.143289279234086,-0.00648472134932494
3.46,-0.143639077673375,-0.00464307494469163
3.462,-0.14394127637874,-0.00278257677752981
3.464,-0.144173798591315,-0.00089642709328308
3.466,-0.14436228355724,0.00101232500454004
3.468,-0.144481672925509,0.00293743660620474
3.47,-0.14452488273062,0.0048754728464226
3.472,-0.144518176690117,0.00682546625287292
3.474,-0.14444273321593,0.00878104384311661
3.476,-0.144301210785626,0.0107388087505116
3.478,-0.144089936812446,0.0126885898739468
3.48,-0.143817619048248,0.0146322421627556
3.482,-0.143479122602277,0.0165675397500513
3.484,-0.143074064718791,0.0184804229608373
3.486,-0.142607876285562,0.0203727833553406
3.488,-0.142078154264227,0.0222435862777411
3.49,-0.141490954061493,0.0240830946583574
3.492,-0.140846388456232,0.0258907973576897
3.494,-0.140146078594395,0.0276617812142793
3.496,-0.139396841168865,0.029394067051463
3.498,-0.138594131485101,0.0310825732928831
3.5,-0.137745732302696,0.0327241342849316
3.502,-0.136857598125824,0.0343125520259651
3.504,-0.135929025137503,0.0358614388973738
3.506,-0.134961888734821,0.0373492029865141
3.508,-0.133974459759933,0.0387799200474342
3.51,-0.132953751802048,0.0401627612444722
3.512,-0.131920603867618,0.0414784657306368
3.514,-0.130859440499546,0.0427423212509
3.516,-0.129785807941391,0.0439450252872318
3.518,-0.128697724792324,0.0450863687615331
3.52,-0.127621515922516,0.0461795726753474
3.522,-0.126532661946488,0.0472021245404514
3.524,-0.12544631983927,0.0481691570492149
3.526,-0.124376850450351,0.0490857503998455
3.528,-0.123312953305635,0.0499441130764167
3.53,-0.122267549325279,0.0507480711377345
3.532,-0.121239421376472,0.0515089536710362
3.534,-0.120238046293063,0.0522137196194984
3.536,-0.119259338803135,0.0528751642225535
3.538,-0.118312632054494,0.053504512828104
3.54,-0.11739971870502,0.0540804777004222
3.542,-0.116519539496001,0.0546281401050213
3.544,-0.11567841448131,0.0551425872732127
3.546,-0.11488095321855,0.0556251038955896
3.548,-0.114116217789099,0.0560971605672344
3.55,-0.113396346478067,0.0565418527668438
3.552,-0.112722747755199,0.0569654715164516
3.554,-0.112090458315678,0.0573859294462826
3.556,-0.111502450767874,0.0577940211581487
3.558,-0.110960229941016,0.0582028891432887
3.56,-0.110460919646794,0.0586060260900024
3.562,-0.110004942738887,0.0590286631067256
3.564,-0.109586002258437,0.0594513464427101
3.566,-0.109218172106482,0.0598853551806854
3.568,-0.10888192571727,0.0603430698202709
3.57,-0.108581472178569,0.0608210705022099
3.572,-0.108320654632901,0.0613207354033531
3.574,-0.108085399817728,0.0618533370415179
3.576,-0.107881470204573,0.0624164528841303
3.578,-0.107700114373098,0.063017344610669
3.58,-0.107546436504155,0.0636473104329463
3.582,-0.107408047785755,0.0643188685971691
3.584,-0.107278292760027,0.065033144661838
3.586,-0.107164799717117,0.0657919514164247
3.588,-0.107052622690043,0.0665934522178896
3.59,-0.106949414786749,0.0674400899419944
3.592,-0.106837534542251,0.0683364288404159
3.594,-0.106724163510922,0.0692741666126786
3.596,-0.106593579047021,0.0702599421088876
3.598,-0.106452326291576,0.0712912931043024
3.6,-0.106289736892798,0.0723667956886428
3.602,-0.106102862490316,0.073485690750311
3.604,-0.105889131173454,0.0746486936493087
3.606,-0.105636874605802,0.0758466783290682
3.608,-0.105360877420851,0.0770919049220054
3.61,-0.105037206072548,0.0783664199129266
3.612,-0.104668639956881,0.0796764139872414
3.614,-0.10425607380343,0.0810146616009679
3.616,-0.103792381869914,0.0823770044445591
3.618,-0.103277975155756,0.083764479448539
3.62,-0.102708783316583,0.0851715563609458
3.622,-0.102084971563811,0.0865968717445597
3.624,-0.101395653512141,0.0880218186719854
3.626,-0.10064836146712,0.0894636392285147
3.628,-0.0998413463246849,0.0909037110511085
3.63,-0.0989706753357032,0.0923393765972693
3.632,-0.0980431119965401,0.0937633306511583
3.634,-0.0970472703446142,0.0951798846022071
3.636,-0.0959889116380088,0.0965855710845139
3.638,-0.094873063668026,0.0979635439248041
3.64,-0.0936947115098427,0.0993160554625675
3.642,-0.0924587146081157,0.100638097697104
3.644,-0.0911664763776463,0.101920429772696
3.646,-0.0898247623250528,0.103171399798607
3.648,-0.0884216476634769,0.104378979554864
3.65,-0.0869729538373152,0.10553327540986
3.652,-0.0854864478679752,0.106646121145808
3.654,-0.0839491727906551,0.107700915349948
3.656,-0.0823713654371943,0.108699126358621
3.658,-0.0807681045069053,0.109638038596148
3.66,-0.0791291185034804,0.110513451404507
3.662,-0.0774622430269445,0.111326489123842
3.664,-0.0757739018246043,0.112075987520797
3.666,-0.0740716785640947,0.112758651868651
3.668,-0.0723581026164271,0.113370264733292
3.67,-0.0706322265136147,0.113917579866007
3.672,-0.0689105041004519,0.114394080152068
3.674,-0.0671845929721932,0.114804598717169
3.676,-0.0654758218338499,0.115142637512703
3.678,-0.0637638333680144,0.115423366069789
3.68,-0.0620757867582285,0.115626526975218
3.682,-0.0604090022543316,0.115772057595147
3.684,-0.0587724906009687,0.115858884911662
3.686,-0.0571534052661483,0.115882458388165
3.688,-0.055578084602882,0.115848953313555
3.69,-0.0540395696918625,0.115767246606286
3.692,-0.0525339111042549,0.115635394534221
3.694,-0.051083202873515,0.115451015419341
3.696,-0.0496754201603013,0.115236132923246
3.698,-0.0483159580144635,0.114970658103544
3.7,-0.047007839398104,0.11467357716703
3.702,-0.0457504133157052,0.114347538604723
3.704,-0.0445530049113483,0.114000112154724
3.706,-0.0433991792620189,0.113619160537918
3.708,-0.0423228411759834,0.113245348530836
3.71,-0.0412935204402514,0.1128545786651
3.712,-0.0403186055371272,0.112451772161676
3.714,-0.039405149139879,0.112043726117918
3.716,-0.0385417778814147,0.111647976452981
3.718,-0.0377373758001621,0.111257254559269
3.72,-0.0369855057379527,0.110880966542434
3.722,-0.0362813150310388,0.110519355629807
3.724,-0.035630123180209,0.110182109395697
3.726,-0.0350238409589882,0.109862862515529
3.728,-0.0344559012689552,0.109580344235823
3.73,-0.0339350943371279,0.109323412560062
3.732,-0.0334466022525063,0.109106405981342
3.734,-0.0329898428076625,0.108926831576959
3.736,-0.0325614511674823,0.108788528972801
3.738,-0.0321563738889859,0.108692493985592
3.74,-0.0317726238312767,0.108643206346037
3.742,-0.0314033491615766,0.10863897864779
3.744,-0.031046182516805,0.1086804235863
3.746,-0.0306902067236397,0.108773159859493
3.748,-0.0303389944374832,0.10890746514437
3.75,-0.029981747632317,0.109099924404433
3.752,-0.0296185263654924,0.109334254977967
3.754,-0.0292395499049863,0.109612733686228
3.756,-0.0288438900510003,0.109940769386486
3.758,-0.0284291373964503,0.110309825126918
3.76,-0.0279881309100652,0.110718754534421
3.762,-0.0275168090406571,0.111173270935226
3.764,-0.0270095662834565,0.111658783756489
3.766,-0.0264642281326317,0.112179145944677
3.768,-0.0258812332618991,0.112727457227851
3.77,-0.0252538497892739,0.113302573918864
3.772,-0.0245739941909708,0.113896408586422
3.774,-0.0238511543204069,0.114513323124995
3.776,-0.0230764089373638,0.115143897227683
3.778,-0.0222497555502697,0.115788057755911
3.78,-0.0213657321866254,0.116434050658047
3.782,-0.0204280821895656,0.117077255641485
3.784,-0.0194368706325603,0.117719120952862
3.786,-0.0183853343082462,0.11835151879041
3.788,-0.0172842057634182,0.118967831961673
3.79,-0.0161230181891455,0.119563502862565
3.792,-0.0149139800320407,0.120137436833754
3.794,-0.0136472304556623,0.120690060360247
3.796,-0.0123336320210813,0.121203555502083
3.798,-0.0109670944385669,0.121684426662006
3.8,-0.00955916184844677,0.122121743162077
3.802,-0.00810774077109079,0.122515943688191
3.804,-0.00661831409406403,0.122860111215454
3.806,-0.00508701229742449,0.123154252834585
3.808,-0.00352759665114746,0.123392945064074
3.81,-0.00194328023175023,0.123572605807413
3.812,-0.00032443225501705,0.123699189133143
3.814,0.00130403944209017,0.123759737931862
3.816,0.00294409144737176,0.123756675001147
3.818,0.00461499026218423,0.123686840657396
3.82,0.00628112447177112,0.123553105082597
3.822,0.00794827878395717,0.123352229698044
3.824,0.00960669757614094,0.123086969363941
3.826,0.0112645471064711,0.122754438021983
3.828,0.0128952522973591,0.122356408857835
3.83,0.0145268155921134,0.121890844533572
3.832,0.0161239328339344,0.12136874387403
3.834,0.017702102914221,0.120777079505142
3.836,0.0192446835519614,0.120132188558143
3.838,0.0207486239459229,0.119427484750797
3.84,0.0222146636786799,0.118674710113522
3.842,0.0236407229615272,0.117860966418449
3.844,0.0250225026021687,0.116995841577506
3.846,0.026349151398273,0.116095865411342
3.848,0.027623296557873,0.115150916337313
3.85,0.0288435728435855,0.114171221064336
3.852,0.030006030019659,0.11315984042777
3.854,0.0311079203158963,0.112126407714213
3.856,0.0321510719213614,0.111063690333251
3.858,0.0331311293879444,0.109983556276237
3.86,0.034049347601777,0.108894682334843
3.862,0.0349005078064504,0.10779832338456
3.864,0.0356946390080784,0.106687628005621
3.866,0.0364302246592071,0.105584602557613
3.868,0.0370973777625446,0.104486797884543
3.87,0.0377004420845121,0.103386007461022
3.872,0.0382516812736653,0.102314165180482
3.874,0.0387454246199071,0.101256014624894
3.876,0.0391829765895539,0.100223385635267
3.878,0.0395669003452417,0.09921328741213
3.88,0.0399000270096352,0.098230609588995
3.882,0.0401889978140098,0.097285827249816
3.884,0.0404360039416259,0.096379798769439
3.886,0.0406507095619743,0.095512190052021
3.888,0.0408146791838174,0.094684319828479
3.89,0.0409559305670879,0.093900889013916
3.892,0.0410795977986088,0.093167120678054
3.894,0.0411580898456607,0.092477369362631
3.896,0.0412314788273541,0.09183815717488
3.898,0.0412983407642694,0.0912447787159227
3.9,0.0413427268767806,0.090708655052221
3.902,0.0413827126064812,0.0902190890800452
3.904,0.0414251214901329,0.0897788398909138
