"Freq [GHz]","re(S(Antenna1_1_p1,Antenna1_1_p1)) []","im(S(Antenna1_1_p1,Antenna1_1_p1)) []"
3,0.102620920542387,-0.094337068845687
3.002,0.101628448653,-0.0966233931091278
3.004,0.100518921211926,-0.098880354890213
3.006,0.0992985697055175,-0.101111113436833
3.008,0.0979665902100517,-0.103294723534078
3.01,0.0965297092832745,-0.105435281883891
3.012,0.0949882034359965,-0.107516396198245
3.014,0.0933460636937069,-0.10953165592084
3.016,0.0916072402281895,-0.111489848751087
3.018,0.0897779255492424,-0.113352179926679
3.02,0.0878801005453935,-0.115144093052505
3.022,0.0858812917926598,-0.116837875499112
3.024,0.0838238850213809,-0.118444517709568
3.026,0.0816956401451175,-0.119950406194792
3.028,0.0795186601725956,-0.121356000976353
3.03,0.0773111167027071,-0.122641179398811
3.032,0.0750459079686373,-0.123826891851385
3.034,0.0727486086700112,-0.12490231208926
3.036,0.0704314679557525,-0.125860018944279
3.038,0.0680965464103368,-0.126702044185175
3.04,0.0657542691757017,-0.127435435657268
3.042,0.063420123860807,-0.128051420641676
3.044,0.06109865153224,-0.128555809904039
3.046,0.0587929732408701,-0.128956464102736
3.048,0.056510170171786,-0.129238139946616
3.05,0.0542711408632692,-0.129423888022254
3.052,0.052060146267858,-0.129501840160705
3.054,0.04991295639655,-0.129485533923839
3.056,0.0478279784401328,-0.129393882080182
3.058,0.0457850797536504,-0.129193266100212
3.06,0.0438308154589762,-0.12892547626334
3.062,0.0419415751275629,-0.128586052835313
3.064,0.0401296850292852,-0.128177969276263
3.066,0.0384040559764716,-0.127717969055194
3.068,0.0367576821880752,-0.127188153515156
3.07,0.0352075617339626,-0.1266271668069
3.072,0.0337491581094154,-0.126027486161082
3.074,0.0323819852397382,-0.125402463651731
3.076,0.0311095908350651,-0.124757346491602
3.078,0.0299301739953133,-0.124099409765142
3.08,0.0288420720352896,-0.123440585449073
3.082,0.0278575941500308,-0.12278985318549
3.084,0.026956018510247,-0.122148114769999
3.086,0.0261428459479667,-0.121528804524127
3.088,0.0254173024124046,-0.120937953069151
3.09,0.0247752919159499,-0.120385345938669
3.092,0.024209539690368,-0.119867640618825
3.094,0.0237151250032107,-0.119406126771958
3.096,0.0232930599544003,-0.119002306793094
3.098,0.0229308493499856,-0.118645398308897
3.1,0.0226255919711464,-0.118368538866316
3.102,0.0223638077433232,-0.11816776030408
3.104,0.0221478407608112,-0.118033496257592
3.106,0.021969673017891,-0.117975917366469
3.108,0.0218106272030803,-0.118004741067813
3.11,0.0216871935949295,-0.118116147071959
3.112,0.0215634822661531,-0.118311336656783
3.114,0.0214455431960584,-0.118598557611964
3.116,0.0213198447957158,-0.118966254152707
3.118,0.0211983869548076,-0.11942448807327
3.12,0.0210322727921886,-0.119965168370144
3.122,0.0208536152168488,-0.120594564194856
3.124,0.0206253688278793,-0.121297002396503
3.126,0.0203592871732858,-0.122078832633957
3.128,0.0200401901669227,-0.122939574527773
3.13,0.0196656744967671,-0.123868881621722
3.132,0.0192235538033201,-0.124865402004102
3.134,0.018710102639284,-0.125917596568731
3.136,0.018122047717521,-0.127026934410617
3.138,0.0174545931151748,-0.128182778779332
3.14,0.0166941771000765,-0.129381934250134
3.142,0.0158483837423442,-0.13061186606381
3.144,0.0149027258863022,-0.131868511774205
3.146,0.0138656497225488,-0.133146079162471
3.148,0.0127250694203658,-0.134437619051098
3.15,0.0114883825502879,-0.135721460790622
3.152,0.010138659906937,-0.137014534773705
3.154,0.00869026968217696,-0.13828613367337
3.156,0.0071433472784208,-0.139536586395885
3.158,0.00548633525223433,-0.140757625690539
3.16,0.0037332715381932,-0.141940128349072
3.162,0.001882264212996,-0.143074997048263
3.164,-6.23733002148002E-05,-0.14415226424696
3.166,-0.0021035706271991,-0.14518374985677
3.168,-0.0042220407377878,-0.146122395357574
3.17,-0.0064334530507379,-0.147007951785821
3.172,-0.008709104358365,-0.147787389329584
3.174,-0.011063783509902,-0.148489072438355
3.176,-0.0134839099615904,-0.149092923290713
3.178,-0.0159705986165646,-0.149610317144705
3.18,-0.0184842013803719,-0.150007016693031
3.182,-0.0210570068913407,-0.150293113828046
3.184,-0.0236600638336394,-0.150485081006555
3.186,-0.0262938614570488,-0.150549176694373
3.188,-0.0289465543545233,-0.15050056945075
3.19,-0.0316107773252359,-0.150334260202557
3.192,-0.0342721097707117,-0.150055671658312
3.194,-0.0369350283320576,-0.149646280951998
3.196,-0.0395787268664375,-0.149126270106725
3.198,-0.0421992227062961,-0.148484116048217
3.2,-0.0447820177609762,-0.147734873018068
3.202,-0.0473286483953491,-0.146866394296932
3.204,-0.049834630106184,-0.145894204377445
3.206,-0.0522793821863099,-0.144806163527038
3.208,-0.0546595621134999,-0.143624664990586
3.21,-0.0569773740070784,-0.14233605385289
3.212,-0.0592028058642741,-0.140975052061009
3.214,-0.0613621997562763,-0.139510819768442
3.216,-0.0634166469630783,-0.137991152152167
3.218,-0.0653788826919802,-0.136389985414524
3.22,-0.0672523205458896,-0.134719822586005
3.222,-0.0690299540513105,-0.132992156288815
3.224,-0.0706881123961017,-0.131218644604418
3.226,-0.0722419931269182,-0.12942576542685
3.228,-0.0736833438064161,-0.127585041050954
3.23,-0.0750174460202065,-0.125723216688407
3.232,-0.0762376744834913,-0.123847407913175
3.234,-0.0773546951874804,-0.121967275597403
3.236,-0.078347266265483,-0.120086913698159
3.238,-0.0792404731488185,-0.118209202712569
3.24,-0.0800283116423694,-0.116375529180458
3.242,-0.0807061679199061,-0.114557203373793
3.244,-0.0812794238091684,-0.112775473878981
3.246,-0.081761768486613,-0.111035080582128
3.248,-0.0821388131719803,-0.109356362022137
3.25,-0.0824407714624992,-0.107720041147781
3.252,-0.0826618808959234,-0.106156920352633
3.254,-0.0828081878982231,-0.104660662183938
3.256,-0.0828886196730309,-0.103235958640383
3.258,-0.0829012633998637,-0.101896380991805
3.26,-0.082862658712013,-0.100639621438794
3.262,-0.0827875153192309,-0.099465620242253
3.264,-0.0826596354941025,-0.098391360912867
3.266,-0.0825086186601733,-0.097402739330483
3.268,-0.0823368642979425,-0.096508649623469
3.27,-0.0821507606399247,-0.095711095467985
3.272,-0.08196560210603,-0.095001324377156
3.274,-0.0817759045025963,-0.094389522700265
3.276,-0.0816105249997412,-0.093876544801829
3.278,-0.0814544167057944,-0.093452120900619
3.28,-0.0813350662035796,-0.093126375398684
3.282,-0.0812448488194739,-0.092869487470279
3.284,-0.0812076736761423,-0.092711033520745
3.286,-0.0812211217190687,-0.092623395945387
3.288,-0.0812873445028109,-0.092593703578274
3.29,-0.0814289455149762,-0.092652821341023
3.292,-0.0816346053439712,-0.092758928073529
3.294,-0.0819229898824589,-0.092923329849683
3.296,-0.082281401255602,-0.093121578231055
3.298,-0.0827389175290166,-0.093377628982541
3.3,-0.0832703444664852,-0.093651685332977
3.302,-0.083905489857401,-0.0939518900517829
3.304,-0.084645191773971,-0.0942728645174987
3.306,-0.085463218958186,-0.0945862363563946
3.308,-0.086378562568481,-0.0949111755339116
3.31,-0.087394733706183,-0.095220536183678
3.312,-0.088513395721738,-0.0955115802551005
3.314,-0.089745246550602,-0.0957844158878205
3.316,-0.091049280658956,-0.0959980926317823
3.318,-0.092433689609156,-0.0961783634248324
3.32,-0.093932118304918,-0.0963005532922342
3.322,-0.095501765196244,-0.0963649322681902
3.324,-0.097143784504161,-0.0963664978723709
3.326,-0.098877955305144,-0.0962779975464426
3.328,-0.100672972405334,-0.0961150426585907
3.33,-0.102527053374514,-0.0958641771191052
3.332,-0.104439429074803,-0.0955154851758989
3.334,-0.106399096817151,-0.0950706499031291
3.336,-0.108378684527604,-0.0945335298997856
3.338,-0.110428458129247,-0.0938599172582834
3.34,-0.112487329088002,-0.0930930997631442
3.342,-0.114552392104126,-0.0922171649496365
3.344,-0.116637332697499,-0.0912038455824825
3.346,-0.118711123852059,-0.0900922285045703
3.348,-0.120781147093631,-0.0888658844457129
3.35,-0.122828217991474,-0.087505146321455
3.352,-0.124842023199631,-0.0860339809618617
3.354,-0.126820533623032,-0.0844525373404176
3.356,-0.128755361425974,-0.0827584263228962
3.358,-0.130627078909741,-0.0809558848063293
3.36,-0.132441756451048,-0.0790483942379887
3.362,-0.134187054384194,-0.0770467588844171
3.364,-0.135845508927034,-0.0749425313005198
3.366,-0.137419901717697,-0.0727406797986916
3.368,-0.138901122460099,-0.0704754455480128
3.37,-0.140284381771204,-0.0681115030734807
3.372,-0.141556693140098,-0.0656886588033162
3.374,-0.142728751336788,-0.0632106486603304
3.376,-0.143776768900842,-0.0606681770433154
3.378,-0.144711076149772,-0.0580855526395588
3.38,-0.14552583200718,-0.0554677432963595
3.382,-0.146218169620734,-0.0528253368056676
3.384,-0.146785018679887,-0.0501605717286444
3.386,-0.147213805943414,-0.047484065642935
3.388,-0.147523395696689,-0.0448187617514745
3.39,-0.147708136948798,-0.0421568792753831
3.392,-0.147770091999399,-0.0395137632394763
3.394,-0.147709640255402,-0.0369032171453839
3.396,-0.147528168597427,-0.0343266940087036
3.398,-0.147234980776031,-0.0317971623791993
3.4,-0.146824428327788,-0.0293184277721265
3.402,-0.146322075681073,-0.0268945271496012
3.404,-0.145710411911757,-0.0245516660160835
3.406,-0.144986411078559,-0.0222795481079242
3.408,-0.144191264388336,-0.02009708053605
3.41,-0.143314811663074,-0.0180031171666889
3.412,-0.142349064053713,-0.0160005016122155
3.414,-0.141324316984788,-0.0140985022920991
3.416,-0.14023743082485,-0.0122954511639436
3.418,-0.139118882963692,-0.0106048637246081
3.42,-0.137944338997408,-0.0090299944214765
3.422,-0.136744963554625,-0.0075619007537805
3.424,-0.135514846192367,-0.006203462414063
3.426,-0.134286155189508,-0.0049680924797225
3.428,-0.133049080372079,-0.0038292879646846
3.43,-0.131806787016331,-0.0028206324211962
3.432,-0.130591520492248,-0.0019195344816924
3.434,-0.129401059053069,-0.0011195937808036
3.436,-0.128227458977843,-0.0004247431374868
3.438,-0.127114049589747,0.000160082992754601
3.44,-0.126038694095315,0.0006536619354898
3.442,-0.125027017375395,0.0010565677149245
3.444,-0.124075875151002,0.0013717050112631
3.446,-0.123200684916934,0.00160722929801339
3.448,-0.122395087450294,0.0017686851321348
3.45,-0.121684889461751,0.00187260577305225
3.452,-0.121042704166694,0.00190959227657778
3.454,-0.120505413266179,0.00190543090165357
3.456,-0.120062783227762,0.00186225655601917
3.458,-0.119711285706086,0.00178661943967506
3.46,-0.119471878083375,0.00167739879330837
3.462,-0.11931997616974,0.00156926535898019
3.464,-0.119280743613315,0.00145025938271692
3.466,-0.11935026033024,0.00133205584254004
3.468,-0.119507473974509,0.00123747591820474
3.47,-0.11977867609762,0.0011538181394226
3.472,-0.120138392388117,0.00110769859687292
3.474,-0.12059549905093,0.00110936899861661
3.476,-0.121140975406626,0.0011541507133116
3.478,-0.121774608290446,0.0012570228563468
3.48,-0.122491887421248,0.0014363985157556
3.482,-0.123278821500277,0.0016853244900513
3.484,-0.124142132119791,0.0019947087528373
3.486,-0.125061623611562,0.0024028151583406
3.488,-0.126037007936227,0.0029078945657411
3.49,-0.127063344197493,0.0035014559133574
3.492,-0.128118558899232,0.0042040988226897
3.494,-0.129217864039395,0.0050029916822793
3.496,-0.130329341463865,0.005915296341463
3.498,-0.131451367035101,0.0069370780338831
3.5,-0.132570658999296,0.0080650658909316
3.502,-0.133699066174224,0.0093151290049651
3.504,-0.134805575511503,0.0106737480823738
3.506,-0.135882218971821,0.0121446510765141
3.508,-0.136927078982933,0.0137244594804342
3.51,-0.137928674789048,0.0154126420594722
3.512,-0.138874160859218,0.0172008569536368
3.514,-0.139742244704046,0.0190993799999
3.516,-0.140573279961291,0.0210869117242318
3.518,-0.141308152008324,0.0231682641635331
3.52,-0.141960854132516,0.0253355137873474
3.522,-0.142516429498488,0.0275793003394514
3.524,-0.14298386925727,0.0299054787892149
3.526,-0.143328379302351,0.0322812802378455
3.528,-0.143575011995635,0.0347195271674167
3.53,-0.143701428693279,0.0372062184087345
3.532,-0.143709102431472,0.0397338137190362
3.534,-0.143592022862063,0.0422913372184984
3.536,-0.143350579648135,0.0448706016355535
3.538,-0.142981935669494,0.047461858479104
3.54,-0.14248194363802,0.0500502681704222
3.542,-0.141863647913001,0.0526409287150213
3.544,-0.14112000668631,0.0552025546842127
3.546,-0.14023150946755,0.0577557712035896
3.548,-0.139226596149099,0.0602625830142344
3.55,-0.138100651281067,0.0627191054238438
3.552,-0.136856034726199,0.0651264564975516
3.554,-0.135494903894678,0.0674724648346826
3.556,-0.134025740248874,0.0697329672082487
3.558,-0.132456421598016,0.0719388742162887
3.56,-0.130785948842794,0.0740425000390024
3.562,-0.129024808629887,0.0760571994807256
3.564,-0.127183054356437,0.0779634477617101
3.566,-0.125258894079482,0.0797774034956854
3.568,-0.12328353372827,0.0814722067872709
3.57,-0.121226143974569,0.0830533580192099
3.572,-0.119131664308901,0.0845105705193531
3.574,-0.116993557058728,0.0858548342675179
3.576,-0.114823387283573,0.0870695181921303
3.578,-0.112624508251098,0.088158763526669
3.58,-0.110427406859155,0.0891192354459463
3.582,-0.108212709040755,0.0899523351121691
3.584,-0.106027010541027,0.090660909800838
3.586,-0.103844874821117,0.0912453157164247
3.588,-0.101690816098043,0.0917049786078896
3.59,-0.099577274518549,0.0920466340539944
3.592,-0.097501196948871,0.0922739732284159
3.594,-0.095470309501522,0.0923936821446786
3.596,-0.093507055283021,0.0924052933608876
3.598,-0.091616697171576,0.0923167326443024
3.6,-0.089802581486798,0.0921490791756428
3.602,-0.088055329064316,0.091866088303311
3.604,-0.086409169869454,0.0915189545533087
3.606,-0.084857260680802,0.0911020289940682
3.608,-0.083401239713851,0.0906183119770054
3.61,-0.0820462067945481,0.0900819094029266
3.612,-0.0807975034028813,0.0894978560912414
3.614,-0.07965866461643,0.0888840791279679
3.616,-0.0786318426939138,0.0882369345075591
3.618,-0.0777160543787556,0.087580353811039
3.62,-0.0769064749925832,0.0869084605719458
3.622,-0.0762130223488115,0.0862407603095597
3.624,-0.0756288124361408,0.0855860164259854
3.626,-0.0751559391821196,0.0849504193905147
3.628,-0.0747836340666849,0.0843419543728085
3.63,-0.0745145553657032,0.0837796761913693
3.632,-0.0743514540845401,0.0832463959228583
3.634,-0.0742688154916142,0.0827898774872071
3.636,-0.0742786970720088,0.0823876393685139
3.638,-0.074355183701026,0.0820600950168041
3.64,-0.0745313520678427,0.0818210716125675
3.642,-0.0747692341291157,0.0816184141671043
3.644,-0.0750640536176463,0.0815337755626958
3.646,-0.0754052418460528,0.0815408227026065
3.648,-0.0757987069894769,0.0816441212208645
3.65,-0.0762053946023152,0.0818581939318599
3.652,-0.0766566733179752,0.082160300899808
3.654,-0.0771408763226551,0.082575967627948
3.656,-0.0776127847700943,0.083098758087621
3.658,-0.0780895179249053,0.083724786157148
3.66,-0.0785458030134804,0.084459045180507
3.662,-0.0789853581299445,0.085304992475842
3.664,-0.0793967143756043,0.086248182583797
3.666,-0.0797665198200947,0.087298707505651
3.668,-0.0800911462074271,0.088445427731292
3.67,-0.0803571678501147,0.089688129477007
3.672,-0.0805510864863519,0.091007149103068
3.674,-0.0806893518331932,0.092437813181169
3.676,-0.0807363015978499,0.093933211561703
3.678,-0.0806937557670144,0.095505274060789
3.68,-0.0805719396802285,0.097137793837218
3.682,-0.0803419412843316,0.098828993983147
3.684,-0.0800095851379687,0.100571499362662
3.686,-0.0795672438361483,0.102353679387165
3.688,-0.079006131644882,0.104166126207555
3.69,-0.0783511809858625,0.105997212654286
3.692,-0.0775678579212549,0.107866455475221
3.694,-0.076661794658515,0.109729961245341
3.696,-0.0756349016353013,0.111578433222046
3.698,-0.0744958382144635,0.113431823049544
3.7,-0.073236479289104,0.11525410217403
3.702,-0.0718547368577052,0.117044671817723
3.704,-0.0703637355193483,0.118791135510724
3.706,-0.0687561949190189,0.120479278854918
3.708,-0.0670406124229834,0.122131773784536
3.71,-0.0652162926042514,0.1237015189895
3.712,-0.0633020977581272,0.125196775701676
3.714,-0.061288450057879,0.126610531619918
3.716,-0.0591860343104147,0.127936112955981
3.718,-0.0570049242621621,0.129158067013269
3.72,-0.0547493521849527,0.130283237970434
3.722,-0.0524303127620388,0.131296225234807
3.724,-0.050056271239209,0.132185726335697
3.726,-0.0476274039159882,0.132976458097529
3.728,-0.0451608376509552,0.133643957742823
3.73,-0.0426692631161279,0.134178850755062
3.732,-0.0401481299235063,0.134589321841342
3.734,-0.0376212467432625,0.134870339374959
3.736,-0.0350800317610823,0.135025444207801
3.738,-0.0325518068009859,0.135052416142592
3.74,-0.0300434659102767,0.134947284945037
3.742,-0.0275628217965766,0.13472880471579
3.744,-0.025101373990405,0.1343856058323
3.746,-0.0227140192368577,0.133912689210493
3.748,-0.0203567567329832,0.13333351275637
3.75,-0.018045271429317,0.132647615477433
3.752,-0.0158198693344924,0.131846198933967
3.754,-0.0136783427189863,0.130945563500228
3.756,-0.0116122089200003,0.129950836845486
3.758,-0.0096408479024503,0.128871523414918
3.76,-0.0077554309370652,0.127708920862421
3.762,-0.0059818103886571,0.126475391161226
3.764,-0.0043089085444565,0.125179905185489
3.766,-0.0027454936126317,0.123828327486677
3.768,-0.0012921891608991,0.122428395461851
3.77,6.07976147261012E-05,0.120986778863864
3.772,0.0012571478210292,0.119527621831422
3.774,0.0023534244785931,0.118045374067305
3.776,0.0033312947426362,0.116560224431683
3.778,0.0041912093637303,0.115066907007911
3.78,0.0049336146683746,0.113583067163047
3.782,0.0055705739094344,0.112103376690885
3.784,0.0060696709264397,0.110682615033062
3.786,0.00647047938575378,0.10928133063031
3.788,0.00677245620058185,0.107929494741673
3.79,0.00695925227085449,0.106622943737565
3.792,0.00705679957295933,0.105394902441754
3.794,0.00707020707933767,0.104189391159247
3.796,0.00698746019791871,0.103111620172083
3.798,0.00683269594143312,0.102089323022006
3.8,0.00661067280255323,0.101155366939077
3.802,0.00632093139990921,0.100296452920191
3.804,0.00597856232493597,0.099571544617454
3.806,0.00559049210557551,0.098906568926585
3.808,0.00517013137085254,0.098385784585074
3.81,0.00471866342724977,0.097945825710413
3.812,0.00424781238088295,0.097614151078143
3.814,0.00377118072559017,0.097393416529862
3.816,0.00328734941337176,0.097273013371147
3.818,0.00281249178918423,0.097263583929396
3.82,0.00236388496707112,0.097363614151597
3.822,0.00193829700025717,0.097559420512044
3.824,0.00153033604494094,0.097842462749941
3.826,0.0011768870834711,0.098244667336983
3.828,0.000895811309359101,0.098745278134835
3.83,0.0006622229261134,0.099322477422572
3.832,0.000479378392934399,0.09997550787403
3.834,0.000400647207221001,0.100723819025142
3.836,0.0003919432889614,0.101531851801143
3.838,0.000461142966922899,0.102402599363797
3.84,0.000632431254679901,0.103328351589522
3.842,0.0008907349765272,0.104301574769449
3.844,0.0012489030531687,0.105316563305506
3.846,0.001715071247273,0.106355279621342
3.848,0.002293431228873,0.107431101487313
3.85,0.0029733458005855,0.108509782931336
3.852,0.003768725502659,0.10959765647097
3.854,0.0046733781578963,0.110677154038213
3.856,0.0056847872863614,0.111747150890251
3.858,0.0067899796499444,0.112782456996237
3.86,0.008038022886777,0.113801594118943
3.862,0.0093726351854504,0.11477111451026
3.864,0.0108052611790784,0.115698239170821
3.866,0.0123402150992071,0.116553051597613
3.868,0.0139665594795446,0.117352633190543
3.87,0.0156820976095121,0.118074328165022
3.872,0.0174890729076653,0.118716725306482
3.874,0.0193643951549071,0.119272779610894
3.876,0.0213102491975539,0.119726741559267
3.878,0.0233238654242417,0.12008541762413
3.88,0.0253856692316352,0.120344084895995
3.882,0.0274940198750098,0.120494899849816
3.884,0.0296467392606259,0.120528238071439
3.886,0.0318287850739743,0.120441565604021
3.888,0.0340156153248174,0.120254867604479
3.89,0.0362285318250879,0.119936344239916
3.892,0.0384575902721388,0.119470430604054
3.894,0.0406596820776607,0.118902936123631
3.896,0.0428574337103541,0.11821705384488
3.898,0.0450226648348694,0.117409878779923
3.9,0.0471555666755106,0.116481918853221
3.902,0.0492447407365812,0.115442571298045
3.904,0.0512807793511329,0.114308995882914
