"Freq [GHz]","re(S(Antenna1_1_p1,Antenna1_1_p1)) []","im(S(Antenna1_1_p1,Antenna1_1_p1)) []"
3,0.0856436537083872,-0.092888199027187
3.002,0.0848237297609999,-0.0937740223948278
3.004,0.0840023999699265,-0.094656614185413
3.006,0.0831812057965175,-0.0955352965146325
3.008,0.0823597268030517,-0.0964110937530777
3.01,0.0815362274322745,-0.0972850691238913
3.012,0.0807122878919965,-0.0981578115022454
3.014,0.0798878825997069,-0.09902920348484
3.016,0.0790566248161895,-0.099903187103087
3.018,0.0782245213942424,-0.100774828293679
3.02,0.0773837844453935,-0.101655136356505
3.022,0.0765428789462598,-0.102527488119112
3.024,0.0756926373628809,-0.103406752754568
3.026,0.0748351667299175,-0.104288370704792
3.028,0.0739679760224956,-0.105172830963353
3.03,0.0730933829529071,-0.106061324685811
3.032,0.0722081733792073,-0.106950789550385
3.034,0.0713034418757112,-0.10784342089226
3.036,0.0703963148060525,-0.108737126573279
3.038,0.0694731330632368,-0.109634201372175
3.04,0.0685319327659017,-0.110530646086268
3.042,0.067575778086107,-0.111428881375676
3.044,0.06660323910224,-0.112327736823039
3.046,0.0656104966678701,-0.113227296237736
3.048,0.064603502029786,-0.114123859758616
3.05,0.0635731914112692,-0.115017591463254
3.052,0.062525616327858,-0.115909172860705
3.054,0.06145729273755,-0.116799410165839
3.056,0.0603624628441328,-0.117678286961182
3.058,0.0592538392326504,-0.118555327478712
3.06,0.0581217390109762,-0.11942387843234
3.062,0.0569660935105629,-0.120282857613613
3.064,0.0557885132872852,-0.121131910321263
3.066,0.0545854136334716,-0.121969805786794
3.068,0.0533656590400752,-0.122794137783006
3.07,0.0521208367049626,-0.123604771938
3.072,0.0508555245614154,-0.124400412342382
3.074,0.0495671976647382,-0.125179767245831
3.076,0.0482594910700651,-0.125940543211702
3.078,0.0469296917743133,-0.126683376815342
3.08,0.0455804299972896,-0.127404634734373
3.082,0.0442110398800308,-0.12810796845849
3.084,0.042826719223247,-0.128786444252999
3.086,0.0414229260939667,-0.129440441625127
3.088,0.0400021792534046,-0.130073432275151
3.09,0.0385655470129499,-0.130681643427669
3.092,0.037116956328368,-0.131262572553825
3.094,0.0356546826025107,-0.131816678801958
3.096,0.0341805033247003,-0.132345689568094
3.098,0.0326970430835856,-0.132841055229897
3.1,0.0311995181673464,-0.133318049159316
3.102,0.0296951883714232,-0.13376222163408
3.104,0.0281870844387112,-0.134178966332592
3.106,0.026671687399931,-0.134567333241469
3.108,0.0251564385327803,-0.134925047983813
3.11,0.0236290447580295,-0.135259132992959
3.112,0.0221044144915531,-0.135560823346783
3.114,0.0205796176272584,-0.135835186139964
3.116,0.0190541520883158,-0.136081064065707
3.118,0.0175319431660076,-0.13630354718427
3.12,0.0160126104541886,-0.136495032602144
3.122,0.0144967487338488,-0.136663226426856
3.124,0.0129867153858793,-0.136803022115503
3.126,0.0114820752222858,-0.136919227038957
3.128,0.0099828191379227,-0.137011314483773
3.13,0.0084929376327671,-0.137081129321722
3.132,0.00701256111832008,-0.137126635511702
3.134,0.005538081352284,-0.137152037953931
3.136,0.00407743323952099,-0.137155062095617
3.138,0.00262386534417483,-0.137140343066332
3.14,0.0011806518220765,-0.137106163381434
3.142,-0.00024790660365577,-0.13705362559641
3.144,-0.00166741684169778,-0.136985057459575
3.146,-0.00307727402445118,-0.136900596741721
3.148,-0.00447342336163422,-0.136802204377698
3.15,-0.00585598655771211,-0.136694376942722
3.152,-0.00723096103706302,-0.136565817601715
3.154,-0.00859294113782304,-0.13643014450997
3.156,-0.0099437622595792,-0.136282305088385
3.158,-0.0112829349317657,-0.136123848515839
3.16,-0.0126111556078068,-0.135956716696072
3.162,-0.013930544808004,-0.135782597535263
3.164,-0.0152396326552148,-0.13559986263096
3.166,-0.0165390197341991,-0.13541168621477
3.168,-0.0178285145437878,-0.135216570066574
3.17,-0.0191132401731379,-0.135015520367821
3.172,-0.020386805422965,-0.134810878341584
3.174,-0.021657267644402,-0.134599196013355
3.176,-0.0229199431441904,-0.134385701750713
3.178,-0.0241772961886646,-0.134166528445705
3.18,-0.0254289977166719,-0.133947668513031
3.182,-0.0266729187013507,-0.133722807756046
3.184,-0.0279239389704994,-0.133496559348555
3.186,-0.0291698226344488,-0.133262717809373
3.188,-0.0304100369882233,-0.13302902163875
3.19,-0.0316517832428359,-0.132791090680557
3.192,-0.0328955313475117,-0.132550246207312
3.194,-0.0341375139764576,-0.132302852542998
3.196,-0.0353810707877375,-0.132052669148725
3.198,-0.0366290706822961,-0.131798680534217
3.2,-0.0378797018559762,-0.131542375384068
3.202,-0.0391310409293491,-0.131273292257932
3.204,-0.040390898334184,-0.131005264485445
3.206,-0.0416492119033099,-0.130726788988038
3.208,-0.0429173704514999,-0.130441606210786
3.21,-0.0441903671630784,-0.13014892691139
3.212,-0.0454656398522741,-0.129846313872009
3.214,-0.0467503915812763,-0.129534905029142
3.216,-0.0480406838470783,-0.129212807981967
3.218,-0.0493361614389802,-0.128880825034824
3.22,-0.0506389841548896,-0.128534016801105
3.222,-0.0519499595303105,-0.128176076416853
3.224,-0.0532620245941017,-0.127803327880018
3.226,-0.0545861826099182,-0.12741586067365
3.228,-0.0559113434754161,-0.127012844701354
3.23,-0.0572443544882065,-0.126594552946007
3.232,-0.0585812513894913,-0.126154923334075
3.234,-0.0599255115344804,-0.125698804754903
3.236,-0.061269143878483,-0.125225265703059
3.238,-0.0626210949348185,-0.124729293119569
3.24,-0.0639706219493694,-0.124215960368458
3.242,-0.0653272097899061,-0.123679139919793
3.244,-0.0666827141151684,-0.123122790599981
3.246,-0.068036998262613,-0.122540998905128
3.248,-0.0693938675933803,-0.121936363475137
3.25,-0.0707485913962992,-0.121310093936781
3.252,-0.0720989598877234,-0.120657465555633
3.254,-0.0734466263527231,-0.119982569061938
3.256,-0.0747896208602309,-0.119282730625383
3.258,-0.0761283759683637,-0.118558803658805
3.26,-0.077458685431673,-0.117809686372794
3.262,-0.0787790234316509,-0.117036232591253
3.264,-0.0800941033694025,-0.116237522873867
3.266,-0.0813968555867733,-0.115414362146483
3.268,-0.0826885355627425,-0.114568075906469
3.27,-0.0839674532565247,-0.113697473904985
3.272,-0.08523144299923,-0.112804504658156
3.274,-0.0864820858266963,-0.111888676516265
3.276,-0.0877193375527412,-0.110950201334829
3.278,-0.0889355984687944,-0.109987904612619
3.28,-0.0901376853495796,-0.109005257924684
3.282,-0.0913183291174739,-0.108003978188279
3.284,-0.0924826685401423,-0.106980375502745
3.286,-0.0936231135500687,-0.105942197032487
3.288,-0.0947446200728109,-0.104887361242074
3.29,-0.0958449985529762,-0.103810675608723
3.292,-0.0969226070769712,-0.102722443663829
3.294,-0.0979777910214589,-0.101618932996083
3.296,-0.099010200183602,-0.100504915756855
3.298,-0.100018714576017,-0.099375223609461
3.3,-0.101006461744485,-0.098239819592377
3.302,-0.101966707453401,-0.0970885396385829
3.304,-0.102904216001971,-0.0959314499487987
3.306,-0.103816359837186,-0.0947678819577946
3.308,-0.104711279230481,-0.0936009600233116
3.31,-0.105578248043183,-0.092425287330378
3.312,-0.106423148556738,-0.0912468315912005
3.314,-0.107243426599602,-0.0900632594948205
3.316,-0.108043691107956,-0.0888819871957823
3.318,-0.108824299968156,-0.0876997392458324
3.32,-0.109579963218918,-0.0865161777312342
3.322,-0.110317431311244,-0.0853345803201902
3.324,-0.111038346560761,-0.0841547320043709
3.326,-0.111734763638544,-0.0829777613424426
3.328,-0.112416128157634,-0.0818048294415907
3.33,-0.113080819115314,-0.0806358593871052
3.332,-0.113729463287303,-0.0794708659178989
3.334,-0.114363307928851,-0.0783109728141291
3.336,-0.114991851242244,-0.0771572082877856
3.338,-0.115589973863987,-0.0760081307282834
3.34,-0.116184585290502,-0.0748637512621442
3.342,-0.116770549285826,-0.0737252069116365
3.344,-0.117341937238399,-0.0725950981534825
3.346,-0.117908135583259,-0.0714665883935703
3.348,-0.118465613384831,-0.0703436979277129
3.35,-0.119012985585674,-0.069231689991455
3.352,-0.119557557436631,-0.0681208907698617
3.354,-0.120095579481032,-0.0670139155794176
3.356,-0.120630730944974,-0.0659092157668962
3.358,-0.121158342167741,-0.0648107851193293
3.36,-0.121686641632048,-0.0637131372919887
3.362,-0.122209954932194,-0.0626144699666171
3.364,-0.122732430999034,-0.0615195669138198
3.366,-0.123254120451697,-0.0604257149134916
3.368,-0.123774742246099,-0.0593341922181128
3.37,-0.124291678809204,-0.0582333449736807
3.372,-0.124809907623098,-0.0571355512246162
3.374,-0.125325344414788,-0.0560310789597204
3.376,-0.125843433640842,-0.0549262866651054
3.378,-0.126359120565772,-0.0538142235930588
3.38,-0.12687318044218,-0.0526946781328595
3.382,-0.127386084524734,-0.0515697995619676
3.384,-0.127897577221887,-0.0504368610807444
3.386,-0.128410538855414,-0.049298459092335
3.388,-0.128919503604689,-0.0481458242543745
3.39,-0.129425074143798,-0.0469844534453831
3.392,-0.129927014597399,-0.0458121785484763
3.394,-0.130424983290402,-0.0446286812683839
3.396,-0.130917993398427,-0.0434327916457036
3.398,-0.131404745863031,-0.0422245288921993
3.4,-0.131886061162588,-0.0410034688401265
3.402,-0.132354275032673,-0.0397686302886012
3.404,-0.132817162807857,-0.0385150814450835
3.406,-0.133274101041659,-0.0372588485709242
3.408,-0.133718656035036,-0.03598091251005
3.41,-0.134146143570574,-0.0346852960136889
3.412,-0.134570292499623,-0.0333837610582155
3.414,-0.134976734758008,-0.0320645672590991
3.416,-0.13536793205215,-0.0307354551749436
3.418,-0.135741193196392,-0.0293829902296081
3.42,-0.136105330815008,-0.0280263154224765
3.422,-0.136449013210925,-0.0266534479817805
3.424,-0.136773127830367,-0.025269946274063
3.426,-0.137075780224808,-0.0238740805137225
3.428,-0.137355115115079,-0.0224664728406846
3.43,-0.137624436004331,-0.0210509064111962
3.432,-0.137865448341248,-0.0196251072616924
3.434,-0.138083976442069,-0.0181894883568036
3.436,-0.138277060819843,-0.0167514196844868
3.438,-0.138452902374747,-0.0152987825259454
3.44,-0.138602451060315,-0.0138443136573102
3.442,-0.138726860366395,-0.0123847041693755
3.444,-0.138825034697002,-0.0109232970415369
3.446,-0.138899917123934,-0.00945845498248661
3.448,-0.138951638428294,-0.0079928119218652
3.45,-0.138973009406751,-0.00652643135944775
3.452,-0.138973606719694,-0.00505999902990222
3.454,-0.138946108954179,-0.00359746406394643
3.456,-0.138895566641762,-0.00213734509358083
3.458,-0.138816470494086,-0.00068554124702494
3.46,-0.138718753225375,0.000769855800608374
3.462,-0.13859293289974,0.00220971774887019
3.464,-0.138445490077315,0.00364710964681692
3.466,-0.13827616034024,0.00508258722014004
3.468,-0.138083013713509,0.00649765216420474
3.47,-0.13786803244962,0.0079136145764226
3.472,-0.137632107274117,0.00931497571987292
3.474,-0.13737478114493,0.0107022918366166
3.476,-0.137097828807026,0.0120797128293116
3.478,-0.136804254416846,0.0134440441623468
3.48,-0.136489730767848,0.0147947921477556
3.482,-0.136152522899277,0.0161276225430513
3.484,-0.135813839462291,0.0174544143498373
3.486,-0.135452473946262,0.0187633162683406
3.488,-0.135075439676527,0.0200566222427411
3.49,-0.134686276280473,0.0213364512643574
3.492,-0.134284714487072,0.0225976020206897
3.494,-0.133871622294295,0.0238473455212793
3.496,-0.133449105347965,0.025081416142463
3.498,-0.133015587009001,0.0262988276798831
3.5,-0.132579000852096,0.0275000560999316
3.502,-0.132125587699024,0.0286929810559651
3.504,-0.131666870407903,0.0298687465093738
3.506,-0.131206359990121,0.0310273320015141
3.508,-0.130737941142933,0.0321740657474342
3.51,-0.130264093418048,0.0333098144514722
3.512,-0.129788547799218,0.0344298176126368
3.514,-0.129309620534046,0.0355328097488
3.516,-0.128825204630291,0.0366378699107318
3.518,-0.128340451085324,0.0377253786095331
3.52,-0.127852795217516,0.0388004824338474
3.522,-0.127363773233488,0.0398687384655514
3.524,-0.12687246536827,0.0409294806896149
3.526,-0.126385201592351,0.0419781352670455
3.528,-0.125894488360635,0.0430196962188167
3.53,-0.125402559866279,0.0440567083290745
3.532,-0.124910743465472,0.0450866601140362
3.534,-0.124418311208063,0.0461097177496984
3.536,-0.123925798848135,0.0471317411361535
3.538,-0.123432058279494,0.048148399753704
3.54,-0.12293776683702,0.0491618245546222
3.542,-0.122443378279001,0.0501723190418213
3.544,-0.12194769269931,0.0511880211665127
3.546,-0.12144887869655,0.0521894678225896
3.548,-0.120950367804099,0.0531964406172344
3.55,-0.120446643179067,0.0542041551488438
3.552,-0.119940856912199,0.0552120641215516
3.554,-0.119431826973678,0.0562205519576826
3.556,-0.118924320430674,0.0572323328272487
3.558,-0.118400650725516,0.0582419895022887
3.56,-0.117877043799994,0.0592545539330024
3.562,-0.117347568251887,0.0602697920357256
3.564,-0.116811604519937,0.0612888873557101
3.566,-0.116267846724782,0.0623090959406854
3.568,-0.11571317396007,0.0633365163382709
3.57,-0.115155300477309,0.0643564082552099
3.572,-0.114584624402001,0.0653838500903531
3.574,-0.114003740305528,0.0664131352555179
3.576,-0.113411118609073,0.0674434955881303
3.578,-0.112808880549098,0.068474849769669
3.58,-0.112191088432555,0.0695107611209463
3.582,-0.111563321081455,0.0705445947061691
3.584,-0.110918019724627,0.071583428125838
3.586,-0.110260098082117,0.0726197000914247
3.588,-0.109588166076043,0.0736527993958896
3.59,-0.108898308505549,0.0746886074169944
3.592,-0.108194640102871,0.0757191230124159
3.594,-0.107473513247522,0.0767485335875786
3.596,-0.106735461406021,0.0777746657882876
3.598,-0.105978537020576,0.0787972992976024
3.6,-0.105199871399798,0.0798125516520428
3.602,-0.104416259151316,0.080824263632011
3.604,-0.103608588772454,0.0818278986201087
3.606,-0.102781648965802,0.0828243171745682
3.608,-0.101937598673851,0.0838128415228554
3.61,-0.101076308933548,0.0847906063127266
3.612,-0.100197365059881,0.0857594243734414
3.614,-0.09929946669843,0.0867156283763679
3.616,-0.0983855091609138,0.0876600994864591
3.618,-0.0974536695927556,0.088591525907939
3.62,-0.0965060918445832,0.0895097678162458
3.622,-0.0955421416448115,0.0904124361321597
3.624,-0.0945633507591408,0.0912996103073854
3.626,-0.0935690198181196,0.0921701087685147
3.628,-0.0925599263876849,0.0930245261808085
3.63,-0.0915367227307032,0.0938598421113693
3.632,-0.0905040226565401,0.0946813380818583
3.634,-0.0894553052314142,0.0954768102772071
3.636,-0.0883974305603088,0.0962578420165139
3.638,-0.087328569898626,0.0970088900118041
3.64,-0.0862417684343427,0.0977487147525675
3.642,-0.0851614929306157,0.0984721086501043
3.644,-0.0840667082264463,0.0991689034266958
3.646,-0.0829665749064828,0.0998450828366065
3.648,-0.0818595551333769,0.100500440748864
3.65,-0.0807514651620152,0.10112671272686
3.652,-0.0796365477361752,0.101738607808808
3.654,-0.0785149304164551,0.102336089016948
3.656,-0.0773952207165943,0.102904131053621
3.658,-0.0762745233953053,0.103453599051148
3.66,-0.0751541007501804,0.103982171199507
3.662,-0.0740363018917445,0.104488239744842
3.664,-0.0729198588206043,0.104976464828797
3.666,-0.0718057194800947,0.105444635778651
3.668,-0.0706953581024271,0.105894145148292
3.67,-0.0695895891521147,0.106326244161007
3.672,-0.0684957305873519,0.106739510317768
3.674,-0.0673928829041932,0.107136868405669
3.676,-0.0663039905278499,0.107518035594003
3.678,-0.0652214934020144,0.107883385123089
3.68,-0.0641458285912285,0.108234426069418
3.682,-0.0630790770493316,0.108572054701147
3.684,-0.0620197689329687,0.108896205143162
3.686,-0.0609672826901483,0.109208722091275
3.688,-0.059924728161882,0.109509875012155
3.69,-0.0588958181058625,0.109805110567986
3.692,-0.0578651677142549,0.110083307220521
3.694,-0.056847629092515,0.110355802252141
3.696,-0.0558439471763013,0.110621106358046
3.698,-0.0548359393644635,0.110879298402844
3.7,-0.053843170492104,0.11113332569793
3.702,-0.0528570238817052,0.111379817528123
3.704,-0.0518789604073483,0.111623634865724
3.706,-0.0509152199650189,0.111863033896918
3.708,-0.0499421920169834,0.112097850863536
3.71,-0.0489830347404514,0.1123313740355
3.712,-0.0480268859186272,0.112561077104676
3.714,-0.047077026873879,0.112789919558918
3.716,-0.0461307108668147,0.113019702872981
3.718,-0.0451883695079621,0.113246029198269
3.72,-0.0442472753725527,0.113472994696434
3.722,-0.0433090995117388,0.113700184661807
3.724,-0.042371356790489,0.113926745322697
3.726,-0.0414342717623782,0.114153598055529
3.728,-0.0404946994189552,0.114378352956823
3.73,-0.0395557225694279,0.114605825268062
3.732,-0.0386147243465063,0.114831997998342
3.734,-0.0376699254330625,0.115057384391959
3.736,-0.0367237300197823,0.115280556164801
3.738,-0.0357733427110859,0.115504538950592
3.74,-0.0348184816119767,0.115725693162037
3.742,-0.0338537799835766,0.11594890846979
3.744,-0.032887313702405,0.1161667645643
3.746,-0.0319118767908577,0.116390304569493
3.748,-0.0309343999079832,0.11659503240637
3.75,-0.029945252207317,0.116801969914633
3.752,-0.0289475997164924,0.117005599812767
3.754,-0.0279421846279863,0.117205971793328
3.756,-0.0269309909590003,0.117397218324286
3.758,-0.0259089057584503,0.117582688562918
3.76,-0.0248798549790652,0.117760061340321
3.762,-0.0238431169916571,0.117928799252226
3.764,-0.0227953125984565,0.118089533427599
3.766,-0.0217379936166317,0.118239255872467
3.768,-0.0206745204398991,0.118377612581251
3.77,-0.0196022199532739,0.118499310835264
3.772,-0.0185212838809708,0.118619207221822
3.774,-0.0174329020244069,0.118720958015295
3.776,-0.0163365847423638,0.118808067091583
3.778,-0.0152333764022697,0.118880347948111
3.78,-0.0141247420936254,0.118938788938147
3.782,-0.0130136094015656,0.118977158337885
3.784,-0.0118902033695603,0.119004539458062
3.786,-0.0107658028892462,0.11901220941431
3.788,-0.00963765371601815,0.119001687937673
3.79,-0.00850738901834551,0.118974441470565
3.792,-0.00737299631074067,0.118926737026754
3.794,-0.00624402268796233,0.118860214232247
3.796,-0.00510279426978129,0.118776830483083
3.798,-0.00396876851286688,0.118673488125006
3.8,-0.00283475936624677,0.118549506444077
3.802,-0.00170824868509079,0.118406432534191
3.804,-0.000575176551366033,0.118244903001454
3.806,0.000544670336675508,0.118062437452585
3.808,0.00167026052525254,0.117859054704074
3.81,0.00278416103154977,0.117637951076413
3.812,0.00389083938838295,0.117399818754143
3.814,0.00499026981839017,0.117139805369862
3.816,0.00608153984257176,0.116865377852147
3.818,0.00716366030988423,0.116569179740396
3.82,0.00823687612737112,0.116256133575597
3.822,0.00929683341825717,0.115928767052044
3.824,0.0103429727759409,0.115586266038941
3.826,0.0113809582144711,0.115225482443983
3.828,0.0124095690063591,0.114845956087835
3.83,0.0134212185791134,0.114455428400472
3.832,0.0144167389709344,0.11405589860333
3.834,0.015402950035221,0.113634998732442
3.836,0.0163728009459614,0.113205013248143
3.838,0.0173263262539229,0.112767223348297
3.84,0.0182652574516799,0.112315724138022
3.842,0.0191868856165272,0.111858163395809
3.844,0.0200943562191687,0.111390239395876
3.846,0.020985248588273,0.110915757983742
3.848,0.021863901765873,0.110434713930313
3.85,0.0227243694885855,0.109947393983836
3.852,0.023570363469659,0.10945324240217
3.854,0.0243991966678963,0.108958585062513
3.856,0.0252133527543614,0.108459396992451
3.858,0.0260139822869444,0.107968114640837
3.86,0.026797133399777,0.107454859156643
3.862,0.0275693772484504,0.10694954070026
3.864,0.0283271732400784,0.106446201075821
3.866,0.0290700600792071,0.105939840991613
3.868,0.0298034858622446,0.105440351087543
3.87,0.0305231989792121,0.104940055610022
3.872,0.0312313343917653,0.104437930346482
3.874,0.0319274641805071,0.103942768812894
3.876,0.0326162527907539,0.103449507224267
3.878,0.0332949877314417,0.10296008946013
3.88,0.0339650122055352,0.102473853582995
3.882,0.0346260363103098,0.101992846089816
3.884,0.0352814680408859,0.101511968199439
3.886,0.0359318195900743,0.101038903092021
3.888,0.0365853576915174,0.100569059430479
3.89,0.0372261962417879,0.100102995793916
3.892,0.0378466767021088,0.099639232411054
3.894,0.0384791526372607,0.099183882634631
3.896,0.0391088977647541,0.09872815607488
3.898,0.0397370391744694,0.0982786391829227
3.9,0.0403619582145106,0.097829902957221
3.902,0.0409875652685812,0.0973846683610452
