"Freq [GHz]","re(S(Antenna1_1_p1,Antenna1_1_p1)) []","im(S(Antenna1_1_p1,Antenna1_1_p1)) []"
3,0.0884725378342872,-0.133875117106587
3.002,0.0842196460599999,-0.134860373489128
3.004,0.0799822100149265,-0.135550118248213
3.006,0.0757638858455175,-0.135953805881833
3.008,0.0716018017300517,-0.136075686216078
3.01,0.0675103231932745,-0.135914164392891
3.012,0.0635249299059965,-0.135489480557245
3.014,0.0596451630837069,-0.13479422959384
3.016,0.0558990976681895,-0.133866826403087
3.018,0.0523151904492424,-0.132690993666679
3.02,0.0489151961763935,-0.131296075202505
3.022,0.0456930106106598,-0.129700883289112
3.024,0.0426857207363809,-0.127917429659568
3.026,0.0398898978731175,-0.125962352914792
3.028,0.0373458445575956,-0.123870464436353
3.03,0.0350526415557071,-0.121639869318811
3.032,0.0329994038246373,-0.119314953611385
3.034,0.0312049071050112,-0.11689894934626
3.036,0.0296803324731525,-0.114418151587279
3.038,0.0284185664934368,-0.111911504189275
3.04,0.0274270493007017,-0.109379875176268
3.042,0.026710740572807,-0.106866413391676
3.044,0.02626017287324,-0.104379897138039
3.046,0.0260731745038701,-0.101959614722736
3.048,0.026135680267786,-0.099604101346616
3.05,0.0264511528522692,-0.097348187592254
3.052,0.027000826411858,-0.095208363760705
3.054,0.02777755929155,-0.093217311063839
3.056,0.0287650090001328,-0.091399959920182
3.058,0.0299484249236504,-0.089718634070212
3.06,0.0313159181489762,-0.08825350145134
3.062,0.0328483846975629,-0.086999577192313
3.064,0.0345185181792852,-0.085949299367263
3.066,0.0363104388564716,-0.085168260919194
3.068,0.0382144202180752,-0.084577819213156
3.07,0.0402014755789626,-0.0842634710589
3.072,0.0422476611914154,-0.084210595393082
3.074,0.0443202291147382,-0.084424553691131
3.076,0.0464229620680251,-0.084887696628602
3.078,0.0485060552793133,-0.085637531072142
3.08,0.0505609524632896,-0.086625379720073
3.082,0.0525631795800308,-0.08788875083249
3.084,0.054472941140247,-0.089407814370999
3.086,0.0563082367279667,-0.091167621028127
3.088,0.0580116330524046,-0.093175144766151
3.09,0.0595607580059499,-0.095415585995669
3.092,0.060964689710368,-0.097859444433825
3.094,0.0621979325932107,-0.100508272641958
3.096,0.0632252215844003,-0.103346743733094
3.098,0.0640406101629856,-0.106365502658897
3.1,0.0646310354441464,-0.109533023256316
3.102,0.0649560308263232,-0.11283512592408
3.104,0.0650543900088112,-0.116257829447592
3.106,0.064894975938891,-0.119764480946469
3.108,0.0644717226300803,-0.123343959327813
3.11,0.0637551880199295,-0.126976427545959
3.112,0.0627886629882531,-0.130640531099783
3.114,0.0615187757555584,-0.134305989826264
3.116,0.0599665121217158,-0.137948915780707
3.118,0.0581467366048076,-0.14154247580227
3.12,0.0560406558601886,-0.145087306940144
3.122,0.0536768299598488,-0.148545590424856
3.124,0.0510340305518793,-0.151879730596503
3.126,0.0481353241302858,-0.155079992593957
3.128,0.0449969848349227,-0.158144244597773
3.13,0.0416256062917671,-0.161034503281722
3.132,0.0380420997233201,-0.163726698334102
3.134,0.034250798829284,-0.166220982548731
3.136,0.030269885257521,-0.168501247545617
3.138,0.0261332692151748,-0.170543011981332
3.14,0.0218505991300765,-0.172325406949134
3.142,0.0174270292923442,-0.17384467197881
3.144,0.0129011015863022,-0.175093603596205
3.146,0.00828411309554882,-0.176076754122471
3.148,0.00361168220236578,-0.176764364843098
3.15,-0.00110940864571211,-0.177179213116622
3.152,-0.00585508545576302,-0.177296117423115
3.154,-0.010581021206823,-0.17712202377237
3.156,-0.0152837727985792,-0.176650138361885
3.158,-0.0199445276877657,-0.175907479594539
3.16,-0.0245240849018068,-0.174880502286072
3.162,-0.029002358557004,-0.173565989912263
3.164,-0.0333757921802148,-0.17199795245596
3.166,-0.0376292589071991,-0.17017767700377
3.168,-0.0417021868877878,-0.168109564742574
3.17,-0.0456085212107379,-0.165819059515821
3.172,-0.049324720378365,-0.163304722599584
3.174,-0.052836813750902,-0.160600740308355
3.176,-0.0561283806705904,-0.157721590830713
3.178,-0.0592004637655646,-0.154671557104705
3.18,-0.0619997027633719,-0.151482372863031
3.182,-0.0645457265343407,-0.148171620488046
3.184,-0.0668434199746394,-0.144772615901555
3.186,-0.0688701381390488,-0.141296170085373
3.188,-0.0706207398635233,-0.13775079333875
3.19,-0.0721059242074359,-0.134174704469157
3.192,-0.0733031442556117,-0.130606106612312
3.194,-0.0742315493600576,-0.127027671996998
3.196,-0.0748965028314375,-0.123499731746725
3.198,-0.0752866732502961,-0.120019781228217
3.2,-0.0754180851379762,-0.116624141518068
3.202,-0.0752919970273491,-0.113336183856932
3.204,-0.074944747353184,-0.110146099267445
3.206,-0.0743543429723099,-0.107100088907038
3.208,-0.0735579465734999,-0.104217113140586
3.21,-0.0725450063870784,-0.10150178338289
3.212,-0.0713565344942741,-0.098985682861009
3.214,-0.0700033052862763,-0.096648594706442
3.216,-0.0685124696130783,-0.094553484757167
3.218,-0.0668603738319802,-0.092668366489524
3.22,-0.0651245525458896,-0.091018793630005
3.222,-0.0632910319853105,-0.089607515106815
3.224,-0.0613924688741017,-0.088441494841418
3.226,-0.0594539914649182,-0.08754782394985
3.228,-0.0574896699482161,-0.086895565933954
3.23,-0.0555163625812065,-0.086502553002507
3.232,-0.0535706976944913,-0.086353232442175
3.234,-0.0516658262804804,-0.086469503088403
3.236,-0.049812148035483,-0.086820470296159
3.238,-0.0480507097588185,-0.087410869900569
3.24,-0.0463999611623694,-0.088239956657458
3.242,-0.0448637843599061,-0.089283634033793
3.244,-0.0434768870191684,-0.090541680237981
3.246,-0.042242417146613,-0.091994267300128
3.248,-0.0411867558119803,-0.093630945162137
3.25,-0.0403229073924992,-0.095430116077781
3.252,-0.0396627079269234,-0.097374681892633
3.254,-0.0392308715692231,-0.099444844893938
3.256,-0.0390206739920309,-0.101633056820383
3.258,-0.0390442514698637,-0.103915785141805
3.26,-0.039319305892013,-0.106265697020794
3.262,-0.0398360145252309,-0.108645743765253
3.264,-0.0406212845861025,-0.111088404467867
3.266,-0.0416567254431733,-0.113523748729613
3.268,-0.0429417694388425,-0.115947043129469
3.27,-0.0444894783309247,-0.118327944347985
3.272,-0.04627712600403,-0.120638742636156
3.274,-0.0483139329705963,-0.122881941470265
3.276,-0.0506005235717412,-0.125029190841829
3.278,-0.0531188880677944,-0.127054754010619
3.28,-0.0558550481885796,-0.128947750628684
3.282,-0.0587994307834739,-0.130657581620279
3.284,-0.0619563134811423,-0.132227891390745
3.286,-0.0652849013990687,-0.133592273335387
3.288,-0.0687690157328109,-0.134746155858274
3.29,-0.0724224687749762,-0.135689364261023
3.292,-0.0762049438839712,-0.136392878391529
3.294,-0.0800857099424589,-0.136862622672683
3.296,-0.084065337035602,-0.137068334451055
3.298,-0.0881367084890166,-0.137020494355541
3.3,-0.0922342244594852,-0.136715805645977
3.302,-0.096379137175401,-0.136133896791783
3.304,-0.100546074326371,-0.135282706330499
3.306,-0.104671472905186,-0.134151007776395
3.308,-0.108780236037481,-0.132766926929012
3.31,-0.112832906539183,-0.131111255481678
3.312,-0.116809726901738,-0.1291933726101
3.314,-0.120725922410602,-0.12700868945082
3.316,-0.124480964498956,-0.124580714339782
3.318,-0.128104583999156,-0.121923760480832
3.32,-0.131597806364918,-0.119017672984234
3.322,-0.134907558676244,-0.11591559802519
3.324,-0.138026071614161,-0.112620189142371
3.326,-0.140944795295144,-0.109110654436443
3.328,-0.143656962655334,-0.105457912908591
3.33,-0.146131571204514,-0.101640694619105
3.332,-0.148364114749803,-0.0976942969858989
3.334,-0.150348387599151,-0.0936379928431291
3.336,-0.152082540714604,-0.0895160347097856
3.338,-0.153548617715247,-0.0852534081812834
3.34,-0.154760215040002,-0.0809788904731442
3.342,-0.155693441170126,-0.0766880969476365
3.344,-0.156350704251499,-0.0723436171414825
3.346,-0.156751818876659,-0.0680446397875703
3.348,-0.156877417326631,-0.0637728363547129
3.35,-0.156731321802474,-0.059530227951455
3.352,-0.156342060256631,-0.0553728032918617
3.354,-0.155694408434032,-0.0513177398604176
3.356,-0.154813465592974,-0.0473750248028962
3.358,-0.153695397425741,-0.0435594558363293
3.36,-0.152373034219048,-0.0398998083579887
3.362,-0.150838441044194,-0.0363969888844171
3.364,-0.149111190757034,-0.0330634547805198
3.366,-0.147195397517697,-0.0299312899986916
3.368,-0.145141583780099,-0.0270082090980128
3.37,-0.142941837601204,-0.0242815047134807
3.372,-0.140613201340098,-0.0217876607953162
3.374,-0.138195390216788,-0.0195388833183304
3.376,-0.135682153658842,-0.0175374005313154
3.378,-0.133114771397772,-0.0157650679065588
3.38,-0.13050746329018,-0.0142351468393595
3.382,-0.127868922076734,-0.0129631548576676
3.384,-0.125242692918887,-0.0119425120917444
3.386,-0.122611750415414,-0.011173502863935
3.388,-0.120036989256689,-0.0106446920484745
3.39,-0.117524230548798,-0.0103523773813831
3.392,-0.115092336619399,-0.0102932483704763
3.394,-0.112750477565402,-0.0104554360553839
3.396,-0.110534198317427,-0.0108234126977036
3.398,-0.108457201506031,-0.0114033627811993
3.4,-0.106506903517788,-0.0121773223921265
3.402,-0.104739482851073,-0.0130949757696012
3.404,-0.103149601671757,-0.0141943591760835
3.406,-0.101750020778559,-0.0154468958879242
3.408,-0.100534558228336,-0.01682530773605
3.41,-0.099542020521074,-0.0183019170666889
3.412,-0.098756088854713,-0.0198865479922155
3.414,-0.098200074939788,-0.0215310339160991
3.416,-0.09787448803385,-0.0232315641639436
3.418,-0.097810775605692,-0.0249382557306081
3.42,-0.097941932019408,-0.0267021920699765
3.422,-0.098341562788225,-0.0284219327987805
3.424,-0.098948905008167,-0.030147122402063
3.426,-0.099802195001508,-0.0318065384747225
3.428,-0.100877165390079,-0.0333794466046846
3.43,-0.102160950088331,-0.0348987050011962
3.432,-0.103669913466248,-0.0362958680016924
3.434,-0.105383039022069,-0.0375755312808036
3.436,-0.107268591584843,-0.0387159224674868
3.438,-0.109349706036747,-0.0396946948872454
3.44,-0.111599212265315,-0.0405100047745102
3.442,-0.113994156505395,-0.0411345536750755
3.444,-0.116526704331002,-0.0415644914087369
3.446,-0.119185306016934,-0.0417917924919866
3.448,-0.121925913980294,-0.0418003991808652
3.45,-0.124764598671751,-0.0415823956339477
3.452,-0.127660716892694,-0.0411329191354222
3.454,-0.130603026644179,-0.0404448948683464
3.456,-0.133579497716762,-0.0395117746679808
3.458,-0.136541846049786,-0.0383555795953249
3.46,-0.139515256371375,-0.0369265780306916
3.462,-0.14244073853074,-0.0352656650175298
3.464,-0.145310370929315,-0.0333656790262831
3.466,-0.14813493477024,-0.03123661308846
3.468,-0.150835002794509,-0.0288781012207953
3.47,-0.15342916197762,-0.0262917409595774
3.472,-0.155908963698117,-0.0235010730951271
3.474,-0.15824235952093,-0.0204972745063834
3.476,-0.160402969956626,-0.0173128767156884
3.478,-0.162399276070446,-0.0139490659136532
3.48,-0.164204221031248,-0.0104138792242444
3.482,-0.165802485760277,-0.0067131869599487
3.484,-0.167196838769791,-0.0029158199971627
3.486,-0.168357417381562,0.0010076387383406
3.488,-0.169291604245227,0.0050362426957411
3.49,-0.169984564986493,0.0091446993133574
3.492,-0.170427522215232,0.0133131086246897
3.494,-0.170629026773395,0.0175231641232793
3.496,-0.170575537842865,0.021752223034463
3.498,-0.170262402013101,0.0259908042718831
3.5,-0.169695809238696,0.0302036796509316
3.502,-0.168884667006824,0.0343891746119651
3.504,-0.167827148694503,0.0385224137623738
3.506,-0.166520195515821,0.0425859969265141
3.508,-0.164977862228933,0.0465264536504342
3.51,-0.163212712413048,0.0503834927594722
3.512,-0.161231281415218,0.0540904258136368
3.514,-0.159021970037046,0.0576638804299
3.516,-0.156653331451291,0.0610852247842318
3.518,-0.154071197558324,0.0643372552435331
3.52,-0.151351733482516,0.0673849037573474
3.522,-0.148453331208488,0.0702347658094514
3.524,-0.14542515652727,0.0728958551592149
3.526,-0.142290106502351,0.0753098122428455
3.528,-0.139047853105635,0.0774961369944167
3.53,-0.135714918130279,0.0794707400067345
3.532,-0.132329485100472,0.0811970728220362
3.534,-0.128892418702063,0.0826718804224984
3.536,-0.125425577300735,0.0839141809905535
3.538,-0.121964393794494,0.084918769059104
3.54,-0.11850250765002,0.0856665038514222
3.542,-0.115076807125001,0.0861704997210213
3.544,-0.11172296639631,0.0864535484412127
3.546,-0.10839964200755,0.0864938380145896
3.548,-0.105191347039099,0.0863273364622344
3.55,-0.102067338511067,0.0859353974628438
3.552,-0.099068742336199,0.0853309633915516
3.554,-0.096216587534678,0.0845434009586826
3.556,-0.093518807528874,0.0835594955982487
3.558,-0.090960175988016,0.0824357167962887
3.56,-0.088588336102794,0.0811409321690024
3.562,-0.086413914649887,0.0797170495307256
3.564,-0.084429559346437,0.0781744561317101
3.566,-0.082642058264482,0.0765114001556854
3.568,-0.08109357137527,0.0747747823322709
3.57,-0.079724323403569,0.0729618877522099
3.572,-0.078597200931901,0.0711021004593531
3.574,-0.077686183034728,0.0692100305505179
3.576,-0.077010021662573,0.0673004345061303
3.578,-0.076553472316098,0.065403325641669
3.58,-0.076320307570155,0.0635267615459463
3.582,-0.076303705947755,0.0616864427521691
3.584,-0.076512594384027,0.059928502870838
3.586,-0.076920814570117,0.0582408516764247
3.588,-0.077533030267043,0.0566451932578896
3.59,-0.078332367049549,0.0551609176239944
3.592,-0.079316331599871,0.0538076701884159
3.594,-0.080460080951522,0.0525995760846786
3.596,-0.081770059043021,0.0515386236308876
3.598,-0.083226659541576,0.0506437469943024
3.6,-0.084804193066798,0.0499538215256428
3.602,-0.086494324654316,0.049418084123311
3.604,-0.088276645019454,0.0490912413673087
3.606,-0.090132380320802,0.0489824018530682
3.608,-0.092072623004851,0.0490765983850054
3.61,-0.0940384361095481,0.0493852789299266
3.612,-0.0960318315488813,0.0499163358502414
3.614,-0.09803806223013,0.0506771293969679
3.616,-0.100022635877914,0.0516504860225591
3.618,-0.101988571124756,0.052848820613539
3.62,-0.103893488016583,0.0542562194029458
3.622,-0.105749826248811,0.0558808833825597
3.624,-0.107496751806141,0.0577136843849854
3.626,-0.10915942249212,0.0597581416455147
3.628,-0.110688728646685,0.0619805425338085
3.63,-0.112108297755703,0.0643919681153693
3.632,-0.11337329570454,0.0669575306828583
3.634,-0.114462328971614,0.0696980754772071
3.636,-0.115386172822009,0.0725933926085139
3.638,-0.116098680641026,0.0755989694968041
3.64,-0.116634752387843,0.0787542647425675
3.642,-0.116983686029116,0.0819683858671043
3.644,-0.117101450642646,0.0852834770326958
3.646,-0.117000735751053,0.0886548749226065
3.648,-0.116668653655477,0.0921016650658645
3.65,-0.116079546959315,0.0955414114268599
3.652,-0.115294084471975,0.099012536094808
3.654,-0.114289928632655,0.102494989522948
3.656,-0.113018119434194,0.105941880059621
3.658,-0.111530392336905,0.109334819417148
3.66,-0.10980894269248,0.112674398810507
3.662,-0.107864395367944,0.115939429255842
3.664,-0.105703595259604,0.119102649193797
3.666,-0.103338299777095,0.122155827005651
3.668,-0.100771528107427,0.125077595691292
3.67,-0.0980197461791147,0.127857664257007
3.672,-0.0950883096263519,0.130457152753068
3.674,-0.0919951654831932,0.132927920641169
3.676,-0.0887488867778499,0.135190806011703
3.678,-0.0853643248570144,0.137264672060789
3.68,-0.0818522457802285,0.139127320457218
3.682,-0.0782421171843316,0.140775853799147
3.684,-0.0745405948579687,0.142202006080662
3.686,-0.0707717431751483,0.143405105608165
3.688,-0.066947831892882,0.144370102046555
3.69,-0.0631007718148625,0.145086749375286
3.692,-0.0592171564607549,0.145600030944221
3.694,-0.055337682106515,0.145852381099341
3.696,-0.0514898201213013,0.145866625598246
3.698,-0.0476764527324635,0.145662258845544
3.7,-0.043912836159104,0.14521646965803
3.702,-0.0402252730877052,0.144544172339723
3.704,-0.0366224860693483,0.143650877646724
3.706,-0.0331235317890189,0.142541134351918
3.708,-0.0297687307529834,0.141258503719536
3.71,-0.0265388256042514,0.1397660949195
3.712,-0.0234590515981272,0.138107669651676
3.714,-0.020542700547879,0.136265943769918
3.716,-0.0178071334904147,0.134285441395981
3.718,-0.0152549565421621,0.132165688793269
3.72,-0.0129060653649527,0.129923369420434
3.722,-0.0107500896720388,0.127573224504807
3.724,-0.00882051186420901,0.125139863603697
3.726,-0.0070963770459882,0.122628665482529
3.728,-0.0055924927319552,0.120082705618823
3.73,-0.0043249917331279,0.117472387892062
3.732,-0.0032777781235063,0.114855458697342
3.734,-0.0024503772766625,0.112260528145959
3.736,-0.0018538232324823,0.109657069933801
3.738,-0.0014702118039859,0.107098504740592
3.74,-0.0013087857642767,0.104600341265037
3.742,-0.0013561587535766,0.10217608549579
3.744,-0.001605664936405,0.0998274456123
3.746,-0.0020717311188577,0.097602786750493
3.748,-0.0026809755959832,0.09547266233637
3.75,-0.003478914889317,0.093491456487433
3.752,-0.0044498839644924,0.091651554263967
3.754,-0.0055646676089863,0.089974186650228
3.756,-0.0068170915000003,0.088467426715486
3.758,-0.0081818187424503,0.087137877224918
3.76,-0.0096518680270652,0.085992560590421
3.762,-0.0112229231686571,0.085049897161226
3.764,-0.0128602094744565,0.084313313324489
3.766,-0.0145520555686317,0.083784819165677
3.768,-0.0162705031668991,0.083458736988851
3.77,-0.0180093336945639,0.083344958826864
3.772,-0.0197497541419708,0.083466205671422
3.774,-0.0214820737584069,0.083784410502995
3.776,-0.0231779071393638,0.084317641260683
3.778,-0.0248253634062697,0.085065040891911
3.78,-0.0263976163616254,0.086006433022047
3.782,-0.0278790138405656,0.087129962713885
3.784,-0.0292616166835603,0.088468794767062
3.786,-0.0305243841742462,0.08998058712731
3.788,-0.0316589300994181,0.091651735515673
3.79,-0.0326421953791455,0.093483215377565
3.792,-0.0334668879070407,0.095457040721754
3.794,-0.0341424723906623,0.097556301879247
3.796,-0.0346115347320813,0.099797537832083
3.798,-0.0348982893885669,0.102126024252006
3.8,-0.0349842194834468,0.104541518009077
3.802,-0.0348800232870908,0.107009464115191
3.804,-0.034541753708064,0.109555026440454
3.806,-0.0340024250044245,0.112129836908585
3.808,-0.0332317101851475,0.114722785991074
3.81,-0.0322515189117502,0.117304725480413
3.812,-0.031053860230017,0.119879181538143
3.814,-0.0296359211619098,0.122414198386862
3.816,-0.0280204648076282,0.124890185144147
3.818,-0.0261591409478158,0.127313748699396
3.82,-0.0241077724359289,0.129638322521597
3.822,-0.0218606049507428,0.131857270642044
3.824,-0.0194483426290591,0.133948744529941
3.826,-0.0168366428785289,0.135922032986983
3.828,-0.0140561077506409,0.137722929494835
3.83,-0.0111050938138866,0.139383381742572
3.832,-0.0080497259470656,0.14086878456403
3.834,-0.004819377842779,0.142155981175142
3.836,-0.0014890950010386,0.143251876921143
3.838,0.0019186921769229,0.144137543933797
3.84,0.0054270155946799,0.144829196508522
3.842,0.0090084810135272,0.145285054281449
3.844,0.0126378563781687,0.145509927886506
3.846,0.016284420487273,0.145516030612342
3.848,0.019955670991973,0.145294536389313
3.85,0.0236260179585855,0.144837916366336
3.852,0.027269581833659,0.14415860536777
3.854,0.0308598051448963,0.143244523200213
3.856,0.0343989631863614,0.142115071759251
3.858,0.0378447865499444,0.140773019036237
3.86,0.041238972426777,0.139203791504943
3.862,0.0444991557654504,0.13743389894826
3.864,0.0476496309490784,0.135473413554821
3.866,0.0506578445692071,0.133319309255613
3.868,0.0535097348295446,0.130997275560543
3.87,0.0561905379695121,0.128500597155022
3.872,0.0587080859876653,0.125862571056482
3.874,0.0610293255549071,0.123090549030894
3.876,0.0631488972775539,0.120202004809267
3.878,0.0650710214102417,0.11719484116413
3.88,0.0667688104086352,0.114105865665995
3.882,0.0682582472420098,0.110955877150816
3.884,0.0695132959156259,0.107754460473439
3.886,0.0705598977729743,0.104529146981021
3.888,0.0713551626178174,0.101290437341179
3.89,0.0719382863860879,0.098033276259916
3.892,0.0722869542676088,0.094783700622054
3.894,0.0723992256576607,0.091560893237631
3.896,0.0723083079183541,0.08841506368488
3.898,0.0720114006298694,0.0853432603699227
3.9,0.0714775303615106,0.082359534483221
3.902,0.0707553072825812,0.0794675570180452
3.904,0.0698606982231329,0.0767204973429138
3.906,0.0687505035745004,0.0740640377780863
