"Freq [GHz]","re(S(Antenna1_1_p1,Antenna1_1_p1)) []","im(S(Antenna1_1_p1,Antenna1_1_p1)) []"
3,0.107618262682387,-0.065749589516587
3.002,0.109008768373,-0.0685539744991278
3.004,0.110218228851926,-0.071536018308213
3.006,0.111254991085518,-0.0746900101918325
3.008,0.112086900520052,-0.0779688477960777
3.01,0.112719305933275,-0.0813899481828913
3.012,0.113133329585997,-0.0849017950972454
3.014,0.113316039803707,-0.08852240442384
3.016,0.113262808128189,-0.092230891573087
3.018,0.112966174709242,-0.095982678901679
3.02,0.112425745996393,-0.099774545156505
3.022,0.11163070734066,-0.103571339146312
3.024,0.110579421806381,-0.107383198735568
3.026,0.109282101973117,-0.111165498464792
3.028,0.107739071957596,-0.114917696776353
3.03,0.105956065315707,-0.118578811998811
3.032,0.103925440784637,-0.122173437081385
3.034,0.101643584795011,-0.12566346101926
3.036,0.0991625823531525,-0.129034934144279
3.038,0.0964543594334368,-0.132268114925175
3.04,0.0935459702507017,-0.135341568237268
3.042,0.090429860742807,-0.138252642471676
3.044,0.08716493899324,-0.140974971254039
3.046,0.0837310010338701,-0.143500611152736
3.048,0.080131758237786,-0.145805712896616
3.05,0.0764217964722692,-0.147895849282254
3.052,0.072590918571858,-0.149754303770705
3.054,0.06867275841555,-0.151371378973839
3.056,0.0646892933431328,-0.152751473700182
3.058,0.0606430763506504,-0.153872740900212
3.06,0.0565778043860762,-0.15474391337134
3.062,0.0524796957145629,-0.155363298692313
3.064,0.0484058979982852,-0.155737820137263
3.066,0.0443423471474716,-0.155851936159194
3.068,0.0403336231280752,-0.155708753943156
3.07,0.0364069367639626,-0.1553365372389
3.072,0.0325479688794154,-0.154725044833082
3.074,0.0287986540197382,-0.153887118251131
3.076,0.0251681438750651,-0.152834718238602
3.078,0.0216825942253133,-0.151563971352142
3.08,0.0183373777352896,-0.150117734770073
3.082,0.0151787106300308,-0.14848960616249
3.084,0.012192743580247,-0.146694555150999
3.086,0.0093966451779667,-0.144754985798127
3.088,0.0068135152924046,-0.142672786916151
3.09,0.0044335286059499,-0.140495708455669
3.092,0.002282985720368,-0.138212795013825
3.094,0.000348884563210701,-0.135857367528958
3.096,-0.0013417303055997,-0.133449072095094
3.098,-0.00279521005701441,-0.130979930668497
3.1,-0.0040421441158536,-0.128523058643316
3.102,-0.0050239911036768,-0.12608165357908
3.104,-0.0057867155211888,-0.123632943101592
3.106,-0.006324414551109,-0.121244039126469
3.108,-0.0066370613199197,-0.118919782507813
3.11,-0.0067268241100705,-0.116661236281959
3.112,-0.0066192154517469,-0.114509708546783
3.114,-0.0063091176044416,-0.112484180281964
3.116,-0.0058000245982842,-0.110572700042707
3.118,-0.0051262612251924,-0.10881522977327
3.12,-0.0043079635798114,-0.107216634160144
3.122,-0.0033305081501512,-0.105807693244856
3.124,-0.0022478324081207,-0.104564708186503
3.126,-0.0010249370597142,-0.103525721813957
3.128,0.000275967784922702,-0.102690075147773
3.13,0.0016524424207671,-0.102072741591722
3.132,0.00308335274232008,-0.101671029504102
3.134,0.004560411656284,-0.101486898258731
3.136,0.00604133443742099,-0.101518094705617
3.138,0.00753744338617483,-0.101779464381332
3.14,0.0089963079160765,-0.102264523589134
3.142,0.0104240027873442,-0.10297264279881
3.144,0.0117694122863022,-0.103899528386205
3.146,0.0130674319125488,-0.105034614362471
3.148,0.0142435001703658,-0.106374998393098
3.15,0.0153108632902879,-0.107900671496622
3.152,0.016250670016937,-0.109626741883115
3.154,0.017038755472177,-0.11151094902237
3.156,0.0176488282684208,-0.113562799481885
3.158,0.0180965881422343,-0.115750458214539
3.16,0.0183546547881932,-0.118080112036072
3.162,0.018416687572996,-0.120521417172263
3.164,0.0182497339697852,-0.12304570339596
3.166,0.0178851158628009,-0.12568307149377
3.168,0.0172793500722122,-0.128339877997574
3.17,0.0164406225292621,-0.131073406598821
3.172,0.015387334461635,-0.133801481673584
3.174,0.014079472519098,-0.136544160515455
3.176,0.0125393515294096,-0.139244694441713
3.178,0.0107568910344354,-0.141966171761705
3.18,0.0087586269866281,-0.144583973134031
3.182,0.0065169746256593,-0.147136174928046
3.184,0.0040558328953606,-0.149603495806555
3.186,0.0013794244809512,-0.151955740834373
3.188,-0.0015055774835233,-0.15417157856075
3.19,-0.0045821150274359,-0.156247204132557
3.192,-0.0078397889356117,-0.158150935458312
3.194,-0.0112855696900576,-0.159888242461998
3.196,-0.0148696628114375,-0.161429042816725
3.198,-0.0186060510302961,-0.162764830878217
3.2,-0.0224742081179762,-0.163878832258068
3.202,-0.0264247903773491,-0.164772881916932
3.204,-0.030485372323184,-0.165441469547445
3.206,-0.0346136272913099,-0.165865436777038
3.208,-0.0387868204284999,-0.166044075780586
3.21,-0.0430217884110784,-0.16595997161289
3.212,-0.0472336508024941,-0.165643589041009
3.214,-0.0514680138752763,-0.165059342286442
3.216,-0.0556495854620783,-0.164235835557167
3.218,-0.0597861786759802,-0.163162283409524
3.22,-0.0638814285058896,-0.161837357850005
3.222,-0.0678945992513105,-0.160271847426815
3.224,-0.0717884636461017,-0.158472262821418
3.226,-0.0755606006069182,-0.15646689013985
3.228,-0.0791991322264161,-0.154248929493954
3.23,-0.0826992832602065,-0.151816810132507
3.232,-0.0860095300434913,-0.149217498122175
3.234,-0.0891662232674804,-0.146423113868403
3.236,-0.092099798775483,-0.143487860366159
3.238,-0.0948530843788185,-0.140374125890569
3.24,-0.0973773084523694,-0.137175550477458
3.242,-0.0996835281399061,-0.133858235503793
3.244,-0.101754425289168,-0.130445062208981
3.246,-0.103597022876613,-0.126963959552128
3.248,-0.10517964276198,-0.123429194425137
3.25,-0.106531723242499,-0.119859159781681
3.252,-0.107640832016923,-0.116280134048633
3.254,-0.108506492569223,-0.112698377499938
3.256,-0.109134868912031,-0.109151481821383
3.258,-0.109514336369864,-0.105645522681805
3.26,-0.109670842252013,-0.102201442958794
3.262,-0.109619261595231,-0.098858794122253
3.264,-0.109320046146102,-0.095583011062867
3.266,-0.108826866063173,-0.092432422490483
3.268,-0.108139463828842,-0.089413271473469
3.27,-0.107279735220925,-0.086561032407985
3.272,-0.10623081345403,-0.083844345317156
3.274,-0.105043816470596,-0.081302404680265
3.276,-0.103722952101741,-0.078959491401829
3.278,-0.102253948017794,-0.076793497990619
3.28,-0.10069223817858,-0.074846547028684
3.282,-0.0990375368784739,-0.073089576160279
3.284,-0.0973114814391423,-0.071567662360745
3.286,-0.0955500221510687,-0.070269668195387
3.288,-0.0937479492209109,-0.069163518048274
3.29,-0.0919229170649762,-0.068305618611023
3.292,-0.0901047965129712,-0.067667913481529
3.294,-0.0883298554444589,-0.067244069252683
3.296,-0.086580013455602,-0.067030528191055
3.298,-0.0848913428490166,-0.067058887915541
3.3,-0.0832929531464852,-0.067255292775977
3.302,-0.081785773387401,-0.0676694435117829
3.304,-0.080394548573971,-0.0682672381304987
3.306,-0.079131811588186,-0.0690394027163946
3.308,-0.077998641948481,-0.0699798183290116
3.31,-0.077040369436183,-0.071069972061678
3.312,-0.076248223001738,-0.0722895548901005
3.314,-0.075635131490602,-0.0736621636608205
3.316,-0.075204641378956,-0.0751151463997823
3.318,-0.074972504339156,-0.0766596656308324
3.32,-0.074958923484918,-0.0782789977442342
3.322,-0.075149848266244,-0.0799439590411902
3.324,-0.075546884184161,-0.0816575813773709
3.326,-0.076179445875144,-0.0833872901914426
3.328,-0.077019351755334,-0.0851035516875907
3.33,-0.078087650334514,-0.0868149289001052
3.332,-0.079366406129803,-0.0884670271458989
3.334,-0.080859683369151,-0.0900910778081291
3.336,-0.082552114534604,-0.0916089437597856
3.338,-0.084465627885247,-0.0930617671382834
3.34,-0.086560762660002,-0.0943880630731442
3.342,-0.088839322840126,-0.0955918975896365
3.344,-0.091304920231499,-0.0966512347524825
3.346,-0.093911647016659,-0.0975615050045703
3.348,-0.096688173266631,-0.0983035767557129
3.35,-0.099594571032474,-0.098846498051455
3.352,-0.102607199256631,-0.0992144001218617
3.354,-0.105760355534032,-0.0993693973804176
3.356,-0.108969967992974,-0.0993115791528962
3.358,-0.112263189005741,-0.0990365250663293
3.36,-0.115602145343048,-0.0985376460779887
3.362,-0.118979720980194,-0.0978150913744171
3.364,-0.122377233782034,-0.0968573729205198
3.366,-0.125772870835597,-0.0956506265286916
3.368,-0.129144964658099,-0.0942402114080128
3.37,-0.132472880191204,-0.0925559895234807
3.372,-0.135734329002098,-0.0906734534753162
3.374,-0.138956097846788,-0.0885537106583304
3.376,-0.142055243290842,-0.0862165662313154
3.378,-0.145059288969772,-0.0836768099865588
3.38,-0.14792407482718,-0.0809300999693595
3.382,-0.150657812220734,-0.0779906972376676
3.384,-0.153230132809887,-0.0748721006217444
3.386,-0.155619553443414,-0.071584221073935
3.388,-0.157840434946689,-0.0681377356484745
3.39,-0.159853770748798,-0.0645687928013831
3.392,-0.161673164989399,-0.0608544351004763
3.394,-0.163272275535402,-0.0570517620753839
3.396,-0.164646968217427,-0.0531510803177036
3.398,-0.165800690736031,-0.0491693811241993
3.4,-0.166712117707788,-0.0451306579711265
3.402,-0.167396116101073,-0.0410575286436012
3.404,-0.167841399611757,-0.0369806833732835
3.406,-0.168030513188559,-0.0328601818659242
3.408,-0.167994863068336,-0.02880172590005
3.41,-0.167716965461074,-0.0247640153826889
3.412,-0.167213372104713,-0.0207755654622155
3.414,-0.166477811349788,-0.0168545088420991
3.416,-0.16552099078385,-0.0130280744039436
3.418,-0.164347074415692,-0.0093023121946081
3.42,-0.162984717659408,-0.0057132688214765
3.422,-0.161417251018225,-0.0022536799937805
3.424,-0.159678143188167,0.001067090115937
3.426,-0.157777459151508,0.0042040752902775
3.428,-0.155710816650079,0.0071922645753154
3.43,-0.153511066458331,0.0099834032788038
3.432,-0.151189816506248,0.0125670413083076
3.434,-0.148752998062069,0.0149627562791964
3.436,-0.146227130219843,0.0171489673325132
3.438,-0.143638933462747,0.0191134528227546
3.44,-0.140969980830315,0.0208594963154898
3.442,-0.138296241044395,0.0223832272249245
3.444,-0.135580757942002,0.0236792287912631
3.446,-0.132874345202934,0.0247592345880134
3.448,-0.130191511098294,0.0256114885191348
3.45,-0.127541323966751,0.0262451009160522
3.452,-0.124932954246694,0.0266698963545778
3.454,-0.122402086236179,0.0268859858416536
3.456,-0.119949541177762,0.0268952822120192
3.458,-0.117601898706086,0.0267123007246751
3.46,-0.115369753953375,0.0263563058793084
3.462,-0.11326361819974,0.0258205068524702
3.464,-0.111300589513315,0.0251262322037169
3.466,-0.10950598488024,0.02429329899154
3.468,-0.107872976194509,0.0233347063792047
3.47,-0.10640841456762,0.0222315046004226
3.472,-0.105125790778117,0.0210451317648729
3.474,-0.10404565142093,0.0197777283136166
3.476,-0.103157047096626,0.0184263996703116
3.478,-0.102475513450446,0.0170328508073468
3.48,-0.102002742601248,0.0156149546457556
3.482,-0.101728838980277,0.0141765410293513
3.484,-0.101666650839791,0.0127204251998373
3.486,-0.101807924281562,0.0113019711503406
3.488,-0.102155999275227,0.0099145162147411
3.49,-0.102702987946493,0.0085776022933574
3.492,-0.103442270325232,0.0073169761026897
3.494,-0.104368695873395,0.0061422725322793
3.496,-0.105484653542865,0.005061521641463
3.498,-0.106756251303101,0.0041070220338831
3.5,-0.108192597898696,0.0032798059009316
3.502,-0.109783992666824,0.0025889667649651
3.504,-0.111503813014503,0.0020635848323738
3.506,-0.113342807845821,0.0017038885865141
3.508,-0.115297260208933,0.0015240253904342
3.51,-0.117340530263048,0.0015295274694722
3.512,-0.119476457125218,0.0017239884836368
3.514,-0.121656834156046,0.0021298711599
3.516,-0.123891202816291,0.0027254721842318
3.518,-0.126126517311324,0.0035335796635331
3.52,-0.128404641998516,0.0045700917173474
3.522,-0.130657194098488,0.0057954951194514
3.524,-0.13289412294827,0.0072375175292149
3.526,-0.135096283664351,0.0088977310828455
3.528,-0.137232544132635,0.0107598363144167
3.53,-0.139287255433279,0.0128192355267345
3.532,-0.141253811621472,0.0150741521220362
3.534,-0.143107589232063,0.0175170975124984
3.536,-0.144848739248135,0.0201337971505535
3.538,-0.146438686089494,0.022932424109104
3.54,-0.14787606972802,0.0258773778114222
3.542,-0.149177167453001,0.0289754517010213
3.544,-0.15028376289631,0.0321882971512127
3.546,-0.15121762276755,0.0355544315245896
3.548,-0.151935362089099,0.0390113344322344
3.55,-0.152453594501067,0.0425440431928438
3.552,-0.152779069296199,0.0461543808115516
3.554,-0.152875241304678,0.0498407956406826
3.556,-0.152748129098874,0.0535564130342487
3.558,-0.152409658848016,0.0572918433112887
3.56,-0.151841746062794,0.0610196635792024
3.562,-0.151053766689887,0.0647603716037256
3.564,-0.150034050326437,0.0684469216267101
3.566,-0.148809111334482,0.0721207137266854
3.568,-0.14735997335527,0.0757136681072709
3.57,-0.145691523493569,0.0792293085092099
3.572,-0.143820752221901,0.0826420383693531
3.574,-0.141759315724728,0.0859559505775179
3.576,-0.139505166252573,0.0891428752021303
3.578,-0.137058131566098,0.092193134916669
3.58,-0.134467781390155,0.0950875251159463
3.582,-0.131712209217755,0.0978171907221691
3.584,-0.128817335614027,0.100363848470838
3.586,-0.125789165970117,0.102736618486425
3.588,-0.122649936117043,0.10490115176789
3.59,-0.119430026619549,0.106867162123994
3.592,-0.116108109335871,0.108630428678416
3.594,-0.112712968408522,0.110187961474679
3.596,-0.109284482986021,0.111518115970888
3.598,-0.105825422465576,0.112623890684302
3.6,-0.102359284823798,0.113518210455643
3.602,-0.098870258142316,0.114175015853311
3.604,-0.095413003268454,0.114623890937309
3.606,-0.091998317908802,0.114847273313068
3.608,-0.088629287223851,0.114867702745005
3.61,-0.0853306083445481,0.114677369289927
3.612,-0.0821101194728813,0.114270638030241
3.614,-0.07900034035643,0.113689336126968
3.616,-0.0760047412639138,0.112920228382559
3.618,-0.0731330747087556,0.111980558443539
3.62,-0.0703992809525832,0.110873820322946
3.622,-0.0678163187488115,0.10962715181256
3.624,-0.0653977398461408,0.108221827004985
3.626,-0.0631514673421196,0.106705097915515
3.628,-0.0610912135466849,0.105079691513809
3.63,-0.0592080897957032,0.103371987215369
3.632,-0.0575334365445401,0.101567459705858
3.634,-0.0560446857416142,0.0997058718822071
3.636,-0.0547581110020088,0.0978126185525139
3.638,-0.053681338301026,0.0958852867995041
3.64,-0.0528219285078427,0.0939543726175675
3.642,-0.0521442422991157,0.0919926335741043
3.644,-0.0516785883426463,0.0900778348246958
3.646,-0.0514145446710528,0.0882094606466065
3.648,-0.0513363857854769,0.0863837282508645
3.65,-0.0514643369893152,0.0846362383818599
3.652,-0.0517606348419752,0.082961963459808
3.654,-0.0522405622826551,0.081390961047948
3.656,-0.0528803519141943,0.079923715407621
3.658,-0.0536792247569053,0.078604215007148
3.66,-0.0546015583824804,0.077414656390507
3.662,-0.0556752359779445,0.076375284935842
3.664,-0.0568672856896043,0.075492582353797
3.666,-0.0581580326670947,0.074782682775651
3.668,-0.0595401529174271,0.074241307871292
3.67,-0.0609902026551147,0.073888401917007
3.672,-0.0625023501333519,0.073727426533068
3.674,-0.0640570249211932,0.073762291481169
3.676,-0.0656440360148499,0.073991035531703
3.678,-0.0672132421439144,0.074418037860789
3.68,-0.0688215427822285,0.075030364677218
3.682,-0.0703807290583316,0.075853521599147
3.684,-0.0719029021889687,0.076870623330662
3.686,-0.0733617378761483,0.078069962508165
3.688,-0.074744275554882,0.079466818546555
3.69,-0.0760685908158625,0.081037094345286
3.692,-0.0772768158412549,0.082780920214221
3.694,-0.078368065198515,0.084684802019341
3.696,-0.0793310459453013,0.086759355208246
3.698,-0.0801479086144635,0.088958817455544
3.7,-0.080823650929104,0.09130478043803
3.702,-0.0813252064377052,0.093761738169723
3.704,-0.0816589379593483,0.096317007216724
3.706,-0.0818119671290189,0.098964318041918
3.708,-0.0817636257329834,0.101716247599536
3.71,-0.0815237402842514,0.1045212747465
3.712,-0.0810883106481272,0.107358465076676
3.714,-0.080444713287879,0.110229814997918
3.716,-0.0795928921404147,0.113132655836981
3.718,-0.0785314248221621,0.116021588741269
3.72,-0.0772588276449527,0.118885245720434
3.722,-0.0757889757820388,0.121716314788807
3.724,-0.074098810854209,0.124478985904697
3.726,-0.0722236140359882,0.127217140047529
3.728,-0.0701470174419552,0.129853074972823
3.73,-0.0678963441231279,0.132378487135062
3.732,-0.0654504339435063,0.134799243641342
3.734,-0.0628318342766625,0.137082908704959
3.736,-0.0600474213524823,0.139247179147801
3.738,-0.0571107511639859,0.141253789062592
3.74,-0.0540549400442767,0.143072062045037
3.742,-0.0508605366635766,0.14473679427579
3.744,-0.047537963096405,0.1462266944123
3.746,-0.0441315304988577,0.147508509450493
3.748,-0.0406594833559832,0.14858461424637
3.75,-0.037080618018317,0.149481955957433
3.752,-0.0334589244644924,0.150140975153967
3.754,-0.0298121441729863,0.150595924510228
3.756,-0.0261434827985003,0.150829995465486
3.758,-0.0224706836374503,0.150842469014918
3.76,-0.0188056645030652,0.150647926600421
3.762,-0.0151859483816571,0.150236164531226
3.764,-0.0115961697814565,0.149600339004489
3.766,-0.0080708301726317,0.148772258285677
3.768,-0.0046186193208991,0.147721977068851
3.77,-0.0012616979752739,0.146491573506864
3.772,0.0019778031310292,0.145052940691422
3.774,0.0051025881785931,0.143450652652995
3.776,0.0080878636826362,0.141673378570683
3.778,0.0109355136237303,0.139746074221911
3.78,0.0136274184683746,0.137666919942047
3.782,0.0161464108394344,0.135433428903885
3.784,0.0184716419564397,0.133096622207062
3.786,0.0206265191757538,0.13065730607731
3.788,0.0225845947105818,0.128121412825673
3.79,0.0243369779508545,0.125504466518565
3.792,0.0258725501429593,0.122848423033754
3.794,0.0272420301493377,0.120110343650247
3.796,0.0283664710379187,0.117378522527483
3.798,0.0292943791914331,0.114616913801006
3.8,0.0300060660365532,0.111868391714077
3.802,0.0305099924829092,0.109128306078191
3.804,0.030797594101936,0.106446748777454
3.806,0.0309127547555755,0.103802774886585
3.808,0.0307960987748525,0.101240630125074
3.81,0.0305000623982498,0.098758725950413
3.812,0.030031668189983,0.096376351628143
3.814,0.0293787721780902,0.094108743019862
3.816,0.0285693677723718,0.091963706871147
3.818,0.0276159323321842,0.089956326539396
3.82,0.0265189811240711,0.088100229751597
3.822,0.0252927348892572,0.086405918432044
3.824,0.0239539405609409,0.084862307059941
3.826,0.0225136809814711,0.083518364526983
3.828,0.0209910268413591,0.082359840324835
3.83,0.0194056438441134,0.081377018682572
3.832,0.0177564375729344,0.08059504540403
3.834,0.016078029590221,0.080019736445142
3.836,0.0143918510391614,0.079628230301143
3.838,0.0126758177249229,0.079452177923797
3.84,0.0109946695296799,0.079468415838522
3.842,0.0093351808325272,0.079666112911449
3.844,0.0077085024931687,0.080082013746506
3.846,0.006159937027273,0.080670574722342
3.848,0.004675261588873,0.081452789869313
3.85,0.0032947041605855,0.082406741216336
3.852,0.002003776742659,0.08354638499777
3.854,0.000847320357896298,0.084836741300213
3.856,-0.000187943243638598,0.086274158539251
3.858,-0.0010805155900556,0.087846433956237
3.86,-0.001808849003223,0.089556907784943
3.862,-0.0023699738045496,0.09137350815826
3.864,-0.0027709149809216,0.093288793084821
3.866,-0.0029790667907929,0.095278396525613
3.868,-0.0030069817904554,0.097349047302543
3.87,-0.0028369331204879,0.099475153574022
3.872,-0.0024626300823347,0.101642800393482
3.874,-0.0018966113250929,0.103823670460894
3.876,-0.0011196597024461,0.106012994651767
3.878,-0.000137268679758301,0.10818702811613
3.88,0.0010341490986352,0.110330296652995
3.882,0.0024069310720098,0.112444230424816
3.884,0.0039826729056259,0.114489069421439
3.886,0.0057512128729743,0.116464602254021
3.888,0.0076992715278174,0.118351890894479
3.89,0.0098269316960879,0.120128116509916
3.892,0.0121422474376088,0.121772816554054
3.894,0.0145928097076607,0.123298740593631
3.896,0.0172007924883541,0.12467064576488
3.898,0.0199407412398694,0.125885019319923
3.9,0.0228215656315106,0.126924553923221
3.902,0.0257963376025812,0.127801699208045
3.904,0.0288748374431329,0.128483479992914
3.906,0.0320348632245004,0.128966183258086
3.908,0.035261759456716,0.129239117232025
