"Freq [GHz]","re(S(Antenna1_1_p1,Antenna1_1_p1)) []","im(S(Antenna1_1_p1,Antenna1_1_p1)) []"
3,0.00526625059203202,-0.067122205392584
3.002,0.0038928222585789,-0.0671067354910689
3.004,0.00252100797443842,-0.0670489011053979
3.006,0.00115237649813035,-0.0669488061567619
3.008,-0.000211516458753872,-0.066806618860132
3.01,-0.00156913112760392,-0.0666225702295347
3.012,-0.00291894642716128,-0.066396952435263
3.014,-0.00425946255086317,-0.0661301170257909
3.016,-0.00558920338951878,-0.0658224730394695
3.018,-0.00690671878350724,-0.0654744850092787
3.02,-0.00821058660104623,-0.0650866708810112
3.022,-0.00949941463922026,-0.0646595998622647
3.024,-0.0107718423465824,-0.0641938902105196
3.026,-0.0120265423667983,-0.0636902069834012
3.028,-0.0132622219044488,-0.0631492597569514
3.03,-0.0144776239145031,-0.0625718003323943
3.032,-0.0156715281196294,-0.061958620444464
3.034,-0.0168427518583326,-0.061310549481882
3.036,-0.0179901507704519,-0.0606284522360424
3.038,-0.019112619324949,-0.0599132266883749
3.04,-0.0202090911972491,-0.0591658018472317
3.042,-0.0212785395071597,-0.0583871356465833
3.044,-0.0223199769170014,-0.0575782129156189
3.046,-0.0233324556114232,-0.0567400434290298
3.048,-0.0243150671582558,-0.0558736600457277
3.05,-0.0252669422676803,-0.0549801169433013
3.052,-0.0261872504568446,-0.0540604879553641
3.054,-0.0270751996268737,-0.0531158650167872
3.056,-0.0279300355793676,-0.0521473567216541
3.058,-0.0287510414615846,-0.0511560869983142
3.06,-0.0295375371725578,-0.0501431939029584
3.062,-0.0302888787304013,-0.0491098285352945
3.064,-0.0310011425730224,-0.0480595458428496
3.066,-0.0316763259163731,-0.0469922424443207
3.068,-0.032315062965256,-0.0459083164439391
3.07,-0.0329168635605311,-0.0448089241766385
3.072,-0.0334812673733761,-0.0436952310547014
3.074,-0.0340078433470045,-0.0425684114152147
3.076,-0.0344961891899714,-0.0414296484702488
3.078,-0.0349459309468786,-0.0402801343528977
3.08,-0.0353567226569262,-0.0391210702517014
3.082,-0.035728246095361,-0.0379536666252878
3.084,-0.0360602106274252,-0.0367791434880448
3.086,-0.0363523531609145,-0.0355987307562679
3.088,-0.036604438225914,-0.0344136686457771
3.09,-0.0368162581740858,-0.0332252081065575
3.092,-0.0369876335113301,-0.0320346112860388
3.094,-0.0371184133654295,-0.0308431520037329
3.096,-0.037208476094615,-0.0296521162277406
3.098,-0.037257730041543,-0.028462802535185
3.1,-0.0372661144321665,-0.027276522544288
3.102,-0.0372336004239876,-0.0260946013013149
3.104,-0.0371601923017183,-0.0249183776067602
3.106,-0.0370459288189257,-0.0237492042640595
3.108,-0.0368908846850137,-0.0225884482347774
3.11,-0.0366951721903816,-0.0214374906821837
3.112,-0.036458942966909,-0.0202977268858598
3.114,-0.0361823898745483,-0.0191705660160261
3.116,-0.0358657490059588,-0.0180574307361415
3.118,-0.0355093017974022,-0.0169597566317156
3.12,-0.0351133772347435,-0.015878991446018
3.122,-0.0346783541383706,-0.0148165940937636
3.124,-0.0342046635118639,-0.0137740334595408
3.126,-0.0336918134541603,-0.0127534010466132
3.128,-0.0331403996247366,-0.011756302866809
3.13,-0.0325520270311148,-0.0107836543065066
3.132,-0.031927369242554,-0.00983694640325619
3.134,-0.0312671643783016,-0.0089176697343419
3.136,-0.0305722173543619,-0.00802731153860172
3.138,-0.0298434020214785,-0.00716735253608802
3.14,-0.0290816631628799,-0.00633926346764948
3.142,-0.0282880183209185,-0.0055445013317743
3.144,-0.027463559420372,-0.00478450534090232
3.146,-0.0266094541551042,-0.00406069259681419
3.148,-0.0257269471063275,-0.00337445350178165
3.15,-0.0248173605576209,-0.00272714691841078
3.152,-0.0238820949760562,-0.00212009509938493
3.154,-0.0229226291260001,-0.00155457841006672
3.156,-0.0219405197880337,-0.00103182987001822
3.158,-0.0209374010515748,-0.000553029546674085
3.16,-0.0199149831580235,-0.00011929883450398
3.162,-0.0188750508697897,0.000268305341540541
3.164,-0.0178194613459968,0.000608796355151284
3.166,-0.0167501415097831,0.000901263696255058
3.168,-0.0156690848944259,0.00114487872905371
3.17,-0.0145783479626511,0.00133890033941735
3.172,-0.013480045898327,0.00148268042005513
3.174,-0.0123763478725291,0.0015756691391733
3.176,-0.0112694717972109,0.00161741994004744
3.178,-0.0101616785792859,0.00160759421522835
3.18,-0.00905526589858689,0.00154596560422386
3.182,-0.00795256154227151,0.00143242386077132
3.184,-0.00685591631794174,0.00126697824206599
3.186,-0.00576769660596911,0.00104976037218432
3.188,-0.00469173324433176,0.000779413987334672
3.19,-0.00363368386638282,0.000453423726379108
3.192,-0.00259174171956277,7.73620883795087E-05
3.194,-0.00156822109304845,-0.000348096322688948
3.196,-0.000565408774608558,-0.000822151077064528
3.198,0.0004144444495836,-0.00134387701322978
3.2,0.00136913225079291,-0.00191222603497825
3.202,0.00229650110410767,-0.00252602961130178
3.204,0.00319445845686531,-0.00318400196812174
3.206,0.0040609806454747,-0.00388474395678629
3.208,0.00489412050410316,-0.00462674757235142
3.21,0.00569201459681312,-0.00540840109264158
3.212,0.00645289001644107,-0.00622799479749417
3.214,0.00717507069580895,-0.00708372722482026
3.216,0.00785698318249515,-0.00797371191239632
3.218,0.00849716183515281,-0.00889598457060944
3.22,0.00909425340474129,-0.00984851062659781
3.222,0.00964702097172345,-0.0108291930782234
3.224,0.0101543472171309,-0.011835880590504
3.226,0.0106152370137066,-0.012866375773066
3.228,0.011028819329151,-0.0139184435646311
3.23,0.011394348442005,-0.0149898196700178
3.232,0.0117112044780866,-0.0160782189692789
3.234,0.0119788932799365,-0.0171813438518533
3.236,0.012197045632228,-0.0182968924017211
3.238,0.0123654158662768,-0.0194225663964399
3.24,0.0124838798779553,-0.0205560790407915
3.242,0.0125524325926491,-0.0216951624155286
3.244,0.0125711849190249,-0.0228375745828336
3.246,0.0125403602330545,-0.0239811063105156
3.248,0.0124602904389792,-0.0251235873965559
3.25,0.012331411653822,-0.0262628925532811
3.252,0.0121577562027727,-0.0273786105470909
3.254,0.011938140770998,-0.0284873989542113
3.256,0.011673264553627,-0.0295874070533149
3.258,0.0113639049090801,-0.0306768471359566
3.26,0.0110109118806551,-0.0317539977335841
3.262,0.0106152026404202,-0.0328172063563258
3.264,0.0101777558957619,-0.0338648917608066
3.266,0.00969960630040349,-0.0348955457585781
3.268,0.0091818389069209,-0.035907734580027
3.27,0.00862558369418226,-0.0369000998157728
3.272,0.0080320102021131,-0.0378713589533549
3.274,0.00740232230077273,-0.0388203055353651
3.276,0.00673775311879597,-0.0397458089615087
3.278,0.00603956015303589,-0.0406468139621048
3.28,0.0053090205760939,-0.0415223397684931
3.282,0.00454742675907836,-0.0423714790071983
3.284,0.00375608201911501,-0.0431933963456029
3.286,0.00293629660527964,-0.0439873269145635
3.288,0.00208938392144362,-0.0447525745359538
3.29,0.00121665700064491,-0.0454885097775492
3.292,0.000319425226915073,-0.0461945678641998
3.294,-0.000601008697672933,-0.0468702464639371
3.296,-0.00154335153392895,-0.0475151033763197
3.298,-0.00250632204917506,-0.0481287541398545
3.3,-0.00348865331976128,-0.0487108695814839
3.302,-0.00448909480187595,-0.0492611733251435
3.304,-0.0055064141751207,-0.0497794392767853
3.306,-0.00653939897717678,-0.0502654891020524
3.308,-0.00758685801859847,-0.0507191897097601
3.31,-0.00864762261430843,-0.0511404507565326
3.312,-0.00972054761176879,-0.0515292221814607
3.314,-0.0108045122500773,-0.0518854917837826
3.316,-0.0118984208473823,-0.052209282851306
3.318,-0.0130012033291659,-0.0525006518481584
3.32,-0.0141118156155947,-0.0527596861692004
3.322,-0.0152292398624108,-0.0529865019671435
3.324,-0.0163524845816502,-0.0531812420567026
3.326,-0.0174805846434062,-0.0533440739010664
3.328,-0.0186126011703664,-0.0534751876833951
3.33,-0.0197476213349975,-0.0535747944664486
3.332,-0.0208847580677756,-0.0536431244419105
3.334,-0.022023149687161,-0.0536804252711997
3.336,-0.0231619594570806,-0.0536869605180502
3.338,-0.024300375082259,-0.0536630081748832
3.34,-0.0254376081493756,-0.0536088592772023
3.342,-0.0265728935192815,-0.0535248166175909
3.344,-0.0277054886800521,-0.0534111935412947
3.346,-0.0288346730660954,-0.0532683128353198
3.348,-0.0299597473499843,-0.0530965057095616
3.35,-0.031080032713439,-0.0528961108534058
3.352,-0.0321948701030142,-0.0526674735870078
3.354,-0.0333036194757488,-0.0524109450882424
3.356,-0.0344056590402336,-0.0521268816961466
3.358,-0.0355003844974065,-0.0518156442985217
3.36,-0.0365872082860539,-0.0514775977862411
3.362,-0.0376655588367353,-0.0511131105797046
3.364,-0.0387348798382381,-0.0507225542218038
3.366,-0.0397946295203465,-0.0503063030387017
3.368,-0.0408442799558766,-0.049864733856687
3.37,-0.0418833163851764,-0.049398225779346
3.372,-0.0429112365658154,-0.0489071600152851
3.374,-0.0439275501505338,-0.0483919197636509
3.376,-0.0449388267174781,-0.047857839466721
3.378,-0.0459453261314051,-0.0473043396478849
3.38,-0.0469397155695159,-0.0467264788242907
3.382,-0.0479214600270452,-0.0461245810034113
3.384,-0.0488900293310201,-0.0454989768667763
3.386,-0.0498448979395921,-0.0448500041577193
3.388,-0.0507855447953415,-0.0441780080881165
3.39,-0.0517114532405595,-0.0434833417564346
3.392,-0.0526221109777311,-0.0427663665730554
3.394,-0.0535170101006631,-0.042027452687525
3.396,-0.0543956471624398,-0.0412669794141575
3.398,-0.0552575233146352,-0.0404853356509335
3.4,-0.0561021444879716,-0.0396829202873526
3.402,-0.0569290216233884,-0.0388601425980362
3.404,-0.0577376709602769,-0.0380174226168303
3.406,-0.0585276143634409,-0.0371551914883371
3.408,-0.0592983796961699,-0.0362738917933627
3.41,-0.0600495012386577,-0.0353739778445335
3.412,-0.0607805201378591,-0.034455915949305
3.414,-0.061490984898772,-0.0335201846371989
3.416,-0.0621804519050374,-0.0325672748489534
3.418,-0.062848485969688,-0.0315976900852286
3.42,-0.0634946609068354,-0.030611946512326
3.422,-0.0641185601300743,-0.0296105730242193
3.424,-0.0647197772643949,-0.028594111258538
3.426,-0.0652979167734373,-0.0275631155663626
3.428,-0.0658525945929904,-0.0265181529336353
3.43,-0.0663834387747366,-0.0254598028560284
3.432,-0.066890090127367,-0.0243886571647433
3.434,-0.0673722028571461,-0.0233053198053371
3.436,-0.0678294452002843,-0.0222104065690813
3.438,-0.06826150004818,-0.0211045447784553
3.44,-0.0686680655559266,-0.0199883729269493
3.442,-0.0690488557351285,-0.0188625402767182
3.444,-0.0694036010248498,-0.0177277064132582
3.446,-0.0697320488399098,-0.0165845407587925
3.448,-0.0700339640909559,-0.0154337220529452
3.45,-0.070309129676668,-0.0142759377929382
3.452,-0.0705573469420922,-0.0131118836458824
3.454,-0.070778436103751,-0.011942262825535
3.456,-0.0709722366389364,-0.010767785452973
3.458,-0.071138607635453,-0.00958916787966852
3.46,-0.0712774281042268,-0.00840713200346851
3.462,-0.0713885972495056,-0.0072224045599579
3.464,-0.071472034699309,-0.00603571640063561
3.466,-0.0715276806933787,-0.004847801765252
3.468,-0.0715554962297812,-0.00365939754254297
3.47,-0.0715554631687701,-0.00247124252746228
3.472,-0.0715275842963287,-0.00128407668084347
3.474,-0.0714718833452953,-9.86403912333E-05
3.476,-0.0713884049780122,0.00108432626257312
3.478,-0.0712772147282933,0.00226408423700309
3.48,-0.0711383989067863,0.00343989623414302
3.482,-0.0709720644696248,0.00461102740336963
3.484,-0.0707783388523502,0.00577674602869351
3.486,-0.0705573697716459,0.00693632419062087
3.488,-0.0703093249953644,0.00808903841565121
3.49,-0.0700343920846336,0.00923417029363379
3.492,-0.0697327781103151,0.0103710070801212
3.494,-0.0694047093408391,0.0114988422692767
3.496,-0.0690504309173759,0.0126169761403974
3.498,-0.0686702064951036,0.0137247162764372
3.5,-0.0682643178866182,0.0148213780551037
3.502,-0.0678213297569874,0.0159091427867108
3.504,-0.0673529866255879,0.0169833405468465
3.506,-0.0668597040557824,0.0180432882140983
3.508,-0.0663419158883951,0.0190883172490258
3.51,-0.065800073512821,0.0201177741462393
3.512,-0.0652346451484832,0.0211310208385487
3.514,-0.0646461151051958,0.0221274350553916
3.516,-0.0640349830508507,0.0231064106341111
3.518,-0.0634017632696714,0.0240673577861114
3.52,-0.0627469839341169,0.0250097033168292
3.522,-0.062071186369344,0.0259328908015315
3.524,-0.0613749243389554,0.0268363807168737
3.526,-0.0606587633355983,0.0277196505304094
3.528,-0.0599232798807829,0.0285821947474701
3.53,-0.0591690608521424,0.0294235249181363
3.532,-0.0583967028201643,0.030243169604949
3.534,-0.0576068114062762,0.0310406743127288
3.536,-0.0568000006730085,0.03181560138223
3.538,-0.0559768925288008,0.0325675298489036
3.54,-0.0551381161668928,0.0332960552690731
3.542,-0.0542843075295899,0.0340007895142727
3.544,-0.0534161088130934,0.0346813605361083
3.546,-0.0525341679950534,0.0353374121044471
3.548,-0.0516391384038083,0.0359686035170604
3.55,-0.0507316783265884,0.0365746092894678
3.552,-0.0498124506539555,0.0371551188242841
3.554,-0.0488821225681035,0.0377098360495864
3.556,-0.047941365273543,0.0382384790621921
3.558,-0.0469908537738648,0.0387407797303755
3.56,-0.046031266695188,0.0392164833106392
3.562,-0.0450632861592671,0.0396653480332329
3.564,-0.0440875977070708,0.040087144697212
3.566,-0.0431048902750853,0.0404816562569596
3.568,-0.0421158562269542,0.0408486774052166
3.57,-0.0411211914400049,0.0411880141688415
3.572,-0.0401215954514849,0.0414994835076909
3.574,-0.0391177716629748,0.0417829129212267
3.576,-0.0381104276070537,0.0420381400836782
3.578,-0.0371002752761177,0.0422650124878514
3.58,-0.036088031515196,0.0424633871219529
3.582,-0.0350744184802455,0.0426331301821062
3.584,-0.0340601641622471,0.0427741168135719
3.586,-0.0330460029776812,0.0428862309010382
3.588,-0.0320326764267318,0.0429693649157307
3.59,-0.0310209338178243,0.0430234198094913
3.592,-0.0300115330592677,0.0430483049853946
3.594,-0.0290052415159901,0.0430439383379042
3.596,-0.0280028369310862,0.0430102463770127
3.598,-0.027005108408436,0.0429471644472538
3.6,-0.0260128574529149,0.0428546370489147
3.602,-0.0250268990706523,0.0427326182692031
3.604,-0.0240480629112478,0.0425810723413234
3.606,-0.0230771944628564,0.0423999743354794
3.608,-0.0221151562745553,0.0421893110005308
3.61,-0.0211628292166627,0.0419490817599747
3.612,-0.0202211137515791,0.0416792998808695
3.614,-0.0192909312151174,0.0413799938261626
3.616,-0.0183732250864834,0.0410512088001845
3.618,-0.0174689622401691,0.0406930085036127
3.62,-0.0165791341519327,0.0403054771049492
3.622,-0.0157047580488398,0.039888721443376
3.624,-0.0148468779700106,0.0394428734695014
3.626,-0.0140132857932526,0.0389636610929872
3.628,-0.0132057438132546,0.0384522605384878
3.63,-0.0124188050303922,0.0379137097168264
3.632,-0.0116535326626161,0.0373483292393142
3.634,-0.0109110161542814,0.0367564750555194
3.636,-0.010192371443298,0.0361385422350325
3.638,-0.00949874092962431,0.0354949690193736
3.64,-0.00883129310100697,0.0348262411320945
3.642,-0.00819122176309429,0.0341328963317171
3.644,-0.00757974484066247,0.0334155291850946
3.646,-0.00699810268789586,0.0326747960324805
3.648,-0.00644755587348797,0.0319114201105693
3.65,-0.00592938237799105,0.0311261967898139
3.652,-0.00544487417543909,0.0303199988723725
3.654,-0.00499533313794765,0.0294937819040592
3.656,-0.00458206624093752,0.0286485894073354
3.658,-0.0042063800182275,0.0277855579931742
3.66,-0.00386957425657222,0.0269059222320997
3.662,-0.00357293489486038,0.0260110192156222
3.664,-0.00331772613054256,0.025102292693559
3.666,-0.00310518172997125,0.024181296683626
3.668,-0.00293649556239498,0.0232496984307176
3.67,-0.00281281138643544,0.0223092806098721
3.672,-0.00273521194083356,0.0213619426363391
3.674,-0.00270470740412277,0.0204097009668956
3.676,-0.00272222331075651,0.0194546882758746
3.678,-0.00278858802985304,0.01849915138272
3.68,-0.00290451993406477,0.0175454478315019
3.682,-0.00307061440566157,0.0165960410199957
3.684,-0.00328733084721913,0.0156534938108217
3.686,-0.00355497988089376,0.0147204605567835
3.688,-0.00387371093929189,0.0137996775099135
3.69,-0.00424350045806178,0.0128939515975734
3.692,-0.00466414089728595,0.0120061475969612
3.694,-0.00513523081438426,0.0111391737519535
3.696,-0.005656166220177,0.0102959659347311
3.698,-0.00622613343478968,0.009479470445212
3.7,-0.00684410365743471,0.0086926256519773
3.702,-0.00750882943375678,0.00793834262205578
3.704,-0.00821884319584033,0.00721948499741439
3.706,-0.00897245800714993,0.00653884836217181
3.708,-0.00976777060886797,0.00589913937416853
3.71,-0.0106026668341078,0.00530295497117149
3.712,-0.0114748294098284,0.0047527619530896
3.714,-0.0123817481028495,0.004250877257772
3.716,-0.0133207321487702,0.00379944924817872
3.718,-0.0142889248233656,0.00340044030686672
3.72,-0.0152833200035929,0.00305561102664501
3.722,-0.0163007804922475,0.00276650625024777
3.724,-0.0173380578559081,0.00253444318727609
3.726,-0.0183918135113615,0.00236050178999783
3.728,-0.0194586407362371,0.00224551753059566
3.73,-0.020535087295819,0.00219007667415912
3.732,-0.0216176783424616,0.00219451408980593
3.734,-0.0227029392687839,0.00225891359692317
3.736,-0.0237874181927536,0.002383110793047
3.738,-0.0248677077453454,0.0025666982627807
3.74,-0.0259404659129744,0.00280903303016091
3.742,-0.0270024356463785,0.00310924607482636
3.744,-0.0280504630248847,0.00346625370527255
3.746,-0.0290815138008387,0.00387877055823006
3.748,-0.0300926881610402,0.00434532397132342
3.75,-0.0310812336050942,0.00486426947625742
3.752,-0.0320139343413368,0.00541887844003969
3.754,-0.0329204581793887,0.00601898776367014
3.756,-0.0337987883944263,0.00666264240883328
3.758,-0.034647081116103,0.00734779891525287
3.76,-0.0354636675961767,0.00807234228573386
3.762,-0.0362470547217718,0.00883410249939262
3.764,-0.0369959239156958,0.00963087045643694
3.766,-0.0377091285438823,0.0104604132121863
3.768,-0.0383856899805878,0.011320488366053
3.77,-0.0390247924929378,0.0122088575052085
3.772,-0.0396257770923687,0.0131232986149667
3.774,-0.0401881345170226,0.0140616174160743
3.776,-0.0407114974993712,0.0150216575805936
3.778,-0.0411956324677372,0.0160013098116883
3.78,-0.0416404308238858,0.0169985198030799
3.782,-0.0420458999284784,0.0180112950821629
3.784,-0.0424121539177143,0.0190377107827234
3.786,-0.0427394044609034,0.0200759143718702
3.788,-0.0430279515577306,0.0211241294003475
3.79,-0.0432781744635962,0.0221806583228778
3.792,-0.0434905228170537,0.0232438844608498
3.794,-0.0436655080356099,0.0243122731516349
3.796,-0.0438036950317288,0.0253843721903023
3.798,-0.043905694294037,0.02645881158776
3.8,-0.0439721543657421,0.0275343027484646
3.802,-0.044003754755555,0.0286096371101506
3.804,-0.0440011992780176,0.029683684324556
3.806,-0.0439652098659362,0.0307553900261731
3.808,-0.0438965208351353,0.0318237732606546
3.81,-0.0437958736096828,0.0328879236118607
3.812,-0.0436640119143219,0.0339469980937484
3.814,-0.0435155452143269,0.0350036263853051
3.816,-0.0433414745401344,0.0360564708351126
3.818,-0.0431377049357955,0.0371039276142232
3.82,-0.0429048127925149,0.0381453339611093
3.822,-0.042643363076208,0.0391800679369451
3.824,-0.0423539075700577,0.0402075449447093
3.826,-0.0420369834694471,0.0412272142888063
3.828,-0.0416931123013074,0.0422385557952404
3.83,-0.0413227991618238,0.0432410765142234
3.832,-0.0409265322385316,0.044234307522052
3.834,-0.0405047826070722,0.0452178008372954
3.836,-0.0400580042782385,0.046191126465157
3.838,-0.0395866344703753,0.0471538695809333
3.84,-0.0390910941057079,0.0481056278626204
3.842,-0.0385717884907186,0.0490460089815457
3.844,-0.0380291081772463,0.049974628256616
3.846,-0.0374634299825774,0.0508911064795423
3.848,-0.0368751181473512,0.0517950679143106
3.85,-0.0362645256266857,0.0526861384753644
3.852,-0.0356319954754648,0.0535639440876939
3.854,-0.0349778623462649,0.0544281092258942
3.856,-0.034302454045915,0.0552782556458957
3.858,-0.0336060931681602,0.0561140012895729
3.86,-0.0328890987703945,0.0569349593814423
3.862,-0.0321517880828616,0.0577407377023482
3.864,-0.0313944782411987,0.0585309380489842
3.866,-0.0306174880255101,0.0593051558671255
3.868,-0.02982113959262,0.0600629800578359
3.87,-0.029005760191087,0.0608039929603378
3.872,-0.0281716838445136,0.0615277704956619
3.874,-0.027319252992865,0.062233882474612
