"Freq [GHz]","re(S(Antenna1_1_p1,Antenna1_1_p1)) []","im(S(Antenna1_1_p1,Antenna1_1_p1)) []"
3,-0.00021806086466798,-0.065793711461784
3.002,-0.0014691977782211,-0.0654815016725389
3.004,-0.00270412792046158,-0.0651356148758979
3.006,-0.00392181888796965,-0.0647568114853619
3.008,-0.00512127830465387,-0.064345885818332
3.01,-0.00630155507530392,-0.0639036635965347
3.012,-0.00746174045921128,-0.063430999388263
3.014,-0.00860096896219317,-0.0629287740067909
3.016,-0.00971841903241877,-0.0623978918824695
3.018,-0.0108133135705072,-0.0618392784192787
3.02,-0.0118849202534462,-0.0612538773560113
3.022,-0.0129325516749203,-0.0606426481402647
3.024,-0.0139555652926824,-0.0600065633425196
3.026,-0.0149533632075983,-0.0593466061024012
3.028,-0.0159253917659488,-0.0586637676509514
3.03,-0.0168711409945031,-0.0579590448863943
3.032,-0.0177901438777294,-0.057233438054464
3.034,-0.0186819754853326,-0.056487948507882
3.036,-0.0195462519550519,-0.0557235765840424
3.038,-0.020382629350349,-0.0549413195933749
3.04,-0.0211908023932491,-0.0541421699362317
3.042,-0.0219705030891597,-0.0533271133564833
3.044,-0.0227214992570015,-0.0524971273283189
3.046,-0.0234435929714232,-0.0516531796020298
3.048,-0.0241366189322559,-0.0507962268888277
3.05,-0.0248004427840803,-0.0499272137140013
3.052,-0.0254349593745446,-0.0490470714219641
3.054,-0.0260400909932737,-0.0481567173459872
3.056,-0.0266157855845217,-0.0472570541406541
3.058,-0.0271620149554846,-0.0463489692763142
3.06,-0.0276787729911578,-0.0454333346920584
3.062,-0.0281660738901013,-0.0445110066159945
3.064,-0.0286365906830224,-0.0436049573388496
3.066,-0.0290843019773731,-0.0426997367812007
3.068,-0.029505279909256,-0.0417884010588991
3.07,-0.0298994677325311,-0.0408715788805385
3.072,-0.0302668118653761,-0.0399498930301014
3.074,-0.0306072610050045,-0.0390239615012147
3.076,-0.0309207653669714,-0.0380943987187488
3.078,-0.0312072760598786,-0.0371618168437977
3.08,-0.0314667445929262,-0.0362268271484013
3.082,-0.031699122534361,-0.0352900414516878
3.084,-0.0319043613204252,-0.0343520736054448
3.086,-0.0320824122179145,-0.0334135410164679
3.088,-0.032233226456914,-0.0324750661913771
3.09,-0.0323567555216858,-0.0315372782979575
3.092,-0.0324529516130301,-0.0306008147204388
3.094,-0.0325217682887295,-0.0296663226015329
3.096,-0.032563161265915,-0.0287344603574406
3.098,-0.032577089405343,-0.027805899142485
3.1,-0.0325635158676665,-0.026881324263488
3.102,-0.0325224094387876,-0.0259614365085149
3.104,-0.0324537460233183,-0.0250469534015602
3.106,-0.0323575103090257,-0.0241386103355595
3.108,-0.0322336975849137,-0.0232371615953774
3.11,-0.0320823157132816,-0.0223433812391837
3.112,-0.031903387254709,-0.0214580638281598
3.114,-0.0316969517204483,-0.0205820249871261
3.116,-0.0314630679591588,-0.0197161017806415
3.118,-0.0312018166513022,-0.0188611528906156
3.12,-0.0309133029058435,-0.018018058579018
3.122,-0.0305976589461706,-0.0171877204207636
3.124,-0.0302550468543839,-0.0163710607985408
3.126,-0.0298936908883103,-0.0155600740886132
3.128,-0.0295125234318066,-0.014754735377809
3.13,-0.0291032916201348,-0.0139647397035066
3.132,-0.028666239681454,-0.0131912005212562
3.134,-0.0282016622518016,-0.0124352478093419
3.136,-0.027709907052362,-0.0116980255886017
3.138,-0.0271913774633785,-0.010980689165088
3.14,-0.0266465349637799,-0.0102844020856495
3.142,-0.0260759013985185,-0.0096103328262743
3.144,-0.025480061064772,-0.00895965119400231
3.146,-0.0248596625666042,-0.00833352447941419
3.148,-0.0242154204234275,-0.00773311334708165
3.15,-0.0235481163947209,-0.00715956749191078
3.152,-0.0228586004989562,-0.00661402107798493
3.154,-0.0221477916896001,-0.00609758798526672
3.156,-0.0214166781684337,-0.00561135687131822
3.158,-0.0206663173112748,-0.00515638610597408
3.16,-0.0198978351786235,-0.00473369858660398
3.162,-0.0191124255918897,-0.00434427648315946
3.164,-0.0183113487636968,-0.00398905594154872
3.166,-0.0174959294612831,-0.00366892180194494
3.168,-0.0166675546976659,-0.00338470236034629
3.17,-0.0158276709453511,-0.00313716422698265
3.172,-0.014977780870927,-0.00292700732994487
3.174,-0.0141194395972291,-0.0027548601116267
3.176,-0.0132542505026109,-0.00262127497015256
3.178,-0.0123838605732859,-0.00252672398187165
3.18,-0.0115099553315869,-0.00247159498117614
3.182,-0.0106342533652715,-0.00245618800832868
3.184,-0.00975850049794174,-0.00248071220463401
3.186,-0.00888446362596911,-0.00254528316816568
3.188,-0.00801217009933176,-0.00264602015937033
3.19,-0.00713892791838282,-0.00277534721725089
3.192,-0.00627121673856277,-0.00294506369852049
3.194,-0.00541084257504845,-0.00315501798418895
3.196,-0.00455960788760856,-0.00340496042056453
3.198,-0.0037193047244164,-0.00369454338772978
3.2,-0.00289170786420709,-0.00402332196127825
3.202,-0.00207856801689233,-0.00439075517860178
3.204,-0.00128160514753469,-0.00479620788742174
3.206,-0.000502501983425299,-0.00523895317868629
3.208,0.000257102245103155,-0.00571817537355142
3.21,0.000995617761513122,-0.00623297353504158
3.212,0.00171150985284107,-0.00678236547929417
3.214,0.00240330408740895,-0.00736529224412026
3.216,0.00306959108489515,-0.00798062296239632
3.218,0.00370903082225281,-0.00862716010270944
3.22,0.00432035641554129,-0.00930364501629781
3.222,0.00490237738472345,-0.0100087637377234
3.224,0.00545398235673085,-0.010741152980704
3.226,0.00597414120850657,-0.011499406270666
3.228,0.00646190665015101,-0.0122820801538311
3.23,0.00691641523260498,-0.0130877004251178
3.232,0.00733688781338662,-0.0139147683172789
3.234,0.00772262946863649,-0.0147617665978533
3.236,0.00807302890102802,-0.0156271655167211
3.238,0.00838755734587682,-0.0165094285654399
3.24,0.0086657670199553,-0.0174070179947915
3.242,0.00890728914304911,-0.0183184000575286
3.244,0.00911183157211493,-0.0192420499318336
3.246,0.00927917609201454,-0.0201764563135156
3.248,0.00940917540117919,-0.0211201256365559
3.25,0.009501749838222,-0.0220715859032811
3.252,0.00958574463747268,-0.0230609377140909
3.254,0.00962910223869803,-0.0240577294442113
3.256,0.00963177682292704,-0.025060331800315
3.258,0.00959379100838014,-0.0260671421659565
3.26,0.00951523202905506,-0.0270765873285841
3.262,0.00939624787062021,-0.0280871258023258
3.264,0.00923704339496186,-0.0290972497378066
3.266,0.00903787649610349,-0.0301054864528781
3.268,0.0087990543163209,-0.031110399588327
3.27,0.00852092956858226,-0.0321105899253728
3.272,0.0082038969705131,-0.0331046958690549
3.274,0.00784838983917273,-0.0340913936364651
3.276,0.00745487684999597,-0.0350693971822087
3.278,0.00702385898672589,-0.0360374578615048
3.28,0.0065558666937939,-0.0369943638969931
3.282,0.00605145724287836,-0.0379389396485983
3.284,0.00551121232111501,-0.0388700447218029
3.286,0.00493573584607964,-0.0397865729533635
3.288,0.00432565200944362,-0.0406874512889538
3.29,0.00368160355064491,-0.0415716385824492
3.292,0.00300425024891507,-0.0424381243485998
3.294,0.00229426764532707,-0.0432859274797371
3.296,0.00155234596707105,-0.0441140949609197
3.298,0.000779189263824941,-0.0449217006015945
3.3,-2.44852717612783E-05,-0.0457078437974579
3.302,-0.00085794779687595,-0.0464716483417535
3.304,-0.0017204561411207,-0.0472122613097853
3.306,-0.00261125598317678,-0.0479288520149524
3.308,-0.00352958088159847,-0.0486206110681601
3.31,-0.00447465218330843,-0.0492867495230326
3.312,-0.00544567881876879,-0.0499264981539607
3.314,-0.00644185701107731,-0.0505391068276826
3.316,-0.00746236990138232,-0.051123844018806
3.318,-0.00850638711006592,-0.0516799964374584
3.32,-0.00957306425709468,-0.0522068687941004
3.322,-0.0106615424448108,-0.0527037836852435
3.324,-0.0117709477232502,-0.0531700816160026
3.326,-0.0129003905508062,-0.0536051211451664
3.328,-0.0140489652657664,-0.0540082791545951
3.33,-0.0152157495798975,-0.0543789512378786
3.332,-0.0163998041018756,-0.0547165522054105
3.334,-0.017600171910961,-0.0550205166966997
3.336,-0.0188158781778806,-0.0552902998960502
3.338,-0.020045929860459,-0.0555253783423832
3.34,-0.0212893154640756,-0.0557252508272023
3.342,-0.0225450048865815,-0.0558894393685909
3.344,-0.0238119493488521,-0.0560174902602947
3.346,-0.0250890814216954,-0.0561089751723198
3.348,-0.0263753151483843,-0.0561634923115616
3.35,-0.027669546272639,-0.0561806676214058
3.352,-0.0289706525684342,-0.0561601560050078
3.354,-0.0302774942835888,-0.0561016425802424
3.356,-0.0315889146846536,-0.0560048439411466
3.358,-0.0329037407232065,-0.0558695094235217
3.36,-0.0342207838012539,-0.0556954223572411
3.362,-0.0355388406520353,-0.0554824013087046
3.364,-0.0368566943281381,-0.0552303012868038
3.366,-0.0381731152894465,-0.0549390149277017
3.368,-0.0394868626010766,-0.054608473618687
3.37,-0.0407966852220764,-0.054238648578346
3.372,-0.0421013233913154,-0.0538295518812851
3.374,-0.0433995101026338,-0.0533812373996509
3.376,-0.0446951668759781,-0.052867543842721
3.378,-0.0459833365761051,-0.0522880870388849
3.38,-0.0472563009886159,-0.0516694094073907
3.382,-0.0485127756033452,-0.0510120690763113
3.384,-0.0497514962011201,-0.0503166674032763
3.386,-0.0509712203802721,-0.0495838483656193
3.388,-0.0521707290742415,-0.0488142979047165
3.39,-0.0533488280561595,-0.0480087431934346
3.392,-0.0545043494269311,-0.0471679518517554
3.394,-0.0556361530845631,-0.046292731097825
3.396,-0.0567431281724398,-0.0453839268338575
3.398,-0.0578241945006352,-0.0444424226795335
3.4,-0.0588783039439716,-0.0434691389397526
3.402,-0.0599044418013884,-0.0424650315108362
3.404,-0.0609016281352769,-0.0414310907385303
3.406,-0.0618689190604409,-0.0403683402054271
3.408,-0.0628054080051699,-0.0392778354697027
3.41,-0.0637102269256577,-0.0381606627503635
3.412,-0.064582547477859,-0.037017937552505
3.414,-0.065421582145772,-0.0358508032383989
3.416,-0.0662265853130374,-0.0346604295605534
3.418,-0.066996854292688,-0.0334480111262286
3.42,-0.0677317302958354,-0.032214765827226
3.422,-0.0684305993430743,-0.0309619332221193
3.424,-0.0690928931253949,-0.029690772865438
3.426,-0.0697180897894373,-0.0284025626056626
3.428,-0.0703057146739904,-0.0270985968342353
3.43,-0.0708553409687366,-0.0257801847021284
3.432,-0.071366590309367,-0.0244486483005433
3.434,-0.0718391333023461,-0.0231053208042371
3.436,-0.0722726899757843,-0.0217515445904813
3.438,-0.07266703015208,-0.0203886693271553
3.44,-0.0730219737522266,-0.0190180500381093
3.442,-0.0733373910099285,-0.0176410451471182
3.444,-0.0736132026189498,-0.0162590145035582
3.446,-0.0738493797864098,-0.0148733173943925
3.448,-0.0740459442060559,-0.0134853105448452
3.45,-0.074202967955868,-0.0120963461122382
3.452,-0.0743205732936922,-0.0107077696758824
3.454,-0.074398932381951,-0.00932091822753504
3.456,-0.0744382669138364,-0.00793711816897305
3.458,-0.0744388476607531,-0.00655768330966852
3.46,-0.0744009939201468,-0.00518391289246851
3.462,-0.0743250728872156,-0.0038170896179579
3.464,-0.074211498929359,-0.00245847770463561
3.466,-0.0740607327765787,-0.001109320968252
3.468,-0.0738732806223812,0.000229159070457034
3.47,-0.0736496931420701,0.00155576503753772
3.472,-0.0733905644186287,0.00286932552515653
3.474,-0.0730965307896953,0.0041686968647667
3.476,-0.0727682696084122,0.00545276485557312
3.478,-0.0724064979241933,0.0067204464340031
3.48,-0.0720119710836863,0.00797069129714302
3.482,-0.0715854812514248,0.00920248345936963
3.484,-0.0711278558618502,0.0104148427436935
3.486,-0.0706399559923459,0.0116068262126209
3.488,-0.0701226746722644,0.0127775295166512
3.49,-0.0695769351190337,0.0139260881738338
3.492,-0.0690036889170151,0.0150516787621212
3.494,-0.0684039141329391,0.0161535200395767
3.496,-0.0677786133762258,0.0172308739627974
3.498,-0.0671288118073036,0.0182830466242372
3.5,-0.0664555550971182,0.0193093890954037
3.502,-0.0657747213015874,0.0202645577572108
3.504,-0.0650767704165879,0.0211941284150465
3.506,-0.0643627092247824,0.0220978784183983
3.508,-0.0636335390753951,0.0229756283311258
3.51,-0.062890253774821,0.0238272412567393
3.512,-0.0621338375234832,0.0246526220492487
3.514,-0.0613652628931958,0.0254517164153916
3.516,-0.0605854888568507,0.0262245099012211
3.518,-0.0597954588716714,0.0269710267642414
3.52,-0.0589960990371169,0.0276913287524292
3.522,-0.058188316312344,0.0283855137656315
3.524,-0.0573729968209554,0.0290537144259737
3.526,-0.0565510042255983,0.0296960965490094
3.528,-0.0557231782067829,0.0303128575224701
3.53,-0.0548903330231424,0.0309042246035363
3.532,-0.0540532561791643,0.031470453122649
3.534,-0.0532127071912762,0.0320118246169288
3.536,-0.0523694164710084,0.03252864489333
3.538,-0.0515240843168008,0.0330212420217036
3.54,-0.0506773800288928,0.0334899642639731
3.542,-0.0498299411415899,0.0339351779595727
3.544,-0.0489823727880934,0.0343572653495083
3.546,-0.0481352471959534,0.0347566223704471
3.548,-0.0472891033101083,0.0351336564086604
3.55,-0.0464444465603884,0.0354887840276678
3.552,-0.0456017487622555,0.0358224286762841
3.554,-0.0447614481685035,0.0361350183842864
3.556,-0.043923949651543,0.0364269834527921
3.558,-0.0430896250458648,0.0366987541482755
3.56,-0.042258813631188,0.0369507584070392
3.562,-0.0414318227637671,0.0371834195602329
3.564,-0.0406089286572708,0.037397154084212
3.566,-0.0397903773195853,0.0375923693919596
3.568,-0.0389763856308542,0.0377694616642166
3.57,-0.0381671425799849,0.0379288137378415
3.572,-0.0373628106447949,0.0380707930596909
3.574,-0.0365635273218748,0.0381957497062267
3.576,-0.0357694068071537,0.0383040144906782
3.578,-0.0349805418170177,0.0383958971628514
3.58,-0.034197005554696,0.0384716847049529
3.582,-0.0334188538194455,0.0385316397471062
3.584,-0.0326461272458471,0.0385759990935719
3.586,-0.0318788536872812,0.0386049723960382
3.588,-0.0311170507173318,0.0386187409547307
3.59,-0.0303607282665243,0.0386174566884913
3.592,-0.0296098913673677,0.0386012412573946
3.594,-0.0288645430221901,0.0385701853709042
3.596,-0.0281246871663862,0.0385243482810127
3.598,-0.027390331739136,0.0384637574742538
3.6,-0.0266614918358149,0.0383884085779147
3.602,-0.0259381929428523,0.0382982654902031
3.604,-0.0252204742396078,0.0381932607485234
3.606,-0.0245083919563564,0.0380732961383794
3.608,-0.0238020227752553,0.0379382435767308
3.61,-0.0231014672582627,0.0377879462578747
3.612,-0.0224068532864791,0.0376222200900695
3.614,-0.0217183394928174,0.0374408554291626
3.616,-0.0210361186674834,0.0372436191183845
3.618,-0.0203604211161691,0.0370302568502127
3.62,-0.0196915179409327,0.0368004958607492
3.622,-0.0190297242308398,0.036554047959376
3.624,-0.0183754021170106,0.0362906129035014
3.626,-0.0177153007302526,0.0360208154969572
3.628,-0.0170483215402546,0.0357423077140178
3.63,-0.0163882921813922,0.0354430436130264
3.632,-0.0157359968346161,0.0351225811332142
3.634,-0.0150922872162814,0.0347805019024194
3.636,-0.014458083297298,0.0344164172130325
3.638,-0.0138343736126243,0.0340299742985736
3.64,-0.013222215106007,0.0336208628677945
3.642,-0.0126227324690943,0.0331888218871171
3.644,-0.0120371169186625,0.0327336465774946
3.646,-0.0114666243878959,0.0322551956024805
3.648,-0.010912573058488,0.0317533983813693
3.65,-0.010376340202991,0.0312282625168139
3.652,-0.00985935829243909,0.0306798812348725
3.654,-0.00936311032094765,0.0301084408152592
3.656,-0.00888912432093752,0.0295142279082354
3.658,-0.0084389670279275,0.0288976366713742
3.66,-0.00801423666967222,0.0282591756302697
3.662,-0.00761655487886038,0.0275994741655222
3.664,-0.00724755770274256,0.026919288518459
3.666,-0.00690888573597125,0.026219507203026
3.668,-0.00660217337459498,0.0255011557031176
3.67,-0.00632903725853544,0.0247654003323721
3.672,-0.00609106391983356,0.0240135511303392
3.674,-0.00588979673532277,0.0232470636678956
3.676,-0.00572672226387651,0.0224675396398746
3.678,-0.00560325608064304,0.02167672612572
3.68,-0.00552072823326477,0.0208765134085019
3.682,-0.00548036849446157,0.0200689312519957
3.684,-0.00548329155291913,0.0192561435708217
3.686,-0.00553048235649376,0.0184404414047835
3.688,-0.00562278180859189,0.0176242341859135
3.69,-0.00576087302146178,0.0168100392775734
3.692,-0.00594526837528595,0.0160004697999612
3.694,-0.00617629760768426,0.0151982208039535
3.696,-0.006454097160877,0.0144060538767311
3.698,-0.00677860101578968,0.013626780302212
3.7,-0.00714953323443471,0.0128632429329773
3.702,-0.00756640239475678,0.0121182969740558
3.704,-0.00802849810184033,0.0113947898924144
3.706,-0.00853488970444993,0.0106955407251718
3.708,-0.00908442733406797,0.0100233190521685
3.71,-0.00967574532260779,0.00938082393457149
3.712,-0.0103072680272284,0.0087706631466896
3.714,-0.0109772180317495,0.008195332991372
3.716,-0.0116836266540702,0.00765719903877872
3.718,-0.0124243466392756,0.00715847808266672
3.72,-0.0131970668714929,0.00670122159974501
3.722,-0.0139993288973475,0.00628730096644776
3.724,-0.0148285450142081,0.00591839467937609
3.726,-0.0156820176477615,0.00559597774259783
3.728,-0.0165569597150371,0.00532131338017566
3.73,-0.017450515655819,0.00509544717210912
3.732,-0.0183597828054616,0.00491920364780593
3.734,-0.0192818327757839,0.00479318535182317
3.736,-0.0202137325367536,0.004717774322447
3.738,-0.0211525648803454,0.0046931358891807
3.74,-0.0220954479919744,0.00471922464966091
3.742,-0.0230395538743785,0.00479579246102636
3.744,-0.0239821254098847,0.00492239823517255
3.746,-0.0249204918618387,0.00509841930423006
3.748,-0.0258520826860402,0.00532306412932342
3.75,-0.0267744395420942,0.00559538606925742
3.752,-0.0276914413083368,0.00589865567203969
3.754,-0.0285960995583887,0.00624773098267014
3.756,-0.0294863399814263,0.00664138516883328
3.758,-0.030360224128103,0.00707829940025287
3.76,-0.0312159517681767,0.00755707792273386
3.762,-0.0320518615837718,0.00807626273349262
3.764,-0.0328664303376958,0.00863434769433694
3.766,-0.0336582706371823,0.00922979192858626
3.768,-0.0344261274519878,0.00986103237735304
3.77,-0.0351688735391378,0.0105264954162085
3.772,-0.0358855039290687,0.0112246074583467
3.774,-0.0365751296439226,0.0119538044929443
3.776,-0.0372369707896712,0.0127125405285936
3.778,-0.0378703491801372,0.0134992949342883
3.78,-0.0384746806322558,0.0143125786842799
3.782,-0.0390494670685784,0.0151509395340629
3.784,-0.0395942885385143,0.0160129661607234
3.786,-0.0401087952785034,0.0168972913188702
3.788,-0.0405926999056306,0.0178025940693475
3.79,-0.0410457698203962,0.0187276011428778
3.792,-0.0414678199157537,0.0196710875038498
3.794,-0.0418587056223099,0.0206318761956349
3.796,-0.0422183163679288,0.0216088375333023
3.798,-0.042546569479037,0.0226008877147599
3.8,-0.0428434045527421,0.0236069869284646
3.802,-0.043108778331555,0.0246261370351506
3.804,-0.0433426600780176,0.025657378872556
3.806,-0.0435450274809362,0.0266997892681731
3.808,-0.0437158630661353,0.0277524778136546
3.81,-0.0438551511276828,0.0288145834598607
3.812,-0.0439628751573219,0.0298852709887484
3.814,-0.0440482641943269,0.0309793724054051
3.816,-0.0441032001821344,0.0320866119687126
3.818,-0.0441242335927955,0.0332009681783232
3.82,-0.0441112736464149,0.0343214923200093
3.822,-0.044064236275908,0.0354472410089451
3.824,-0.0439830442945577,0.0365772738162093
3.826,-0.0438676278484471,0.0377106510427063
3.828,-0.0437179251238874,0.0388464316658404
3.83,-0.0435338832876238,0.0399836714616534
3.832,-0.0433154596304316,0.041121421327692
3.834,-0.0430626228900722,0.0422587258056954
3.836,-0.0427753547290385,0.043394621818157
3.838,-0.0424536513408753,0.0445281376230333
3.84,-0.0420975251637079,0.0456582919952204
3.842,-0.0417070066767186,0.0467840936169457
3.844,-0.0412821462592463,0.047904540709916
3.846,-0.0408230160905774,0.0490186208718423
3.848,-0.0403297120663512,0.0501253111449106
3.85,-0.0398023557286857,0.0512235782957644
3.852,-0.0392410961654647,0.0523123792986939
3.854,-0.0386461118852649,0.0533906620368942
3.856,-0.038017612645915,0.0544573661878957
3.858,-0.0373558412041602,0.0555114243085729
3.86,-0.0366610750073945,0.0565517630974423
3.862,-0.0359336277708616,0.0575773048283482
3.864,-0.0351738509671987,0.0585869689489842
3.866,-0.0343821351896101,0.0595796738351255
3.868,-0.03355891138842,0.0605543386798359
3.87,-0.032704651972187,0.0615098855156378
3.872,-0.0318198717640136,0.0624452413610619
3.874,-0.030905128791165,0.063359340465412
