"Freq [GHz]","re(S(Antenna1_1_1,Antenna1_1_1)) []","im(S(Antenna1_1_1,Antenna1_1_1)) []"
2,-0.0138479828961189,-0.506728604314548
2.008,-0.0346053087472378,-0.504481064437796
2.016,-0.0546643993826979,-0.501566363701018
2.024,-0.0740703982000823,-0.498080775104986
2.032,-0.0928814496170682,-0.494101351581778
2.04,-0.11116404522138,-0.489683824476336
2.048,-0.128987953974658,-0.48486158260445
2.056,-0.146420996337575,-0.479645821596379
2.064,-0.163523940797356,-0.474026888663764
2.072,-0.180345803760459,-0.467976780030303
2.08,-0.196919819552774,-0.461452680898749
2.088,-0.213260316968835,-0.454401375233701
2.096,-0.22936069381602,-0.446764298363287
2.104,-0.245192623565962,-0.438482963099887
2.112,-0.260706561692224,-0.429504462246967
2.12,-0.275833547163956,-0.419786739141454
2.128,-0.290496115589486,-0.40930612699423
2.136,-0.304603610034611,-0.398050739643586
2.144,-0.318035906619565,-0.386027798275384
2.152,-0.330682629062532,-0.373277082638566
2.16,-0.342437573681404,-0.359863739859213
2.168,-0.353204782382388,-0.345877109162813
2.176,-0.362904220212988,-0.331428116438647
2.184,-0.371476724069458,-0.316645362216314
2.192,-0.378887925535459,-0.301670103996769
2.2,-0.385130904975863,-0.286650400922982
2.208,-0.390227403316214,-0.271734741466068
2.216,-0.394227498425813,-0.257065509700641
2.224,-0.397207740269375,-0.242772660544891
2.232,-0.399267827951555,-0.228967967828423
2.24,-0.40052599729711,-0.215740181256734
2.248,-0.40111336452872,-0.203151380544895
2.256,-0.401122458932317,-0.191286052717507
2.264,-0.400750480953204,-0.180135581477437
2.272,-0.400154018866834,-0.169649500340398
2.28,-0.399453770796204,-0.15976231287765
2.288,-0.398746874705652,-0.150385606454587
2.296,-0.398102247748482,-0.141414600202484
2.304,-0.3975576536907,-0.132735646126339
2.312,-0.397118686124887,-0.124234237267939
2.32,-0.396759741786206,-0.115803042538003
2.328,-0.396426939455909,-0.107349482094262
2.336,-0.396042822855674,-0.0988023803741877
2.344,-0.395512577542707,-0.090117285011081
2.352,-0.394731398693583,-0.0812801158850885
2.36,-0.393592574420587,-0.0723089051950517
2.368,-0.391995802318648,-0.063253500986179
2.376,-0.389855238166547,-0.0541932265029275
2.384,-0.387106786411801,-0.0452326090901446
2.392,-0.38371418170419,-0.0364954078735692
2.4,-0.379673477083016,-0.028117272464487
2.408,-0.375015643825464,-0.0202374492424952
2.416,-0.3698070951395,-0.0129900125381146
2.424,-0.364148064882062,-0.00649513153204
2.432,-0.35816889626738,-0.000850887998174099
2.44,-0.352024417332336,0.00387386529685689
2.448,-0.345886692421649,0.00764516927662409
2.456,-0.339936536055753,0.0104677889628076
2.464,-0.334354251516072,0.0123869519068163
2.472,-0.329310107039733,0.0134878525316871
2.48,-0.324955084768609,0.0138929041699807
2.488,-0.321412430094098,0.0137568475211106
2.496,-0.318770492274322,0.0132599457814222
2.504,-0.317140505686842,0.0125555303090862
2.512,-0.31655383292226,0.0118953011621604
2.52,-0.316896828553835,0.0115503446408905
2.528,-0.318060352544281,0.011714780098788
2.536,-0.319894615251954,0.0125523847471554
2.544,-0.322217315948685,0.0141877993747301
2.552,-0.324823683901122,0.0166998756614551
2.56,-0.327497869378692,0.0201175682711632
2.568,-0.330025049440703,0.0244186351940474
2.576,-0.332203565346888,0.0295312538575809
2.584,-0.333856398008292,0.0353384973029697
2.592,-0.334841315786347,0.0416854520063467
2.6,-0.335059094161384,0.0483886066491198
2.608,-0.334459306629547,0.0552470068637747
2.616,-0.333043314648823,0.0620545627719978
2.624,-0.330864236877771,0.0686128200054416
2.632,-0.327954707288402,0.0746970050013688
2.64,-0.324544685464513,0.0801674545125357
2.648,-0.320835034508951,0.0849339028449872
2.656,-0.317034808116677,0.0889543140660683
2.664,-0.313358865232079,0.0922426190290638
2.672,-0.31001381736513,0.0948689907837366
2.68,-0.307184188923996,0.0969566999217554
2.688,-0.305019608018216,0.0986756669146856
2.696,-0.30362380236049,0.100233021329446
2.704,-0.303046086724234,0.101861157253548
2.712,-0.303275899640725,0.103803929734919
2.72,-0.304240782687407,0.106301759331708
2.728,-0.305808005505463,0.109576493081805
2.736,-0.307789832424812,0.113816904560791
2.744,-0.309952214982518,0.119165700249438
2.752,-0.312062037327636,0.125738477005245
2.76,-0.313862079363634,0.133654842737172
2.768,-0.314913303844203,0.142783822499647
2.776,-0.314920208815441,0.152980580621929
2.784,-0.31362472399102,0.164031673488332
2.792,-0.310822100065462,0.17566545366077
2.8,-0.306373905938692,0.187566134330581
2.808,-0.300217298001982,0.199390724727189
2.816,-0.292369936946704,0.210787858362386
2.824,-0.282930180713358,0.221417402490394
2.832,-0.272072463772376,0.230969668688318
2.84,-0.26003806524538,0.239183046461356
2.848,-0.247121755393919,0.245858955891347
2.856,-0.233655072340552,0.250873158991584
2.864,-0.219987203327374,0.254182674683334
2.872,-0.206464611795463,0.255827799355969
2.88,-0.19341065172716,0.255929027556154
2.888,-0.181106436596908,0.254678979896323
2.896,-0.169774177727001,0.252329757358815
2.904,-0.159564078282623,0.249176434920484
2.912,-0.150545669673367,0.245537662799769
2.92,-0.142704218606211,0.24173454485783
2.928,-0.135942528973393,0.23806909645475
2.936,-0.130088132212033,0.234803638494503
2.944,-0.124905521876278,0.232142455819436
2.952,-0.120112764329697,0.230216935469805
2.96,-0.115401528120886,0.229075209982132
2.968,-0.110459338391389,0.228677071663826
2.976,-0.104992695833282,0.228894611789803
2.984,-0.0987496139095542,0.229518690915409
2.992,-0.0915401303715599,0.23027098477088
3,-0.0832534415495194,0.23082099668141
3.008,-0.0734519773876395,0.231141555234054
3.016,-0.0624938620625333,0.230313035924015
3.024,-0.0506413241713591,0.227942268213968
3.032,-0.0382619723743765,0.223706915186259
3.04,-0.0258088151514938,0.21738133806552
3.048,-0.0137942221523507,0.208856799035087
3.056,-0.00275941394719127,0.198154632321521
3.064,0.00675863456811679,0.185431451002986
3.072,0.0142608113459515,0.170975956615816
3.08,0.0193178896868622,0.155197449379745
3.088,0.0215989263076286,0.138606663907838
3.096,0.0208942198814547,0.121790045864755
3.104,0.0171313469518605,0.105379006730514
3.112,0.0103832196313786,0.0900160201379008
3.12,0.000867606046950586,0.0763196325358491
3.128,-0.0112489117575895,0.0650233716573601
3.136,-0.0254458910325288,0.056862123578433
3.144,-0.0407134508106444,0.0518935832979911
3.152,-0.0563822102386495,0.050227516626944
3.16,-0.0717892384315714,0.0518212322983214
3.168,-0.0863142084390837,0.0564884977910548
3.176,-0.0994117216666113,0.0639170392572815
3.184,-0.110637802738355,0.0736933120873444
3.192,-0.119668972408816,0.0853327766845144
3.2,-0.126312811637353,0.0983135810907152
3.208,-0.13050950033031,0.112111359013624
3.216,-0.13232441110571,0.126232808290043
3.224,-0.1319324248086,0.140245823408292
3.232,-0.129595171627263,0.15380420628995
3.24,-0.125632856112748,0.166665356680953
3.248,-0.120392668881781,0.178699820074572
3.256,-0.11465198296035,0.189509111939606
3.264,-0.108604533255233,0.199713941014716
3.272,-0.102256052564186,0.209715383999865
3.28,-0.0956202160590768,0.219780507675256
3.288,-0.0886045077426559,0.230171288527041
3.296,-0.0810150431688719,0.241114047276424
3.304,-0.0725692612229956,0.25277119260299
3.312,-0.0629156157024075,0.265217177169395
3.32,-0.0516589593127805,0.278420281554445
3.328,-0.038389962513627,0.292231458362482
3.336,-0.0227166662153336,0.306381014950824
3.344,-0.00429614409156002,0.320483417097328
3.352,0.0171357476599967,0.334049989065995
3.36,0.0417384301795783,0.346508797475962
3.368,0.0695461294874793,0.357230566810266
3.376,0.100517405237083,0.365502131273963
3.384,0.134639237804177,0.370217196008722
3.392,0.170925083090222,0.37114723941131
3.4,0.208819475830398,0.367866458222139
3.408,0.247688498108308,0.360055836205166
3.416,0.286843884173177,0.347517081949475
3.424,0.325569383179829,0.330180784452919
3.432,0.363147982082395,0.308108498535088
3.44,0.398888580956073,0.281488804703507
3.448,0.432150780745424,0.250627710037781
3.456,0.462366582518283,0.215934049435244
3.464,0.489057998835265,0.17790079551946
3.472,0.511849828526368,0.137083378012455
3.48,0.530477131921055,0.0940762389707586
3.488,0.544787246409942,0.0494889054096482
3.496,0.554736485912402,0.00392284223491127
3.504,0.560557888562427,-0.0419081473832271
3.512,0.562473406534219,-0.0876165947257648
3.52,0.56049364326324,-0.132947440276128
3.528,0.554819373141595,-0.177514962262228
3.536,0.545688752532444,-0.220988493561065
3.544,0.533364530701992,-0.263094568117236
3.552,0.51812173024878,-0.303616298646936
3.56,0.500236370130586,-0.342390254768904
3.568,0.479975713501025,-0.379301224825402
3.576,0.457590410355529,-0.414275331772216
3.584,0.433308778407653,-0.447272030941157
3.592,0.407333332620816,-0.478275543318434
3.6,0.379839541106604,-0.507286271726263
3.608,0.350976661516715,-0.53431271116414
3.616,0.320870402020551,-0.559364301639329
3.624,0.289627062407491,-0.582445586937125
3.632,0.257182305702748,-0.603440378539434
3.64,0.223819116994014,-0.622362690615027
3.648,0.189664028887299,-0.639221072173397
3.656,0.154812383679665,-0.654006204106055
3.664,0.11935821380779,-0.666701266718578
3.672,0.0833982253793034,-0.677282797247326
3.68,0.0470352675060918,-0.685722574454467
3.688,0.0103810661991165,-0.691990350598707
3.696,-0.0264419464025425,-0.696057207711714
3.704,-0.0632998167586834,-0.697899285485431
3.712,-0.100047313617163,-0.697501613483518
3.72,-0.136529210467052,-0.694861781355349
3.728,-0.172582524324102,-0.689993196800158
3.736,-0.208039572311711,-0.682927711070069
3.744,-0.24273166076839,-0.673717433718906
3.752,-0.276497755148496,-0.662478330852549
3.76,-0.309235284297358,-0.649379286602773
3.768,-0.340805220304577,-0.634381747349488
3.776,-0.371062039436679,-0.617596345930693
3.784,-0.399873184546091,-0.599153443290147
3.792,-0.427123239466237,-0.579200901638529
3.8,-0.452717573569121,-0.557900874687171
3.808,-0.476585229538992,-0.535425757456892
3.816,-0.498680866217371,-0.51195348865145
3.824,-0.518985617980236,-0.487662438651016
3.832,-0.537506789890687,-0.462726143622827
3.84,-0.554276370527039,-0.437308159534219
3.848,-0.569348408640302,-0.411557308137185
3.856,-0.582795361908522,-0.385603570424069
3.864,-0.594703582750894,-0.359554852446389
3.872,-0.6051681543231,-0.333494805532317
3.88,-0.614209401361286,-0.307398780309716
3.888,-0.621909617331752,-0.281382570179292
3.896,-0.628412002139519,-0.255531980748677
3.904,-0.63381694905512,-0.229846714005107
3.912,-0.638209915175036,-0.204301560177354
3.92,-0.641655653092626,-0.178850521809352
3.928,-0.644193429491343,-0.153432251542744
3.936,-0.645833524994932,-0.127976567204132
3.944,-0.646555252145678,-0.10241174307945
3.952,-0.646306656545795,-0.0766722257555963
3.96,-0.645005984318687,-0.0507063896392537
3.968,-0.642544910609942,-0.0244839332366571
3.976,-0.638793434023965,0.00199747655521859
3.984,-0.633606254734587,0.0287066782084953
3.992,-0.626830374491933,0.0555749279248482
4,-0.618313588907375,0.0824935082825275
4.008,-0.608101010384396,0.10941095291672
4.016,-0.595829959853078,0.136123203645517
4.024,-0.581378058193399,0.162386290948909
4.032,-0.564665446540031,0.187918441458722
4.04,-0.545663574306262,0.212409248026966
4.048,-0.524401827164705,0.235530738384497
4.056,-0.500971600172976,0.256949816848356
4.064,-0.475489538487146,0.276370131590224
4.072,-0.448006417983388,0.293524208379461
4.08,-0.418960502902474,0.307962990586933
4.088,-0.388715794583214,0.319452073467755
4.096,-0.357678566178375,0.327825740194468
4.104,-0.326281748217708,0.332994902639289
4.112,-0.294967852858504,0.334951273689752
4.12,-0.264171353423593,0.333767521573683
4.128,-0.234347392560867,0.329500629693062
4.136,-0.205972344630464,0.322355254228852
4.144,-0.179295748429162,0.312814774635323
4.152,-0.154527608486701,0.301229783554785
4.16,-0.131797202055861,0.287965994291041
4.168,-0.111153984337423,0.273384898723613
4.176,-0.0925731173293273,0.257825410501121
4.184,-0.0759652369923832,0.241587579155989
4.192,-0.0612795181481638,0.225118106661262
4.2,-0.0481823841463335,0.208605611905116
4.208,-0.0363602281036043,0.191972607337117
4.216,-0.0256257502435984,0.175204649817703
4.224,-0.0158318513048894,0.158228026446358
4.232,-0.00688617998302721,0.140924596030271
4.24,0.0012387598619837,0.123149882083477
4.248,0.00850062574592962,0.104753190644476
4.256,0.0150805766981512,0.085286696824856
4.264,0.0204126180880718,0.0647129800782933
4.272,0.024098716744207,0.0431468766103599
4.28,0.0258537747396392,0.020705685738432
4.288,0.0254075533180805,-0.0024128626003333
4.296,0.0225259219057752,-0.0259355338075075
4.304,0.0170301958096398,-0.0495238296204369
4.312,0.00881329194697664,-0.0727888739118416
4.32,-0.00194833775988526,-0.0948653274624775
4.328,-0.0151654958189594,-0.115873934842698
4.336,-0.0307498203791051,-0.135497737118764
4.344,-0.0485388995821872,-0.153395806595532
4.352,-0.0683026093074303,-0.1692514182742
4.36,-0.0897477573059001,-0.182787878289354
4.368,-0.112526659209836,-0.193783294235512
4.376,-0.136293720021976,-0.20201674257492
4.384,-0.160741465350898,-0.206936268367094
4.392,-0.184987844403578,-0.209030468428206
4.4,-0.208611006896435,-0.208501131990519
4.408,-0.231254076395297,-0.205628297133969
4.416,-0.252641050742081,-0.200751974039729
4.424,-0.272587769272542,-0.194250630331651
4.432,-0.291007319299537,-0.186517736764739
4.44,-0.307899667316151,-0.178037898876606
4.448,-0.323453984537141,-0.169278853633694
4.456,-0.337916164687631,-0.160276010542779
4.464,-0.351504288229934,-0.151209744708299
4.472,-0.364464707949617,-0.142187013724919
4.48,-0.377052898414455,-0.133237697402391
4.488,-0.389514126880731,-0.124315594151863
4.496,-0.402065041466231,-0.115303955238246
4.504,-0.414947566745789,-0.105937955021805
4.512,-0.428206815025415,-0.0959526856682754
4.52,-0.441782550621843,-0.0851937276803235
4.528,-0.455640233849375,-0.0734270820715248
4.536,-0.46968054804204,-0.0604236123563126
4.544,-0.48374185377518,-0.0459742983938373
4.552,-0.497606022596344,-0.0299044970516263
4.56,-0.511007319716124,-0.012086488359865
4.568,-0.523643856395296,0.00755031534723057
4.576,-0.535191011878906,0.0290119921976503
4.584,-0.545316136963752,0.0522359103920524
4.592,-0.553693799457187,0.0770898867423508
4.6,-0.560020817975562,0.103374718272975
4.608,-0.564030353447815,0.130829936491054
4.616,-0.565504384964766,0.159142481611729
4.624,-0.56428398412059,0.18795785877662
4.632,-0.560178887773785,0.216639940015722
4.64,-0.553384511775448,0.244983486831939
4.648,-0.543975714833161,0.272675351909054
4.656,-0.532060333054732,0.299383207998793
4.664,-0.517798109467456,0.324797744754463
4.672,-0.501395517264713,0.348641692694587
4.68,-0.483098919055258,0.370677754792611
4.688,-0.463155646462181,0.390754559052891
4.696,-0.441297476834542,0.409154824446168
4.704,-0.418232810661948,0.425031228139405
4.712,-0.394379376258171,0.438293110565518
4.72,-0.370271667802012,0.448919042547874
4.728,-0.346823662560638,0.457112348160818
4.736,-0.323741439000796,0.463259569698431
4.744,-0.301236753511534,0.467565233643145
4.752,-0.27944882503797,0.470251721947193
4.76,-0.258450469030721,0.471526900821653
4.768,-0.238348648699654,0.471625098841805
4.776,-0.219145167119407,0.470766261153514
4.784,-0.200796442877713,0.469144403253722
4.792,-0.183222855422874,0.466918542787465
4.8,-0.166319864940488,0.464206342599966
4.808,-0.149970167802418,0.461080796495512
4.816,-0.134066456056779,0.457578249046863
4.824,-0.118498307588124,0.453694680942335
4.832,-0.103162819070635,0.44936960386956
4.84,-0.0880043903802802,0.44452088737439
4.848,-0.0730056822891963,0.439048174865145
4.856,-0.0581910000674568,0.432844553407065
4.864,-0.0436265342966558,0.425808636709243
4.872,-0.0294174713093658,0.417856262743563
4.88,-0.0156593984340458,0.408902427443072
4.888,-0.00255251229006265,0.398914627669646
4.896,0.00968696516264642,0.387935658318195
4.904,0.0208719731743243,0.376046511830244
4.912,0.0308287271099168,0.363376526600735
4.92,0.0394091895427942,0.350099493285045
4.928,0.0465022452641052,0.336426680369938
4.936,0.0520428487133461,0.322597191442523
4.944,0.0558181594396529,0.308883657631135
4.952,0.0580470247388145,0.295632716056231
4.96,0.0589129883182779,0.283086804963478
4.968,0.0586015638911313,0.271446329921936
4.976,0.0588086668440099,0.260778779553185
4.984,0.0584044715504268,0.250598526574137
4.992,0.0572760172550704,0.240947984694202
5,0.055464497777769,0.231900258074042
5.008,0.0494338053417503,0.224995605960827
5.016,0.043782395053934,0.22057956803405
5.024,0.0408433402132085,0.217566977226649
5.032,0.0389252865634962,0.215359929949069
5.04,0.0380667369600261,0.213214305844405
5.048,0.038123311960499,0.211253981419949
5.056,0.0390445740175267,0.209208318450111
5.064,0.0406676464064426,0.206807268020284
5.072,0.042629369462167,0.20383762330285
5.08,0.0449522806931742,0.200338318689519
5.088,0.0474566331421174,0.196223305003918
5.096,0.049843902455235,0.191603127246765
5.104,0.0519224654531278,0.186811557127604
5.112,0.0539092773574455,0.181501072413984
5.12,0.0556581719243217,0.175666125902146
5.128,0.0570645312276583,0.168946127044625
5.136,0.0576825059324456,0.161146469249786
5.144,0.0571769430080172,0.15314659499896
5.152,0.0555049599892585,0.145231438283888
5.16,0.0526986091457329,0.137687022770781
5.168,0.0488622818079994,0.130781508839121
5.176,0.0441654800517913,0.124747594642535
5.184,0.0388314583123129,0.119767371347681
5.192,0.0332946643802546,0.115886258980376
5.2,0.0277377728327709,0.113062692970561
5.208,0.0222578625200341,0.111330672984637
5.216,0.0170931783845982,0.110641805637862
5.224,0.0124651044382725,0.110891663467995
5.232,0.0085649695539956,0.111925255547611
5.24,0.00554251910852744,0.113545553861592
5.248,0.00349674687071377,0.115524593326695
5.256,0.00262427491200974,0.117609876378422
5.264,0.00279051895502034,0.119472432686678
5.272,0.00383457765265137,0.120872435884689
5.28,0.00559487519772261,0.12161479794696
5.288,0.00786863847115979,0.121550507636736
5.296,0.0104243882226108,0.120585051933433
5.304,0.0130160566864594,0.118683547861466
5.312,0.0153978865194351,0.115872299320143
5.32,0.0173392242978299,0.112236705666821
5.328,0.0186383326543996,0.107915664399256
5.336,0.0191344073539132,0.103092816687114
5.344,0.0187170952138894,0.0979851686206501
5.352,0.0173329594412359,0.0928297740568823
5.36,0.0149885212699877,0.087869276080351
5.368,0.0117497101847051,0.0833371684869525
5.376,0.00770992700310722,0.0794619248716272
5.384,0.00291812972060925,0.0765806864557476
5.392,-0.00216684952093291,0.07471069925492
5.4,-0.00729295895412699,0.0738855620032066
5.408,-0.0122101023844473,0.0740755775043491
5.416,-0.0166855594453886,0.075190813772757
5.424,-0.0205180438102866,0.0770878034312006
5.432,-0.0235495681887272,0.0795794082024773
5.44,-0.0254041146195098,0.082343397227422
5.448,-0.0258609336730055,0.0847864863466585
5.456,-0.0256860924683613,0.0868562932253663
5.464,-0.0250224795574939,0.0884510215750285
5.472,-0.0240239192233008,0.0895098433329892
5.48,-0.0228447818206486,0.0900121347077097
5.488,-0.021630577608968,0.0899743179605822
5.496,-0.020510034123229,0.0894447211828468
5.504,-0.0210127536691126,0.0900483578043235
5.512,-0.022712804448038,0.0928299431599444
5.52,-0.0199666640314573,0.0948947437612516
5.528,-0.013657771902637,0.0935083129611408
5.536,-0.00997877859977232,0.0893396158384701
5.544,-0.00906177145584474,0.0842902945710864
5.552,-0.00959692697227371,0.0791237230244218
5.56,-0.0115238042608583,0.0742590796273117
5.568,-0.0140327608069593,0.0704733608933352
5.576,-0.0170284393633623,0.0674260111591947
5.584,-0.0206103845055657,0.065030304965581
5.592,-0.0246045760076451,0.0634119874770523
5.6,-0.0288118962373587,0.0626504468631932
5.608,-0.0330201722438347,0.0627741278598634
5.616,-0.0370169366560777,0.0637590050606396
5.624,-0.0406021449385443,0.0655301898807834
5.632,-0.0430043834323273,0.0685141616211327
5.64,-0.0443809801483977,0.0717331361354603
5.648,-0.044842848699257,0.074844778334957
5.656,-0.0444928671118227,0.0776339666796306
5.664,-0.0434884050938133,0.0790785712135358
