"Freq [GHz]","re(S(Antenna1_1_1,Antenna1_1_1)) []","im(S(Antenna1_1_1,Antenna1_1_1)) []"
2,-0.0132037335661189,-0.506495323415548
2.008,-0.0338830347312378,-0.504437224117796
2.016,-0.0539192937516979,-0.501734635291018
2.024,-0.0733636457713823,-0.498467998404986
2.032,-0.0922757707164682,-0.494697072434778
2.04,-0.11071891006838,-0.490460061388336
2.048,-0.128754799592658,-0.48577388965545
2.056,-0.146438789684575,-0.480635627203379
2.064,-0.163815421013356,-0.475025000577764
2.072,-0.180914702930459,-0.468907861974803
2.08,-0.197749306768774,-0.462240431128049
2.088,-0.214312837349835,-0.454974077106701
2.096,-0.23057928663502,-0.447060372275287
2.104,-0.246503706619962,-0.438456131109887
2.112,-0.262024068476224,-0.429128143725967
2.12,-0.277064205442956,-0.419057328337454
2.128,-0.291544675277386,-0.40824320874023
2.136,-0.30537809898541,-0.396698637431586
2.144,-0.318457540469565,-0.384458291641384
2.152,-0.330691656014532,-0.371583171027566
2.16,-0.341998931449404,-0.358154553270213
2.168,-0.352312388032388,-0.344271323816813
2.176,-0.361583500422988,-0.330046243088747
2.184,-0.369785092011458,-0.315601377364514
2.192,-0.376913036091459,-0.301062970538769
2.2,-0.382986665351863,-0.286556067578982
2.208,-0.388047872390214,-0.272199214551068
2.216,-0.392158965116813,-0.258099553505641
2.224,-0.395399417785375,-0.244348603785891
2.232,-0.397861725942875,-0.231018976056423
2.24,-0.39964662738761,-0.218162204673734
2.248,-0.40085798777772,-0.205807811902895
2.256,-0.401574852388317,-0.194005032843507
2.264,-0.401931156597204,-0.182722902446437
2.272,-0.402023662623834,-0.171910190500398
2.28,-0.401920911448204,-0.16151334892255
2.288,-0.401671551460652,-0.151469851586487
2.296,-0.401303397903482,-0.141713612273484
2.304,-0.4008238723577,-0.132180364203339
2.312,-0.400221746057887,-0.122812661910939
2.32,-0.399470030034206,-0.113564202197003
2.328,-0.398529787688909,-0.104403215301262
2.336,-0.397354595242674,-0.0953147460761877
2.344,-0.395895345441707,-0.086301722344081
2.352,-0.394105080920583,-0.0773847882830885
2.36,-0.391943555396587,-0.0686009589200517
2.368,-0.389381251479648,-0.060001222496179
2.376,-0.386402630170547,-0.0516472761969275
2.384,-0.383008445114801,-0.0436076243478446
2.392,-0.37921701963219,-0.0359532946706692
2.4,-0.375064451664016,-0.028753436980487
2.408,-0.370603776476464,-0.0220710605854952
2.416,-0.3659031750095,-0.0159591434241146
2.424,-0.361043364085061,-0.01045731059604
2.432,-0.35611434085438,-0.0055892357301741
2.44,-0.351211676867956,-0.00136086951314311
2.448,-0.346432566873649,0.00224045079762409
2.456,-0.341871834887753,0.00524600539280761
2.464,-0.337618086920072,0.00770484747481627
2.472,-0.333750178371733,0.00968218502168712
2.48,-0.330334137006609,0.0112570919239807
2.488,-0.327420652253098,0.0125196718671106
2.496,-0.325043210604322,0.0135678104963222
2.504,-0.323247175081842,0.0144820842370862
2.512,-0.32204105598626,0.0153864385871604
2.52,-0.321368411109835,0.0164129062508905
2.528,-0.321178902785281,0.017656618845788
2.536,-0.321405880721954,0.0191999158651554
2.544,-0.321969371240585,0.0211094145707301
2.552,-0.322779592929222,0.0234337337684551
2.56,-0.323740869749692,0.0262019633231632
2.568,-0.324755796696703,0.0294229505580474
2.576,-0.325729498805888,0.0330854507535809
2.584,-0.326573812574292,0.0371591613359697
2.592,-0.327211210874347,0.0415966277253467
2.6,-0.327578289879384,0.0463359733577198
2.608,-0.327628640981547,0.0513043680347747
2.616,-0.327334943737823,0.0564221089309978
2.624,-0.326690138669771,0.0616071494694416
2.632,-0.325672590435402,0.0667653414483688
2.64,-0.324353269449513,0.0718203411195357
2.648,-0.322793409671251,0.0767156953819872
2.656,-0.321062180989177,0.0814115782900683
2.664,-0.319237441406079,0.0858887008000638
2.672,-0.31740051185013,0.0901502227647366
2.68,-0.315630517297996,0.0942224022337554
2.688,-0.313998596695216,0.0981538777986856
2.696,-0.31256231090249,0.102013553255746
2.704,-0.311360586225234,0.105887134599048
2.712,-0.310409518926725,0.109872452513919
2.72,-0.309699332934407,0.114073783665708
2.728,-0.309192729423463,0.118595455699805
2.736,-0.308824795530812,0.123535078690791
2.744,-0.308504553686518,0.128976785224438
2.752,-0.308139373664636,0.134991532659245
2.76,-0.307630025463834,0.141655636635172
2.768,-0.306752991237203,0.148967956638647
2.776,-0.305347642803441,0.156895424125929
2.784,-0.30325900488602,0.165367808755332
2.792,-0.300346513671462,0.17427932832577
2.8,-0.296492257133692,0.183492353154581
2.808,-0.291608192411982,0.192843041406689
2.816,-0.285641885463704,0.202148619850386
2.824,-0.278580397725358,0.211215917477394
2.832,-0.270452048812376,0.219850674405318
2.84,-0.26132590788938,0.227867091251356
2.848,-0.251309001077619,0.235097058831347
2.856,-0.240541360565552,0.241398516631584
2.864,-0.229189174085374,0.246662431023334
2.872,-0.217436412992463,0.250817958705969
2.88,-0.20547541576916,0.253835462722154
2.888,-0.193496975112908,0.255727172789323
2.896,-0.181680516137001,0.256545420078915
2.904,-0.170184957812623,0.256378522022484
2.912,-0.159140818973367,0.255344535927269
2.92,-0.148644064866211,0.25358323274983
2.928,-0.138752094753393,0.25124675638875
2.936,-0.129482149061033,0.248489522199503
2.944,-0.120812274377278,0.245457965579436
2.952,-0.112684833209697,0.242280773529805
2.96,-0.105012391252486,0.239060217162132
2.968,-0.0976856678143891,0.235865151363826
2.976,-0.0905831026572816,0.232726161689803
2.984,-0.0835814833935542,0.229633221675409
2.992,-0.0765669983015599,0.22653608330788
3,-0.0694460352295194,0.22334746547941
3.008,-0.0620467367876395,0.220215990063054
3.016,-0.0543300798425333,0.216670827825015
3.024,-0.0463413109613591,0.212516872487968
3.032,-0.0381858654743765,0.207567669297259
3.04,-0.0300267895944938,0.20166138296552
3.048,-0.0220781557643507,0.194675880035087
3.056,-0.0145947676751913,0.186541946451521
3.064,-0.00785868734888321,0.177253754752986
3.072,-0.00216332378304855,0.166875845055816
3.08,0.00220401097286222,0.155546081819745
3.088,0.00498005847762862,0.143474282235838
3.096,0.00594300955145474,0.130936470516755
3.104,0.00492827604186048,0.118264977118514
3.112,0.00184165205137863,0.105834859987901
3.12,-0.00333098373304942,0.0940473574908491
3.128,-0.0106584997875895,0.0833399942993601
3.136,-0.0200373793925288,0.074249681998433
3.144,-0.0309262474096444,0.0671271954679911
3.152,-0.0429568851126495,0.062245038156944
3.16,-0.0557137753835714,0.0597947485883214
3.168,-0.0687539513270837,0.0598792510710548
3.176,-0.0816278821056113,0.0625102544872815
3.184,-0.0939001095083552,0.0676107647643444
3.192,-0.105168377018816,0.0750224517645144
3.2,-0.115080102277353,0.0845173043847152
3.208,-0.12334522709031,0.095812738049624
3.216,-0.12974472440571,0.108589104090043
3.224,-0.1341343338486,0.122508405278292
3.232,-0.136443416588263,0.13723295525995
3.24,-0.136669146033748,0.152442736410953
3.248,-0.134866562324781,0.167850310384572
3.256,-0.13123447986435,0.182888318089606
3.264,-0.126009075055233,0.197660953964716
3.272,-0.119284176344186,0.212211005799865
3.28,-0.111135870819077,0.226504335467256
3.288,-0.101606661662656,0.240531448814041
3.296,-0.0906995389388719,0.254293669911424
3.304,-0.0783762589729956,0.26778819425799
3.312,-0.0645599763924075,0.280993178620395
3.32,-0.0491420706927805,0.293854020712445
3.328,-0.031992719014627,0.306271901322482
3.336,-0.0129745069013336,0.318095510470824
3.344,0.00804184319343998,0.329116667877328
3.352,0.0311606979389967,0.339070290895995
3.36,0.0564448478025783,0.347638875945962
3.368,0.0839001116024793,0.354461362308266
3.376,0.113511239147083,0.359136761619963
3.384,0.145391582564177,0.361103241835722
3.392,0.178899278700222,0.35996782525331
3.4,0.213669903780398,0.355397420349139
3.408,0.249273041478308,0.347115507226166
3.416,0.285223848159177,0.334915588553475
3.424,0.320997366730829,0.318671844196919
3.432,0.356044868232395,0.298346443975088
3.44,0.389811398451073,0.273993160773507
3.448,0.421753653538724,0.245757130797781
3.456,0.451357305832283,0.213870817105244
3.464,0.478152947741265,0.17864643396246
3.472,0.501729913942368,0.140465271817455
3.48,0.521747373684055,0.0997645159879586
3.488,0.537942247067942,0.0570222672216482
3.496,0.550133681370402,0.0127415448892113
3.504,0.558272255489427,-0.0324386357142271
3.512,0.562421645965219,-0.0780615657767648
3.52,0.56259530868424,-0.123814249602128
3.528,0.558883043499595,-0.169270540019228
3.536,0.551425932980444,-0.214036026127065
3.544,0.540408232413992,-0.257754295508236
3.552,0.526048611414931,-0.300111314223936
3.56,0.508591164890586,-0.340837908109904
3.568,0.488296590007025,-0.379710418449402
3.576,0.465433886180529,-0.416549684783216
3.584,0.440272880506653,-0.451218573817857
3.592,0.413077815194816,-0.483618323540434
3.6,0.384102161014604,-0.513684004332263
3.608,0.353584745551715,-0.54137941359184
3.616,0.321747211576551,-0.566691717821329
3.624,0.288792752628491,-0.589626137641125
3.632,0.254818036444748,-0.610198788468434
3.64,0.220072907432614,-0.628397426162027
3.648,0.184734801255299,-0.644255856095397
3.656,0.148953061972665,-0.657816022442056
3.664,0.11286307330019,-0.669122703107577
3.672,0.0765882968863034,-0.678221337872326
3.68,0.0402425078880918,-0.685156519443467
3.688,0.00393207589811653,-0.689971133430707
3.696,-0.0322418474495425,-0.692706103663514
3.704,-0.0681813547106834,-0.693400674346431
3.712,-0.103790121365163,-0.692093140588518
3.72,-0.138972131341052,-0.688821924409749
3.728,-0.173630837884102,-0.683626884437258
3.736,-0.207668782295711,-0.676550744062069
3.744,-0.24098766775639,-0.667640524674906
3.752,-0.273474409658796,-0.656970414356549
3.76,-0.305027119712358,-0.644655643108773
3.768,-0.335611616527577,-0.630695965387488
3.776,-0.365136393920379,-0.615152031916693
3.784,-0.393510497401591,-0.598092768088147
3.792,-0.420645281637237,-0.579596214819529
3.8,-0.446456394861121,-0.559749893643171
3.808,-0.470865868876992,-0.538650651539792
3.816,-0.493804185682371,-0.51640396981045
3.824,-0.515212190569236,-0.493122751208016
3.832,-0.535042727116687,-0.468925629403127
3.84,-0.55326188162004,-0.443934872935219
3.848,-0.569849742776302,-0.418273980884185
3.856,-0.584800606155522,-0.392065088067069
3.864,-0.598122581055594,-0.365426312576389
3.872,-0.6098365884641,-0.338469186956317
3.88,-0.619977817273286,-0.311242694305716
3.888,-0.628555701282352,-0.283860976099292
3.896,-0.635610466190319,-0.256446455055677
3.904,-0.64119821061012,-0.229076668551107
3.912,-0.645378767456037,-0.201813972365354
3.92,-0.648212029722626,-0.174705184650452
3.928,-0.649754190079342,-0.147782104646744
3.936,-0.650054099842932,-0.121062925711132
3.944,-0.649149955905677,-0.0945545146614502
3.952,-0.647066516246795,-0.0682554818473963
3.96,-0.643813026199687,-0.0421599212562537
3.968,-0.639382009337942,-0.0162616596016571
3.976,-0.633749039909565,0.00944118022521859
3.984,-0.626873570010587,0.0349415209454953
3.992,-0.618700835921933,0.0602188126948482
4,-0.609164816685375,0.0852348940465275
4.008,-0.598326085211096,0.10987965133772
4.016,-0.585993839497078,0.134182876868517
4.024,-0.572073535261399,0.158040918565909
4.032,-0.556478381389031,0.181317455831022
4.04,-0.539137354890262,0.203844088335966
4.048,-0.520003162718705,0.225422768806497
4.056,-0.499059732649976,0.245830068095656
4.064,-0.476324190203146,0.264842724443224
4.072,-0.451818055782388,0.282262701123461
4.08,-0.425658456105474,0.297730092293933
4.088,-0.398015653317214,0.310979591007755
4.096,-0.369112427023375,0.321765819752468
4.104,-0.339220608819708,0.32987455417929
4.112,-0.308655137772704,0.335133173189752
4.12,-0.277765823883593,0.337419779343683
4.128,-0.246873500960867,0.336620734025062
4.136,-0.216375977492464,0.332658497088852
4.144,-0.186787376899162,0.325680738686323
4.152,-0.158495530646701,0.315847096466785
4.16,-0.131852482445861,0.303382336958841
4.168,-0.107161582971423,0.288567265929613
4.176,-0.0846669557213273,0.271726874790121
4.184,-0.0645459497263832,0.253216337610989
4.192,-0.0470376339721638,0.233443956101262
4.2,-0.0321150358093335,0.212855856835116
4.208,-0.0196009172907443,0.191782764027117
4.216,-0.00936994895659838,0.170517454280703
4.224,-0.00125568952188945,0.149300355302358
4.232,0.00493420820697279,0.128313341430271
4.24,0.0094018999519837,0.107677583823477
4.248,0.0123434101359296,0.0874555513844759
4.256,0.0141669100681512,0.067755548757216
4.264,0.0149020974550718,0.0483421797322933
4.272,0.014523549978207,0.0290871592443599
4.28,0.0130213246696392,0.00991446682843199
4.288,0.0103375558790805,-0.0092340456303333
4.296,0.0063743487407752,-0.0283845385575075
4.304,0.00100526892023985,-0.0475197846104369
4.312,-0.00591041593402336,-0.0665713508718416
4.32,-0.0149194652208853,-0.0854106020194775
4.328,-0.0257304269389594,-0.103659470701698
4.336,-0.0383273655591051,-0.121108895224764
4.344,-0.0526843762621872,-0.137541225355532
4.352,-0.0687349596874303,-0.1527324170294
4.36,-0.0863700345059001,-0.166461441383354
4.368,-0.105438202497836,-0.178520049045512
4.376,-0.125762579068376,-0.18873279469692
4.384,-0.147221594999898,-0.196972232327094
4.392,-0.169457672759578,-0.203015745318206
4.4,-0.192169966101435,-0.206790764830519
4.408,-0.215048665084297,-0.208283042133969
4.416,-0.237788678069081,-0.207537640443729
4.424,-0.260103255321542,-0.204656537148651
4.432,-0.281736715319537,-0.199792934808739
4.44,-0.302424245956151,-0.193158186596606
4.448,-0.321963398447141,-0.185046860369694
4.456,-0.340391038087631,-0.175684116088779
4.464,-0.357679749528934,-0.165298770539299
4.472,-0.373852552384617,-0.154103926254919
4.48,-0.388976816599455,-0.142285551782391
4.488,-0.403155593598731,-0.129992882091863
4.496,-0.416516874576231,-0.117331213378246
4.504,-0.429270675381389,-0.104370786941805
4.512,-0.441560287803415,-0.0910693985222754
4.52,-0.453425607590843,-0.0773584693013235
4.528,-0.464947321963375,-0.0631630758685248
4.536,-0.47617392322204,-0.0483799328153126
4.544,-0.48711516123518,-0.0328863773238373
4.552,-0.497737777536344,-0.0165506856491263
4.56,-0.507963766912124,0.000756838310135
4.568,-0.517671277968296,0.0191526010062306
4.576,-0.526698126014006,0.0387288899336502
4.584,-0.534847756491752,0.0595440596720524
4.592,-0.541897371862187,0.0816142635823508
4.6,-0.547607825103562,0.104907183582975
4.608,-0.551734793429815,0.129338111280054
4.616,-0.554040679991766,0.154768618718729
4.624,-0.55430665149059,0.18100793076762
4.632,-0.552200871267785,0.207828475858722
4.64,-0.547706039464448,0.234865760879939
4.648,-0.540771857933161,0.261807486176054
4.656,-0.531380467074732,0.288334313045593
4.664,-0.519568193000456,0.314123413232463
4.672,-0.505425530938713,0.338858825449587
4.68,-0.489095108637258,0.362241627643611
4.688,-0.470785543064181,0.384021623378891
4.696,-0.450890707363542,0.404327137014168
4.704,-0.429312778945948,0.422642784868405
4.712,-0.406330493020171,0.438760518425518
4.72,-0.382257590901012,0.452460933884874
4.728,-0.357537977335638,0.463383467286818
4.736,-0.332581576074796,0.471864385615231
4.744,-0.307713403712534,0.477979586051145
4.752,-0.28322608450697,0.481864876349193
4.76,-0.259362612640721,0.483702241147953
4.768,-0.236342895767654,0.483669463352805
4.776,-0.214333476531407,0.481992828963514
4.784,-0.193449723642813,0.478911217262722
4.792,-0.173756299193874,0.474664714163465
4.8,-0.155270152927488,0.469483916233966
4.808,-0.137965759718418,0.463580477655512
4.816,-0.121788694881279,0.457139166620863
4.824,-0.106652667202124,0.450317441761335
4.832,-0.0924416977046354,0.44323390521056
4.84,-0.0790397728492802,0.43596725339239
4.848,-0.0663322902331963,0.428559600732145
4.856,-0.0542146948154568,0.421019814701065
4.864,-0.0425998342666558,0.413328709103243
4.872,-0.0314236589143658,0.405445707929563
4.88,-0.0206168107400458,0.397324810829072
4.888,-0.0101805745574626,0.388883422908646
4.896,-0.000160361336353576,0.380054481928195
4.904,0.00939029823832426,0.370792936188244
4.912,0.0183970530039168,0.361073239497735
4.92,0.0267711500847942,0.350894465262045
4.928,0.0344168946281052,0.340283562228938
4.936,0.0412396520743461,0.329296566588523
4.944,0.0470595544646529,0.317916777850135
4.952,0.0518346620828145,0.306384891102231
4.96,0.0555566036572779,0.294873840021478
4.968,0.0582333098721313,0.283536297017736
4.976,0.0605686783220099,0.273328230875385
4.984,0.0623929728394268,0.263360697991137
4.992,0.0636522850880704,0.253545951786202
5,0.064331294905469,0.243899883336042
5.008,0.0621462461147503,0.233011127302827
5.016,0.058760531807934,0.22356413965405
5.024,0.0556983112099385,0.216426681966649
5.032,0.0526044190604962,0.210382456479069
5.04,0.0498971580270261,0.205144158729405
5.048,0.047435893270499,0.200678630989949
5.056,0.0453414896975267,0.196852574785111
5.064,0.0436938508934426,0.193477531621284
5.072,0.042470608576167,0.19028542567085
5.08,0.0416693601851741,0.187306346358519
5.088,0.0412795420271174,0.184414534818918
5.096,0.041161564075035,0.181488135426765
5.104,0.0411040811801279,0.178518503975604
5.112,0.0413338015504455,0.175484972667984
5.12,0.0418024074063217,0.172303984528146
5.128,0.0426461773976583,0.168821491044625
5.136,0.0438324586484456,0.164771198376786
5.144,0.0448380068480172,0.16022779994696
5.152,0.0455103356802585,0.155246310392888
5.16,0.0457174439317329,0.149918682433781
5.168,0.0453560714899994,0.144367374250121
5.176,0.0443581130037913,0.138737151468535
5.184,0.0426948282133129,0.133185623698681
5.192,0.0404744811532546,0.127933026868376
5.2,0.0377605349547709,0.123052430792561
5.208,0.0345508373150341,0.118604688541637
5.216,0.0309339529755982,0.114697134308862
5.224,0.0270230847792725,0.111414370707995
5.232,0.0229501147277956,0.108812870865611
5.24,0.0188585072025274,0.106917107770592
5.248,0.0148954568787138,0.105717442668395
5.256,0.0112667043820097,0.105275270842422
5.264,0.00811332953502034,0.105404266964678
5.272,0.00551602026265137,0.105940558171689
5.28,0.00353604389272261,0.10674122596626
5.288,0.00219954397315979,0.107653450907736
5.296,0.00149621547431081,0.108523094294433
5.304,0.00138004262145939,0.109203345494466
5.312,0.00177205659643505,0.109562948594143
5.32,0.00256495772882986,0.109493545418821
5.328,0.0036293426853996,0.108915720877256
5.336,0.00482118722181319,0.107783408573114
5.344,0.00599016417288942,0.10608640551865
5.352,0.00698832862323586,0.103850850329882
5.36,0.00767868024298768,0.101137632525351
5.368,0.0079431179917051,0.0980388169299525
5.376,0.00767057572310722,0.0946604231806272
5.384,0.00666766353760925,0.0911103657794476
5.392,0.00504362331406709,0.08765864145092
5.4,0.00283772269087301,0.0844575418482066
5.408,0.000125021455552745,0.0816439647143491
5.416,-0.00298868146738856,0.079331334784757
5.424,-0.00637366517628665,0.0776030262902006
5.432,-0.00988444826382717,0.0765076590904773
5.44,-0.0132042921355098,0.076210735500422
5.448,-0.0158744464980055,0.0766899776515285
5.456,-0.0181398547573613,0.0774195300483663
5.464,-0.0199903507214939,0.0782945698360285
5.472,-0.0214400859853008,0.0792176828559892
5.48,-0.0225236157726486,0.0801039068927097
5.488,-0.023291089794968,0.0808843953405822
5.496,-0.023802963916229,0.0815085855665468
5.504,-0.0256658337151126,0.0813916697910235
5.512,-0.029580571467038,0.0810919528076444
5.52,-0.0317168274964573,0.0840510861482516
5.528,-0.030077998537637,0.0888564308911408
5.536,-0.0270278770097723,0.0908647677284701
5.544,-0.0240975330826447,0.0905485183330864
5.552,-0.0214397874322737,0.0891667758172218
5.56,-0.0193422591138583,0.0868744363293117
5.568,-0.0181236531779593,0.0845325838503352
5.576,-0.0174849213953623,0.0820659237171947
5.584,-0.0173999008415657,0.079330916995581
5.592,-0.0179229915896451,0.0764730235546523
5.6,-0.0190718630481587,0.0736470354001932
5.608,-0.0208261554048347,0.0710080095698634
5.616,-0.0231283791580777,0.0687021198636396
5.624,-0.0258869770995443,0.0668579506317834
5.632,-0.0292222338933273,0.0662014377891327
5.64,-0.0324544391823977,0.0663348146194603
5.648,-0.035367229400257,0.067086951840957
5.656,-0.0378339342468227,0.0683323619036306
5.664,-0.0391379751238133,0.0696937047445358
