"Freq [GHz]","re(S(Antenna1_1_1,Antenna1_1_1)) []","im(S(Antenna1_1_1,Antenna1_1_1)) []"
2,-0.00801610882411894,-0.507567237112548
2.008,-0.0291277487652378,-0.506779050226796
2.016,-0.0499017071546979,-0.505197379648018
2.024,-0.0703418920637822,-0.502830686104986
2.032,-0.0904441724474682,-0.499680936162678
2.04,-0.11019549649338,-0.495746447531536
2.048,-0.129573731387658,-0.49102473151955
2.056,-0.148548181253575,-0.485515167806379
2.064,-0.167080703572356,-0.479221365060764
2.072,-0.185127313996459,-0.472153087240303
2.08,-0.202640146815774,-0.464327657979649
2.088,-0.219569624709535,-0.455770791945701
2.096,-0.23586668735962,-0.446516840161287
2.104,-0.251484934051962,-0.436608473450887
2.112,-0.266382549809224,-0.426095862028967
2.12,-0.280523906697956,-0.415035437809454
2.128,-0.293881674416486,-0.40348790458923
2.136,-0.30643601974441,-0.391516667025386
2.144,-0.318173520716565,-0.379187654824724
2.152,-0.329090637790532,-0.366565684586066
2.16,-0.339191447588404,-0.353713420426613
2.168,-0.348486713531387,-0.340690085509813
2.176,-0.356992727327988,-0.327550503066647
2.184,-0.364730024549158,-0.314344499217214
2.192,-0.371722078559359,-0.301116670291769
2.2,-0.377994070162713,-0.287906489383982
2.208,-0.383571816268614,-0.274748702538068
2.216,-0.388480921176713,-0.261673946034641
2.224,-0.392746190419375,-0.248709503926891
2.232,-0.396391321573555,-0.235880120002423
2.24,-0.39943886118261,-0.223208780831334
2.248,-0.40191039396672,-0.210717396001295
2.256,-0.403823192814317,-0.198436839433507
2.264,-0.405204485568204,-0.186383668419437
2.272,-0.406078050818834,-0.174575039166798
2.28,-0.406466726057204,-0.16303042803785
2.288,-0.406394416996652,-0.151768475910687
2.296,-0.405886215411482,-0.140806594417484
2.304,-0.4049683339882,-0.130160550097339
2.312,-0.403667864707787,-0.119844095795939
2.32,-0.402012390341806,-0.109868712313003
2.328,-0.400029498596609,-0.100243509885262
2.336,-0.397746263216174,-0.0909753198861877
2.344,-0.395188764408707,-0.082068983931081
2.352,-0.392381721282583,-0.0735278225460886
2.36,-0.389348301256587,-0.0653542412140517
2.368,-0.386110156126648,-0.057550410295379
2.376,-0.382687712655548,-0.0501189393810275
2.384,-0.379100719138801,-0.0430634578105956
2.392,-0.37536902054119,-0.0363890127666692
2.4,-0.371513506148016,-0.030102205007487
2.408,-0.367557147976464,-0.0242109997684952
2.416,-0.3635260279955,-0.0187241756251146
2.424,-0.359450239817062,-0.01365040540604
2.432,-0.35536454757758,-0.0089969982021741
2.44,-0.351308692321436,-0.00476836729514311
2.448,-0.347327254352349,-0.000964322340375914
2.456,-0.343469008088753,0.00242168769880761
2.464,-0.339785742253072,0.00540423439881627
2.472,-0.336330560359733,0.00800731652368712
2.48,-0.333155721400609,0.0102653601779807
2.488,-0.330310124836098,0.0122236745899106
2.496,-0.327836583918322,0.0139382537581222
2.504,-0.325786634203842,0.0154549933808862
2.512,-0.32419698086126,0.0168603949761604
2.52,-0.323058496515835,0.0182637936278905
2.528,-0.322356571285281,0.019752520875788
2.536,-0.322058651552954,0.0214104836641554
2.544,-0.322114995687485,0.0233138741507301
2.552,-0.322460536381322,0.0255270629394551
2.56,-0.323017799907692,0.0280989696611632
2.568,-0.323700753727703,0.0310601900600474
2.576,-0.324419379597888,0.0344211227695809
2.584,-0.325084705470292,0.0381712832479697
2.592,-0.325613981124347,0.0422799199133467
2.6,-0.325935654087384,0.0466979628370998
2.608,-0.325993796915547,0.0513612438727747
2.616,-0.325751655929823,0.0561948350789978
2.624,-0.325194034869771,0.0611182663574416
2.632,-0.324294107258402,0.0660367812343688
2.64,-0.323119058807514,0.0708714011575357
2.648,-0.321730028767251,0.0755645768929872
2.656,-0.320198062413677,0.0800772141950683
2.664,-0.318603738209079,0.0843932454450638
2.672,-0.31703074020913,0.0885218661777366
2.68,-0.315558929525996,0.0924980542817554
2.688,-0.314257368764216,0.0963812658046856
2.696,-0.31317777387949,0.100252321078546
2.704,-0.312348856801234,0.104208617967448
2.712,-0.311771979192725,0.108357927116919
2.72,-0.311418464765407,0.112811128795708
2.728,-0.311228818733463,0.117674334870805
2.736,-0.311113984187812,0.123040896148791
2.744,-0.310958633848518,0.128983820193438
2.752,-0.310645114444336,0.135563399225245
2.76,-0.310041112956634,0.142843242661172
2.768,-0.308913433368203,0.150762167210647
2.776,-0.307099881281441,0.159246173670929
2.784,-0.30445501201702,0.168182806752332
2.792,-0.300859393521462,0.17742584768977
2.8,-0.296227483375692,0.186802254251081
2.808,-0.290513576276982,0.196120939927189
2.816,-0.283715396877704,0.205182853942386
2.824,-0.275875061935358,0.213791727450394
2.832,-0.267077306031376,0.221764795908318
2.84,-0.25744504527138,0.228942797593356
2.848,-0.247132531634119,0.235198584911347
2.856,-0.236316514872552,0.240443766792584
2.864,-0.225185967839374,0.244632922415334
2.872,-0.213931035241463,0.247765080832969
2.88,-0.20273192747916,0.249882338576154
2.888,-0.191748495826908,0.251065675720323
2.896,-0.181111190947001,0.251428218435845
2.904,-0.170914025402623,0.251106369847484
2.912,-0.161210036853367,0.250249379553769
2.92,-0.152009590178211,0.24900803508983
2.928,-0.143281673097393,0.24752322811475
2.936,-0.134958143568033,0.245915168944503
2.944,-0.126940690508278,0.244273993229436
2.952,-0.119110085326697,0.242652425329805
2.96,-0.111337142685886,0.241061039272132
2.968,-0.103494685322389,0.239466496582826
2.976,-0.0954697283332816,0.237792952301803
2.984,-0.0871750685995542,0.235926616724409
2.992,-0.0785594877015599,0.23372325451688
3,-0.0696158502995194,0.23101820810441
3.008,-0.0601505607876395,0.227792447048054
3.016,-0.0504310064825333,0.223601747720015
3.024,-0.0406483509623591,0.218278093573968
3.032,-0.0310439503443765,0.211700470006259
3.04,-0.0218967636884938,0.20380741776552
3.048,-0.0135078693953507,0.194606104585087
3.056,-0.00618305290019126,0.184177287381521
3.064,-0.000214557777883208,0.172675801732986
3.072,0.00413685202595145,0.160326503165816
3.08,0.00665839018686222,0.147415876357745
3.088,0.00719926947762862,0.134279804796838
3.096,0.00568136880145474,0.121288237730755
3.104,0.00210588222186048,0.108827686260514
3.112,-0.00344445735862137,0.0972826150479008
3.12,-0.0108077060070494,0.0870168613958491
3.128,-0.0198314941625895,0.0784583423373601
3.136,-0.0301742456795288,0.072009075658433
3.144,-0.0412893431836444,0.0676888461879911
3.152,-0.0527918017726495,0.065569230816944
3.16,-0.0643028944715714,0.0656433665483214
3.168,-0.0754674963890837,0.0678322965970548
3.176,-0.0859688782066113,0.0719952247002815
3.184,-0.0955400867183552,0.0779428411708444
3.192,-0.103971300288816,0.0854527032895144
3.2,-0.111112831997353,0.0942855420237152
3.208,-0.11687375433031,0.104201333003624
3.216,-0.12121641632671,0.114974012970043
3.224,-0.1241473980016,0.126403839188292
3.232,-0.125705680695063,0.13832657043995
3.24,-0.125948990474748,0.150618880250953
3.248,-0.124939384956781,0.163199681984572
3.256,-0.12297143588035,0.175879788809606
3.264,-0.119975875355233,0.188896440384716
3.272,-0.115819471914186,0.202348896449865
3.28,-0.110393892049077,0.216257909234006
3.288,-0.103551854302656,0.230619316505041
3.296,-0.0951140479088718,0.245391130650424
3.304,-0.0848794410909956,0.26048272589799
3.312,-0.0726383449764075,0.275746926509395
3.32,-0.0581874221697805,0.290975613614445
3.328,-0.041345704781827,0.305899247592482
3.336,-0.0219706201533336,0.320190459770824
3.344,2.69824184399806E-05,0.333471617707328
3.352,0.0246697552199967,0.345326025869995
3.36,0.0519035654495783,0.355312203970962
3.368,0.0815906772074793,0.362980499670266
3.376,0.113531704417083,0.367860265715363
3.384,0.147492213184177,0.369313660471722
3.392,0.182839218783222,0.36719565131831
3.4,0.219108702454398,0.361257049181139
3.408,0.255796285273308,0.351324698635166
3.416,0.292372124106177,0.337307697552475
3.424,0.328296631299129,0.319200397815919
3.432,0.363036296331395,0.297082129604088
3.44,0.396078904111073,0.271113753965507
3.448,0.426947497019424,0.241531300236781
3.456,0.455212512295283,0.208637078504244
3.464,0.480501637519265,0.17278876613446
3.472,0.502507057944368,0.134387046402455
3.48,0.520989912622055,0.0938624229774586
3.488,0.535781923441942,0.0516618451756482
3.496,0.546784304183402,0.00823575593791127
3.504,0.554047708500427,-0.0359241529162271
3.512,0.557623199039219,-0.0804576204987648
3.52,0.55749009567624,-0.125044831005128
3.528,0.553742342538595,-0.169322336519228
3.536,0.546511066485444,-0.212956293705065
3.544,0.535957648830992,-0.255645701480236
3.552,0.52226676010478,-0.297124177608936
3.56,0.505639648085586,-0.337160371090904
3.568,0.486287930140025,-0.375557161664402
3.576,0.464428092391529,-0.412149840295216
3.584,0.440276843507653,-0.446803493961367
3.592,0.414047413278816,-0.479409833721434
3.6,0.385946828893604,-0.509883707279263
3.608,0.356174147672715,-0.53815952688614
3.616,0.324919576769551,-0.564187821958329
3.624,0.292364369814491,-0.587932095243125
3.632,0.258602404543748,-0.609315701586434
3.64,0.223896260966404,-0.628330647850027
3.648,0.188427967629299,-0.644982013536397
3.656,0.152358198291665,-0.659278240178055
3.664,0.11583994149879,-0.671234189693578
3.672,0.0790195864393034,-0.680870063216326
3.68,0.0420380367430918,-0.688210758473467
3.688,0.00503174738911653,-0.693285630283707
3.696,-0.0318664053125425,-0.696128597703114
3.704,-0.0685264921716834,-0.696778524684431
3.712,-0.104821188342163,-0.695279789212518
3.72,-0.140625746884052,-0.691682949288349
3.728,-0.175818293162102,-0.686045412796158
3.736,-0.210280422222711,-0.678432022206069
3.744,-0.24389806086639,-0.668915473748906
3.752,-0.276565746721196,-0.657594842632549
3.76,-0.308207219664558,-0.644589622887773
3.768,-0.338727119900577,-0.629930227889488
3.776,-0.368034000118679,-0.613711238341693
3.784,-0.396044460159092,-0.596035083679147
3.792,-0.422684733127237,-0.577011223892529
3.8,-0.447892128807121,-0.556754907113171
3.808,-0.471616226727992,-0.535385541899892
3.816,-0.493819722746371,-0.51302474845095
3.824,-0.514478850236236,-0.489794175036016
3.832,-0.533583318878687,-0.465813183493827
3.84,-0.55113573964804,-0.441196519708219
3.848,-0.567150532412302,-0.416052090847185
3.856,-0.581652341239522,-0.390478970470069
3.864,-0.594674010403794,-0.364565745328389
3.872,-0.6062541998396,-0.338389304089317
3.88,-0.616384889994286,-0.311971737562716
3.888,-0.625106009242752,-0.285413356068292
3.896,-0.632494274559519,-0.258793938156677
3.904,-0.63860014331012,-0.232146730732107
3.912,-0.643467435659036,-0.205490957149354
3.92,-0.647129907947626,-0.178833900602552
3.928,-0.649608315220342,-0.152173806676644
3.936,-0.650908155446932,-0.125503488797132
3.944,-0.651018258854678,-0.0988144758814502
3.952,-0.649910346639795,-0.0721015046245963
3.96,-0.647539636056687,-0.0453671318302537
3.968,-0.643846516113942,-0.0186262266766571
3.976,-0.638759262579665,0.00808990013221859
3.984,-0.632197705852087,0.0347299633534953
3.992,-0.624077713425933,0.0612199768168482
4,-0.614316303124375,0.0874615101735275
4.008,-0.602925168095396,0.11337654361172
4.016,-0.589728552217078,0.138810081359517
4.024,-0.574667963427399,0.163582187975909
4.032,-0.557711228164031,0.187489655683782
4.04,-0.538858039175262,0.210311088397966
4.048,-0.518144367781705,0.231813179481497
4.056,-0.495645494299976,0.251757912460356
4.064,-0.471453589803146,0.269926240228224
4.072,-0.445624670618388,0.286109706672461
4.08,-0.418460315271574,0.300001331997933
4.088,-0.390216643179214,0.311418438127755
4.096,-0.361180669003375,0.320219730994468
4.104,-0.331661541980708,0.32631084091529
4.112,-0.301980803484504,0.329647798550752
4.12,-0.272462160458593,0.330238285126683
4.128,-0.243451908656867,0.328105106385062
4.136,-0.215296461412464,0.323360435535852
4.144,-0.188215528896162,0.316235056414323
4.152,-0.162427316312701,0.306919750975785
4.16,-0.138109631610861,0.295625733225041
4.168,-0.115398598478423,0.282575331275613
4.176,-0.0943895405803273,0.267992885581121
4.184,-0.0751398983593832,0.252096359005989
4.192,-0.0577165644421638,0.235192629831262
4.2,-0.0420363972753335,0.217464943357116
4.208,-0.0280186652456043,0.198972930670117
4.216,-0.0156320402255984,0.179819661826703
4.224,-0.00485113595488945,0.160085615948358
4.232,0.00433729351697279,0.139833856843271
4.24,0.0119299439519837,0.119116630177477
4.248,0.0179046402599296,0.0979828652434759
4.256,0.0223288087571512,0.076309545259856
4.264,0.0249649045200718,0.0542332886482933
4.272,0.025679649328207,0.0319331159303599
4.28,0.0243981806496392,0.00956539589843199
4.288,0.0210619009350805,-0.0126886118363333
4.296,0.0156355152817752,-0.0346257837035075
4.304,0.00811321795163985,-0.0560259497114369
4.312,-0.00147639754202336,-0.0766582444238416
4.32,-0.0128589274798853,-0.0961872658754775
4.328,-0.0260916227389594,-0.114592561481298
4.336,-0.0410874163691051,-0.131673415252764
4.344,-0.0577103445101872,-0.147226302950532
4.352,-0.0757877435604303,-0.1610637229902
4.36,-0.0951127541459001,-0.173022952011354
4.368,-0.115449087827836,-0.182974243055512
4.376,-0.136549479922606,-0.19078068486492
4.384,-0.158104042455898,-0.196105038457094
4.392,-0.179674859728577,-0.199323636169206
4.4,-0.201013365201435,-0.200556271706519
4.408,-0.221909213101297,-0.199960549146969
4.416,-0.242197040352081,-0.197721648233729
4.424,-0.261760584022542,-0.194040846403851
4.432,-0.280533944769537,-0.189123470168739
4.44,-0.298504230756151,-0.183215705543606
4.448,-0.315750888693141,-0.176542434176694
4.456,-0.332345705766631,-0.169121441854779
4.464,-0.348365569157934,-0.161045927685299
4.472,-0.363899930839217,-0.152373509431919
4.48,-0.379041444452455,-0.143124943636391
4.488,-0.393876640023731,-0.133285044704863
4.496,-0.408477131281231,-0.122805719752246
4.504,-0.422920380785789,-0.111567878956805
4.512,-0.437193585312415,-0.0994593191262754
4.52,-0.451239612204843,-0.0864204900023235
4.528,-0.465007794051375,-0.0723520950692248
4.536,-0.47841510086904,-0.0571584484883126
4.544,-0.49134710967618,-0.0407551393238373
4.552,-0.503660623828344,-0.0230763239086263
4.56,-0.515187817814124,-0.004081308487865
4.568,-0.525741717206296,0.0162398784742306
4.576,-0.535122767860306,0.0378621756366503
4.584,-0.543126205373752,0.0607226325960524
4.592,-0.549549906316187,0.0847191364023508
4.6,-0.554202387170562,0.109710781520975
4.608,-0.556910614909815,0.135519876437054
4.616,-0.557527303684766,0.161935515014729
4.624,-0.55593739379259,0.18871857993062
4.632,-0.552047722494785,0.215483386271822
4.64,-0.545898601538448,0.242062874930939
4.648,-0.537500879044161,0.268214380623054
4.656,-0.526897391637732,0.293677691815793
4.664,-0.514169473184456,0.318198643181463
4.672,-0.499435846659713,0.341535804452587
4.68,-0.482850235617258,0.363466973454611
4.688,-0.464576872899681,0.383806712997891
4.696,-0.444508192042542,0.402462896183168
4.704,-0.423204732497948,0.419051077807405
4.712,-0.400968868584171,0.433485734164518
4.72,-0.378143868892012,0.445744787985874
4.728,-0.355174337174638,0.455945106791818
4.736,-0.332073247647796,0.464143199283641
4.744,-0.309059016190534,0.470423528011145
4.752,-0.28631683432297,0.474893870337193
4.76,-0.264000750427721,0.477672185115653
4.768,-0.242261554476654,0.478914885859805
4.776,-0.221195547728407,0.478776235494514
4.784,-0.200866567873713,0.477408821880722
4.792,-0.181309245412674,0.474956882747465
4.8,-0.162533631246488,0.471550842233966
4.808,-0.144530819647418,0.467303334051512
4.816,-0.127284569984779,0.462312854747863
4.824,-0.110763194438124,0.456656537520335
4.832,-0.0949279385796354,0.45037793879056
4.84,-0.0797544146852802,0.44350876541494
4.848,-0.0652283861161963,0.436066987974145
4.856,-0.0513487951454568,0.428061670565065
4.864,-0.0381292907436558,0.419498298161243
4.872,-0.0255982094063658,0.410384193030563
4.88,-0.0137712224620458,0.400716749131072
4.888,-0.00272239789366265,0.390513768582646
4.896,0.00746676386764642,0.379827503593195
4.904,0.0167324543833243,0.368722650589244
4.912,0.0250167986119168,0.357282791965735
4.92,0.0322733808497942,0.345609065083045
4.928,0.0384722734991052,0.333817367389938
4.936,0.0436042093523461,0.322034276783523
4.944,0.0475588302216529,0.310394014659735
4.952,0.0504804349198145,0.299091086541231
4.96,0.0524864806372779,0.288251598775478
4.968,0.0536877106801313,0.277975833554936
4.976,0.0551397481290099,0.268393251950185
4.984,0.0561651656614268,0.259070964803137
4.992,0.0566606070230704,0.249997246799202
5,0.056609404945469,0.241204433980042
5.008,0.0536607034617503,0.233490635896827
5.016,0.050677935512934,0.22731270587205
5.024,0.0491311745312085,0.222130151136649
5.032,0.0479700724544962,0.217516546221069
5.04,0.0472385003990261,0.213040067382404
5.048,0.046842753609499,0.208818286790249
5.056,0.0467736925625267,0.204719832858111
5.064,0.0469590586734426,0.200608940008284
5.072,0.047204653299167,0.19638130805785
5.08,0.0475762950271741,0.192078717385519
5.088,0.0480105639071174,0.187654561313918
5.096,0.048393281348435,0.183169820136765
5.104,0.0486825351289279,0.178788437834604
5.112,0.0489884309974455,0.174267177682984
5.12,0.0492453120573217,0.169573097016146
5.128,0.0493934047516583,0.164490000897625
5.136,0.0491929993794456,0.158895326571786
5.144,0.0484752504280172,0.15321832228796
5.152,0.0472029214442585,0.147583238800988
5.16,0.0453724399557329,0.142120242026781
5.168,0.0430140779129994,0.136956762232121
5.176,0.0401900026617914,0.132209121397535
5.184,0.0369903420013129,0.127974946755681
5.192,0.0336045304432546,0.124274526770376
5.2,0.0301019889773709,0.121117083293561
5.208,0.0265313656940341,0.118559104110637
5.216,0.0230157453685982,0.116602752760862
5.224,0.0196771834752725,0.115220437268995
5.232,0.0166293394449956,0.114355641021611
5.24,0.0139704785165274,0.113925560433592
5.248,0.0117772801157138,0.113825416965395
5.256,0.0102157739920097,0.113941224355022
5.264,0.00922414963602034,0.114073652713678
5.272,0.00872789925465137,0.114083888133689
5.28,0.00866074303572261,0.11385842469796
5.288,0.00893184704515979,0.113304108301736
5.296,0.00943156956131081,0.112353365773433
5.304,0.0100382785923594,0.110967870215466
5.312,0.0106258275914351,0.109140436500143
5.32,0.0110712405988299,0.106895047105821
5.328,0.0112621489503996,0.104285019682256
5.336,0.0111035395469132,0.101389437511114
5.344,0.0105234182988894,0.0983080658556501
5.352,0.00947705897223586,0.0951550652257823
5.36,0.00794959316998768,0.092051881779351
5.368,0.0059567965517051,0.0891197414879525
5.376,0.00352813443710722,0.0864823729176272
5.384,0.000666763063609252,0.0843300954257476
5.392,-0.00238932193993291,0.08267986653092
5.4,-0.00551782103542699,0.0815618683662066
5.408,-0.00859407765344725,0.0809750561603491
5.416,-0.0114987946543886,0.080887924259757
5.424,-0.0141252398772867,0.0812411107222006
5.432,-0.0163855179777272,0.0819516413714773
5.44,-0.0180467993115098,0.082862424534422
5.448,-0.0189585007710055,0.0836480203715285
5.456,-0.0195802258223613,0.0842869884035663
5.464,-0.0199781622364939,0.0847407895950285
5.472,-0.0202195786843008,0.0849895733349892
5.48,-0.0203683606446486,0.0850304299107097
5.488,-0.020481429589968,0.0848747306965822
5.496,-0.020606192391229,0.0845448664728468
5.504,-0.0216646982011126,0.0849067456633235
5.512,-0.023510170226038,0.0865746027699444
5.52,-0.0226068149864573,0.0881617205292516
5.528,-0.019243263596637,0.0879115065991408
5.536,-0.0172362704227723,0.0858499811404701
5.544,-0.0167719329178447,0.0831328489000864
5.552,-0.0170789851882737,0.0802714991212218
5.56,-0.0181443472198583,0.0775002517115117
5.568,-0.0195271321229593,0.0753061003803352
5.576,-0.0211656961333623,0.0734667085181947
5.584,-0.0231347365725657,0.071909170315581
5.592,-0.0253585675086451,0.0707077074300523
5.6,-0.0277460345141587,0.0699158052401932
5.608,-0.0301959977905347,0.0695631993818634
5.616,-0.0326033516530777,0.0696542690876396
5.624,-0.0348652286785443,0.0701679181027834
5.632,-0.0366116964053273,0.0713532033171327
5.64,-0.0378827695553977,0.0727265709734603
5.648,-0.038713635310257,0.074122581584957
5.656,-0.0391374349868227,0.0754371939224306
5.664,-0.0391272004738133,0.0760974660977358
