"Freq [GHz]","re(S(Antenna1_1_1,Antenna1_1_1)) []","im(S(Antenna1_1_1,Antenna1_1_1)) []"
5,-0.0189161164170792,0.142362383036158
5.003,-0.0178199302616739,0.141786485486157
5.006,-0.0167362250773288,0.141203718908368
5.009,-0.0156646938388254,0.140614452891293
5.012,-0.0146050205569492,0.140019025557727
5.015,-0.0135568823849372,0.139417744303824
5.018,-0.0125199515305713,0.13881088663896
5.021,-0.0114938969880183,0.138198701079893
5.024,-0.0104783860916128,0.137581408098218
5.027,-0.00947308589918705,0.136959201080927
5.03,-0.00847766441624434,0.13633224729486
5.033,-0.00749179167317457,0.13570068882806
5.036,-0.00651514066981446,0.135064643503022
5.039,-0.00554738820270209,0.134424205728844
5.042,-0.0045882155923917,0.133779447307276
5.045,-0.00363730932764439,0.133130418161663
5.048,-0.00269436164535895,0.1324771469918
5.051,-0.00175907106329719,0.131819641856666
5.054,-0.000831142884652689,0.13115789067408
5.057,8.97103087106863E-05,0.130491861643233
5.06,0.0010037681574525,0.129821503597138
5.063,0.00191130200481099,0.129146746290968
5.066,0.0028125743404108,0.128467500627296
5.069,0.00370783819622854,0.127783658834234
5.072,0.0045973364818148,0.127095094615072
5.075,0.00548130125026899,0.126401663267512
5.078,0.00635995288757179,0.125703201798608
5.081,0.00723349921796997,0.124999529047297
5.084,0.00810213452701415,0.124290445830732
5.087,0.00896603849675248,0.123575735130518
5.09,0.00982537505007344,0.12285516233674
5.093,0.0106802911241008,0.122128475565296
5.096,0.0115327681874411,0.121395914808223
5.099,0.0123817663432783,0.120656567873528
5.102,0.0132267401603192,0.119909912435513
5.105,0.0140677230265859,0.119155623022334
5.108,0.0149047229280545,0.118393362503534
5.111,0.0157377210461414,0.1176227833389
5.114,0.0165666703810331,0.116843528992007
5.117,0.017391494424859,0.116055235512588
5.12,0.0182120858877087,0.115257533289579
5.123,0.0190283055164879,0.114450048974094
5.126,0.0198399810146162,0.113632407570159
5.129,0.0206469060895628,0.112804234688232
5.132,0.0214488396422184,0.111965158953042
5.135,0.0222455051261059,0.111114814558015
5.138,0.023036590088621,0.110252843952013
5.141,0.023821745919411,0.10937890064807
5.144,0.0246005878151816,0.108492652128034
5.147,0.0253726949822335,0.107593782845514
5.15,0.0261376110895315,0.106681997278428
5.153,0.026894844983495,0.105757023034363
5.156,0.0276438716755188,0.104818613970833
5.159,0.0283841336103145,0.103866553314449
5.162,0.0291150422203748,0.102900656744001
5.165,0.02983597977073,0.101920775420437
5.168,0.0305463014942403,0.100926798925762
5.171,0.0312453380153182,0.0999186580928422
5.174,0.0319323980585641,0.0988963276911237
5.177,0.032606771434167,0.0978598289432615
5.18,0.033267732290597,0.0968092318406638
5.183,0.0339145426214376,0.0957446572399493
5.186,0.0345464560117666,0.0946662786963238
5.189,0.0351614655098449,0.093572429081871
5.192,0.0357583870446094,0.0924636496087636
5.195,0.0363376131218687,0.0913423169153947
5.198,0.0368984448096021,0.0902088926534285
5.201,0.0374402033128565,0.0890638924397791
5.204,0.0379622344479434,0.0879078849791072
5.207,0.0384639130955303,0.0867414907977483
5.21,0.0389446476142279,0.085565380601666
5.213,0.0394038841759704,0.0843802732427354
5.216,0.0398411109771858,0.0831869333042587
5.219,0.0402558623137564,0.0819861683066122
5.222,0.0406477224637678,0.0807788255427291
5.225,0.0410163293610421,0.0795657885540203
5.228,0.0413613780144579,0.0783479732615379
5.231,0.041682623644051,0.0771263237685416
5.234,0.0419798845068972,0.0759018078561096
5.237,0.0422530443767754,0.0746754121945553
5.24,0.0425020546516068,0.073448137296599
5.243,0.0427269360656727,0.0722209922411417
5.246,0.0429277799746055,0.0709949892006036
5.249,0.0431047491981537,0.0697711378039111
5.252,0.0432580784047198,0.0685504393720448
5.255,0.0433880740056663,0.0673338810667429
5.258,0.0434951135753939,0.0661224299867677
5.261,0.0435796447521841,0.0649170272617357
5.264,0.0436421836418113,0.0637185821784133
5.267,0.0436833127165172,0.0625279663874818
5.27,0.0437036781950513,0.0613460082382749
5.273,0.0437039869308716,0.0601734872794892
5.276,0.0436850028035092,0.0590111289748717
5.279,0.0436475426342905,0.0578595996808887
5.282,0.0435924716397207,0.0567195019233749
5.285,0.043520698447294,0.0555913700241707
5.288,0.0434331696986508,0.0544756661107451
5.291,0.0433308642687818,0.0533727765588116
5.294,0.0432147871366361,0.052283008888938
5.297,0.0430859629423343,0.0512065891691528
5.3,0.0429454292736645,0.0501436599495533
5.303,0.0427942297235412,0.0490942787429147
5.306,0.0426334067667252,0.0480584171013076
5.309,0.0424639945034958,0.0470359602937252
5.312,0.0422870113260731,0.04602670759672
5.315,0.0421034525530897,0.0450303732250603
5.318,0.041914283097212,0.0440465879014047
5.321,0.0417204302163108,0.0430749010689959
5.324,0.0415227764041807,0.0421147837372848
5.327,0.0413221524840062,0.041165631973779
5.33,0.0411193309585769,0.0402267710033262
5.333,0.0409150196672501,0.0392974599163324
5.336,0.0407098558186605,0.0383768969538174
5.339,0.0405044004421768,0.0374642253429149
5.342,0.0402991333081064,0.036558539649805
5.345,0.0400944483826465,0.0356588926113771
5.348,0.0398906498385826,0.0347643024021776
5.351,0.0396879486797337,0.0338737602905062
5.354,0.0394864600191468,0.0329862386303289
5.357,0.0392862010370361,0.0321006991354082
5.36,0.0390870896454726,0.031216101375271
5.363,0.0388889438998213,0.0303314114315661
5.366,0.0386914821519258,0.0294456106535929
5.369,0.0384943239840437,0.0285577044338076
5.372,0.0382969919025307,0.0276667309615089
5.375,0.038098913818275,0.0267717698517038
5.378,0.0379036882368824,0.0258653944468648
5.381,0.0377052724476133,0.0249526786557728
5.384,0.0375027528291709,0.0240329976434537
5.387,0.0372951513991447,0.0231058087812149
5.39,0.0370814328578049,0.0221706574517753
5.393,0.0368605121554539,0.0212271822405075
5.396,0.0366312625347327,0.0202751194827784
5.399,0.036392523989905,0.0193143071044052
5.402,0.0361431120810779,0.0183446877402236
5.405,0.035881827040083,0.0173663110657719
5.408,0.0356074630979172,0.0163793353480962
5.411,0.0353188179646456,0.0153840281646805
5.414,0.0350147023862471,0.0143807662924994
5.417,0.0346939497063441,0.0133700347532071
5.42,0.0343554253541986,0.0123524250154535
5.423,0.0339980361849753,0.0113286323513419
5.426,0.0336207395961734,0.0102994523680237
5.429,0.0332225523417289,0.00926577673443651
5.432,0.03280255898209,0.00822858811719063
5.435,0.0323599198778646,0.00718895437260113
5.438,0.031893878686244,0.00614802202487587
5.441,0.0314037692712058,0.00510700908255789
5.444,0.0308890219884925,0.00406719723852482
5.447,0.0303491692643756,0.00302992351555337
5.45,0.0297838504501987,0.00199657141784517
5.453,0.0291928158797087,0.000968561655821685
5.456,0.0285759301011727,-5.26574848889711E-05
5.459,0.0279331742642852,-0.00106562005461475
5.462,0.0272646476138659,-0.00206885255512342
5.465,0.0265705680883518,-0.00306088417872782
5.468,0.0258512720180839,-0.00404025708831074
5.471,0.0251072128933956,-0.00500553665928161
5.474,0.0243389592454965,-0.00595532159692884
5.477,0.0235471916181628,-0.00688825385168145
5.48,0.0227326986702322,-0.00780302824757548
5.483,0.0218963724269059,-0.00869840174672854
5.486,0.0210392027268614,-0.00957320227421277
5.489,0.0201622708841769,-0.0104263370338308
5.492,0.0192667426360725,-0.0112568002386858
5.495,0.0183538604194688,-0.0120636801955464
5.498,0.0174249350372655,-0.0128461656900056
5.501,0.0164813367798428,-0.0136035516084282
5.504,0.01552448607419,-0.0143352437586844
5.507,0.0145558437338624,-0.0150407628476707
5.51,0.0135769008860277,-0.0157197475726121
5.513,0.0125891686577787,-0.0163719568181463
5.516,0.0115941677042423,-0.0169972709181856
5.519,0.0105934176617774,-0.0175956919935537
5.522,0.00958842661231594,-0.0181673433464018
5.525,0.00858068064254079,-0.0187124679233902
5.528,0.00757163358212926,-0.0192314258566467
5.531,0.00656269700594013,-0.0197246911054893
5.534,0.00555523057415492,-0.0201928472249168
5.537,0.00455053279657524,-0.020636582296865
5.54,0.00354983228708202,-0.0210566830652238
5.543,0.00255427958265576,-0.0214540283216183
5.546,0.00156493958826624,-0.0218295815979474
5.549,0.000582784710629781,-0.0221843832336799
5.552,-0.000391311266161605,-0.0225195418632087
5.555,-0.00135657852413375,-0.0228362254160593
5.558,-0.00231235571604545,-0.0231356516911499
5.561,-0.00325809362112326,-0.023419078583305
5.564,-0.004189581175909,-0.0236876327318189
5.567,-0.00510652345922112,-0.0239435182422875
5.57,-0.00601262365422396,-0.0241885005200684
5.573,-0.00690793964760159,-0.0244238683137875
5.576,-0.00779264190183548,-0.0246508844032901
5.579,-0.00866701016258114,-0.0248707760426361
5.582,-0.0095314293481388,-0.0250847257768178
5.585,-0.0103863846740201,-0.0252938627016405
5.588,-0.0112324560496004,-0.0254992542310421
5.591,-0.0120703118008615,-0.0257018984325536
5.594,-0.0129007017842139,-0.0259027169856966
5.597,-0.0137244499434002,-0.0261025488102211
5.6,-0.0145424463764758,-0.0263021444090776
5.603,-0.0153556389938618,-0.026502160961126
5.606,-0.0161650248144694,-0.0267031581965808
5.609,-0.0169716410006886,-0.0269055950691889
5.612,-0.0177765556817432,-0.0271098272551427
5.615,-0.0185808586611054,-0.0273161054737251
5.618,-0.0193856520682652,-0.0275245746416878
5.621,-0.0201920410373585,-0.0277352738483603
5.624,-0.0210011244827794,-0.027948137151492
5.627,-0.0218139860430064,-0.0281629951648233
5.63,-0.0226316852627676,-0.0283795774163881
5.633,-0.0234552490780493,-0.0285975154515452
5.636,-0.024285663666642,-0.0288163466427412
5.639,-0.0251238667223798,-0.0290355186579995
5.642,-0.0259707402067514,-0.0292543945581412
5.645,-0.0268271036268402,-0.0294722584577328
5.648,-0.0276937078853864,-0.0296883217017628
5.651,-0.0285712297351733,-0.029901729504046
5.654,-0.0294602668793306,-0.0301115679793571
5.657,-0.0303613337361515,-0.0303168715232901
5.66,-0.0312748578979248,-0.0305166304498477
5.663,-0.0322011772867723,-0.0307097988552564
5.666,-0.0331405380284931,-0.0308953026129113
5.669,-0.0340930930404106,-0.0310720474541471
5.672,-0.0350589013342178,-0.0312389270621376
5.675,-0.0360379280138179,-0.0313948311192229
5.678,-0.0370300449751598,-0.031538653243465
5.681,-0.0380350322660605,-0.0316692987593908
5.684,-0.0390525800910151,-0.0317856922424043
5.687,-0.0400822914389906,-0.0318867847870271
5.69,-0.0411236852851989,-0.0319715609471674
5.693,-0.0421762003378481,-0.0320390453034181
5.696,-0.0432391992878647,-0.032088308615726
5.699,-0.0443119735185901,-0.0321184735236478
5.702,-0.0453937482204436,-0.0321287197622387
5.705,-0.0464836878745482,-0.0321182888629712
5.708,-0.0475809020383205,-0.0320864883264841
5.711,-0.0486844513960164,-0.0320326952292635
5.714,-0.0497933540122356,-0.0319563592793558
5.717,-0.0509065917343751,-0.0318570052838142
5.72,-0.0520231167008322,-0.0317342350518758
5.723,-0.0531418578910572,-0.0315877287148752
5.726,-0.0542617276752439,-0.0314172454818911
5.729,-0.0553816283095658,-0.0312226238371273
5.732,-0.0565004583314449,-0.0310037812000309
5.735,-0.0576171188094567,-0.0307607130601459
5.738,-0.0587305194059572,-0.0304934916147035
5.741,-0.0598395842126658,-0.0302022639379512
5.744,-0.060943257323405,-0.0298872497022204
5.747,-0.0620405081119127,-0.0295487384987329
5.75,-0.0631303361848215,-0.029187086775148
5.753,-0.0642102045570675,-0.0287975102818509
5.756,-0.0652800287745783,-0.028385980176984
5.759,-0.0663389633412482,-0.0279531056072186
5.762,-0.0673862153325123,-0.0274995430022742
5.765,-0.0684210469805316,-0.0270259912791797
5.768,-0.0694427778291795,-0.0265331869542823
5.771,-0.0704507864525222,-0.0260218991860034
5.774,-0.0714445117460014,-0.0254929248143407
5.777,-0.0724234538073045,-0.0249470833959229
5.78,-0.0733871744041318,-0.02438521230501
5.783,-0.0743352970608424,-0.0238081619084505
5.786,-0.0752675067709914,-0.0232167908567867
5.789,-0.076183549359748,-0.0226119615147152
5.792,-0.0770832305191883,-0.0219945355567044
5.795,-0.0779664145384685,-0.0213653697501656
5.798,-0.0788330227568719,-0.0207253119448316
5.801,-0.0796830317657196,-0.0200751972846179
5.804,-0.0805164713771586,-0.0194158446549691
5.807,-0.0813334224028074,-0.0187480533763702
5.81,-0.082134014261267,-0.0180726001497698
5.813,-0.0829184224324898,-0.0173902362600686
5.816,-0.083686865809007,-0.0167016850375015
5.819,-0.0844396039400092,-0.016007639575909
5.822,-0.0851769342182767,-0.0153087607054775
5.825,-0.0858991890179595,-0.0146056752119489
5.828,-0.0866067328102051,-0.0138989742962014
5.831,-0.087299959271625,-0.0131892122630071
5.834,-0.0879792884136046,-0.0124769054252607
5.837,-0.0886451637315517,-0.0117625312209866
5.84,-0.0892980494053769,-0.0110465275106265
5.843,-0.0899384275463087,-0.010329292063103
5.846,-0.0905667955110378,-0.00961118219166871
5.849,-0.0911836632825902,-0.00889251454753588
5.852,-0.0917895509249202,-0.00817356504029524
5.855,-0.0923849861125309,-0.00745456886911845
5.858,-0.0929705017364114,-0.00673572067375078
5.861,-0.0935466335829202,-0.00601717475729633
5.864,-0.0941139180838038,-0.0052990453997942
5.867,-0.0946728901306786,-0.00458140723358938
5.87,-0.0952240809495175,-0.0038642956825029
5.873,-0.0957680160259981,-0.00314770745079779
5.876,-0.0963052130743729,-0.00243160105694699
5.879,-0.0968361800419692,-0.00171589741420577
5.882,-0.0973614131383924,-0.00100048044898611
5.885,-0.0978813948824223,-0.000285197770041379
5.888,-0.0983965921568066,0.000430138626543553
5.891,-0.0989074542658431,0.00114575160154564
5.894,-0.0994144109790544,0.00186189805098712
5.897,-0.0999178705740483,0.00257886803370379
5.9,-0.100418217854363,0.00329698381818991
5.903,-0.100915812146393,0.00401659884372749
5.906,-0.1014109852841,0.0047380965896923
5.909,-0.101904039567497,0.00546188933262997
5.912,-0.102395245709906,0.00618841678100936
5.915,-0.102884840770996,0.00691814457344525
5.918,-0.103373026093588,0.00765156262728431
5.921,-0.103859965246224,0.00838918332303023
5.924,-0.104345781988511,0.00913153951351856
5.927,-0.104830558275227,0.00987918234494398
5.93,-0.105314332315181,0.0106326788808905
5.933,-0.105797096707845,0.0113926095207689
5.936,-0.106278796674739,0.0121595652053371
5.939,-0.106762028981565,0.0129348702060752
5.942,-0.107246479326107,0.0137197256137206
5.945,-0.107729114574878,0.0145141907089462
5.948,-0.108209589372507,0.0153188373130769
5.951,-0.108687506867894,0.0161342221841458
5.954,-0.109162418845087,0.0169608831117868
5.957,-0.109633826146927,0.0177993349040548
5.96,-0.110101179399415,0.0186500652858796
5.963,-0.110563880065129,0.0195135307330425
5.966,-0.111021281846281,0.0203901522642809
5.969,-0.111472692451405,0.0212803112365054
5.972,-0.111917375738381,0.0221843451491409
5.975,-0.112354554247397,0.0231025435225797
5.978,-0.112783412130036,0.024035143866742
5.981,-0.113203098477798,0.0249823277907495
5.984,-0.113612731051194,0.0259442172877002
5.987,-0.114011400402178,0.0269208712455448
5.99,-0.114398174383037,0.0279122822150611
5.993,-0.114772103026123,0.028918373490926
5.996,-0.115132223776144,0.0299389965408738
5.999,-0.11547756705018,0.0309739288219476
6.002,-0.11580716209867,0.032022872036832
6.005,-0.116120043131118,0.0330854508492713
6.008,-0.116415255670708,0.0341612121205602
6.011,-0.116691863092942,0.0352496246651137
6.014,-0.116948953304494,0.0363500795911081
6.017,-0.117185645504067,0.0374618912211855
6.02,-0.117401096984272,0.0385842986272271
6.023,-0.117594509900215,0.039716467793786
6.026,-0.11776513796279,0.0408574944126755
6.029,-0.117912292975686,0.0420064073177124
6.032,-0.1180353511711,0.0431621725531106
6.035,-0.118133759269157,0.0443236980677215
6.038,-0.118207040200035,0.0454898390176148
6.041,-0.118254798424799,0.0466594036551504
6.044,-0.118276724799936,0.0478311597733882
6.047,-0.118272600907598,0.0490038416712735
6.05,-0.118242302824542,0.050176157595356
6.053,-0.118185804241782,0.0513467976092831
6.056,-0.118103178917933,0.05251444183621
6.059,-0.117994602397267,0.0536777690131804
6.062,-0.11786035297546,0.0548354652910207
6.065,-0.117700811857052,0.0559862332129409
6.068,-0.117516462503595,0.0571288007867437
6.071,-0.117307889141509,0.0582619305923355
6.074,-0.117075774412638,0.0593844288206356
6.077,-0.116820896186505,0.0604951541828778
6.08,-0.116544123510264,0.0615930265909066
6.083,-0.116246411742255,0.0626770355354582
6.086,-0.11592879686446,0.0637462480754231
6.089,-0.115592389022154,0.0647998163620912
6.092,-0.115238365322159,0.0658369846063722
6.095,-0.114867961938903,0.0668570954319842
6.098,-0.114482465584226,0.0678595955316138
6.101,-0.114083204403446,0.0688440405640412
6.104,-0.113671538366199,0.0698100992292219
6.107,-0.113248849230311,0.070757556474327
6.11,-0.11281653015815,0.0716863157777381
6.113,-0.112375975074629,0.0725964004749894
6.116,-0.111928567855967,0.0734879541026536
6.119,-0.11147567144646,0.0743612397281733
6.122,-0.111018616995047,0.0752166382656276
6.125,-0.110558693120092,0.076054645768433
6.128,-0.110101177866161,0.0768701388159738
6.131,-0.10964409583891,0.077670231334164
6.134,-0.109188463035682,0.0784558452959243
6.137,-0.108735201521806,0.0792279877955847
6.14,-0.108285131746611,0.0799877423276018
6.143,-0.10783896567415,0.0807362593515844
6.146,-0.107397300811626,0.081474746201231
6.149,-0.106960615176544,0.0822044564440712
6.152,-0.106529263276568,0.0829266787713094
6.155,-0.106103473137089,0.0836427255214511
6.158,-0.10568334440452,0.0843539209362904
6.161,-0.105268847575301,0.0850615892565336
6.164,-0.104859824327622,0.0857670427643094
6.167,-0.104455988994866,0.0864715698802147
6.17,-0.104056931149782,0.0871764234259014
6.173,-0.103662119290368,0.0878828091602259
6.176,-0.103270905600485,0.0885918746888756
6.179,-0.102882531733203,0.0893046988651644
6.182,-0.10249613558786,0.0900222817566934
6.185,-0.102110758996867,0.0907455353009771
6.188,-0.101725356279232,0.0914752747079277
6.191,-0.101338803559819,0.0922122107111991
6.194,-0.100949908788853,0.09295694272238
6.197,-0.100557422357242,0.0937099529730416
6.2,-0.100160048219656,0.0944716016716322
6.203,-0.0997564554176353,0.0952421232412123
6.206,-0.0993452898979441,0.0960216236630361
6.209,-0.0989251865196701,0.0968100789439683
6.212,-0.0984947811366699,0.0976073347277353
6.215,-0.0980527226463604,0.0984131070480113
6.218,-0.0975976848948643,0.0992269842073316
6.221,-0.0971283783276053,0.100048429769834
6.224,-0.0966435612836603,0.100876786630822
6.227,-0.0961420508273677,0.10171128211815
6.23,-0.095622733025594,0.102551034079428
6.233,-0.0950845725733641,0.103395057890037
6.236,-0.0945266216930538,0.104242274313966
6.239,-0.0939480282183469,0.105091518137447
6.242,-0.0933480428082644,0.105941547491408
6.245,-0.092726025219961,0.106791053774726
6.248,-0.0920814496002952,0.107638672078684
6.251,-0.0914139087511761,0.108482992017925
6.254,-0.0907231173416861,0.10932256885671
6.257,-0.0900089140439854,0.110155934835466
6.26,-0.0892712625969966,0.110981610585425
6.263,-0.0885102517798773,0.111798116528522
6.266,-0.0877260943312779,0.112603984158811
6.269,-0.0869191248173883,0.113397767102975
6.272,-0.0860897964977805,0.114178051863016
6.275,-0.0852386772160427,0.114943468145829
6.278,-0.0843664443832098,0.115692698693294
6.281,-0.0834738790979981,0.116424488528602
6.284,-0.0825618594768375,0.117137653545868
6.287,-0.081631353271709,0.117831088371403
6.29,-0.080683409847793,0.11850377344327
6.293,-0.0797191516049224,0.1191547812517
6.296,-0.0787397649408504,0.119783281701084
6.299,-0.0777464908303313,0.120388546562324
6.302,-0.0767406151320206,0.120969952994955
6.305,-0.0757234587011932,0.121526986113022
6.308,-0.0746963674108813,0.122059240609724
6.311,-0.0736607021715417,0.122566421429811
6.314,-0.0726162737342465,0.123045340907748
6.317,-0.0715651790924022,0.12349564554962
6.32,-0.0705105887129548,0.123920376174806
6.323,-0.0694538425253261,0.124319788003391
6.326,-0.0683962357256352,0.124694236051346
6.329,-0.067339010866064,0.125044169437439
6.332,-0.0662833506135096,0.125370125082903
6.335,-0.0652303712225836,0.125672720855855
6.338,-0.0641811167600041,0.125952648265448
6.341,-0.0631365541098421,0.126210664768774
