"Freq [GHz]","re(S(Antenna1_1_1,Antenna1_1_1)) []","im(S(Antenna1_1_1,Antenna1_1_1)) []"
5,-0.0128884190880792,0.151578475783258
5.003,-0.0111144272306739,0.150494493980157
5.006,-0.00939526161832876,0.149354627061768
5.009,-0.00773408984072542,0.148162750370093
5.012,-0.00613378116784916,0.146922947576727
5.015,-0.00459689276283724,0.145639487549824
5.018,-0.0031256576779713,0.14431680034596
5.021,-0.00172197470981833,0.142959452445893
5.024,-0.000387400070512803,0.141572121377218
5.027,0.000876858919812953,0.140159569871927
5.03,0.00206994832145566,0.13872661969386
5.033,0.00319136999942543,0.13727812529116
5.036,0.00424098219758554,0.135818947400522
5.039,0.00521899810264791,0.134353926767844
5.042,0.0061259825080283,0.132887858107276
5.045,0.00696284658755561,0.131425464453663
5.048,0.00773084077904105,0.1299713720348
5.051,0.0084315459377028,0.128530085795666
5.054,0.00906686265444731,0.12710596571608
5.057,0.00963899895001069,0.125703204024233
5.06,0.0101504563459525,0.124325803439138
5.063,0.010604014420511,0.122977556550968
5.066,0.0110027139303108,0.121662026438296
5.069,0.0113498386069285,0.120382528615234
5.072,0.0116488957273148,0.119142114419472
5.075,0.011903595563069,0.117943555891212
5.078,0.0121178298425718,0.116789332241008
5.081,0.01229564932397,0.115681617957497
5.084,0.0124412406150141,0.114622272612032
5.087,0.0125589023777525,0.113612832414218
5.09,0.0126530210160734,0.11265450352634
5.093,0.0127280460199008,0.111748157218696
5.096,0.0127884484678511,0.110909877302823
5.099,0.0128412940050783,0.110129362194628
5.102,0.0128914126243193,0.109400985577413
5.105,0.0129431982965859,0.108723965774806
5.108,0.0130009562560545,0.108097196073584
5.111,0.0130688796591414,0.1075192531204
5.114,0.0131510269810331,0.106988406847407
5.117,0.013251300268859,0.106502632060788
5.12,0.0133734243567087,0.106059621515179
5.123,0.0135209271424879,0.105656800425994
5.126,0.0136971210336162,0.105291342326659
5.129,0.0139050856375628,0.104960186189732
5.132,0.0141476517922184,0.104660054703942
5.135,0.0144273870061059,0.104387473606115
5.138,0.014746582376421,0.104138791965013
5.141,0.015107241044911,0.10391020330607
5.144,0.0155110682415816,0.103697767449034
5.147,0.0159594629592335,0.103497432963514
5.15,0.0164535113178315,0.103305060091428
5.153,0.016993981535695,0.103116444050363
5.156,0.0175813207445188,0.102927338559733
5.159,0.0182156534072145,0.102733479492549
5.162,0.0188967814855748,0.102530608514001
5.165,0.01962418630776,0.102314496593437
5.168,0.0203970321256003,0.102080967260762
5.171,0.0212141713667182,0.101825919496842
5.174,0.0220741514084641,0.101545350137124
5.177,0.022975223039667,0.101235375671262
5.18,0.023915350387197,0.100892253340664
5.183,0.0248922223353376,0.100512401412949
5.186,0.0259032653399666,0.100092418554324
5.189,0.0269554038425449,0.099618346890871
5.192,0.0280432157799094,0.0990852790327636
5.195,0.0291526879918687,0.0985008620673947
5.198,0.0302801315606021,0.0978629506124286
5.201,0.0314217120058565,0.0971696779707792
5.204,0.0325734701919434,0.0964194651745072
5.207,0.0337313437685303,0.0956110284736483
5.21,0.0348911890232279,0.094743385258966
5.213,0.0360488030249704,0.0938158583836354
5.216,0.0371999459601858,0.0928280788848588
5.219,0.0383403635327564,0.0917799870724122
5.222,0.0394658093229678,0.0906718320571291
5.225,0.0405720669830421,0.0895041696503203
5.228,0.0416549721674579,0.0882778586961309
5.231,0.042710434082051,0.0869940558568416
5.234,0.0437344565468972,0.0856542089191096
5.237,0.0447231584687754,0.0842600485991553
5.24,0.0456727936276068,0.082813578948899
5.243,0.0465797696696727,0.0813170664000417
5.246,0.0474406662326055,0.0797730275121036
5.249,0.0482522520991537,0.0781842154944111
5.252,0.0490115013077198,0.0765536055700448
5.255,0.0497156081446663,0.0748843792707429
5.258,0.0503620009453939,0.0731799077457677
5.261,0.0509483546351841,0.0714437341587357
5.264,0.0514726019728112,0.0696795552944133
5.267,0.0519329434169172,0.0678912024394818
5.27,0.0523278556051513,0.0660826216592749
5.273,0.0526560983800716,0.0642578535654892
5.276,0.0529167203528092,0.0624210126738717
5.279,0.0531090629784905,0.0605762664576887
5.282,0.0532327631214207,0.0587278142162749
5.285,0.053287754117024,0.0568798658435707
5.288,0.0532742653155408,0.0550366206197452
5.291,0.0531928201324818,0.0532022461268116
5.294,0.0530442326058361,0.051380857384938
5.297,0.0528296024980343,0.0495764963321528
5.3,0.0525503089496645,0.0477931117225533
5.303,0.0522080027549412,0.0460345395649147
5.306,0.0518045972619252,0.0443044841833076
5.309,0.0513422579864958,0.0426064999957252
5.312,0.0508233909630731,0.04094397410172
5.315,0.0502506299150897,0.0393201097580603
5.318,0.049626822301212,0.0377379108264047
5.321,0.0489550143163108,0.0362001672639959
5.324,0.0482384349131807,0.0347094417353848
5.327,0.0474804789450062,0.033268057387179
5.33,0.0466846894975769,0.0318780868758262
5.333,0.0458547395022501,0.0305413426684324
5.336,0.0449944127326605,0.0292593686876174
5.339,0.0441075842711768,0.0280334333154149
5.342,0.0431982005466064,0.026864523814215
5.345,0.0422702590372465,0.0257533421667571
5.348,0.0413277877482826,0.0247003023661776
5.351,0.0403748245587338,0.0237055291651062
5.354,0.0394153965421468,0.0227688582938289
5.357,0.0384534993640361,0.0218898381225082
5.36,0.0374930768584726,0.021067732796471
5.363,0.0365380008768213,0.0203015267845661
5.366,0.0355920515229258,0.019589930854593
5.369,0.0346588978560437,0.0189313894208076
5.372,0.0337420791625307,0.0183240892345089
5.375,0.032844986899275,0.0177659693827038
5.378,0.0319957073088824,0.0172786431998648
5.381,0.0311755846126133,0.0168320782847728
5.384,0.0303870794370709,0.0164232337714537
5.387,0.0296324141256447,0.0160489095992149
5.39,0.0289135624487049,0.0157057642567753
5.393,0.0282322406015539,0.0153903331795075
5.396,0.0275898995371327,0.0150990477167784
5.399,0.026987718663485,0.0148282545574052
5.402,0.0264266009359779,0.0145742355282236
5.405,0.025907169368283,0.0143332276658719
5.408,0.0254297649651172,0.0141014434587962
5.411,0.0249944460967456,0.0138750911635805
5.414,0.0246009893072471,0.0136503950914994
5.417,0.0242488915585441,0.0134236157702071
5.42,0.0239373738791986,0.0131910698744535
5.423,0.0236653864219753,0.0129491498353419
5.426,0.0234316148821734,0.0126943430290237
5.429,0.0232344882607289,0.0124232504464365
5.432,0.02307218791409,0.0121326047581906
5.435,0.0229426578608646,0.0118192876836011
5.438,0.0228436162892439,0.0114803465788759
5.441,0.0227725681982058,0.0111130101584579
5.444,0.0227268191224925,0.0107147032825248
5.447,0.0227034898663756,0.0102830607216534
5.45,0.0226995321721987,0.00981593984864517
5.453,0.0227117452447087,0.00931143218052168
5.456,0.0227367930611727,0.00876787371769103
5.459,0.0227712223592852,0.00818385403128525
5.462,0.0228114812368659,0.00755822404867658
5.465,0.0228539382553518,0.00689010249717218
5.468,0.0228949019568839,0.00617888098288926
5.471,0.0229306406974956,0.00542422765981839
5.474,0.0229574027029965,0.00462608948507116
5.477,0.0229714362361628,0.00378469304531855
5.48,0.0229690097852322,0.00290054393842452
5.483,0.0229464321639059,0.00197442472327146
5.486,0.0229000724288614,0.00100739143778723
5.489,0.0228263795091769,7.68709169169518E-07
5.492,0.0227219014520725,-0.00104385653668577
5.495,0.0225833041834688,-0.00212464271954643
5.498,0.0224073896893655,-0.0032395025770056
5.501,0.0221911135320428,-0.00438611342342823
5.504,0.02193160159209,-0.0055619286446844
5.507,0.0216261659742624,-0.00676419036567068
5.51,0.0212723199721677,-0.00798994324061208
5.513,0.0208677920337887,-0.00923604929714626
5.516,0.0204105386308423,-0.0104992037501856
5.519,0.0198987559919774,-0.0117759517265537
5.522,0.0193308906038159,-0.0130627057964018
5.525,0.0187056484588408,-0.0143557642433902
5.528,0.0180220029611293,-0.0156513299736467
5.531,0.0172792014829401,-0.0169455299639893
5.534,0.0164767705011549,-0.0182344351641168
5.537,0.0156145193055752,-0.019514080738665
5.54,0.014692542245082,-0.0207804865572238
5.543,0.0137112194936558,-0.0220296778206183
5.546,0.0126712163362662,-0.0232577057209474
5.549,0.0115734809656298,-0.0244606680306799
5.552,0.0104192407908384,-0.0256347295059087
5.555,0.00920999728586625,-0.0267761420081593
5.558,0.00794751939195455,-0.0278812642329499
5.561,0.00663383549387674,-0.028946580947105
5.564,0.005259250434091,-0.0299586541698189
5.567,0.00382848583677888,-0.0309118668464675
5.57,0.00235726247377604,-0.0318127207211684
5.573,0.000848833818398408,-0.0326587271340875
5.576,-0.000693379586835485,-0.0334476347424901
5.579,-0.00226580779058114,-0.0341774408725361
5.582,-0.0038647498691388,-0.0348464015778178
5.585,-0.00548639304402008,-0.0354530403316405
5.588,-0.00712683237960036,-0.0359961553140421
5.591,-0.0087820909638615,-0.0364748252495536
5.594,-0.0104481404565139,-0.0368884137676966
5.597,-0.0121209219047002,-0.0372365722612211
5.6,-0.0137963667135758,-0.0375192412280776
5.603,-0.0154704176608618,-0.037736650072126
5.606,-0.0171390498474694,-0.0378893153955808
5.609,-0.0187982914628886,-0.0379780377501889
5.612,-0.0204442442746432,-0.0380038968971427
5.615,-0.0220731037085054,-0.0379682455767251
5.618,-0.0236811784278652,-0.0378727018386878
5.621,-0.0252649093071585,-0.0377191399493603
5.624,-0.0268208876873394,-0.037509679944492
5.627,-0.0283458728264064,-0.0372466758728233
5.63,-0.0298368084399676,-0.0369327027923881
5.633,-0.0312908382508493,-0.0365705425855452
5.636,-0.032705320461742,-0.0361631686797412
5.639,-0.0340778410678798,-0.0357137297379995
5.642,-0.0354062259387514,-0.0352255324211412
5.645,-0.0366885516038402,-0.0347020233077328
5.648,-0.0379231546863864,-0.0341467700647628
5.651,-0.0391086399241733,-0.033563441984046
5.654,-0.0402438867423306,-0.0329557899703571
5.657,-0.0413280543301515,-0.0323276261060901
5.66,-0.0423605852139248,-0.0316828028968977
5.663,-0.0433412072767723,-0.0310251923061564
5.666,-0.0442699342394931,-0.0303586647025113
5.669,-0.0451470645844106,-0.0296870678251471
5.672,-0.0459731789322178,-0.0290142058937376
5.675,-0.0467491358878179,-0.0283438189596229
5.678,-0.0474760663671598,-0.027679562632365
5.681,-0.0481553664530605,-0.0270249882714308
5.684,-0.0487886888020151,-0.0263835237736043
5.687,-0.0493779326579906,-0.0257584550421271
5.69,-0.0499252325281989,-0.0251529082495674
5.693,-0.0504329455758481,-0.0245698329914181
5.696,-0.0509036378098647,-0.024011986422426
5.699,-0.0513400691385901,-0.0234819184586478
5.702,-0.0517451773774436,-0.0229819581312387
5.705,-0.0521220612905482,-0.0225142011689712
5.708,-0.0524739627653205,-0.0220804988684841
5.711,-0.0528042482290164,-0.0216824483252635
5.714,-0.0531163893832356,-0.0213213840653558
5.717,-0.0534139433933751,-0.0209983711328142
5.72,-0.0537005326212322,-0.0207141996718758
5.723,-0.0539798240284872,-0.0204693810208752
5.726,-0.0542555083524439,-0.0202641453488911
5.729,-0.0545312791780658,-0.0200984408421273
5.732,-0.0548108120218449,-0.0199719344470309
5.735,-0.0550977435353567,-0.0198840141541459
5.738,-0.0553956509556672,-0.0198337928247035
5.741,-0.0557080319081958,-0.0198201135179512
5.744,-0.056038284672605,-0.0198415563022204
5.747,-0.0563896890286127,-0.0198964465007329
5.75,-0.0567653877717215,-0.019982864332148
5.753,-0.0571853124448675,-0.0201219108158509
5.756,-0.0576384372089783,-0.020285440794984
5.759,-0.0581271127314482,-0.0204705630332186
5.762,-0.0586534607875123,-0.0206742197882742
5.765,-0.0592193631235316,-0.0208932045831797
5.768,-0.0598264516881795,-0.0211241806992823
5.771,-0.0604761002945222,-0.0213637002950034
5.774,-0.0611694177320014,-0.0216082240343407
5.777,-0.0619072423653045,-0.0218541411101229
5.78,-0.0626901382511318,-0.02209778956401
5.783,-0.0635183927688424,-0.0223354767691505
5.786,-0.0643920157779914,-0.0225634999765967
5.789,-0.065310740300748,-0.0227781668048152
5.792,-0.0662740247061883,-0.0229758155603044
5.795,-0.0672810563834686,-0.0231528352807656
5.798,-0.0683307568668719,-0.0233056853857816
5.801,-0.0694217883837196,-0.0234309148411979
5.804,-0.0705525617641587,-0.0235251807168691
5.807,-0.0717212456828074,-0.0235852660634702
5.81,-0.072925777143267,-0.0236080969910698
5.813,-0.0741638731694898,-0.0235907588784686
5.816,-0.075433043598007,-0.0235305116223015
5.819,-0.0767306049310092,-0.023424803855909
5.822,-0.0780536951252767,-0.0232712860569775
5.825,-0.0793992892609595,-0.0230678224959489
5.828,-0.0807642159842051,-0.0228125019582014
5.831,-0.082145174625625,-0.0225036471920071
5.834,-0.0835387529026046,-0.0221398230502607
5.837,-0.0849414450984518,-0.0217198432819866
5.84,-0.0863496706183769,-0.0212427759526265
5.843,-0.0877597928253087,-0.020707947478103
5.846,-0.0891681380324378,-0.0201149452606687
5.849,-0.0905710145702902,-0.0194636189195359
5.852,-0.0919647318109202,-0.0187540801382952
5.855,-0.0933456190520309,-0.0179867011191185
5.858,-0.0947100441594114,-0.0171621116897508
5.861,-0.0960544318742902,-0.0162811950762963
5.864,-0.0973752816868038,-0.0153450823727942
5.867,-0.0986691851819786,-0.0143551457745894
5.87,-0.0999328427799175,-0.0133129905935029
5.873,-0.101163079780798,-0.0122204461257978
5.876,-0.102356861641673,-0.011079555438947
5.879,-0.103511308401069,-0.00989256412420577
5.882,-0.104623708205392,-0.00866190809798611
5.885,-0.105691529856122,-0.00739020052704138
5.888,-0.106712434328807,-0.00608021794245645
5.891,-0.107684285221843,-0.00473488564145436
5.894,-0.108605158087054,-0.00335726244601288
5.897,-0.109473348602048,-0.00195052491529621
5.9,-0.110287379562363,-0.000517951084910085
5.903,-0.111046006674393,0.000937096155027486
5.906,-0.1117482231171,0.0024111859839923
5.909,-0.112393262885497,0.00390083674972997
5.912,-0.112980602894906,0.00540253319710936
5.915,-0.113509963859996,0.00691274369604525
5.918,-0.113981309957588,0.00842793741108431
5.921,-0.114394847288224,0.00994460131386023
5.924,-0.114751021161511,0.0114592569588086
5.927,-0.115050512224227,0.012968476941544
5.93,-0.115294231486181,0.0144689009654905
5.933,-0.115483314251845,0.0159572514331689
5.936,-0.115619113029739,0.0174303485079371
5.939,-0.115690438736565,0.0188800360778752
5.942,-0.115700199530107,0.0203008384478206
5.945,-0.115663754918878,0.0216943387985462
5.948,-0.115583551358507,0.0230580806950769
5.951,-0.115462184650894,0.0243897970641458
5.954,-0.115302385748087,0.0256874191107868
5.957,-0.115107006053927,0.0269490841870548
5.96,-0.114879002331415,0.0281731425898796
5.963,-0.114621421260829,0.0293581632750425
5.966,-0.114337383755581,0.0305029384692809
5.969,-0.114030069085805,0.0316064871815054
5.972,-0.113702698905681,0.0326680576141408
5.975,-0.113358521246097,0.0336871284725797
5.978,-0.113000794555456,0.034663409186742
5.981,-0.112632771849498,0.0355968390677495
5.984,-0.112257685049744,0.0364875853967002
5.987,-0.111878729573278,0.0373360404985448
5.99,-0.111499049232937,0.0381428177980611
5.993,-0.111121721524723,0.038908746912926
5.996,-0.110749743344544,0.0396348678068738
5.999,-0.11038601719908,0.0403224240399476
6.002,-0.11003333796637,0.040972855162832
6.005,-0.109694380246118,0.0415877882922713
6.008,-0.109371686353708,0.0421690289205602
6.011,-0.109067654997942,0.0427185509961137
6.014,-0.108784530679494,0.0432384863391081
6.017,-0.108524393849067,0.0437311134321855
6.02,-0.108289151854272,0.0441988456392271
6.023,-0.108080530704215,0.044644218920186
6.026,-0.10790006767779,0.0450698790799755
6.029,-0.107749104795686,0.0454785686094124
6.032,-0.1076287831741,0.0458731131912106
6.035,-0.107540038272157,0.0462564079050215
6.038,-0.107483596051035,0.0466314031975148
6.041,-0.107459970043799,0.0470010906833004
6.044,-0.107469459345936,0.0473684888141882
6.047,-0.107512147524597,0.0477366284876735
6.05,-0.107587902454542,0.048108538643156
6.053,-0.107696377053782,0.0484872319021831
6.056,-0.107837010941933,0.04887569030541
6.059,-0.108009032984267,0.0492768512027804
6.062,-0.10821146472746,0.0496935933470207
6.065,-0.108443124694052,0.0501287232339409
6.068,-0.108702633538595,0.0505849617597437
6.071,-0.108988420025509,0.0510649312163355
6.074,-0.109298727816638,0.0515711427006356
6.077,-0.109631623043505,0.0521059839588778
6.08,-0.109985002628264,0.0526717077309066
6.083,-0.110356603338355,0.0532704206234582
6.086,-0.11074401152286,0.0539040725604231
6.089,-0.111144673522553,0.0545744468500912
6.092,-0.111555906690659,0.0552831509103722
6.095,-0.111974911010303,0.0560316076789842
6.098,-0.112398781252668,0.0568210477546138
6.101,-0.112824519642846,0.0576525022970412
6.104,-0.113249048986099,0.0585267967172219
6.107,-0.113669226209111,0.059444545190327
6.11,-0.11408185627535,0.0604061460067381
6.113,-0.114483706417229,0.0614117778029894
6.116,-0.114871520637967,0.0624613966866536
6.119,-0.11524203443946,0.0635547342631733
6.122,-0.115591989703047,0.0646912966096276
6.125,-0.115918149694092,0.065870364179433
6.128,-0.116211788638161,0.0671221601219738
6.131,-0.11647105292791,0.0684135707911639
6.134,-0.116692938790682,0.0697427827899243
6.137,-0.116874561512806,0.0711077729745847
6.14,-0.117013169656611,0.0725063163022018
6.143,-0.11710615879915,0.0739359946087844
6.146,-0.117151084723626,0.075394206323431
6.149,-0.117145676009544,0.0768781770513712
6.152,-0.117087845957568,0.0783849710249094
6.155,-0.116975703799089,0.0799115033642611
6.158,-0.11680756512052,0.0814545531192905
6.161,-0.116581961465301,0.0830107770381336
6.164,-0.116297649048622,0.0845767240157094
6.167,-0.115953616541866,0.0861488501811147
6.17,-0.115549091877782,0.0877235345435014
6.173,-0.115083548034368,0.0892970951625259
6.176,-0.114556707759485,0.0908658057615756
6.179,-0.113968547188203,0.0924259127251644
6.182,-0.11331929834086,0.0939736524106934
6.185,-0.112609450447867,0.0955052686939771
6.188,-0.111839750103232,0.0970170306879277
6.191,-0.111011200207819,0.0985052505431991
6.194,-0.110125057691353,0.09996630125038
6.197,-0.109182830017142,0.101396634377042
6.2,-0.108186270450556,0.102792797637632
6.203,-0.107137372097235,0.104151452220212
6.206,-0.106038360723044,0.105469389789036
6.209,-0.10489168636777,0.106743549063968
6.212,-0.10370001376557,0.107971031907735
6.215,-0.10246621160916,0.109149118818011
6.218,-0.101193340676764,0.110275283750332
6.221,-0.0998846408768053,0.111347208191834
6.224,-0.0985435172393603,0.112362794387822
6.227,-0.0971735249083677,0.11332017766415
6.23,-0.095778353197594,0.114217737745428
6.233,-0.0943618087752641,0.115054109019037
6.236,-0.0929277980294038,0.115828189651966
6.239,-0.0914803087078469,0.116539149522447
6.242,-0.0900233909012644,0.117186436862408
6.245,-0.088561137459961,0.117769783633726
6.248,-0.0870976639282952,0.118289209472284
6.251,-0.0856370880961761,0.118745024275825
6.254,-0.0841835092676861,0.11913782931161
6.257,-0.0827409873399854,0.119468516864866
6.26,-0.0813135218079966,0.119738268368025
6.263,-0.0799050307928773,0.119948551026762
6.266,-0.0785193302202779,0.120101112909811
6.269,-0.0771601132353883,0.120197976514575
6.272,-0.0758309299907805,0.120241430817516
6.275,-0.0745351679090427,0.120234021816329
6.278,-0.0732760325302098,0.120178541601894
6.281,-0.0720565290689981,0.120078015978002
6.284,-0.0708794447708375,0.119935690690868
6.287,-0.069747332191709,0.119755016292403
6.29,-0.068662493521793,0.11953963172827
6.293,-0.0676269659769225,0.1192933466887
6.296,-0.0666425085028504,0.119020122815084
6.299,-0.0657105897063313,0.118724053840634
6.302,-0.0648323772140206,0.118409344756155
6.305,-0.0640087285611932,0.118080290098022
6.308,-0.0632401835902813,0.117741251465724
6.311,-0.0625269584292417,0.117396634373811
6.314,-0.0618897280497465,0.117051915547748
6.317,-0.0613278105452022,0.11671589188762
6.32,-0.0608190553956048,0.116393336733806
6.323,-0.0603617486342261,0.116088507719391
6.326,-0.0599538560311352,0.115805528048346
6.329,-0.059593032736564,0.115548362552439
6.332,-0.0592766347581096,0.115320794411903
6.335,-0.0590017321867836,0.115126402670855
6.338,-0.0587651241289041,0.114968540700448
6.341,-0.0585633552758421,0.114850315725774
6.344,-0.0583927340336131,0.11477456954551
6.347,-0.0582493521363246,0.114743860576295
