"Freq [GHz]","re(S(Antenna1_1_1,Antenna1_1_1)) []","im(S(Antenna1_1_1,Antenna1_1_1)) []"
5,-0.0132185461550792,0.145720674496258
5.003,-0.0118884285566739,0.144705665602158
5.006,-0.0106043437003288,0.143667851552768
5.009,-0.00936703434872542,0.142610155176093
5.012,-0.00817703988784916,0.141535532942127
5.015,-0.00703469488283724,0.140446960824184
5.018,-0.0059401286019713,0.13934742013256
5.021,-0.00489326548981833,0.138239883371893
5.024,-0.0038938266035128,0.137127300193218
5.027,-0.00294133198218705,0.136012583493927
5.03,-0.00203510394254434,0.13489859573986
5.033,-0.00117427128557457,0.13378813555406
5.036,-0.000357774391414462,0.132683924642022
5.039,0.000415628830647913,0.131588595101844
5.042,0.0011473561540283,0.130504677181276
5.045,0.00183899345355561,0.129434587527663
5.048,0.00249228635204105,0.1283806179828
5.051,0.00310913114570281,0.127344924972666
5.054,0.00369156504444731,0.12632951953508
5.057,0.00424175576401069,0.125336258024233
5.06,0.0047619905319525,0.124366833541138
5.063,0.00525466453851099,0.123422768116968
5.066,0.0057222688903108,0.122505405681296
5.069,0.00616737812492854,0.121615905860234
5.072,0.0065926373253148,0.120755238610472
5.075,0.00700074890646899,0.119924179727212
5.078,0.00739445911639179,0.119123307243008
5.081,0.00777654431596997,0.118352998729497
5.084,0.00814979709601415,0.117613429521032
5.087,0.00851701228675248,0.116904571861218
5.09,0.00888097292707344,0.11622619499234
5.093,0.00924443624010079,0.115577866168696
5.096,0.0096145377834411,0.114968546505823
5.099,0.00999252522027832,0.114390271154628
5.102,0.0103796598723193,0.113838550913413
5.105,0.0107783545595859,0.113312004222806
5.108,0.0111909133090545,0.112809075758584
5.111,0.0116195194071414,0.1123280441674
5.114,0.0120662239820331,0.111867030616407
5.117,0.012532935161859,0.111424008096788
5.12,0.0130214078467087,0.110996811459179
5.123,0.0135332341634879,0.110583148138994
5.126,0.0140698346256162,0.110180609521659
5.129,0.0146324500595628,0.109786682917732
5.132,0.0152221343232184,0.109398764085942
5.135,0.0158397478651058,0.109014170258115
5.138,0.016485952149421,0.108630153621313
5.141,0.017161204986911,0.10824391518533
5.144,0.0178657567895816,0.107852618998134
5.147,0.0185996477862335,0.107453406633514
5.15,0.0193627062088315,0.107043411897428
5.153,0.020154547475695,0.106619775694363
5.156,0.0209745743775188,0.106179660976833
5.159,0.0218219782882145,0.105720267724449
5.162,0.0226957413955748,0.105238847882001
5.165,0.02359463995476,0.104732720191437
5.168,0.0245172485726003,0.104199284834762
5.171,0.0254619455037182,0.103636037848842
5.174,0.0264269189584641,0.103040585212124
5.177,0.027410174393667,0.102410656551262
5.18,0.028409542790197,0.101744118403664
5.183,0.0294226898573376,0.101038986951949
5.186,0.0304471261769666,0.100293440172324
5.189,0.0314838033395449,0.099495588882871
5.192,0.0325277973809094,0.0986432431177636
5.195,0.0335718354258687,0.0977453811183947
5.198,0.0346128504676021,0.0968012439114286
5.201,0.0356477117862565,0.0958102913007792
5.204,0.0366732404070734,0.0947722067745072
5.207,0.0376862249545303,0.0936869013406483
5.21,0.0386834378212279,0.092554516264966
5.213,0.0396616515869704,0.0913754246776354
5.216,0.0406176556041858,0.0901502320318587
5.219,0.0415482726747564,0.0888797753884122
5.222,0.0424503757407678,0.0875651215131291
5.225,0.0433209044920421,0.0862075637913203
5.228,0.044156881827458,0.0848086179351309
5.231,0.044955430063051,0.0833700165088416
5.234,0.0457137868198972,0.0818937022681096
5.237,0.0464293204867754,0.0803818203331553
5.24,0.0470995451936068,0.078836709221899
5.243,0.0477221351896727,0.0772608907600417
5.246,0.0482949385546055,0.0756570589161036
5.249,0.0488159901551537,0.0740280675944111
5.252,0.0492835237757198,0.0723769174370448
5.255,0.0496959833266663,0.0707067416827429
5.258,0.0500520330773939,0.0690207911537677
5.261,0.0503505668311841,0.0673224184247357
5.264,0.0505907159708113,0.0656150612541133
5.267,0.0507718563319172,0.0639022253549818
5.27,0.0508936138221513,0.0621874665809749
5.273,0.0509558687570716,0.0604743726254892
5.276,0.0509587588568092,0.0587665443218717
5.279,0.0509026808624905,0.0570675766378887
5.282,0.0507882907494207,0.0553810394773749
5.285,0.050616502509024,0.0537104583781707
5.288,0.0503884854845408,0.0520592952277451
5.291,0.0501056602414818,0.0504309290888116
5.294,0.0497696929968361,0.0488286372709381
5.297,0.0493824885900343,0.0472555767311528
5.3,0.0489461820296645,0.0457147659335533
5.303,0.0484631286309412,0.0442090672819147
5.306,0.0479358927909252,0.0427411702193076
5.309,0.0473672354344958,0.0413135751217252
5.312,0.0467601001880731,0.03992857807972
5.315,0.0461175983490897,0.0385882566740603
5.318,0.045442992704212,0.0372944568534047
5.321,0.0447396802963108,0.0360487809869959
5.324,0.0440111742099807,0.0348525772053848
5.327,0.0432610844764062,0.033706930093179
5.33,0.0424930981981769,0.0326126528208262
5.333,0.0417109590022501,0.0315702807734324
5.336,0.0409184459336605,0.0305800667456174
5.339,0.0401193519111768,0.0296419777484149
5.342,0.0393174618681064,0.028755693469215
5.345,0.0385165307036465,0.0279206064217571
5.348,0.0377202611885826,0.0271358238001776
5.351,0.0369322819387337,0.0264001710611062
5.354,0.0361561256171468,0.0257121972188289
5.357,0.0353952074770361,0.0250701818545082
5.36,0.0346528044034726,0.024472143818471
5.363,0.0339320345728213,0.0239158515825661
5.366,0.0332358378759258,0.0233988352165929
5.369,0.0325669572270437,0.0229183999078076
5.372,0.0319279208905307,0.0224716409915089
5.375,0.031321025942275,0.0220554603907038
5.378,0.0307774961318824,0.0216752893828648
5.381,0.0302711059546133,0.0213147641367728
5.384,0.0298029132190709,0.0209702013314537
5.387,0.0293736813956447,0.0206378468006149
5.39,0.0289838744347049,0.0203138985124753
5.393,0.0286336533885539,0.0199945299513075
5.396,0.0283228748641327,0.0196759137597784
5.399,0.028051091341485,0.0193542454954052
5.402,0.0278175533519779,0.0190257673602236
5.405,0.027621213531283,0.0186867917357719
5.408,0.0274607325221172,0.0183337243970962
5.411,0.0273344867027456,0.0179630872386805
5.414,0.0272405777002471,0.0175715403784994
5.417,0.0271768436505441,0.0171559034842071
5.42,0.0271408721211986,0.0167131762004535
5.423,0.0271300146419753,0.0162405575203419
5.426,0.0271414027491734,0.0157354639950237
5.429,0.0271719654547289,0.0151955466444365
5.432,0.02721844802109,0.0146187064631906
5.435,0.0272774319498646,0.0140031084196011
5.438,0.0273453560362439,0.0133471938428759
5.441,0.0274185383802058,0.0126496911214579
5.444,0.0274931991974925,0.0119096246465248
5.447,0.0275654843096756,0.0111263219116534
5.45,0.0276314891360087,0.0102994187546452
5.453,0.0276872830647087,0.00942886266352169
5.456,0.0277289340251727,0.00851491416269103
5.459,0.0277525331182852,0.00755814622428526
5.462,0.0277542191378659,0.00655944174667658
5.465,0.0277302028323518,0.00551998907117218
5.468,0.0276767907500839,0.00444127560288926
5.471,0.0275904085073956,0.00332507954481839
5.474,0.0274676233414965,0.00217345981107116
5.477,0.0273051657961628,0.000988744181318549
5.48,0.0270999503982322,-0.000226484232575478
5.483,0.0268490951979059,-0.00146940211672854
5.486,0.0265499400518614,-0.00273696258821277
5.489,0.0262000635151769,-0.00402591321683083
5.492,0.0257972982560725,-0.00533281533668577
5.495,0.0253397448854688,-0.00665406449954643
5.498,0.0248257841093655,-0.0079859119510056
5.501,0.0242540871380428,-0.00932448699742823
5.504,0.02362362429409,-0.0106658201006844
5.507,0.0229336717432624,-0.0120058665707707
5.51,0.0221838163371677,-0.0133405306896121
5.513,0.0213739585267887,-0.0146656901225463
5.516,0.0205043133278423,-0.0159772204531856
5.519,0.0195754093589773,-0.0172710196895537
5.522,0.0185880859408159,-0.0185430325864018
5.525,0.0175434882898408,-0.0197892746283902
5.528,0.0164430608561293,-0.0210058555196467
5.531,0.0152885388289401,-0.0221890020474893
5.534,0.0140819378971549,-0.0233350801579168
5.537,0.0128255423195752,-0.024440616122865
5.54,0.011521891393082,-0.0255023166652238
5.543,0.0101737644086558,-0.0265170879156183
5.546,0.00878416420726624,-0.0274820530979474
5.549,0.00735629942962978,-0.0283945688266799
5.552,0.0058935655898384,-0.0292522399339087
5.555,0.00439952509386625,-0.0300529327301593
5.558,0.00287788633295455,-0.0307947866389499
5.561,0.00133248198487674,-0.031476224132105
5.564,-0.000235870500909002,-0.0320821350818189
5.567,-0.00182014788322112,-0.0326110257794675
5.57,-0.00341212172972396,-0.0330762286691684
5.573,-0.00500768068580159,-0.0334777997910875
5.576,-0.00660274646583548,-0.0338160992604901
5.579,-0.00819329683758114,-0.0340917865845361
5.582,-0.0097753880671388,-0.0343058142388178
5.585,-0.0113451766850201,-0.0344594195566405
5.588,-0.0128989404556004,-0.0345541150150421
5.591,-0.0144330984318615,-0.0345916769775536
5.594,-0.0159442299772139,-0.0345741329906966
5.597,-0.0174290926534002,-0.0345037477202211
5.6,-0.0188846388924758,-0.0343830076410776
5.603,-0.0203080313408618,-0.034214604562126
5.606,-0.0216966568354694,-0.0340014181335808
5.609,-0.0230481389038886,-0.0337464974211889
5.612,-0.0243603487696432,-0.0334530416861427
5.615,-0.0256314147965054,-0.0331243805017251
5.618,-0.0268597303298652,-0.0327639533026878
5.621,-0.0280439599361585,-0.0323752885353603
5.624,-0.0291830439863394,-0.031961982501492
5.627,-0.0302762016194064,-0.0315276780448233
5.63,-0.0313229320539676,-0.0310760431995881
5.633,-0.0323230142838493,-0.0306107499228652
5.636,-0.033276505177742,-0.0301354530411412
5.639,-0.0341837360028798,-0.0296537695209995
5.642,-0.0350453074357514,-0.0291692581851412
5.645,-0.0358620830838402,-0.0286853999767328
5.648,-0.0366351816023864,-0.0282055788917628
5.651,-0.0373659674411733,-0.027733063654046
5.654,-0.0380560403203306,-0.0272709902543571
5.657,-0.0387072234921515,-0.0268223454182901
5.66,-0.0393215508809248,-0.0263899510948477
5.663,-0.0399012531857723,-0.0259764500337564
5.666,-0.0404487430344931,-0.0255842925165113
5.669,-0.0409665992954106,-0.0252157242991471
5.672,-0.0414575506242178,-0.0248727758227376
5.675,-0.0419244583748179,-0.0245572527196229
5.678,-0.0423702989431598,-0.024270727659365
5.681,-0.0427981456850605,-0.0240145335664308
5.684,-0.0432111504710151,-0.0237897582056043
5.687,-0.0436125250209906,-0.0235972401761271
5.69,-0.0440055220915989,-0.0234375662855674
5.693,-0.0443934166395481,-0.0233110703254181
5.696,-0.0447794870448647,-0.023217833220426
5.699,-0.0451669965054901,-0.0231576845386478
5.702,-0.0455591746914436,-0.0231302053352387
5.705,-0.0459591997535482,-0.0231347322999712
5.708,-0.0463701807763205,-0.0231703631664841
5.711,-0.0467951407570164,-0.0232359633422635
5.714,-0.0472370001992356,-0.0233301737123558
5.717,-0.0476985613903751,-0.0234514195568142
5.72,-0.0481824934410322,-0.0235979205218758
5.723,-0.0486913181463572,-0.0237677015928752
5.726,-0.049227396741344,-0.0239586049908911
5.729,-0.0497929175980658,-0.0241683029221273
5.732,-0.0503898849238449,-0.0243943111130309
5.735,-0.0510201084943567,-0.0246340030571459
5.738,-0.0516851944786672,-0.0248846248757035
5.741,-0.0523865373761958,-0.0251433107409512
5.744,-0.053125313096605,-0.0254070987532204
5.747,-0.0539024732166127,-0.0256729472067329
5.75,-0.0547187404127215,-0.025937751152148
5.753,-0.0555982251788675,-0.0262037995765509
5.756,-0.0565181226419783,-0.026459149037284
5.759,-0.0574781071204482,-0.0267005708608186
5.762,-0.0584776169055123,-0.0269248723258742
5.765,-0.0595158583515316,-0.0271289133161797
5.768,-0.0605918110921795,-0.0273096225662823
5.771,-0.0617042343655222,-0.0274640134250034
5.774,-0.0628516743980014,-0.0275891990663407
5.777,-0.0640324727963045,-0.0276824070741229
5.78,-0.0652447759131318,-0.02774099334701
5.783,-0.0664865451128424,-0.0277624552512505
5.786,-0.0677555678929914,-0.0277444439691867
5.789,-0.069049469804748,-0.0276847759975152
5.792,-0.0703657270881883,-0.0275814437293044
5.795,-0.0717016799834685,-0.0274326251007656
5.798,-0.0730545466248719,-0.0272366922367816
5.801,-0.0744214374607196,-0.0269922190871979
5.804,-0.0757993701241586,-0.0266979879948691
5.807,-0.0771852846738074,-0.0263529952064702
5.81,-0.078576059137267,-0.0259564552690698
5.813,-0.0799685252724898,-0.0255078043284686
5.816,-0.081359484479107,-0.0250067023013015
5.819,-0.0827457237725092,-0.024453033925909
5.822,-0.0841240317492767,-0.0238469086919775
5.825,-0.0854912144653595,-0.0231886596469489
5.828,-0.0868441111512051,-0.0224788411052014
5.831,-0.088179609684625,-0.0217182252650071
5.834,-0.0894946617566045,-0.0209077977592607
5.837,-0.0907862976454517,-0.0200487521629866
5.84,-0.0920516405383769,-0.0191424834976265
5.843,-0.0932879203343087,-0.018190580756103
5.846,-0.0944924868465378,-0.0171948184966687
5.849,-0.0956628223691902,-0.0161571475515359
5.852,-0.0967965535235202,-0.0150796848942952
5.855,-0.0978914623470309,-0.0139647027191185
5.858,-0.0989454965574114,-0.0128146167927508
5.861,-0.0999567789612902,-0.0116319741382963
5.864,-0.100923615953804,-0.0104194401047942
5.867,-0.101844505067979,-0.00917978490558938
5.87,-0.102718141546917,-0.0079158696745029
5.873,-0.103543423912798,-0.00663063212579779
5.876,-0.104319458493673,-0.00532707188194699
5.879,-0.105045562904069,-0.00400823554270577
5.882,-0.105721268455392,-0.00267720157618611
5.885,-0.106346321503122,-0.00133706510154138
5.888,-0.106920683698807,9.07735864355281E-06
5.891,-0.107444531187843,0.00135814307954564
5.894,-0.107918252721054,0.00270707821498712
5.897,-0.108342446726048,0.00405287268370379
5.9,-0.108717917336363,0.00539257478508991
5.903,-0.109045669409393,0.00672330547802749
5.906,-0.1093269025551,0.0080422722419923
5.909,-0.109563004225497,0.00934678247432997
5.912,-0.109755541873906,0.0106342563257094
5.915,-0.109906254259996,0.0119022389507453
5.918,-0.110017041917588,0.0131484120817843
5.921,-0.110089956851224,0.0143706048898602
5.924,-0.110127191515511,0.0155668040798086
5.927,-0.110131067130227,0.016735163161544
5.93,-0.110104021387181,0.0178740108684905
5.933,-0.110048595625845,0.0189818586811689
5.936,-0.109967421529739,0.0200574074079371
5.939,-0.109858320519565,0.0210888182798752
5.942,-0.109726323897607,0.0220742627188206
5.945,-0.109579986126678,0.0230237276125462
5.948,-0.109422248866607,0.0239370394920769
5.951,-0.109256043523594,0.0248142393021458
5.954,-0.109084276082087,0.0256555804867868
5.957,-0.108909812156927,0.0264615260250548
5.96,-0.108735462334415,0.0272327444368796
5.963,-0.108563967876829,0.0279701047750425
5.966,-0.108397986863581,0.0286746706482809
5.969,-0.108240080813805,0.0293476933065054
5.972,-0.108092701881681,0.0299906038301409
5.975,-0.107958180654497,0.0306050044585797
5.978,-0.107838714630436,0.031192659128742
5.981,-0.107736357412098,0.0317554832457495
5.984,-0.107653008676744,0.0322955327677002
5.987,-0.107590404950278,0.0328149926445448
5.99,-0.107550111236937,0.0333161646750611
5.993,-0.107533513533723,0.033801454850926
5.996,-0.107541812258544,0.0342733602418738
5.999,-0.10757601662108,0.0347344554959476
6.002,-0.10763693994737,0.035187379010832
6.005,-0.107725195989118,0.0356348188567713
6.008,-0.107841196215708,0.0360794985077602
6.011,-0.107985148096942,0.0365241624519137
6.014,-0.108157054391494,0.0369715617515081
6.017,-0.108356713420067,0.0374244396171855
6.02,-0.108583720332272,0.0378855170622271
6.023,-0.108837469340215,0.038357478703186
6.026,-0.10911715692579,0.0388429587769755
6.029,-0.109421785980686,0.0393445274164124
6.032,-0.1097501708651,0.0398646772802106
6.035,-0.110100943364157,0.0404058105580215
6.038,-0.110472559502035,0.0409702264375148
6.041,-0.110863307183799,0.0415601090695004
6.044,-0.111271314633936,0.0421775160890882
6.047,-0.111694559578598,0.0428243677508735
6.05,-0.112130879147542,0.043502436708156
6.053,-0.112577980431782,0.0442133384881831
6.056,-0.113033451660933,0.04495852271241
6.059,-0.113494773948267,0.0457392650877804
6.062,-0.11395933355546,0.0465566601990207
6.065,-0.114424434605052,0.0474116151559409
6.068,-0.114887312216595,0.0483048440987437
6.071,-0.115345145981109,0.0492368635973355
6.074,-0.115795073727578,0.0502079889676356
6.077,-0.116234205527105,0.0512183315168778
6.08,-0.116659637864264,0.0522677967309066
6.083,-0.117068467919355,0.0533560834254582
6.086,-0.11745780790386,0.0544826838454231
6.089,-0.117824799379554,0.0556468847460912
6.092,-0.118166627503659,0.0568477694213722
6.095,-0.118480535140303,0.0580842207069842
6.098,-0.118763836768668,0.0593549249226138
6.101,-0.119013932131846,0.0606583767640412
6.104,-0.119228319568399,0.0619928851152219
6.107,-0.119404608953611,0.063356579764327
6.11,-0.11954053420745,0.0647474190047381
6.113,-0.119633965298229,0.0661631980899894
6.116,-0.119682919686967,0.0676015585156536
6.119,-0.11968557316246,0.0690599980871733
6.122,-0.119640270012047,0.0705358817476276
6.125,-0.119545532471092,0.072026453115433
6.128,-0.119377238742161,0.0735418274859738
6.131,-0.11915539828691,0.0750628400921639
6.134,-0.118879453738682,0.0765862751399243
6.137,-0.118549070434806,0.0781088789815347
6.14,-0.118164138922611,0.0796273757274018
6.143,-0.11772477639015,0.0811384830407844
6.146,-0.117231327010626,0.082638928040431
6.149,-0.116684361184544,0.0841254632293712
6.152,-0.116084673673568,0.0855948823999094
6.155,-0.115433280635089,0.0870440364012611
6.158,-0.11473141555152,0.0884698487372904
6.161,-0.113980524062301,0.0898693308791337
6.164,-0.113182257728622,0.0912395972507094
6.167,-0.112338466735866,0.0925778797821147
6.17,-0.111451191561782,0.0938815419819014
6.173,-0.110522653647368,0.0951480924332259
6.176,-0.109555245099485,0.0963751976628756
6.179,-0.108551517467203,0.0975606942881644
6.182,-0.10751416964586,0.0987026004066934
6.185,-0.106446034940867,0.0997991261279771
6.188,-0.105350067376232,0.100848683216928
6.191,-0.104229327275819,0.101849893773199
6.194,-0.103086966212353,0.10280159789238
6.197,-0.101926211370342,0.103702860267042
6.2,-0.100750349416636,0.104552975682632
6.203,-0.0995627099388353,0.105351473353212
6.206,-0.0983666485440441,0.106098120086036
6.209,-0.0971655296997701,0.106792922216968
6.212,-0.0959627093975699,0.107436126323735
6.215,-0.0947615177361604,0.108028218674011
6.218,-0.0935652415187643,0.108569923414332
6.221,-0.0923771069338053,0.109062199487834
6.224,-0.0912002624463603,0.109506236283822
6.227,-0.0900377619663677,0.10990344803315
6.23,-0.088892548396594,0.110255466963428
6.233,-0.0877674376583641,0.110564135236037
6.236,-0.0866651032740538,0.110831495700966
6.239,-0.0855880616103469,0.111059781497447
6.242,-0.0845386578542644,0.111251404559408
6.245,-0.083519052816961,0.111408943064726
6.248,-0.0825312106442952,0.111535127893284
6.251,-0.081576887504176,0.111632828155825
6.254,-0.0806576213316861,0.11170503586261
6.257,-0.0797747226919854,0.111754849816866
6.26,-0.0789292668249966,0.111785458797425
6.263,-0.0781220869258773,0.111800124143862
6.266,-0.0773537687192779,0.111802161804811
6.269,-0.0766246463443883,0.111794923969575
6.272,-0.0759347996227805,0.111781780369516
6.275,-0.0752840527010427,0.111766099354329
6.278,-0.0746719741112098,0.111751228845894
6.281,-0.0740978782479981,0.111740477284002
6.284,-0.0735608282718375,0.111737094650868
6.287,-0.073059640434709,0.111744253713403
6.29,-0.072592889807793,0.11176503155427
6.293,-0.0721589173989225,0.1118023915357
6.296,-0.0717558386208504,0.111859165768084
6.299,-0.0713815530813313,0.111938038211324
6.302,-0.0710337556460206,0.112041528492955
6.305,-0.0707099487111932,0.112171976552022
6.308,-0.0704074556422813,0.112331528191724
6.311,-0.0701234352992417,0.112522121635811
6.314,-0.0698633975547465,0.112758294778748
6.317,-0.0696214636802022,0.11304325467562
6.32,-0.0693847850496048,0.113365673571806
6.323,-0.0691498287426261,0.113726136815391
6.326,-0.0689130221763352,0.114124955131346
6.329,-0.068670773815064,0.114562162128439
6.332,-0.0684194940271096,0.115037513373903
6.335,-0.0681556159797836,0.115550487024855
6.338,-0.0678756164429041,0.116100286028448
6.341,-0.0675760363998421,0.116685841879774
6.344,-0.0672535013326131,0.11730581991751
6.347,-0.0669047410673246,0.117958626131295
