"Freq [GHz]","re(S(Antenna1_1_p1,Antenna1_1_p1)) []","im(S(Antenna1_1_p1,Antenna1_1_p1)) []"
3,0.0452195466923872,0.00104232437341301
3.002,0.0461953110845749,0.000562812760204839
3.004,0.0471627573578189,6.21200168730157E-05
3.006,0.0481215611226895,-0.000459579369802399
3.008,0.0490714014295011,-0.00100210679505888
3.01,0.0500119608035926,-0.00156527957922208
3.012,0.0509429252902831,-0.00214891101965485
3.014,0.0518639844895281,-0.00275281046159231
3.016,0.0527748316103098,-0.00337678337786722
3.018,0.05367516347479,-0.00402063140752841
3.02,0.0545646806022532,-0.00468415241336424
3.022,0.0554430871828709,-0.00536714053833193
3.024,0.0563100911713131,-0.00606938631090441
3.026,0.0571654042802341,-0.00679067663934374
3.028,0.0580087420536618,-0.00753079492490688
3.03,0.058839823850312,-0.00828952108399801
3.032,0.0596583729168584,-0.00906663165927415
3.034,0.0604641163911778,-0.00986189980971865
3.036,0.0612567853655995,-0.0106750954896914
3.038,0.0620361148681779,-0.0115059852469697
3.04,0.0628018439400149,-0.0123543327197914
3.042,0.0635537156346501,-0.0132198981429155
3.044,0.0642914770555446,-0.0141024391227109
3.046,0.0650148793812749,-0.0150017098912904
3.048,0.06572367789026,-0.0159174619497014
3.05,0.0664176319906383,-0.0168494439101917
3.052,0.0670965052383153,-0.0177974015875617
3.054,0.0677600653681981,-0.0187610780596213
3.056,0.0684080843130351,-0.0197402137267654
3.058,0.0690403382310758,-0.0207345463906856
3.06,0.0696566075169678,-0.0217438112822323
3.062,0.0702566768359063,-0.0227677411584452
3.064,0.0708403351460479,-0.0238060663387679
3.066,0.0714073756932059,-0.0248585147504631
3.068,0.0719575960868369,-0.0259248120732463
3.07,0.0724907982363338,-0.0270046816731525
3.072,0.073006788447634,-0.0280978447856552
3.074,0.0735053774001556,-0.0292040204880547
3.076,0.0739863801640733,-0.0303229258311486
3.078,0.0744496162379383,-0.0314542758302082
3.08,0.074894909536658,-0.0325977835752711
3.082,0.0753220884198397,-0.0337531603107723
3.084,0.0757309857405072,-0.0349201154245253
3.086,0.0761214387841979,-0.0360983565760759
3.088,0.0764932893384462,-0.0372875897244399
3.09,0.0768463836926617,-0.0384875192152449
3.092,0.077180572658403,-0.039697847817291
3.094,0.0774957115600579,-0.0409182767885466
3.096,0.0777916602359303,-0.0421485059715966
3.098,0.0780682831097398,-0.0433882338085573
3.1,0.0783254491225359,-0.0446371574354745
3.102,0.0785630317950327,-0.0458949727162213
3.104,0.078780909200362,-0.0471613743559092
3.106,0.0789789639972533,-0.0484360559038276
3.108,0.0791570834436343,-0.0497187098459298
3.11,0.0793151593506617,-0.0510090276768746
3.112,0.0794530881571759,-0.0523066999416429
3.114,0.0795707708645852,-0.053611416306741
3.116,0.0796681131021763,-0.0549228656210037
3.118,0.0797450251028522,-0.0562407359960134
3.12,0.0798014216992978,-0.0575647148361459
3.122,0.0798372223205688,-0.0588944889182569
3.124,0.0798523510191074,-0.060229744471022
3.126,0.0797326721981795,-0.061685432633943
3.128,0.0794740964997332,-0.0632564604560302
3.13,0.0791893886926756,-0.0648255943541765
3.132,0.0788786160215672,-0.0663924484412309
3.134,0.0785418510357303,-0.0679566386737842
3.136,0.0781791714787653,-0.0695177829696792
3.138,0.0777906603184803,-0.0710755012152519
3.14,0.0773764056572207,-0.0726294153823188
3.142,0.0769365007226039,-0.0741791495849161
3.144,0.0764710437886483,-0.0757243301158032
3.146,0.0759801381873004,-0.0772645855227373
3.148,0.0754638922203493,-0.0787995466845309
3.15,0.0749224191517277,-0.0803288468768981
3.152,0.0743558371501968,-0.0818521217880998
3.154,0.0737642692124073,-0.083369009644395
3.156,0.0731478431863359,-0.0848791512153066
3.158,0.0725066916550897,-0.0863821899187079
3.16,0.071840951961076,-0.0878777718557386
3.162,0.0711507660805323,-0.0893655458555555
3.164,0.0704362806384135,-0.0908451635599261
3.166,0.0696976468536285,-0.0923162794776693
3.168,0.068935020434624,-0.0937785510289512
3.17,0.068148561615312,-0.0952316385994409
3.172,0.0673384350313324,-0.096675205624331
3.174,0.0665048096966507,-0.0981089186022292
3.176,0.0656478589604817,-0.0995324471589254
3.178,0.0647677604545398,-0.100945464151039
3.18,0.0638646960306055,-0.10234764561955
3.182,0.0629388516884083,-0.103738670953219
3.184,0.0619904175638191,-0.105118222851904
3.186,0.0610195878373492,-0.106485987429765
3.188,0.0600265607229494,-0.107841654228375
3.19,0.0590115383471071,-0.109184916279738
3.192,0.0579747267482365,-0.110515470189199
3.194,0.0569163357863561,-0.11183301610828
3.196,0.0558365791130525,-0.113137257847417
3.198,0.0547356740917236,-0.114427902898615
3.2,0.0536138417380992,-0.115704662468021
3.202,0.0524713066710345,-0.11696725152841
3.204,0.0513082970635724,-0.118215388861603
3.206,0.0501250445342723,-0.119448797120794
3.208,0.0489217841587989,-0.120667202842814
3.21,0.0476987543517732,-0.12187033648931
3.212,0.0464561967988748,-0.123057932512863
3.214,0.0451943564592004,-0.124229729370023
3.216,0.0439134814278686,-0.125385469573282
3.218,0.042613822928872,-0.126524899718973
3.22,0.0412956351981739,-0.127647770531106
3.222,0.0399591754670429,-0.128753836891331
3.224,0.0386047038756286,-0.129842857873637
3.226,0.037232483396771,-0.130914596779987
3.228,0.0358427798100447,-0.131968821169883
3.23,0.0344358615660334,-0.133005302893871
3.232,0.0330119998108331,-0.134023818122778
3.234,0.031571468230783,-0.135024147379086
3.236,0.0301145430274233,-0.136006075556245
3.238,0.0286415028726719,-0.136969391963916
3.24,0.0271526287942283,-0.137913890337159
3.242,0.0256482041211949,-0.138839368862551
3.244,0.0241285144399178,-0.139745630229246
3.246,0.0225938474900462,-0.140632481619967
3.248,0.0210444931108078,-0.141499734731945
3.25,0.0194807431975008,-0.142347205827781
3.252,0.0176572661881993,-0.143109077506262
3.254,0.0158223718806741,-0.1438450563031
3.256,0.0139764418595262,-0.144555034701619
3.258,0.0121198580935329,-0.145238910773376
3.26,0.0102530029432069,-0.14589658815872
3.262,0.00837625900856641,-0.146527976097287
3.264,0.00649000906711834,-0.147132989388441
3.266,0.00459463603205074,-0.147711548381644
3.268,0.0026905228206385,-0.148263578966768
3.27,0.000778052312860142,-0.148789012564354
3.272,-0.00114239276977438,-0.149287786095795
3.274,-0.00307042987518405,-0.149759841983469
3.276,-0.00500567677146557,-0.150205128140814
3.278,-0.00694775155742829,-0.150623597922331
3.28,-0.00889627279291891,-0.151015210123541
3.282,-0.0108508595689315,-0.151379928970875
3.284,-0.0128111315275039,-0.151717724081509
3.286,-0.0147767090114006,-0.152028570433141
3.288,-0.0167472131035793,-0.152312448383707
3.29,-0.018722265696444,-0.15256934360105
3.292,-0.0207014895808796,-0.152799247052522
3.294,-0.0226845085150694,-0.153002154964538
3.296,-0.0246709472930973,-0.15317806884208
3.298,-0.0266604318333266,-0.153326995378136
3.3,-0.0286525892265629,-0.1534489464531
3.302,-0.030647047813993,-0.153543939124112
3.304,-0.0326434372949046,-0.153611995554355
3.306,-0.034641388744181,-0.153653142992301
3.308,-0.0366405346895724,-0.153667413750909
3.31,-0.0386405092387436,-0.15365484516678
3.312,-0.0406409480760936,-0.153615479539266
3.314,-0.0426414885593492,-0.153549364149538
3.316,-0.0446417698059303,-0.153456551169612
3.318,-0.0466414327290851,-0.153337097631338
3.32,-0.0486401201037966,-0.153191065415347
3.322,-0.0506374766824548,-0.15301852117997
3.324,-0.0526331491803,-0.152819536350114
3.326,-0.0546267864006287,-0.152594187046115
3.328,-0.0566180392797676,-0.152342554042557
3.33,-0.0586065609318108,-0.152064722737062
3.332,-0.0605920067431197,-0.151760783109061
3.334,-0.0625740344165866,-0.151430829658533
3.336,-0.064552304005658,-0.151074961374734
3.338,-0.0665264780181199,-0.150693281674898
3.34,-0.0684962214596418,-0.150285898342927
3.342,-0.0704612018570787,-0.149852923538069
3.344,-0.0724210893815325,-0.149394473653582
3.346,-0.0743755568411691,-0.14891066936539
3.348,-0.0763242797637924,-0.148401635510737
3.35,-0.0782669364591745,-0.147867501056833
3.352,-0.0802032080511391,-0.14730839904951
3.354,-0.0821327785394019,-0.146724466561868
3.356,-0.0840553348511626,-0.146115844632934
3.358,-0.0859705669124519,-0.145482678226336
3.36,-0.0878781676392309,-0.144825116158973
3.362,-0.0897778330482427,-0.144143311039717
3.364,-0.0916692622876179,-0.143437419238121
3.366,-0.0935521576372302,-0.142707600803155
3.368,-0.0954262246288058,-0.141954019421963
3.37,-0.0972911720357842,-0.141176842338649
3.372,-0.0991467119529304,-0.140376240333092
3.374,-0.100992559785699,-0.139552387609799
3.376,-0.102861230709352,-0.138592287626789
3.378,-0.104748411877825,-0.137495558414525
3.38,-0.106619698652354,-0.136375440984884
3.382,-0.108474834539841,-0.135232206460176
3.384,-0.11031356764099,-0.134066128412217
3.386,-0.112135650728183,-0.132877482791452
3.388,-0.113940841243118,-0.131666547856132
3.39,-0.115728901304197,-0.130433604071564
3.392,-0.117499597753675,-0.129178934089411
3.394,-0.119252702134561,-0.127902822577071
3.396,-0.120987990737279,-0.126605556247117
3.398,-0.122705244582084,-0.125287423716819
3.4,-0.124404249448242,-0.123948715437741
3.402,-0.126084795882967,-0.122589723635418
3.404,-0.127746679201123,-0.121210742219119
3.406,-0.129389699502681,-0.119812066741696
3.408,-0.131013661669951,-0.118393994259527
3.41,-0.132618375376573,-0.116956823312548
3.412,-0.134203655092275,-0.115500853824391
3.414,-0.135769320084102,-0.114026387032613
3.416,-0.137315194417213,-0.112533725409039
3.418,-0.138841106954956,-0.111023172600204
3.42,-0.140346891361706,-0.109495033307909
3.422,-0.141832386094987,-0.107949613289894
3.424,-0.143297434406173,-0.106387219200621
3.426,-0.144741884335658,-0.104808158582182
3.428,-0.14616558870682,-0.103212739755325
3.43,-0.14756840511576,-0.101601271770613
3.432,-0.14895019594083,-0.0999740643097041
3.434,-0.15031082829695,-0.0983314276067668
3.436,-0.151650174078714,-0.0966736724300308
3.438,-0.15296810988429,-0.0950011099434724
3.44,-0.15426451706711,-0.09331405167864
3.442,-0.155539281687369,-0.0916128094166244
3.444,-0.156792294493311,-0.089897695200172
3.446,-0.158023450932327,-0.0881690211559466
3.448,-0.159232651111852,-0.0864270995169414
3.45,-0.160419799780078,-0.0846722424950431
3.452,-0.16158480633647,-0.0829047622437533
3.454,-0.162727584782099,-0.0811249707510626
3.456,-0.163848053709792,-0.079333179822489
3.458,-0.164946136274099,-0.0775297009842755
3.46,-0.166021760191083,-0.0757148453967522
3.462,-0.167074857687938,-0.073888923827864
3.464,-0.16810536549243,-0.0720522465668663
3.466,-0.169113224822171,-0.0702051233581916
3.468,-0.170098381323729,-0.0683478633254849
3.47,-0.171060785061573,-0.0664807749458152
3.472,-0.172000390506857,-0.064604165924061
3.474,-0.172917156476052,-0.0627183432074719
3.476,-0.173811046129415,-0.0608236128404097
3.478,-0.174682026929321,-0.0589202799692679
3.48,-0.175530070588433,-0.0570086487375729
3.482,-0.176355153087739,-0.055089022261268
3.484,-0.177157254564443,-0.0531617025341796
3.486,-0.177936359369717,-0.0512269903936702
3.488,-0.17869245594632,-0.049285185446476
3.49,-0.179425536876088,-0.047336586014731
3.492,-0.180135598757289,-0.0453814890821818
3.494,-0.180822642231861,-0.0434201902605867
3.496,-0.181486671922518,-0.0414529836763098
3.498,-0.18212769638975,-0.0394801619771005
3.5,-0.182745728098695,-0.0375020162390673
3.502,-0.183170231065905,-0.0353115378438418
3.504,-0.183568285006001,-0.0331206694059366
3.506,-0.183939989808225,-0.0309297140902922
3.508,-0.18428544855288,-0.0287389721700223
3.51,-0.184604767487682,-0.026548740964346
3.512,-0.184898055974008,-0.024359314866722
3.514,-0.185165426403046,-0.0221709852731669
3.516,-0.185406994161868,-0.0199840405507762
3.518,-0.185622877549399,-0.0177987660564341
3.52,-0.185813197732312,-0.0156154440557183
3.522,-0.18597807869084,-0.013434353722002
3.524,-0.186117647134503,-0.0112557711457435
3.526,-0.186232032447766,-0.00907996924397799
3.528,-0.186321366645619,-0.00690721780999363
3.53,-0.186385784299091,-0.00473778342320924
3.532,-0.186425422480692,-0.00257192948923931
3.534,-0.186440420709791,-0.000409916200153349
3.536,-0.186430920847937,0.00174799949507116
3.538,-0.186397067124115,0.0039015638999079
3.54,-0.186339005969947,0.00605052655944348
3.542,-0.186256886034837,0.00819464032935777
3.544,-0.186150858121071,0.0103336613347045
3.546,-0.18602107504886,0.0124673490085085
3.548,-0.18586769170134,0.014595466100176
3.55,-0.185690864889527,0.0167177786737089
3.552,-0.185490753297233,0.0188340561457433
3.554,-0.185267517465937,0.0209440712433888
3.556,-0.185021319689626,0.0230476000818966
3.558,-0.18475232396959,0.0251444221021298
3.56,-0.1844606959592,0.0272343201078585
3.562,-0.184146602888638,0.0293170802728709
3.564,-0.183810213539611,0.0313924921378981
3.566,-0.183451698130032,0.033460348587365
3.568,-0.183071228308681,0.0355204459259543
3.57,-0.182668977059837,0.0375725837649977
3.572,-0.182245118677895,0.0396165651386848
3.574,-0.181799828661959,0.0416521964100994
3.576,-0.181333283720424,0.043679287337075
3.578,-0.180845661635535,0.0456976509978808
3.58,-0.180337141267937,0.0477071038667314
3.582,-0.179807902501214,0.0497074657391234
3.584,-0.179258126116408,0.0516985597670036
3.586,-0.178687993816542,0.053680212433763
3.588,-0.178097688111126,0.0556522535690656
3.59,-0.177487392320656,0.0576145162835052
3.592,-0.176857290441119,0.0595668370330983
3.594,-0.176207567148476,0.0615090555436098
3.596,-0.175538407743162,0.0634410148547132
3.598,-0.17484999805457,0.0653625612539888
3.6,-0.174142524435546,0.0672735443107564
3.602,-0.173416173676871,0.06917381680975
3.604,-0.172671132951764,0.0710632348046279
3.606,-0.171907589800372,0.0729416575413261
3.608,-0.171125732014269,0.0748089474612533
3.61,-0.170325747680967,0.0766649702003241
3.612,-0.169507825008424,0.0785095945478421
3.614,-0.168672152399562,0.0803426924392209
3.616,-0.167818918306793,0.0821641389335552
3.618,-0.166948311236557,0.0839738121940352
3.62,-0.166060519683862,0.0857715934632084
3.622,-0.165155732066841,0.0875573670470922
3.624,-0.164234136721316,0.0893310202880293
3.626,-0.163295921805374,0.0910924435407303
3.628,-0.162341275303958,0.0928415301512785
3.63,-0.161370384923464,0.0945781764319435
3.632,-0.16038343809636,0.0963022816317395
3.634,-0.159380621925813,0.0980137479173919
3.636,-0.15836212310033,0.0997124803396742
3.638,-0.157328127928419,0.101398386809327
3.64,-0.156278822213262,0.103071378070837
3.642,-0.155214391277402,0.104731367669062
3.644,-0.15413501986745,0.106378271924721
3.646,-0.15304089215881,0.108012009901736
3.648,-0.151932191690417,0.109632503377422
3.65,-0.150809101309491,0.111239676815553
3.652,-0.149671803176321,0.112833457330264
3.654,-0.148520478699052,0.114413774658824
3.656,-0.147355308498504,0.11598056110526
3.658,-0.146176472373001,0.117533751549847
3.66,-0.144984149253227,0.119073283398444
3.662,-0.143778517187095,0.120599096521698
3.664,-0.142559753294644,0.122111133254104
3.666,-0.141328033722955,0.123609338342922
3.668,-0.14008353365108,0.125093658936953
3.67,-0.138826427205012,0.126564044505178
3.672,-0.137556887442651,0.128020446835246
3.674,-0.136275086378821,0.129462819991832
3.676,-0.134981194860287,0.130891120284847
3.678,-0.13367538261081,0.132305306197506
3.68,-0.132357818166222,0.133705338404256
3.682,-0.131028668869522,0.135091179678566
3.684,-0.129688100826004,0.136462794900565
3.686,-0.128336278868403,0.13782015097455
3.688,-0.126973366562081,0.139163216836339
3.69,-0.125599526170222,0.140491963360492
3.692,-0.124214918609068,0.14180636337738
3.694,-0.122819703443179,0.143106391590117
3.696,-0.121414038860723,0.144392024561344
3.698,-0.119998081658794,0.14566324063987
3.7,-0.118571987198761,0.146920019967167
3.702,-0.117135909421652,0.14816234439372
3.704,-0.115690000793566,0.149390197465235
3.706,-0.114234412311118,0.150603564368693
3.708,-0.112769293486922,0.151802431878263
3.71,-0.111294792295106,0.152986788351066
3.712,-0.109811055206863,0.154156623642791
3.714,-0.108318227146036,0.155311929113161
3.716,-0.106816451484754,0.156452697541253
3.718,-0.105305870009087,0.157578923080665
3.72,-0.103786622934759,0.158690601264533
3.722,-0.102258848892896,0.159787728920401
3.724,-0.100722684885811,0.160870304134932
3.726,-0.0991782663128473,0.161938326228477
3.728,-0.0976257269562503,0.162991795709476
3.73,-0.0960651989671024,0.164030714208726
3.732,-0.0944968128212942,0.165055084443475
3.734,-0.0929206973955539,0.166064910211371
3.736,-0.091336979863523,0.16706019629426
3.738,-0.0897457857918875,0.168040948451815
3.74,-0.0881472390265638,0.169007173385021
3.742,-0.0865414617889404,0.169958878629496
3.744,-0.0849285746121805,0.170896072618657
3.746,-0.0833086963475796,0.171818764536726
3.748,-0.0816819441909922,0.172726964341579
3.75,-0.080048433649317,0.173620682697433
3.752,-0.0781604212770486,0.174284874907379
3.754,-0.0762695346029028,0.174930315535746
3.756,-0.0743759110165031,0.175557043150315
3.758,-0.0724796865551489,0.176165096454361
3.76,-0.0705809958606498,0.176754514258542
3.762,-0.0686799722362448,0.177325335432623
3.764,-0.0667767476535936,0.177877598937039
3.766,-0.0648714527698521,0.178411343744293
3.768,-0.0629642169948343,0.178926608820194
3.77,-0.061055168448255,0.179423433124936
3.772,-0.0591444340370677,0.179901855574004
3.774,-0.0572321394428869,0.180361915028929
3.776,-0.0553184091595115,0.180803650237872
3.778,-0.0534033665205383,0.181227099866051
3.78,-0.0514871337370784,0.181632302415997
3.782,-0.0495698318955759,0.182019296257659
3.784,-0.0476515809857272,0.182388119588338
3.786,-0.0457324999485144,0.18273881041246
3.788,-0.043812706694341,0.183071406521191
3.79,-0.0418923181012879,0.18338594548189
3.792,-0.0399714500734817,0.183682464597396
3.794,-0.0380502175895802,0.183961000935159
3.796,-0.0361287346413862,0.184221591256217
3.798,-0.0342071143725781,0.184464272053997
3.8,-0.0322854690175756,0.184689079472979
3.802,-0.0303639099705306,0.184896049377182
3.804,-0.0284425478244558,0.185085217248513
3.806,-0.0265214923404888,0.185256618264944
3.808,-0.0246008525572947,0.18541028718854
3.81,-0.0226807367506165,0.185546258443342
3.812,-0.0207612525129656,0.185664566053084
3.814,-0.018842506723467,0.185765243628766
3.816,-0.0169246056478536,0.185848324406079
3.818,-0.0150076549186182,0.185913841172679
3.82,-0.0130917595453217,0.185961826295314
3.822,-0.0111770240350661,0.185992311726807
3.824,-0.00926355229313144,0.186005328962898
3.826,-0.00735144776377824,0.186000909048939
3.828,-0.00544081341122629,0.185979082576457
3.83,-0.00353175173080145,0.185939879689572
3.832,-0.00162436483026677,0.185883330051281
3.834,0.000281245608673365,0.185809462869617
3.836,0.0021849782386793,0.185718306883664
3.838,0.00408673203489856,0.185609890329451
3.84,0.00598640630290141,0.185484240995718
3.842,0.0078839005844172,0.185341386189559
3.844,0.00977911469388332,0.185181352731942
3.846,0.0116719486417885,0.185004166943111
3.848,0.0135623026278216,0.184809854717873
3.85,0.0154500770068116,0.184598441410769
3.852,0.0173351722574632,0.18436995195114
3.854,0.0192174889558837,0.184124410758082
3.856,0.0210969277468946,0.183861841795299
3.858,0.0229733893151329,0.18358226856585
3.86,0.02484677435533,0.183285714086812
3.862,0.0267169835434775,0.18297220094383
3.864,0.0285839175107627,0.182641751255595
3.866,0.0304474768127863,0.182294386678219
3.868,0.0323075619025498,0.181930128459539
3.87,0.0341640731053137,0.181548997383332
3.872,0.0360169105846261,0.181151013833459
3.874,0.037865974319615,0.180736197757938
3.876,0.0397111640770479,0.18030456871294
3.878,0.0415523793821517,0.179856145846732
3.88,0.0433895194951941,0.179390947933551
3.882,0.0452224833758249,0.178908993337426
3.884,0.0470511696801714,0.178410300095946
3.886,0.0488754766966924,0.177894885883981
3.888,0.0506953023497834,0.177362768017357
3.89,0.052510544173138,0.176813963506497
3.892,0.0543210992618547,0.17624848905002
3.894,0.0561268642742997,0.175666361038317
3.896,0.0579277353937148,0.175067595577091
3.898,0.0597236082995728,0.174452208500888
3.9,0.0615143781486828,0.173820215416602
3.902,0.0632999395560362,0.173171631676968
3.904,0.0650801865654038,0.172506472414054
