"Freq [GHz]","re(S(Antenna1_1_p1,Antenna1_1_p1)) []","im(S(Antenna1_1_p1,Antenna1_1_p1)) []"
3,0.0910700383053872,-0.090134099541587
3.002,0.0902592642495749,-0.0912746052787952
3.004,0.0894329579528189,-0.092406841378127
3.006,0.0885912218986895,-0.0935305806258024
3.008,0.0877341620445011,-0.0946455974260589
3.01,0.0868618877835926,-0.0957516678572221
3.012,0.0859745119152831,-0.0968485697196549
3.014,0.0850721506105281,-0.0979360825875923
3.016,0.0841549233743098,-0.0990139878618672
3.018,0.08322295301379,-0.100082068811528
3.02,0.0822763656002532,-0.101140110628364
3.022,0.0813152904298709,-0.102187900468332
3.024,0.0803398599903131,-0.103225227503904
3.026,0.0793502099232341,-0.104251882964344
3.028,0.0783464789836618,-0.105267660181907
3.03,0.077328809000312,-0.106272354636998
3.032,0.0762973448408584,-0.107265763998274
3.034,0.0752522343701778,-0.108247688167719
3.036,0.0741936284095995,-0.109217929317691
3.038,0.0731216806971779,-0.11017629193797
3.04,0.0720365478490149,-0.111122582869791
3.042,0.0709383893146501,-0.112056611344915
3.044,0.0698273673385446,-0.112978189026711
3.046,0.0687036469186749,-0.11388713004729
3.048,0.06756739576326,-0.114783251040801
3.05,0.0664187842486383,-0.115666371182092
3.052,0.0652579853773153,-0.116536312220762
3.054,0.0640851747341981,-0.117392898515521
3.056,0.0629005304460351,-0.118235957067565
3.058,0.0617042331360758,-0.119065317553586
3.06,0.0604964658819678,-0.119880812357632
3.062,0.0592774141699063,-0.120682276602645
3.064,0.0580472658530479,-0.121469548180978
3.066,0.0568062111062059,-0.122242467784123
3.068,0.0555544423848369,-0.123000878932346
3.07,0.0542921543743338,-0.123744628002852
3.072,0.053019543950634,-0.124473564257855
3.074,0.0517368101351556,-0.125187539871655
3.076,0.0504441540470733,-0.125886409957349
3.078,0.0491417788599383,-0.126570032592308
3.08,0.047829889759658,-0.127238268843771
3.082,0.0465086938908397,-0.127890982793372
3.084,0.0451784003225072,-0.128528041560725
3.086,0.0438392199921979,-0.129149315327076
3.088,0.0424913656684461,-0.12975467735844
3.09,0.0411350518996617,-0.130344004026245
3.092,0.039770494970403,-0.130917174830291
3.094,0.0383979128550579,-0.131474072418547
3.096,0.0370175251739303,-0.132014582609597
3.098,0.0356295531437398,-0.132538594408557
3.1,0.0342342195305359,-0.133046000028474
3.102,0.0328317486100327,-0.133536694910221
3.104,0.031422366113362,-0.134010577737909
3.106,0.0300062991862533,-0.134467550457828
3.108,0.0285837763386343,-0.13490751829293
3.11,0.0271550274006617,-0.135330389763875
3.112,0.0257202834741759,-0.135736076699643
3.114,0.0242797768865852,-0.136124494254741
3.116,0.0228337411431762,-0.136495560926004
3.118,0.0213824108828522,-0.136849198562013
3.12,0.0199260218282978,-0.137185332380146
3.122,0.0184648107375688,-0.137503890980257
3.124,0.0169990153621074,-0.137804806353022
3.126,0.0155270438821795,-0.138086104397943
3.128,0.0140493990757332,-0.13834763248803
3.13,0.0125682435606756,-0.138591223589177
3.132,0.0110838229675672,-0.138816837578231
3.134,0.00959638329573026,-0.139024437945784
3.136,0.00810617086076528,-0.139213991794679
3.138,0.00661343224048032,-0.139385469842252
3.14,0.00511841422222073,-0.139538846418319
3.142,0.00362136375060387,-0.139674099464916
3.144,0.00212252787464835,-0.139791210533803
3.146,0.000622153697300361,-0.139890164784737
3.148,-0.00087951168065069,-0.139970950980531
3.15,-0.00238222120927228,-0.140033561484898
3.152,-0.00388572794180324,-0.1400779922581
3.154,-0.00538978509159267,-0.140104242851395
3.156,-0.00689414607566407,-0.140112316400307
3.158,-0.00839856457291026,-0.140102219617708
3.16,-0.00990279457492397,-0.140073962791739
3.162,-0.0114065904344677,-0.140027559770556
3.164,-0.0129097069185865,-0.139963027958926
3.166,-0.0144118992605715,-0.139880388307669
3.168,-0.015912923209476,-0.139779665304951
3.17,-0.017412535082188,-0.139660886963441
3.172,-0.0189104918138676,-0.139524084813331
3.174,-0.0204065510079493,-0.139369293886229
3.176,-0.0219004709875183,-0.139196552705925
3.178,-0.0233920108447602,-0.139005903274039
3.18,-0.0248809304912945,-0.13879739105855
3.182,-0.0263669907083917,-0.138571064975219
3.184,-0.0278499531960809,-0.138326977377904
3.186,-0.0293295806234008,-0.138065184038765
3.188,-0.0308056366769906,-0.137785744135375
3.19,-0.0322778861106929,-0.137488720229738
3.192,-0.0337460947942635,-0.137174178257199
3.194,-0.0352100297622439,-0.13684218750028
3.196,-0.0366694592621475,-0.136492820577417
3.198,-0.0381241528028764,-0.136126153418615
3.2,-0.0395738812028008,-0.135742265248021
3.202,-0.0410184166372655,-0.13534123855941
3.204,-0.0424575326865276,-0.134923159101603
3.206,-0.0438910043824277,-0.134488115848794
3.208,-0.0453186082559011,-0.134036200981814
3.21,-0.0467401223832268,-0.13356750986631
3.212,-0.0481553264331252,-0.133082141023863
3.214,-0.0495640017117996,-0.132580196113023
3.216,-0.0509659312101314,-0.132061779899282
3.218,-0.052360899647128,-0.131527000229973
3.22,-0.0537486935198261,-0.130975968012106
3.222,-0.0551291011399571,-0.130408797177131
3.224,-0.0565019126883714,-0.129825604661637
3.226,-0.057866920250229,-0.129226510370987
3.228,-0.0592239178649553,-0.128611637155883
3.23,-0.0605727015679666,-0.127981110779871
3.232,-0.0619130694321669,-0.127335059889778
3.234,-0.063244821613217,-0.126673615982086
3.236,-0.0645677603905767,-0.125996913374245
3.238,-0.0658816902083281,-0.125305089170916
3.24,-0.0671864177197717,-0.124598283232159
3.242,-0.0684817518248051,-0.123876638136551
3.244,-0.0697675037150823,-0.123140299149246
3.246,-0.0710434869079538,-0.122389414187967
3.248,-0.0723095172931922,-0.121624133782945
3.25,-0.0735654131674992,-0.120844611045781
3.252,-0.0748066941188007,-0.120053697804262
3.254,-0.0760374930153258,-0.1192492526851
3.256,-0.0772576509074739,-0.118431439805219
3.258,-0.0784670115764671,-0.117600425303276
3.26,-0.0796654215637931,-0.11675637729362
3.262,-0.0808527301994336,-0.115899465821587
3.264,-0.0820287896258817,-0.115029862817741
3.266,-0.0831934548269493,-0.114147742051744
3.268,-0.0843465836513615,-0.113253279085468
3.27,-0.0854880368351399,-0.112346651226354
3.272,-0.0866176780297744,-0.111428037479895
3.274,-0.087735373822184,-0.110497618502069
3.276,-0.0888409937574656,-0.109555576551114
3.278,-0.0899344103594283,-0.108602095439241
3.28,-0.0910154991529189,-0.107637360483521
3.282,-0.0920841386849315,-0.106661558457175
3.284,-0.0931402105385039,-0.105674877539809
3.286,-0.0941835993564006,-0.104677507267941
3.288,-0.0952141928585793,-0.103669638484507
3.29,-0.096231881854444,-0.10265146328895
3.292,-0.0972365602648795,-0.101623174986522
3.294,-0.0982281251310694,-0.100584968036838
3.296,-0.0992064766360973,-0.0995370380035802
3.298,-0.100171518111327,-0.0984795815024365
3.3,-0.101123156056563,-0.0974127961495
3.302,-0.102061300143993,-0.096336880509912
3.304,-0.102985863236905,-0.0952520340453552
3.306,-0.103896761394181,-0.0941584570613011
3.308,-0.104793913885572,-0.0930563506559094
3.31,-0.105677243192744,-0.0919459166667804
3.312,-0.106546675024094,-0.0908273576172664
3.314,-0.107402138318349,-0.0897008766645382
3.316,-0.10824356525093,-0.0885666775466123
3.318,-0.109070891239085,-0.0874249645283381
3.32,-0.109884054946797,-0.0862759423503473
3.322,-0.110682998286455,-0.0851198161719701
3.324,-0.1114676664253,-0.0839567915221142
3.326,-0.112238007782629,-0.0827870742411155
3.328,-0.112993974032768,-0.0816108704315573
3.33,-0.113735520104811,-0.0804283864020623
3.332,-0.11446260418212,-0.0792398286150608
3.334,-0.115175187700587,-0.0780454036335328
3.336,-0.115873235341558,-0.0768453180647337
3.338,-0.11655671503552,-0.0756397785098975
3.34,-0.117225597951742,-0.074428991509927
3.342,-0.117879858495379,-0.0732131634900695
3.344,-0.118519474300132,-0.0719925007085823
3.346,-0.119144426221269,-0.0707672092053901
3.348,-0.119754698327592,-0.0695374947437366
3.35,-0.120350277892075,-0.0683035627608331
3.352,-0.120931155381939,-0.0670656183155101
3.354,-0.121497324447902,-0.0658238660328676
3.356,-0.122048781912013,-0.0645785100549343
3.358,-0.122585527755441,-0.0633297539843357
3.36,-0.123107565104531,-0.0620778008369727
3.362,-0.123614900216343,-0.0608228529867166
3.364,-0.124107542463418,-0.0595651121141205
3.366,-0.12458550431743,-0.0583047791571548
3.368,-0.125048801331906,-0.0570420542559632
3.37,-0.125497452124184,-0.0557771367076493
3.372,-0.12593147835673,-0.0545102249120925
3.374,-0.126350904717099,-0.0532415163207992
3.376,-0.126761023652652,-0.0519752581157892
3.378,-0.127162251361825,-0.0507115284295248
3.38,-0.127549487094354,-0.0494464172078835
3.382,-0.127922769267841,-0.048180100011176
3.384,-0.12828213876899,-0.0469127510422174
3.386,-0.128627638916183,-0.0456445431034518
3.388,-0.128959315436118,-0.044375647566132
3.39,-0.129277216422197,-0.0431062343275639
3.392,-0.129581392310675,-0.0418364717754113
3.394,-0.129871895842561,-0.040566526756071
3.396,-0.130148782028279,-0.0392965645351168
3.398,-0.130412108120084,-0.0380267487638188
3.4,-0.130661933568242,-0.036757241447741
3.402,-0.130898319992967,-0.0354882029094183
3.404,-0.131121331142123,-0.0342197917591195
3.406,-0.131331032857681,-0.0329521648626965
3.408,-0.131527493039951,-0.0316854773085271
3.41,-0.131710781604573,-0.0304198823785482
3.412,-0.131880970450275,-0.0291555315193908
3.414,-0.132038133412402,-0.027892574311613
3.416,-0.132182346234213,-0.0266311584440389
3.418,-0.132313686514956,-0.0253714296832035
3.42,-0.132432233679706,-0.024113531848909
3.422,-0.132538068932987,-0.0228576067868942
3.424,-0.132631275219173,-0.0216037943476215
3.426,-0.132711937180658,-0.0203522323551821
3.428,-0.13278014111682,-0.0191030565903253
3.43,-0.13283597493976,-0.0178564007656132
3.432,-0.13287952813483,-0.0166123964997041
3.434,-0.13291089171395,-0.0153711733027668
3.436,-0.132930158174714,-0.0141328585520308
3.438,-0.13293742145329,-0.0128975774754724
3.44,-0.13293277688611,-0.0116654531286401
3.442,-0.132916321161369,-0.0104366063816244
3.444,-0.132888152273311,-0.00921115590017201
3.446,-0.132848369482326,-0.00798921812994661
3.448,-0.132797073262852,-0.00677090728094136
3.45,-0.132734365267078,-0.00555633531464313
3.452,-0.13266034827047,-0.00434561192945329
3.454,-0.132575126131099,-0.00313884454896255
3.456,-0.132478803742792,-0.00193613831008903
3.458,-0.132371486988099,-0.00073759605227552
3.46,-0.132253282693083,0.000456681692047777
3.462,-0.132124298580938,0.00164659670643605
3.464,-0.13198464322643,0.00283205309847367
3.466,-0.131834426004171,0.0040129573067084
3.468,-0.131673757051729,0.00518921810701508
3.47,-0.131502747211573,0.00636074661798481
3.472,-0.131321507994857,0.00752745630483903
3.474,-0.131130151527052,0.00868926298342811
3.476,-0.130928790504415,0.00984608482259034
3.478,-0.130717538147321,0.0109978423457321
3.48,-0.130496508153433,0.0121444584314271
3.482,-0.130265814649739,0.013285858314732
3.484,-0.130025572150443,0.0144219695838204
3.486,-0.129775895501717,0.0155527221783298
3.488,-0.12951689984532,0.016678048389524
3.49,-0.129248700566088,0.017797882852269
3.492,-0.128971413246289,0.0189121625448182
3.494,-0.12868515362386,0.0200208267794133
3.496,-0.128390037540518,0.0211238171956902
3.498,-0.12808618090175,0.0222210777598995
3.5,-0.127773699626695,0.0233125547469327
3.502,-0.127473525011905,0.0244205475571582
3.504,-0.127164597390001,0.0255236224510634
3.506,-0.126847003270225,0.0266217339767078
3.508,-0.12652082877188,0.0277148382439777
3.51,-0.126186159598682,0.028802892903654
3.512,-0.125843081008008,0.029885857123278
3.514,-0.125491677785046,0.0309636915718331
3.516,-0.125132034213868,0.0320363583912238
3.518,-0.124764234051399,0.0331038211795659
3.52,-0.124388360502312,0.0341660449602817
3.522,-0.12400449619484,0.035222996167998
3.524,-0.123612723151503,0.0362746426162565
3.526,-0.123213122768766,0.037320953476022
3.528,-0.122805775792619,0.0383618992540064
3.53,-0.122390762294091,0.0393974517597908
3.532,-0.121968161647692,0.0404275840867607
3.534,-0.121538052511791,0.0414522705818467
3.536,-0.121100512803937,0.0424714868220712
3.538,-0.120655619683115,0.0434852095839079
3.54,-0.120203449526947,0.0444934168164435
3.542,-0.119744077916837,0.0454960876183578
3.544,-0.119277579616071,0.0464932022017045
3.546,-0.11880402855286,0.0474847418705085
3.548,-0.11832349780334,0.048470688989176
3.55,-0.117836059576527,0.0494510269537089
3.552,-0.117341785196233,0.0504257401607433
3.554,-0.116840745086937,0.0513948139803888
3.556,-0.116333008760626,0.0523582347268966
3.558,-0.11581864480059,0.0533159896261298
3.56,-0.1152977208522,0.0542680667848585
3.562,-0.114770303606638,0.0552144551638709
3.564,-0.114236458793611,0.0561551445448981
3.566,-0.113696251167032,0.057090125499365
3.568,-0.113149744495681,0.0580193893579543
3.57,-0.112597001556837,0.0589429281809977
3.572,-0.112038084122895,0.0598607347236848
3.574,-0.111473052959959,0.0607728024080994
3.576,-0.110901967812424,0.061679125291075
3.578,-0.110324887403535,0.0625796980308808
3.58,-0.109741869429937,0.0634745158577314
3.582,-0.109152970549214,0.0643635745391234
3.584,-0.108558246385408,0.0652468703530036
3.586,-0.107957751518542,0.066124400050763
3.588,-0.107351539484126,0.0669961608300656
3.59,-0.106739662774856,0.0678621503005052
3.592,-0.106122172832819,0.0687223664520983
3.594,-0.105499120054176,0.0695768076236098
3.596,-0.104870553787462,0.0704254724747132
3.598,-0.10423652233477,0.0712683599479888
3.6,-0.103597072953736,0.0721054692427564
3.602,-0.102952251859971,0.07293679978175
3.604,-0.102302104230064,0.0737623511806279
3.606,-0.101646674205872,0.0745821232183261
3.608,-0.100986004898769,0.0753961158012533
3.61,-0.100320138395167,0.0762043289383241
3.612,-0.0996491157624243,0.0770067627108421
3.614,-0.0989729770565618,0.0778034172342209
3.616,-0.098291761328793,0.0785942926385552
3.618,-0.0976055066315566,0.0793793890320352
3.62,-0.0969142500328619,0.0801587064722084
3.622,-0.0962180276208407,0.0809322449390922
3.624,-0.0955168745153161,0.0817000043051294
3.626,-0.0948108248803744,0.0824619843070003
3.628,-0.0940999119329582,0.0832181845132785
3.63,-0.0933841679584641,0.0839686043029435
3.632,-0.0926636243193603,0.0847132428327395
3.634,-0.0919383114728131,0.0854520990133919
3.636,-0.0912082589833297,0.0861851714766742
3.638,-0.0904734955344194,0.086912458557327
3.64,-0.0897340489492619,0.0876339582598366
3.642,-0.0889899462034018,0.0883496682340615
3.644,-0.0882412134404503,0.0890595857547213
3.646,-0.0874878759928104,0.0897637076877356
3.648,-0.0867299583954168,0.0904620304734223
3.65,-0.0859674844064909,0.0911545500975533
3.652,-0.0852004770253206,0.0918412620732641
3.654,-0.084428958512052,0.0925221614088236
3.656,-0.0836529504075042,0.0931972425942603
3.658,-0.0828724735530014,0.0938664995748474
3.66,-0.0820875481132265,0.0945299257274444
3.662,-0.0812981935940947,0.0951875138456982
3.664,-0.0805044288696441,0.0958392561121042
3.666,-0.0797062721979546,0.0964851440839217
3.668,-0.0789037412510804,0.0971251686689533
3.67,-0.0780968531340117,0.0977593201111776
3.672,-0.077285624407651,0.0983875879682457
3.674,-0.0764700711178206,0.0990099610958321
3.676,-0.0756502088132868,0.099626427629847
3.678,-0.0748260525778103,0.100236974972506
3.68,-0.0739976170502224,0.100841589770256
3.682,-0.0731649164525222,0.101440257903566
3.684,-0.0723279646140035,0.102032964472565
3.686,-0.0714867750014032,0.10261969377755
3.688,-0.0706413607420814,0.103200429311339
3.69,-0.0697917346542222,0.103775153744492
3.692,-0.0689379092710679,0.10434384890938
3.694,-0.0680798968721793,0.104906495796117
3.696,-0.067217709508723,0.105463074534344
3.698,-0.0663513590287937,0.10601356438887
3.7,-0.0654808571187605,0.106557943745167
3.702,-0.0646062153216519,0.10709619010372
3.704,-0.0637274450535656,0.107628280071235
3.706,-0.0628445576711177,0.108154189352693
3.708,-0.0619575644469224,0.108673892745263
3.71,-0.0610664766551063,0.109187364132066
3.712,-0.0601713055668625,0.109694576475791
3.714,-0.0592720624760362,0.110195501815161
3.716,-0.0583687587647538,0.110690111260253
3.718,-0.0574614058990866,0.111178374989665
3.72,-0.0565500154547592,0.111660262248533
3.722,-0.055634599192896,0.112135741345401
3.724,-0.0547151690258115,0.112604779652932
3.726,-0.0537917371228473,0.113067343605477
3.728,-0.0528643158762503,0.113523398700476
3.73,-0.0519329179471024,0.113972909499726
3.732,-0.0509975563312942,0.114415839629475
3.734,-0.0500582443355539,0.114852151787371
3.736,-0.049114995663523,0.11528180773926
3.738,-0.0481678243918875,0.115704768327815
3.74,-0.0472167450465638,0.116120993477221
3.742,-0.0462617725989404,0.116530442194996
3.744,-0.0453029225221805,0.116933072581257
3.746,-0.0443402108175796,0.117328841834626
3.748,-0.0433736540109922,0.117717706259519
3.75,-0.042403269239317,0.118099621274633
3.752,-0.0413533607570486,0.118465961154179
3.754,-0.0402993591429028,0.118822906506746
3.756,-0.0392413364365031,0.119170389527315
3.758,-0.0381793660651489,0.119508342639361
3.76,-0.0371135228606498,0.119836698526542
3.762,-0.0360438830462448,0.120155390159623
3.764,-0.0349705242435936,0.120464350828039
3.766,-0.0338935254898521,0.120763514170293
3.768,-0.0328129672148343,0.121052814206194
3.77,-0.031728931308255,0.121332185363936
3.772,-0.0306415010670677,0.121601562515004
3.774,-0.0295507612028869,0.121860881001929
3.776,-0.0284567978795115,0.122110076675872
3.778,-0.0273596986905383,0.122349085921051
3.78,-0.0262595526470784,0.122577845689997
3.782,-0.0251564502255759,0.122796293538659
3.784,-0.0240504833157272,0.123004367651338
3.786,-0.0229417452585144,0.12320200688146
3.788,-0.021830330824341,0.123389150778191
3.79,-0.0207163362012879,0.12356573961889
3.792,-0.0195998590434817,0.123731714445396
3.794,-0.0184809983995802,0.123887017094159
3.796,-0.0173598547613863,0.124031590231217
3.798,-0.0162365300125781,0.124165377379997
3.8,-0.0151111274875756,0.124288322959979
3.802,-0.0139837519005306,0.124400372316182
3.804,-0.0128545093744558,0.124501471752513
3.806,-0.0117235074204888,0.124591568564944
3.808,-0.0105908549372947,0.12467061107454
3.81,-0.00945666220061646,0.124738548657342
3.812,-0.00832104083296556,0.124795331782084
3.814,-0.00718410384346703,0.124840912037766
3.816,-0.00604596555785364,0.124875242168079
3.818,-0.00490674164861824,0.124898276103679
3.82,-0.00376654908532165,0.124909968996314
3.822,-0.00262550617506608,0.124910277246807
3.824,-0.00148373249313144,0.124899158532898
3.826,-0.000341348893778242,0.124876571858939
3.828,0.000801522508773711,0.124842477576457
3.83,0.00194475832919855,0.124796837389572
3.832,0.00308823400373323,0.124739614441281
3.834,0.00423182371567336,0.124670773299617
3.836,0.0053754004736793,0.124590279993664
3.838,0.00651883611389856,0.124498102069451
3.84,0.00766200131390141,0.124394208585718
3.842,0.0088047656214172,0.124278570179559
3.844,0.00994699747088332,0.124151159051942
3.846,0.0110885642077885,0.124011949053111
3.848,0.0122293321078216,0.123860915657873
3.85,0.0133691664018116,0.123698036020769
3.852,0.0145079312984632,0.12352328899114
3.854,0.0156454900108837,0.123336655158082
3.856,0.0167817047768946,0.123138116885299
3.858,0.0179164368901329,0.12292765828585
3.86,0.01904954672093,0.122705265306812
3.862,0.0201808937479775,0.12247092572383
3.864,0.0213103365807627,0.122224629175595
3.866,0.0224377329907863,0.121966367188219
3.868,0.0235629399395498,0.121696133209539
3.87,0.0246858136063137,0.121413922613332
3.872,0.0258062094186261,0.121119732723459
3.874,0.026923982083615,0.120813562877938
3.876,0.0280389856160479,0.12049541438294
3.878,0.0291510733721517,0.120165290596732
3.88,0.0302600980811941,0.119823196913551
3.882,0.0313659118758249,0.119469140807426
3.884,0.0324683663261714,0.119103131835946
3.886,0.0335673124726924,0.118725181673981
3.888,0.0346626008627834,0.118335304107357
3.89,0.035754081580138,0.117933515096497
3.892,0.0368416042828547,0.11751983275002
3.894,0.0379250182382997,0.117094277368317
3.896,0.0390041723581148,0.116656871437091
3.898,0.0400789152346728,0.116207639670888
3.9,0.0411490951768828,0.115746609016602
3.902,0.0422145602478762,0.115273808676968
