"Freq [GHz]","re(S(Antenna1_1_p1,Antenna1_1_p1)) []","im(S(Antenna1_1_p1,Antenna1_1_p1)) []"
3,0.0346721175723872,-0.037615748536587
3.002,0.0348560857745749,-0.0378552031997952
3.004,0.0350361239078189,-0.038101599133127
3.006,0.0352121421726895,-0.0383548312898024
3.008,0.0353840531795011,-0.0386147941650589
3.01,0.0355517718835926,-0.0388813818692221
3.012,0.0357152156502831,-0.0391544881596549
3.014,0.0358743041495281,-0.0394340065115923
3.016,0.0360289593903098,-0.0397198301278672
3.018,0.03617910571479,-0.0400118519775284
3.02,0.0363246697222532,-0.0403099648833642
3.022,0.0364655802928709,-0.0406140615083319
3.024,0.0366017685613131,-0.0409240344209044
3.026,0.0367331678902341,-0.0412397761293437
3.028,0.0368597138436618,-0.0415611791149069
3.03,0.036981344180312,-0.041888135883998
3.032,0.0370979988168584,-0.0422205389792742
3.034,0.0372096198211778,-0.0425582810297186
3.036,0.0373161513655995,-0.0429012547896914
3.038,0.0374175397401779,-0.0432493531669697
3.04,0.0375137332860148,-0.0436024692497914
3.042,0.0376046824086501,-0.0439604963329155
3.044,0.0376903395515446,-0.0443233279827109
3.046,0.0377706591196749,-0.0446908580212904
3.048,0.03784559754326,-0.0450629805997014
3.05,0.0379151131816383,-0.0454395901901917
3.052,0.0379791663173153,-0.0458205816375617
3.054,0.0380377191601981,-0.0462058501896213
3.056,0.0380907357720351,-0.0465952914967654
3.058,0.0381381821010758,-0.0469888016706856
3.06,0.0381800258869678,-0.0473862772822323
3.062,0.0382162367059063,-0.0477876154084452
3.064,0.0382467858860479,-0.0481927136487679
3.066,0.0382716465332059,-0.0486014701404631
3.068,0.0382907934568369,-0.0490137835832463
3.07,0.0383042031863338,-0.0494295532931524
3.072,0.038311853907634,-0.0498486791756552
3.074,0.0383137254791556,-0.0502710617580547
3.076,0.0383097993600733,-0.0506966022411486
3.078,0.0383000586219383,-0.0511252024902082
3.08,0.038284487903658,-0.0515567650652711
3.082,0.0382630733908397,-0.0519911932307723
3.084,0.0382358027895072,-0.0524283909845253
3.086,0.0382026653001979,-0.0528682630660759
3.088,0.0381636515918461,-0.0533107149744399
3.09,0.0381187537758617,-0.0537556530052449
3.092,0.038067965381403,-0.054202984217291
3.094,0.0380112813270579,-0.0546526165085466
3.096,0.0379486978999303,-0.0551044585815966
3.098,0.0378802127237398,-0.0555584199985573
3.1,0.0378058247385359,-0.0560144111554745
3.102,0.0377255341730327,-0.0564723433362213
3.104,0.037639342516362,-0.0569321286759092
3.106,0.0375472524972533,-0.0573936802138276
3.108,0.0374492680636343,-0.0578569119159298
3.11,0.0373453943406617,-0.0583217386268746
3.112,0.0372356376071759,-0.0587880761316429
3.114,0.0371200053145851,-0.059255841176741
3.116,0.0369985059821762,-0.0597249514110037
3.118,0.0368711492328522,-0.0601953254760134
3.12,0.0367379457692978,-0.0606668829661459
3.122,0.0365989073005688,-0.0611395444582569
3.124,0.0364540465791074,-0.061613231511022
3.126,0.0362646803581795,-0.062200397893943
3.128,0.0360270462297332,-0.0628995123860302
3.13,0.0357786277026756,-0.0635974298941765
3.132,0.0355194776715672,-0.0642940122312309
3.134,0.0352496504957303,-0.0649891228737842
3.136,0.0349692019187653,-0.0656826268796792
3.138,0.0346781890384803,-0.0663743909252519
3.14,0.0343766702972207,-0.0670642833123188
3.142,0.0340647054226039,-0.0677521740049161
3.144,0.0337423553986483,-0.0684379345658032
3.146,0.0334096824573004,-0.0691214382427373
3.148,0.0330667500403493,-0.0698025598945309
3.15,0.0327136227317277,-0.0704811760668981
3.152,0.0323503662601968,-0.0711571649480998
3.154,0.0319770474624073,-0.071830406394395
3.156,0.0315937342563359,-0.0725007819153066
3.158,0.0312004955950897,-0.0731681747087079
3.16,0.030797401441076,-0.0738324696457386
3.162,0.0303845227405323,-0.0744935532455555
3.164,0.0299619313784135,-0.0751513137299261
3.166,0.0295297001736285,-0.0758056409976693
3.168,0.029087902824624,-0.0764564265889512
3.17,0.028636613895312,-0.0771035637694409
3.172,0.0281759087613324,-0.077746947464331
3.174,0.0277058636166507,-0.0783864742722292
3.176,0.0272265554204817,-0.0790220424689254
3.178,0.0267380618545398,-0.0796535520210388
3.18,0.0262404613206055,-0.0802809045595495
3.182,0.0257338328984083,-0.0809040033932192
3.184,0.0252182563338191,-0.081522753501904
3.186,0.0246938119673492,-0.0821370615497646
3.188,0.0241605807529494,-0.0827468358383754
3.19,0.0236186441971071,-0.0833519863597377
3.192,0.0230680843582365,-0.0839524247491986
3.194,0.0225089837863561,-0.0845480643182795
3.196,0.0219414255230525,-0.0851388199974166
3.198,0.0213654930517236,-0.085724608398615
3.2,0.0207812702880992,-0.0863053477680206
3.202,0.0201888415510345,-0.0868809579784102
3.204,0.0195882915235724,-0.0874513605416029
3.206,0.0189797052142723,-0.0880164786007942
3.208,0.0183631679787989,-0.0885762369128137
3.21,0.0177387654417732,-0.0891305618403103
3.212,0.0171065834988748,-0.0896793813738634
3.214,0.0164667082692004,-0.0902226250740235
3.216,0.0158192261078686,-0.090760224123282
3.218,0.015164223528872,-0.091292111267973
3.22,0.0145017872181739,-0.091818220840106
3.222,0.0138320039970429,-0.0923384887191306
3.224,0.0131549607756286,-0.0928528523636367
3.226,0.012470744576771,-0.0933612507729865
3.228,0.0117794424600447,-0.0938636244888826
3.23,0.0110811415260334,-0.0943599155668707
3.232,0.0103759288808331,-0.0948500675977777
3.234,0.00966389162078302,-0.0953340256790861
3.236,0.00894511679742326,-0.095811736396245
3.238,0.0082196914026719,-0.0962831478239164
3.24,0.00748770234422831,-0.0967482095071594
3.242,0.00674923642119492,-0.0972068724725514
3.244,0.00600438028991776,-0.0976590891692458
3.246,0.00525322046004618,-0.0981048134999673
3.248,0.00449584326080776,-0.0985440007919446
3.25,0.00373233482750081,-0.098976607787781
3.252,0.00277248652819931,-0.0994708917062616
3.254,0.00180523372067415,-0.0999544111330996
3.256,0.000830714089526147,-0.100427113511619
3.258,-0.000150934946467132,-0.100888948113376
3.26,-0.00113957625679315,-0.10133986597872
3.262,-0.00213507309143358,-0.101779819937287
3.264,-0.00313728900288165,-0.102208764558441
3.266,-0.00414608795794927,-0.102626656171644
3.268,-0.0051613342893615,-0.103033452808768
3.27,-0.00618289276713986,-0.103429114208354
3.272,-0.00721062858977438,-0.103813601789795
3.274,-0.00824440740518405,-0.104186878635469
3.276,-0.00928409534146557,-0.104548909470814
3.278,-0.0103295590274283,-0.104899660647331
3.28,-0.0113806655829189,-0.105239100117541
3.282,-0.0124372826889315,-0.105567197420875
3.284,-0.0134992785475039,-0.105883923660329
3.286,-0.0145665219414006,-0.106189251482141
3.288,-0.0156388822435793,-0.106483155054707
3.29,-0.016716229406444,-0.10676561005405
3.292,-0.0177984340108795,-0.107036593631522
3.294,-0.0188853672750694,-0.107296084404538
3.296,-0.0199769010430973,-0.10754406242808
3.298,-0.0210729078633266,-0.107780509175136
3.3,-0.0221732609065629,-0.1080054075171
3.302,-0.023277834083993,-0.108218741694112
3.304,-0.0243865019749046,-0.108420497324355
3.306,-0.025499139904181,-0.108610661312301
3.308,-0.0266156239195724,-0.108789221920909
3.31,-0.0277358308087436,-0.10895616865678
3.312,-0.0288596381260936,-0.109111492339266
3.314,-0.0299869241793492,-0.109255184979538
3.316,-0.0311175680659303,-0.109387239849612
3.318,-0.0322514496690851,-0.109507651401338
3.32,-0.0333884496837966,-0.109616415265347
3.322,-0.0345284496024548,-0.10971352820997
3.324,-0.0356713317503,-0.109798988160114
3.326,-0.0368169792806287,-0.109872794136115
3.328,-0.0379652761697676,-0.109934946222557
3.33,-0.0391161072518108,-0.109985445607062
3.332,-0.0402693582331197,-0.110024294469061
3.334,-0.0414249156565866,-0.110051496028533
3.336,-0.0425826669356579,-0.110067054494734
3.338,-0.0437425003781199,-0.110070975034898
3.34,-0.0449043051696418,-0.110063263782927
3.342,-0.0460679713570787,-0.110043927758069
3.344,-0.0472333899215325,-0.110012974923582
3.346,-0.0484004527211691,-0.10997041408539
3.348,-0.0495690525037924,-0.109916254910737
3.35,-0.0507390829391745,-0.109850507896833
3.352,-0.0519104386111391,-0.10977318433951
3.354,-0.0530830149994019,-0.109684296341868
3.356,-0.0542567085211626,-0.109583856732934
3.358,-0.055431416492452,-0.109471879106336
3.36,-0.0566070371492309,-0.109348377748973
3.362,-0.0577834696682427,-0.109213367649717
3.364,-0.0589606141176179,-0.109066864478121
3.366,-0.0601383715072302,-0.108908884513155
3.368,-0.0613166437688058,-0.108739444691963
3.37,-0.0624953337557843,-0.108558562528649
3.372,-0.0636743452229304,-0.108366256133093
3.374,-0.064853582875699,-0.108162544149799
3.376,-0.0661142794493517,-0.107885601456789
3.378,-0.0674544553978254,-0.107532798494525
3.38,-0.0687920260723536,-0.107165142524884
3.382,-0.0701268564898408,-0.106782685570176
3.384,-0.0714588128409898,-0.106385480422217
3.386,-0.072787762478183,-0.105973580651452
3.388,-0.0741135738731176,-0.105547040596132
3.39,-0.0754361166641968,-0.105105915301564
3.392,-0.0767552616336751,-0.104650260549411
3.394,-0.0780708806845613,-0.104180132767071
3.396,-0.0793828468672789,-0.103695589107117
3.398,-0.0806910343460836,-0.103196687316819
3.4,-0.0819953184052416,-0.102683485797741
3.402,-0.0832955754549673,-0.102156043555418
3.404,-0.0845916830071228,-0.101614420179119
3.406,-0.085883519680681,-0.101058675841696
3.408,-0.0871709651669514,-0.100488871239527
3.41,-0.0884539002745735,-0.0999050676225482
3.412,-0.0897322068842752,-0.0993073267343908
3.414,-0.0910057679334017,-0.098695710822613
3.416,-0.0922744674502134,-0.0980702826190389
3.418,-0.0935381904879561,-0.0974311053002035
3.42,-0.0947968231787057,-0.096778242487909
3.422,-0.0960502526669875,-0.0961117582198942
3.424,-0.0972983671431732,-0.0954317169606215
3.426,-0.0985410558066585,-0.0947381835421821
3.428,-0.0997782088788204,-0.0940312231853253
3.43,-0.10100971756576,-0.0933109014706132
3.432,-0.10223547408083,-0.0925772843097041
3.434,-0.10345537160695,-0.0918304379567668
3.436,-0.104669304288714,-0.0910704289600308
3.438,-0.10587716724429,-0.0902973241834724
3.44,-0.10707885653711,-0.0895111907586401
3.442,-0.108274269147369,-0.0887120961166244
3.444,-0.109463303013311,-0.087900107910172
3.446,-0.110645856942326,-0.0870752940559466
3.448,-0.111821830681852,-0.0862377226969414
3.45,-0.112991124840078,-0.0853874621950431
3.452,-0.11415364092647,-0.0845245811037533
3.454,-0.115309281292099,-0.0836491482110626
3.456,-0.116457949149792,-0.082761232442489
3.458,-0.117599548554099,-0.0818609029142755
3.46,-0.118733984381083,-0.0809482289167522
3.462,-0.119861162317938,-0.0800232798578639
3.464,-0.12098098885243,-0.0790861253368663
3.466,-0.122093371262171,-0.0781368350181916
3.468,-0.123198217593729,-0.0771754787554849
3.47,-0.124295436671573,-0.0762021264758152
3.472,-0.125384938036857,-0.075216848214061
3.474,-0.126466631985052,-0.0742197141174719
3.476,-0.127540429525415,-0.0732107944104097
3.478,-0.128606242372321,-0.0721901594092679
3.48,-0.129663982931433,-0.0711578794775729
3.482,-0.130713564287739,-0.0701140250912679
3.484,-0.131754900189443,-0.0690586667541796
3.486,-0.132787905034717,-0.0679918750336702
3.488,-0.13381249386032,-0.066913720556476
3.49,-0.134828582320988,-0.065824273994731
3.492,-0.135836086683289,-0.0647236060521817
3.494,-0.13683492380686,-0.0636117874605867
3.496,-0.137825011131518,-0.0624888890163098
3.498,-0.13880626666175,-0.0613549815171005
3.5,-0.139778608956695,-0.0602101357890673
3.502,-0.140757193876905,-0.0587547682238418
3.504,-0.141720322965001,-0.0572879825059366
3.506,-0.142667901608225,-0.0558099309002922
3.508,-0.14359983641288,-0.0543207659900223
3.51,-0.144516035217682,-0.052820640694346
3.512,-0.145416407094008,-0.051309708236722
3.514,-0.146300862303046,-0.0497881221631669
3.516,-0.147169312311868,-0.0482560363707762
3.518,-0.148021669789399,-0.0467136050064341
3.52,-0.148857848592312,-0.0451609825757183
3.522,-0.14967776376084,-0.043598323852002
3.524,-0.150481331504503,-0.0420257839257435
3.526,-0.151268469207766,-0.040443518183978
3.528,-0.152039095425619,-0.0388516822999936
3.53,-0.152793129859091,-0.0372504322432092
3.532,-0.153530493360692,-0.0356399242692393
3.534,-0.154251107919791,-0.0340203149101533
3.536,-0.154954896687937,-0.0323917610049288
3.538,-0.155641783934115,-0.0307544196600921
3.54,-0.156311695049947,-0.0291084482505565
3.542,-0.156964556564837,-0.0274540044506422
3.544,-0.157600296111071,-0.0257912462052955
3.546,-0.15821884244886,-0.0241203317414915
3.548,-0.15882012543134,-0.022441419539824
3.55,-0.159404076019527,-0.0207546683762911
3.552,-0.159970626287233,-0.0190602372942567
3.554,-0.160519709385937,-0.0173582856066112
3.556,-0.161051259549626,-0.0156489728981034
3.558,-0.16156521212959,-0.0139324590278702
3.56,-0.1620615035192,-0.0122089041221415
3.562,-0.162540071238638,-0.0104784685971291
3.564,-0.163000853849611,-0.00874131310210192
3.566,-0.163443791000032,-0.00699759859263499
3.568,-0.163868823398681,-0.00524748628404571
3.57,-0.164275892829837,-0.00349113765500232
3.572,-0.164664942147895,-0.00172871447131519
3.574,-0.165035915251959,3.96212300993598E-05
3.576,-0.165388757130424,0.00181370716707503
3.578,-0.165723413805535,0.00359338073788076
3.58,-0.166039832357937,0.00537847910673142
3.582,-0.166337960931214,0.00716883912912336
3.584,-0.166617748736408,0.0089642974270036
3.586,-0.166879146016542,0.010764690303763
3.588,-0.167122104081126,0.0125698537990656
3.59,-0.167346575270656,0.0143796236835052
3.592,-0.167552513011119,0.0161938354430983
3.594,-0.167739871758476,0.0180123242836098
3.596,-0.167908607023162,0.0198349251247132
3.598,-0.16805867535457,0.0216614726039888
3.6,-0.168190034385546,0.0234918010907564
3.602,-0.168302642776871,0.02532574463975
3.604,-0.168396460241764,0.0271631370446279
3.606,-0.168471447570371,0.0290038118113261
3.608,-0.168527566594269,0.0308476021412533
3.61,-0.168564780190967,0.0326943409743241
3.612,-0.168583052318424,0.0345438609318421
3.614,-0.168582347989562,0.0363959943592209
3.616,-0.168562633266793,0.0382505733085552
3.618,-0.168523875306557,0.0401074295510352
3.62,-0.168466042303862,0.0419663945392084
3.622,-0.168389103536841,0.0438272994490922
3.624,-0.168293029361316,0.0456899751721294
3.626,-0.168177791205374,0.0475542522770003
3.628,-0.168043361583958,0.0494199610512785
3.63,-0.167889714083464,0.0512869315029435
3.632,-0.16771682337636,0.0531549933017395
3.634,-0.167524665245813,0.0550239758603919
3.636,-0.16731321655033,0.0568937082756742
3.638,-0.167082455268419,0.058764019359327
3.64,-0.166832360443262,0.0606347375888366
3.642,-0.166562912277402,0.0625056911980615
3.644,-0.16627409205745,0.0643767080777213
3.646,-0.16596588217881,0.0662476158457356
3.648,-0.165638266190417,0.0681182418174223
3.65,-0.165291228739491,0.0699884130055533
3.652,-0.164924755626321,0.0718579561402641
3.654,-0.164538833789052,0.0737266976288236
3.656,-0.164133451298504,0.0755944636252603
3.658,-0.163708597393001,0.0774610799498474
3.66,-0.163264262453227,0.0793263721584444
3.662,-0.162800438027095,0.0811901655016982
3.664,-0.162317116844644,0.0830522849341042
3.666,-0.161814292802955,0.0849125551329217
3.668,-0.16129196097108,0.0867708004969533
3.67,-0.160750117615012,0.0886268451251775
3.672,-0.160188760222651,0.0904805128252457
3.674,-0.159607887438821,0.0923316271418321
3.676,-0.159007499150287,0.094180011344847
3.678,-0.15838759645081,0.0960254884075057
3.68,-0.157748181666222,0.0978678810442561
3.682,-0.157089258359522,0.099707011691566
3.684,-0.156410831306004,0.101542702522565
3.686,-0.155712906548403,0.10337477544455
3.688,-0.154995491402081,0.105203052101339
3.69,-0.154258594400222,0.107027353882492
3.692,-0.153502225399068,0.10884750192038
3.694,-0.152726395493179,0.110663317097617
3.696,-0.151931117080723,0.112474620052344
3.698,-0.151116403868794,0.11428123117787
3.7,-0.150282270828761,0.116082970632167
3.702,-0.149428734291652,0.11787965834072
3.704,-0.148555811873566,0.119671113999235
3.706,-0.147663522531118,0.121457157079693
3.708,-0.146751886566922,0.123237606838263
3.71,-0.145820925615106,0.125012282321066
3.712,-0.144870662666863,0.126781002352791
3.714,-0.143901122076036,0.128543585583161
3.716,-0.142912329574754,0.130299850451253
3.718,-0.141904312269087,0.132049615190665
3.72,-0.140877098664759,0.133792697894533
3.722,-0.139830718642896,0.135528916440401
3.724,-0.138765203515811,0.137258088554932
3.726,-0.137680585992847,0.138980031808477
3.728,-0.13657690020625,0.140694563599476
3.73,-0.135454181737102,0.142401501188726
3.732,-0.134312467591294,0.144100661713475
3.734,-0.133151796245554,0.145791862141371
3.736,-0.131972207603523,0.14747491934426
3.738,-0.130773743071887,0.149149650091815
3.74,-0.129556445496564,0.150815871005021
3.742,-0.12832035924894,0.152473398639496
3.744,-0.127065530162181,0.154122049448657
3.746,-0.12579200557758,0.155761639816726
3.748,-0.124499834370992,0.157391986051579
3.75,-0.123189066909317,0.159012904377433
3.752,-0.121390290637049,0.160517010307379
3.754,-0.119574541442903,0.162000827315746
3.756,-0.117742025526503,0.163464177800315
3.758,-0.115892950895149,0.164906885954361
3.76,-0.11402752732065,0.166328777748542
3.762,-0.112145966366245,0.167729681022623
3.764,-0.110248481373594,0.169109425427039
3.766,-0.108335287399852,0.170467842474293
3.768,-0.106406601284834,0.171804765590194
3.77,-0.104462641548255,0.173120030084936
3.772,-0.102503628457068,0.174413473174004
3.774,-0.100529783972887,0.175684934038929
3.776,-0.0985413317195115,0.176934253807872
3.778,-0.0965384970305383,0.178161275596051
3.78,-0.0945215068670784,0.179365844505997
3.782,-0.0924905898655759,0.180547807657659
3.784,-0.0904459762557272,0.181707014228338
3.786,-0.0883878979285144,0.18284331542246
3.788,-0.086316588324341,0.183956564541191
3.79,-0.0842322825212879,0.18504661694189
3.792,-0.0821352171234817,0.186113330147396
3.794,-0.0800256303095802,0.187156563755159
3.796,-0.0779037618113863,0.188176179546217
3.798,-0.0757698528425781,0.189172041463997
3.8,-0.0736241461575756,0.190144015622979
3.802,-0.0714668859905306,0.191091970337182
3.804,-0.0692983180244558,0.192015776178513
3.806,-0.0671186894404888,0.192915305904944
3.808,-0.0649282488172946,0.19379043456854
3.81,-0.0627272461606165,0.194641039493342
3.812,-0.0605159328929656,0.195467000273084
3.814,-0.058294561793467,0.196268198838766
3.816,-0.0560633870278536,0.197044519426079
3.818,-0.0538226640886182,0.197795848632679
3.82,-0.0515726498153216,0.198522075405314
3.822,-0.0493136023150661,0.199223091066807
3.824,-0.0470457810231314,0.199898789352898
3.826,-0.0447694466237782,0.200549066398939
3.828,-0.0424848610312263,0.201173820766457
3.83,-0.0401922874108015,0.201772953469572
3.832,-0.0378919901202668,0.202346367961281
3.834,-0.0355842346913266,0.202893970209617
3.836,-0.0332692878513207,0.203415668643664
3.838,-0.0309474174351014,0.203911374209451
3.84,-0.0286188924170986,0.204381000385718
3.842,-0.0262839828635828,0.204824463179559
3.844,-0.0239429599051167,0.205241681141942
3.846,-0.0215960957492115,0.205632575423111
3.848,-0.0192436636231784,0.205997069727873
3.85,-0.0168859377671884,0.206335090370769
3.852,-0.0145231933975368,0.20664656628114
3.854,-0.0121557067101163,0.206931429008082
3.856,-0.00978375481410537,0.207189612745299
3.858,-0.0074076157558671,0.20742105434585
3.86,-0.00502756847306996,0.207625693306812
3.862,-0.00264389276902251,0.20780347182383
3.864,-0.000256869277237292,0.207954334785595
3.866,0.00213322052378631,0.208078229798219
3.868,0.00452609438554981,0.208175107209539
3.87,0.00692146927431373,0.208244919963332
3.872,0.00931906140562611,0.208287623863459
3.874,0.011718586298615,0.208303177457938
3.876,0.0141197587500479,0.20829154212294
3.878,0.0165222929081517,0.208252681946732
3.88,0.0189259022661941,0.208186563713551
3.882,0.0213302996958249,0.208093157087426
3.884,0.0237351974901714,0.207972434695946
3.886,0.0261403073666924,0.207824371613981
3.888,0.0285453404987834,0.207648946147357
3.89,0.030950007559138,0.207446139316497
3.892,0.0333540187278547,0.20721593474002
3.894,0.0357570837222997,0.206958319318317
3.896,0.0381589118317148,0.206673282417091
3.898,0.0405592119378728,0.206360816550888
3.9,0.0429576925426828,0.206020917166602
