"Freq [GHz]","re(S(Antenna1_1_1,Antenna1_1_1)) []","im(S(Antenna1_1_1,Antenna1_1_1)) []"
5,0.0416522386321618,0.174170433952599
5.0016,0.0424124121471198,0.17358096965359
5.0032,0.0431696285001228,0.172988136207465
5.0048,0.0439238777933516,0.172391936380146
5.0064,0.0446751502924292,0.171792373433806
5.008,0.0454234364686365,0.171189451101619
5.0096,0.0461687270481258,0.17058317355052
5.0112,0.0469110130501369,0.169973545341972
5.0128,0.0476502858312083,0.169360571393739
5.0144,0.0483865371203916,0.168744256935669
5.016,0.0491197590514617,0.168124607463483
5.0176,0.0498499441991303,0.167501628689567
5.0192,0.050577085599256,0.166875326495782
5.0208,0.0513011767790568,0.166245706877263
5.0224,0.0520222117743198,0.165612775892243
5.024,0.0527401851486147,0.16497653960187
5.0256,0.0534550920025033,0.164337004019039
5.0272,0.054166927986753,0.163694175045218
5.0288,0.0548756893035477,0.163048058416296
5.0304,0.0555813727117015,0.162398659639422
5.032,0.0562839755208713,0.161745983936858
5.0336,0.0569834955877714,0.161090036179829
5.0352,0.0576799313013865,0.160430820839393
5.0368,0.0583732815701893,0.159768341913295
5.0384,0.0590635458043542,0.159102602880843
5.04,0.0597507238899766,0.158433606634781
5.0416,0.0604348161632889,0.157761355427164
5.0432,0.0611158233798815,0.157085850816244
5.0448,0.0617937466809206,0.156407093609351
5.0464,0.0624685875503715,0.155725083810789
5.048,0.063140347777219,0.155039820571723
5.0496,0.0638090294076924,0.154351302143078
5.0512,0.0644746346944887,0.153659525826437
5.0528,0.065137166047,0.152964487934945
5.0544,0.0657966259705384,0.152266183748714
5.056,0.0664530170135664,0.151564607480628
5.0576,0.0671063416969258,0.150859752240655
5.0592,0.0677566024600677,0.150151610005261
5.0608,0.0684038015842864,0.149440171590218
5.0624,0.0690479411269507,0.148725426627329
5.064,0.0696890228497408,0.148007363544437
5.0656,0.0703270481438825,0.147285969550122
5.0672,0.0709620179573859,0.146561230622065
5.0688,0.0715939327122826,0.145833131499977
5.0704,0.0722227922348669,0.145101655682414
5.072,0.0728485956669355,0.144366785428758
5.0736,0.0734713413940305,0.143628501765068
5.0752,0.0740910269596825,0.142886784495005
5.0768,0.0747076489876551,0.142141612214659
5.0784,0.0753212030991903,0.141392962333073
5.08,0.0759316838342557,0.140640811096971
5.0816,0.0765390845697913,0.139885133620083
5.0832,0.0771433974429594,0.139125903915267
5.0848,0.0777446132703928,0.138363094937342
5.0864,0.0783427214724462,0.137596678622004
5.088,0.0789377100004471,0.136826625936758
5.0896,0.0795295652579485,0.136052906932833
5.0912,0.0801182720359803,0.135275490800111
5.0928,0.0807038134363042,0.134494345931047
5.0944,0.0812861708146667,0.133709439983584
5.096,0.0818653237090544,0.13292073995208
5.0976,0.0824412497819481,0.132128212241218
5.0992,0.0830139247655789,0.131331822739925
5.1008,0.0835848653971832,0.130530666834285
5.1024,0.0841539933532593,0.129724622518451
5.104,0.0847197159268221,0.128914497014557
5.1056,0.0852819974306605,0.128100256679622
5.1072,0.0858408000315928,0.127281867868461
5.1088,0.0863960837157222,0.126459297034584
5.1104,0.0869478062626933,0.125632510832099
5.112,0.0874959232239464,0.124801476217609
5.1136,0.0880403879069735,0.123966160554113
5.1152,0.0885811513645716,0.123126531717893
5.1168,0.0891181623870981,0.122282558206406
5.1184,0.089651367503722,0.121434209244176
5.12,0.0901807109886783,0.120581454896672
5.1216,0.0907061348675174,0.119724266175194
5.1232,0.0912275789393577,0.118862615150747
5.1248,0.091744980794133,0.117996475059922
5.1264,0.0922582758418419,0.117125820419762
5.128,0.0927673973477939,0.116250627129632
5.1296,0.093272276467855,0.115370872584085
5.1312,0.0937728422946913,0.114486535775721
5.1328,0.0942690219080118,0.113597597404044
5.1344,0.0947607404308071,0.112704039970321
5.136,0.09524792108759,0.111805847888422
5.1376,0.0957304852736295,0.110903007573678
5.1392,0.0962083526221872,0.109995507540714
5.1408,0.0966814410867477,0.10908333849929
5.1424,0.097149667016249,0.108166493436137
5.144,0.0976129452433091,0.107244967705786
5.1456,0.0980711891754511,0.106318759108393
5.1472,0.0985243108883237,0.105387867966564
5.1488,0.0989722212259216,0.104452297199168
5.1504,0.0994148298997995,0.103512052390157
5.152,0.0998520456022865,0.10256714184737
5.1536,0.100283776108694,0.101617576668339
5.1552,0.100709928394523,0.100663370783094
5.1568,0.101130408748665,0.0997045410099543
5.1584,0.101545122896604,0.0987411070943234
5.16,0.101953976115606,0.0977730917444759
5.1616,0.102356873358917,0.0968005206633424
5.1632,0.102753719383945,0.0958234225712863
5.1648,0.103144418873445,0.0948418292278815
5.1664,0.103528876562699,0.0938557754386789
5.168,0.103906997373086,0.092865299068977
5.1696,0.104278686532857,0.0918704410345783
5.1712,0.104643849710098,0.0908712453055513
5.1728,0.105002393139489,0.0898677588839794
5.1744,0.105354223750362,0.0888600317927123
5.176,0.105699249292948,0.0878481170471076
5.1776,0.106037378464625,0.0868320706207728
5.1792,0.106368521033749,0.0858119514152981
5.1808,0.106692587961833,0.0847878212089906
5.1824,0.107009491523882,0.0837597446125977
5.184,0.107319145426114,0.0827277890120329
5.1856,0.107621464920724,0.0816920245080916
5.1872,0.107916366917713,0.0806525238461673
5.1888,0.108203770093185,0.0796093623509596
5.1904,0.108483594994753,0.0785626178421822
5.192,0.108755764141629,0.0775123705542625
5.1936,0.10902020212131,0.0764587030520422
5.1952,0.109276835683459,0.0754017001344678
5.1968,0.10952559382468,0.0743414487392842
5.1984,0.109766407871582,0.0732780378447166
5.2,0.109999211561839,0.0722115583611574
5.2016,0.110222663442245,0.0711387894008397
5.2032,0.110437846384758,0.0700631976185163
5.2048,0.110644703923538,0.0689848834661293
5.2064,0.11084318241198,0.0679039488004754
5.208,0.111033231068734,0.0668204967488743
5.2096,0.111214802014727,0.0657346315868248
5.2112,0.111387850307165,0.0646464586066666
5.2128,0.111552333964538,0.0635560839832291
5.2144,0.111708213985612,0.0624636146444872
5.216,0.111855454360412,0.0613691581382047
5.2176,0.111994022076201,0.0602728224985826
5.2192,0.112123887117447,0.0591747161138966
5.2208,0.112245022453784,0.0580749475961399
5.2224,0.112357404026966,0.0569736256456558
5.224,0.112461010728806,0.0558708589257732
5.2256,0.112555824375114,0.0547667559334356
5.2272,0.112641829664625,0.0536614248698306
5.2288,0.112719014143911,0.0525549735240136
5.2304,0.112787368156296,0.0514475091435337
5.232,0.112846884788752,0.050339138322052
5.2336,0.112897559812791,0.0492299668839637
5.2352,0.112939391618349,0.0481200997720115
5.2368,0.112972381143653,0.0470096409399048
5.2384,0.112996531796092,0.0458986932539284
5.24,0.113011849377064,0.0447873583905583
5.2416,0.113018341989828,0.0436757367460688
5.2432,0.113016019949333,0.0425639273461428
5.2448,0.113004895692049,0.0414520277664773
5.2464,0.112984983673779,0.0403401340523914
5.248,0.11295630026547,0.0392283406504286
5.2496,0.112918863650006,0.0381167403409641
5.2512,0.112872693716,0.037005424180803
5.2528,0.112817811938568,0.0358944814467869
5.2544,0.112754241273097,0.034783999594394
5.256,0.112682006038004,0.0336740642153377
5.2576,0.112601131793486,0.0325647590021714
5.2592,0.112511645229252,0.031456165726885
5.2608,0.112413574039255,0.030348364215508
5.2624,0.112306946807412,0.0292414323387075
5.264,0.112191792885306,0.0281354460063908
5.2656,0.112068142273886,0.027030479165303
5.2672,0.111936025501157,0.0259266038066312
5.2688,0.111795473510853,0.0248238899846029
5.2704,0.111646517543107,0.0237224058320909
5.272,0.111489189017104,0.0226222175912135
5.2736,0.111323519424733,0.0215233896469405
5.2752,0.111149540217217,0.0204259845656961
5.2768,0.110967282700741,0.0193300631449673
5.2784,0.110776777930071,0.018235684460908
5.28,0.110578056611152,0.0171429059309507
5.2816,0.110371149005707,0.0160517833784145
5.2832,0.110156084836823,0.0149623710961197
5.2848,0.10993289320452,0.0138747219269984
5.2864,0.109701602499316,0.0127888873400137
5.288,0.109462240331784,0.0117049175147749
5.2896,0.109214833453089,0.0106228614307606
5.2912,0.108959407691524,0.00954276695893792
5.2928,0.108695987896031,0.0084646809576916
5.2944,0.108424597872711,0.00738864937244798
5.296,0.10814526034433,0.00631471733810963
5.2976,0.107857996904804,0.00524292928418508
5.2992,0.107562827981683,0.00417332904217946
5.3008,0.107258282668622,0.00310620633801079
5.3024,0.106944402694839,0.0020416816786062
5.304,0.106622704643566,0.000979575801947603
5.3056,0.106293206079488,-8.00704507290995E-05
5.3072,0.105955923234174,-0.00113721626687665
5.3088,0.105610871013495,-0.00219182074421202
5.3104,0.105258063018033,-0.00324384277185102
5.312,0.104897511564482,-0.0042932409145445
5.3136,0.104529227719035,-0.00533997329630536
5.3152,0.104153221331765,-0.00638399748773608
5.3168,0.103769501086994,-0.00742527039494669
5.3184,0.103378074550652,-0.00846374815047232
5.32,0.102978948234624,-0.00949938601058247
5.3216,0.102572127654097,-0.0105321382499891
5.3232,0.102157617406883,-0.0115619580686439
5.3248,0.101735421245741,-0.0125887974930385
5.3264,0.101305542166693,-0.0136126072934905
5.328,0.100867982492317,-0.0146333368944317
5.3296,0.100422743969048,-0.0156509343016839
5.3312,0.0999698278674505,-0.016665346023737
5.3328,0.099509235083502,-0.0176765170090117
5.3344,0.0990409662498495,-0.0186843905831257
5.336,0.0985650218450678,-0.019688908392146
5.3376,0.0980814023109041,-0.0206900103588411
5.3392,0.0975901081725155,-0.0216876346389221
5.3408,0.0970911401586956,-0.0226817175862819
5.3424,0.0965844993260949,-0.023672193727223
5.344,0.0960701871874299,-0.0246589957396837
5.3456,0.0955482058396854,-0.0256420544414524
5.3472,0.0950185580913068,-0.0266212987873812
5.3488,0.0944812475963857,-0.0275966558665848
5.3504,0.0939362789798344,-0.0285680509196414
5.352,0.0933836579745557,-0.0295354073517775
5.3536,0.092823391544601,-0.0304986467630518
5.3552,0.0922554880203226,-0.0314576889765293
5.3568,0.0916799572245173,-0.0324124520854481
5.3584,0.0910968105955617,-0.033362852497379
5.36,0.0905060613135412,-0.0343088049943756
5.3616,0.0899077244243687,-0.0352502227921216
5.3632,0.0893018169518991,-0.0361870176160631
5.3648,0.0886883580180333,-0.0371190997755403
5.3664,0.0880673689488169,-0.038046378248905
5.368,0.0874388733865307,-0.0389687607796348
5.3696,0.0868028973867747,-0.0398861539664357
5.3712,0.0861594695165442,-0.0407984633763395
5.3728,0.085508620948301,-0.0417055936457887
5.3744,0.0848503855440344,-0.0426074486057189
5.376,0.0841847999333202,-0.0435039313946264
5.3776,0.0835119035903687,-0.0443949445896328
5.3792,0.0828317388990697,-0.0452803903345363
5.3808,0.0821443512130292,-0.0461601704788583
5.3824,0.0814497889086011,-0.0470341867098788
5.384,0.0807481034319125,-0.0479023407036636
5.3856,0.0800393493348835,-0.0487645342640827
5.3872,0.0793235843072399,-0.0496206694748214
5.3888,0.0786008691955233,-0.0504706488463785
5.3904,0.0778712680230916,-0.0513143754750607
5.392,0.0771348479921191,-0.0521517531899621
5.3936,0.0763916794825855,-0.0529826867119415
5.3952,0.0756418360412667,-0.0538070818095831
5.3968,0.0748853943657138,-0.0546248454511551
5.3984,0.0741224342742335,-0.0554358859635522
5.4,0.0733530386718582,-0.0562401131852362
5.4016,0.0725769777253171,-0.0570331551051602
5.4032,0.0717948149539979,-0.0578191753456897
5.4048,0.0710066451879086,-0.0585980932635083
5.4064,0.0702125660516321,-0.0593698305585199
5.408,0.0694126778642774,-0.0601343114057384
5.4096,0.0686070835465291,-0.0608914626041675
5.4112,0.0677958885087914,-0.0616412137026718
5.4128,0.0669792005389278,-0.0623834971328406
5.4144,0.0661571296800997,-0.0631182483328386
5.416,0.0653297881026996,-0.0638454058582503
5.4176,0.0644972899694845,-0.0645649114969114
5.4192,0.0636597512950012,-0.0652767103707355
5.4208,0.0628172897990129,-0.0659807510285279
5.4224,0.0619700247551919,-0.0666769855377906
5.424,0.0611180768344917,-0.0673653695645163
5.4256,0.0602615679445605,-0.0680458624409794
5.4272,0.0594006210644605,-0.0687184272355087
5.4288,0.0585353600770299,-0.0693830308032566
5.4304,0.057665909597226,-0.0700396438349565
5.432,0.0567923947979312,-0.0706882408916731
5.4336,0.0559149412349659,-0.0713288004355402
5.4352,0.05503367466829,-0.0719613048504925
5.4368,0.0541487208860138,-0.0725857404459835
5.4384,0.0532602055206962,-0.0732020974647004
5.44,0.0523682538750511,-0.0738103700682644
5.4416,0.0514729907416469,-0.074410556324925
5.4432,0.0505745402248103,-0.0750026581732419
5.4448,0.0496730255615239,-0.0755866813967621
5.4464,0.048768568954326,-0.0761626355686851
5.448,0.047861291393211,-0.0767305340015192
5.4496,0.0469513124895293,-0.077290393681728
5.4512,0.0460387503108831,-0.0778422351993721
5.4528,0.0451237212180263,-0.0783860826637378
5.4544,0.0442063397117656,-0.0789219636169562
5.456,0.043286718274856,-0.0794499089356191
5.4576,0.0423649672299017,-0.0799699527223804
5.4592,0.0414411945992565,-0.0804821321995522
5.4608,0.0405155059639249,-0.0809864875836895
5.4624,0.0395880043414612,-0.0814830619591708
5.464,0.0386587900618713,-0.0819719011497671
5.4656,0.0377279606525188,-0.0824530535722013
5.4672,0.0367956107300275,-0.0829265700977026
5.4688,0.0358618319061853,-0.0833925038955518
5.4704,0.0349267126928519,-0.0838509102836176
5.472,0.0339903384188678,-0.0843018465638848
5.4736,0.033052791159964,-0.0847453718629747
5.4752,0.032114149670671,-0.0851815469606596
5.4768,0.0311744893262342,-0.085610434124367
5.4784,0.0302338820825273,-0.0860320969326773
5.48,0.0292923964299722,-0.0864466001048129
5.4816,0.0283500973694536,-0.0868540093231224
5.4832,0.0274070463952446,-0.0872543910535545
5.4848,0.0264633014789261,-0.0876478123721265
5.4864,0.0255189170753185,-0.088034340786384
5.488,0.0245739441284041,-0.088414044059856
5.4896,0.0236284300902618,-0.088786990033501
5.4912,0.0226824189509994,-0.089153246455147
5.4928,0.0217359512736923,-0.089512880806924
5.4944,0.0207890642393202,-0.0898659601356919
5.496,0.0198417917047105,-0.0902125508864601
5.4976,0.0188941642674841,-0.0905527187428011
5.4992,0.0179462093310046,-0.0908865284652576
5.5008,0.0169979511923279,-0.0912140437417453
5.5024,0.0160494111271583,-0.0915353270349476
5.504,0.0151006074868083,-0.0918504394407041
5.5056,0.0141515558001584,-0.0921594405513962
5.5072,0.0132022688866219,-0.0924623883263248
5.5088,0.0122527569691154,-0.0927593389620827
5.5104,0.0113030278030314,-0.0930503467809213
5.512,0.0103530868002122,-0.0933354641151148
5.5136,0.00940293716593128,-0.0936147412103155
5.5152,0.00845258003887614,-0.0938882261249073
5.5168,0.00750201463413792,-0.0941559646493513
5.5184,0.00655123839219857,-0.0944180002225308
5.52,0.0056002471319303,-0.0946743738650879
5.5216,0.00464903520359081,-0.0949251241202581
5.5232,0.00369759564683183,-0.095170286998599
5.5248,0.00274592035370084,-0.0954098959375172
5.5264,0.00179400022465573,-0.0956439817670886
5.528,0.000841825335578759,-0.0958725726860775
5.5296,-0.000110614901201014,-0.0960956942465489
5.5312,-0.00106333157188815,-0.0963133693486812
5.5328,-0.0020163361011887,-0.0965256182438717
5.5344,-0.00296964009028185,-0.0967324585476726
5.536,-0.00392325515277807,-0.0969339052620498
5.5376,-0.00487719276168378,-0.0971299708060329
5.5392,-0.00583146409135338,-0.0973206650557102
5.5408,-0.00678607986244116,-0.0975059953930713
5.5424,-0.00774105019984538,-0.0976859667631168
5.544,-0.00869638447865299,-0.097860581739438
5.5456,-0.00965209119107735,-0.0980298405977021
5.5472,-0.0106081778063902,-0.0981937413977362
5.5488,-0.0115646506428512,-0.0983522800718092
5.5504,-0.0125215147396345,-0.0985054505215133
5.552,-0.0134787737447489,-0.0986532447209431
5.5536,-0.0144364297959528,-0.0987956528248715
5.5552,-0.0153944834186685,-0.0989326632864291
5.5568,-0.0163529334318911,-0.0990642629788775
5.5584,-0.0173117768510915,-0.0991904373193855
5.56,-0.0182710088101141,-0.0993111704053014
5.5616,-0.0192306224860774,-0.0994264451434285
5.5632,-0.020190609035263,-0.0995362433982964
5.5648,-0.0211509575300048,-0.0996405461294347
5.5664,-0.0221116549155704,-0.099739333539645
5.568,-0.0230726859690451,-0.0998325852232747
5.5696,-0.0240340332672062,-0.0999202803204892
5.5712,-0.0249956771653955,-0.100002397662545
5.5728,-0.025957595783386,-0.100078915933066
5.5744,-0.0269197650082525,-0.100149813813313
5.576,-0.0278821584912281,-0.100215070140465
5.5776,-0.0288447476705652,-0.100274664061892
5.5792,-0.0298075017903861,-0.100328575180433
5.5808,-0.0307703879365398,-0.100376783708678
5.5824,-0.0317333710814468,-0.100419270613244
5.584,-0.0326964141279436,-0.100456017764058
5.5856,-0.0336594779771243,-0.100487008069642
5.5872,-0.0346225215921812,-0.100512225619401
5.5888,-0.0355855020732384,-0.100531655812904
5.5904,-0.0365483747481866,-0.100545285492178
5.592,-0.0375110932565099,-0.100553103062003
5.5936,-0.0384736096581171,-0.100555098610199
5.5952,-0.0394358745291656,-0.100551264015931
5.5968,-0.040397837085883,-0.100541593057003
5.5984,-0.0413594452973876,-0.100526081509164
5.6,-0.0423206460135081,-0.100504727234415
5.6016,-0.0432800246345992,-0.100481512484314
5.6032,-0.0442390170173539,-0.100452470150291
5.6048,-0.0451975649726185,-0.100417603432964
5.6064,-0.0461556099012032,-0.100376918166459
5.608,-0.0471130929536916,-0.100330422850727
5.6096,-0.0480699552032449,-0.100278128675881
5.6112,-0.0490261378164144,-0.100220049535516
5.6128,-0.0499815822259445,-0.100156202028053
5.6144,-0.050936230298578,-0.100086605454071
5.616,-0.0518900245138565,-0.100011281791653
5.6176,-0.0528429081249305,-0.0999302556757341
5.6192,-0.0537948253363582,-0.0998435543554526
5.6208,-0.0547457214629085,-0.0997512076465069
5.6224,-0.0556955431003631,-0.0996532478755164
5.624,-0.0566442382793213,-0.0995497098113884
5.6256,-0.0575917566260011,-0.0994406305866891
5.6272,-0.0585380495120433,-0.099326049611019
5.6288,-0.059483070201313,-0.0992060084773951
5.6304,-0.0604267739937084,-0.0990805508556367
5.632,-0.0613691183549623,-0.0989497223807577
5.6336,-0.0623100630544524,-0.0988135705303625
5.6352,-0.0632495702750043,-0.0986721444980502
5.6368,-0.0641876047407065,-0.0985254950568216
5.6384,-0.0651241338107184,-0.0983736744144931
5.64,-0.066059127587085,-0.0982167360641162
5.6416,-0.0669925590005495,-0.098054734634403
5.6432,-0.0679244038913747,-0.0978877257191564
5.6448,-0.068854641081161,-0.0977157657227078
5.6464,-0.0697832524376699,-0.0975389116783591
5.648,-0.0707102229215472,-0.0973572210848327
5.6496,-0.0716355406358578,-0.097170751722725
5.6512,-0.0725591968530137,-0.0969795614749681
5.6528,-0.0734811860390099,-0.0967837081462972
5.6544,-0.0744015058647665,-0.0965832492797231
5.656,-0.0753201572072723,-0.0963782419690124
5.6576,-0.0762371441400338,-0.0961687426771728
5.6592,-0.0771524739130234,-0.0959548070479458
5.6608,-0.0780661569221432,-0.0957364897233042
5.6624,-0.0789782066681481,-0.0955138441619571
5.664,-0.0798886397051988,-0.0952869224538612
5.6656,-0.0807974755787619,-0.0950557751477383
5.6672,-0.0817047367537653,-0.0948204510735981
5.6688,-0.082610448532594,-0.0945809971692688
5.6704,-0.0835146389631204,-0.0943374583159337
5.672,-0.0844173387375981,-0.094089877176674
5.6736,-0.085318581081972,-0.0938382940360173
5.6752,-0.0862184016363862,-0.0935827466534935
5.6768,-0.0871168383269044,-0.0933232701131962
5.6784,-0.0880139312297331,-0.0930598966943512
5.68,-0.0889097224254593,-0.0927926557328896
5.6816,-0.0898042558483907,-0.0925215735040293
5.6832,-0.0906975771298052,-0.0922466731068609
5.6848,-0.0915897334263096,-0.0919679743569408
5.6864,-0.0924807732578084,-0.0916854936908891
5.688,-0.0933707463214791,-0.0913992440799951
5.6896,-0.094259703314759,-0.0911092349498272
5.6912,-0.0951476957493377,-0.0908154721138504
5.6928,-0.0960347757561667,-0.0905179577160472
5.6944,-0.0969209958974709,-0.0902166901805468
5.696,-0.0978064089637772,-0.0899116641782575
5.6976,-0.0986910677819465,-0.0896028705985075
5.6992,-0.0995750250082261,-0.0892902965336878
5.7008,-0.100458332930305,-0.0889739252729025
5.7024,-0.101341043262384,-0.0886537363126252
5.704,-0.102223206947256,-0.0883297053683574
5.7056,-0.103104873952405,-0.0880018044092948
5.7072,-0.103986093069104,-0.0876700016889973
