"Freq [GHz]","re(S(Antenna1_1_1,Antenna1_1_1)) []","im(S(Antenna1_1_1,Antenna1_1_1)) []"
5,0.0458913488134618,0.176993460181599
5.0016,0.0466920375665198,0.17630872614759
5.0032,0.0474876395429428,0.175620551306465
5.0048,0.0482781785073886,0.174928988038146
5.0064,0.0490636797573192,0.174234086767806
5.008,0.0498441700260965,0.173535895891619
5.0096,0.0506196773808258,0.17283446168352
5.0112,0.0513902311149369,0.172129828229972
5.0128,0.0521558616358083,0.171422037351739
5.0144,0.0529166003482916,0.170711128545669
5.016,0.0536724795335617,0.169997138925483
5.0176,0.0544235322242303,0.169280103170568
5.0192,0.055169792076456,0.168560053480782
5.0208,0.0559112932388568,0.167837019544263
5.0224,0.0566480702183198,0.167111028504243
5.024,0.0573801577449147,0.16638210493687
5.0256,0.0581075906337033,0.165650270842039
5.0272,0.058830403646453,0.164915545630218
5.0288,0.0595486313519477,0.164177946129296
5.0304,0.0602623079862015,0.163437486591422
5.032,0.0609714673129713,0.162694178710858
5.0336,0.0616761424843714,0.161948031649829
5.0352,0.0623763659038865,0.161199052073393
5.0368,0.0630721690891893,0.160447244186295
5.0384,0.0637635825393542,0.159692609785843
5.04,0.0644506356019766,0.158935148316781
5.0416,0.0651333563452889,0.158174856939164
5.0432,0.0658117714338815,0.157411730593244
5.0448,0.0664859060049206,0.156645762084351
5.0464,0.0671557835543715,0.155876942166789
5.048,0.067821425826219,0.155105259634723
5.0496,0.0684828526996924,0.154330701424078
5.0512,0.0691400820934887,0.153553252713437
5.0528,0.069793129869,0.152772897039945
5.0544,0.0704420097405384,0.151989616411214
5.056,0.0710867331935664,0.151203391429228
5.0576,0.0717273094099258,0.150414201415255
5.0592,0.0723637451960677,0.149622024538761
5.0608,0.0729960449272864,0.148826837954018
5.0624,0.0736242104899507,0.148028617937129
5.064,0.0742482412397408,0.147227340024337
5.0656,0.0748681339608825,0.146422979156752
5.0672,0.0754838828393859,0.145615509824265
5.0688,0.0760954794412826,0.144804906212377
5.0704,0.0767029127008669,0.143991142349214
5.072,0.0773061689159355,0.143174192253358
5.0736,0.0779052317510305,0.142354030081868
5.0752,0.0785000822526825,0.141530630277305
5.0768,0.0790906988696551,0.140703967713959
5.0784,0.0796770574811903,0.139874017843073
5.08,0.0802591314372557,0.139040756835071
5.0816,0.0808368916027913,0.138204161720183
5.0832,0.0814103064109594,0.137364210525767
5.0848,0.0819793419273928,0.136520882409942
5.0864,0.0825439619174462,0.135674157791504
5.088,0.0831041279214471,0.134824018475758
5.0896,0.0836597993419485,0.133970447775333
5.0912,0.0842109335299803,0.133113430625471
5.0928,0.0847574858843042,0.13225295369441
5.0944,0.0852994099536667,0.131389005487284
5.096,0.0858366575430544,0.13052157644393
5.0976,0.0863691788299481,0.129650659030018
5.0992,0.0868969224825789,0.128776247821325
5.1008,0.0874203681401832,0.127898092742585
5.1024,0.0879394351972593,0.127016156602051
5.104,0.0884535260298221,0.126130677261057
5.1056,0.0889625831026605,0.125241660567522
5.1072,0.0894665481435929,0.124349114814661
5.1088,0.0899653622807222,0.123453050772384
5.1104,0.0904589661836933,0.122553481708499
5.112,0.0909473002019464,0.121650423403709
5.1136,0.0914303045009734,0.120743894156513
5.1152,0.0919079192085716,0.119833914781193
5.1168,0.0923800845480981,0.118920508596906
5.1184,0.0928467409777221,0.118003701409076
5.12,0.0933078293256783,0.117083521482472
5.1216,0.0937632909225174,0.116159999506394
5.1232,0.0942130677343577,0.115233168552547
5.1248,0.094657102486133,0.114303064024722
5.1264,0.0950953387878419,0.113369723602062
5.128,0.0955277212527939,0.112433187174432
5.1296,0.095954195613855,0.111493496771585
5.1312,0.0963747088316913,0.110550696485521
5.1328,0.0967892091980118,0.109604832386844
5.1344,0.0971976464388071,0.108655952435221
5.136,0.09759997180559,0.107704106384422
5.1376,0.0979961381586295,0.106749345683678
5.1392,0.0983861000531872,0.105791723369714
5.1408,0.0987698138077477,0.10483129396229
5.1424,0.099147237571249,0.103868113347137
5.144,0.0995183313853091,0.102902238664786
5.1456,0.0998830572285511,0.101933728186393
5.1472,0.100241379068324,0.100962641197564
5.1488,0.100593262891022,0.099989037871168
5.1504,0.100938676732399,0.0990129791461571
5.152,0.101277590697486,0.0980345265993696
5.1536,0.101609976972594,0.0970537423203391
5.1552,0.101935809829923,0.0960706887880943
5.1568,0.102255065624165,0.0950854287389543
5.1584,0.102567722780504,0.0940980250513234
5.16,0.102873761776006,0.0931085406144759
5.1616,0.103173165112717,0.0921170382143424
5.1632,0.103465917283445,0.0911235804102864
5.1648,0.103752004730245,0.0901282294228814
5.1664,0.104031415795699,0.0891310470216789
5.168,0.104304140667786,0.088132094412977
5.1696,0.104570171317757,0.0871314321425783
5.1712,0.104829501431798,0.0861291199915512
5.1728,0.105082126336989,0.0851252168809794
5.1744,0.105328042921362,0.0841197807897124
5.176,0.105567249548448,0.0831128686621076
5.1776,0.105799745967925,0.0821045363377728
5.1792,0.106025533220259,0.0810948384762981
5.1808,0.106244613539033,0.0800838284979906
5.1824,0.106456990247582,0.0790715585185977
5.184,0.106662667654714,0.0780580793060329
5.1856,0.106861650945524,0.0770434402320916
5.1872,0.107053946071213,0.0760276892401674
5.1888,0.107239559637085,0.0750108728129596
5.1904,0.107418498788353,0.0739930359541822
5.192,0.107590771095829,0.0729742221762625
5.1936,0.10775638444144,0.0719544734890422
5.1952,0.107915346902929,0.0709338304074679
5.1968,0.10806766664012,0.0699123319592842
5.1984,0.108213351781822,0.0688900157017166
5.2,0.108352410314409,0.0678669177451574
5.2016,0.108484477593295,0.0668422854228397
5.2032,0.108609904912158,0.0658169560055163
5.2048,0.108728699524038,0.0647909619341293
5.2064,0.10884086809928,0.0637643343844754
5.208,0.108946416631834,0.0627371033378743
5.2096,0.109045350349727,0.0617092976418248
5.2112,0.109137673630065,0.0606809450916666
5.2128,0.109223389919638,0.0596520725032291
5.2144,0.109302501661012,0.0586227057984872
5.216,0.109375010224312,0.0575928700992047
5.2176,0.109440915844801,0.0565625898165826
5.2192,0.109500217567547,0.0555318887478966
5.2208,0.109552913197984,0.0545007901821399
5.2224,0.109598999260166,0.0534693170006557
5.224,0.109638470960706,0.0524374917847732
5.2256,0.109671322161414,0.0514053369234356
5.2272,0.109697545358125,0.0503728747288306
5.2288,0.109717131667211,0.0493401275430136
5.2304,0.109730070820096,0.0483071178545337
5.232,0.109736351163952,0.047273868411052
5.2336,0.109735959671791,0.0462404023299637
5.2352,0.109728881958249,0.0452067432140115
5.2368,0.109715102303553,0.0441729152629048
5.2384,0.109694603685292,0.0431389433799284
5.24,0.109667367816564,0.0421048532835583
5.2416,0.109633375191928,0.0410706716090688
5.2432,0.109592605139333,0.0400364260161428
5.2448,0.109545035880249,0.0390021452804773
5.2464,0.109490644594779,0.0379678593983914
5.248,0.10942940749397,0.0369335996674286
5.2496,0.109361299897606,0.0358993987829641
5.2512,0.1092862963184,0.034865290911803
5.2528,0.109204370550568,0.0338313117727869
5.2544,0.109115495762097,0.032797498705994
5.256,0.109019644599004,0.0317638907363377
5.2576,0.108916789281486,0.0307305286336714
5.2592,0.108806901714251,0.029697454963485
5.2608,0.108689953596255,0.028664714132008
5.2624,0.108565916534412,0.0276323524245075
5.264,0.108434762156306,0.0266004180365908
5.2656,0.108296462234886,0.025568961097003
5.2672,0.108150988798157,0.0245380336847312
5.2688,0.107998314259853,0.0235076898375029
5.2704,0.107838411533107,0.0224779855526909
5.272,0.107671254158104,0.0214489787814135
5.2736,0.107496816416733,0.0204207294142405
5.2752,0.107315073459217,0.0193932992595961
5.2768,0.107126001422741,0.0183667520148673
5.2784,0.106929577544071,0.017341153229508
5.28,0.106725780281152,0.0163165702616507
5.2816,0.106514589423707,0.0152930722265145
5.2832,0.106295986201823,0.0142707299389197
5.2848,0.10606995339352,0.0132496158481984
5.2864,0.105836475429316,0.0122298039665137
5.288,0.105595538485784,0.0112113697916749
5.2896,0.105347130585089,0.0101943902227606
5.2912,0.105091241675524,0.00917894347133792
5.2928,0.104827863723031,0.0081651089658916
5.2944,0.104556990782711,0.00715296725214798
5.296,0.10427861907133,0.00614259988830963
5.2976,0.103992747032804,0.00513408933621508
5.2992,0.103699375395683,0.00412751884848946
5.3008,0.103398106283622,0.00312312693454079
5.3024,0.103088954651839,0.0021210266335762
5.304,0.102772333744566,0.0011211575463276
5.3056,0.102448255391488,0.0001236045362709
5.3072,0.102116733887174,-0.000871547418276648
5.3088,0.101777786001495,-0.00186421335051202
5.3104,0.101431430981033,-0.00285430843355102
5.312,0.101077690546482,-0.0038417481067445
5.3136,0.100716588881035,-0.00482644820370536
5.3152,0.100348152608765,-0.00580832507773608
5.3168,0.0999724107699944,-0.00678729572684669
5.3184,0.0995893947856516,-0.00776327791627232
5.32,0.0991991384126244,-0.00873619029928247
5.3216,0.0988016777010971,-0.00970595253478907
5.3232,0.0983970509328827,-0.0106724854018439
5.3248,0.0979852985627413,-0.0116357109103385
5.3264,0.097566463145693,-0.0125955524083905
5.328,0.0971405892653174,-0.0135519346842317
5.3296,0.0967077234520476,-0.0145047840641839
5.3312,0.0962679140924505,-0.015454028504937
5.3328,0.095821211344502,-0.0163995976803117
5.3344,0.0953676670338495,-0.0173414230629257
5.336,0.0949073345550678,-0.018279437998846
5.3376,0.0944402687679041,-0.0192135777762411
5.3392,0.0939665258865155,-0.0201437796876221
5.3408,0.0934861633636956,-0.0210699830848819
5.3424,0.092999239781095,-0.021992129427723
5.344,0.0925058147294299,-0.0229101623245837
5.3456,0.0920059486876854,-0.0238240275664524
5.3472,0.0914997028992068,-0.0247336731523812
5.3488,0.0909871392571857,-0.0256390493115848
5.3504,0.0904683201743345,-0.0265401085086414
5.352,0.0899433084637557,-0.0274368054537775
5.3536,0.089412167215301,-0.0283290970960518
5.3552,0.0888749596740226,-0.0292169426105293
5.3568,0.0883317491201173,-0.0301003033854481
5.3584,0.0877825987501617,-0.030979142990379
5.36,0.0872275715610412,-0.0318534271453756
5.3616,0.0866667302363687,-0.0327231236821216
5.3632,0.0861001370356991,-0.0335882024970631
5.3648,0.0855278536883333,-0.0344486354965403
5.3664,0.0849499412898169,-0.035304396538905
5.368,0.0843664602034307,-0.0361554613676348
5.3696,0.0837774699664747,-0.0370018075424357
5.3712,0.0831830292013442,-0.0378434143583395
5.3728,0.082583195532301,-0.0386802627677887
5.3744,0.0819780255071344,-0.0395123352907189
5.376,0.0813675745262202,-0.0403396159276264
5.3776,0.0807518967761687,-0.0411620900596328
5.3792,0.0801310451714697,-0.0419797443545363
5.3808,0.0795050713017292,-0.0427925666618584
5.3824,0.0788740253859011,-0.0436005459128787
5.384,0.0782379562343125,-0.0444036720086636
5.3856,0.0775969112168835,-0.0452019357150827
5.3872,0.0769509362389399,-0.0459953285548214
5.3888,0.0763000757244233,-0.0467838426903785
5.3904,0.0756443726061516,-0.0475674708230607
5.392,0.0749838683234191,-0.0483462060739621
5.3936,0.0743186028271655,-0.0491200418769415
5.3952,0.0736486145920127,-0.0498889718705831
5.3968,0.0729739406355938,-0.0506529897881551
5.3984,0.0722946165448635,-0.0514120893565522
5.4,0.0716106765092782,-0.0521662641852362
5.4016,0.0709227740883171,-0.0529145729471602
5.4032,0.0702303630509978,-0.0536579753866897
5.4048,0.0695334723117086,-0.0543964656565083
5.4064,0.0688321295453321,-0.0551300373535199
5.408,0.0681263612538774,-0.0558586834377384
5.4096,0.0674161928405291,-0.0565823961491675
5.4112,0.0667016486867914,-0.0573011669316718
5.4128,0.0659827522352278,-0.0580149863718406
5.4144,0.0652595260765997,-0.0587238441238386
5.416,0.0645319920400996,-0.0594277288632503
5.4176,0.0638001712875845,-0.0601266282309114
5.4192,0.0630640844111012,-0.0608205287897355
5.4208,0.0623237515318129,-0.0615094159895279
5.4224,0.0615791924022219,-0.0621932741347906
5.424,0.0608304265094917,-0.0628720863645163
5.4256,0.0600774731800605,-0.0635458346339794
5.4272,0.0593203516845605,-0.0642144997085087
5.4288,0.0585590813436299,-0.0648780611622566
5.4304,0.057793681632926,-0.0655364973839565
5.432,0.0570241722875312,-0.0661897855886731
5.4336,0.0562505734051659,-0.0668379018435402
5.4352,0.05547290554749,-0.0674808210914925
5.4368,0.0546911898398138,-0.0681185171869835
5.4384,0.0539054480673962,-0.0687509629381004
5.44,0.0531157027689511,-0.0693781301572644
5.4416,0.0523219773271469,-0.069999989712325
5.4432,0.0515242960543103,-0.0706165115899419
5.4448,0.0507226842747239,-0.0712276649622621
5.4464,0.049917168400926,-0.0718334182593851
5.448,0.049107776006511,-0.0724337392475192
5.4496,0.0482945358922293,-0.073028595111928
5.4512,0.0474774781468831,-0.0736179525447721
5.4528,0.0466566342017263,-0.0742017778367378
5.4544,0.0458320368794656,-0.0747800369728562
5.456,0.045003720435356,-0.0753526957316191
5.4576,0.0441717205927017,-0.0759197197871804
5.4592,0.0433360745702565,-0.0764810748138522
5.4608,0.0424968211036249,-0.0770367265929895
5.4624,0.0416540004580612,-0.0775866411212708
5.464,0.0408076544350713,-0.0781307847200671
5.4656,0.0399578263707188,-0.0786691241454013
5.4672,0.0391045611260275,-0.0792016266986026
5.4688,0.0382479050731853,-0.0797282603355518
5.4704,0.037387906066852,-0.0802489937761176
5.472,0.0365246134158678,-0.0807637966115848
5.4736,0.035658077845964,-0.0812726394104747
5.4752,0.034788351448671,-0.0817754938221596
5.4768,0.0339154876322342,-0.082272332677367
5.4784,0.0330395410595273,-0.0827631300857773
5.48,0.0321605675819722,-0.0832478615296129
5.4816,0.0312786241654536,-0.0837265039533224
5.4832,0.0303937688122446,-0.0841990358480545
5.4848,0.0295060604719261,-0.0846654373325265
5.4864,0.0286155589543185,-0.085125690226484
5.488,0.0277223248304041,-0.085579778120556
5.4896,0.0268264193322618,-0.086027686437901
5.4912,0.0259279042469994,-0.086469402491547
5.4928,0.0250268418056923,-0.0869049155329241
5.4944,0.0241232945703202,-0.0873342167950919
5.496,0.0232173253177105,-0.0877572995275601
5.4976,0.0223089969214841,-0.0881741590245011
5.4992,0.0213983722240046,-0.0885847926443576
5.5008,0.0204855139203279,-0.0889891998226653
5.5024,0.0195704844281583,-0.0893873820760376
5.504,0.0186533457638083,-0.0897793429987951
5.5056,0.0177341594181584,-0.0901650882510362
5.5072,0.0168129862266219,-0.0905446255388448
5.5088,0.0158898862471154,-0.0909179645862027
5.5104,0.0149649186360314,-0.0912851170990213
5.512,0.0140381415272122,-0.0916460967208148
5.5136,0.0131096119099313,-0.0920009189809155
5.5152,0.0121793855148761,-0.0923496012347073
5.5168,0.0112475167001379,-0.0926921625959514
5.5184,0.0103140583401986,-0.0930286238620308
5.52,0.0093790617219303,-0.0933590074323879
5.5216,0.00844257644659081,-0.0936833372189581
5.5232,0.00750465032783183,-0.094001638551299
5.5248,0.00656532931170084,-0.0943139380742171
5.5264,0.00562465738365573,-0.0946202636401886
5.528,0.00468267649757876,-0.0949206441962775
5.5296,0.00373942650479899,-0.0952151096651489
5.5312,0.00279494508811185,-0.0955036908216812
5.5328,0.0018492677088113,-0.0957864191657717
5.5344,0.000902427556718152,-0.0960633267904426
5.536,-4.55444867780706E-05,-0.0963344462470398
5.5376,-0.000994619883683783,-0.0965998104075329
5.5392,-0.00194477246235338,-0.0968594523238102
5.5408,-0.00289597842944116,-0.0971134050863713
5.5424,-0.00384821637984538,-0.0973617016805168
5.544,-0.00480146729055299,-0.097604374842038
5.5456,-0.00575571451207735,-0.0978414569132021
5.5472,-0.00671094374609024,-0.0980729796984362
5.5488,-0.00766714301675124,-0.0982989743211092
5.5504,-0.00862430263273448,-0.0985194710818133
5.552,-0.00958241514014895,-0.0987344993183431
5.5536,-0.0105414752669528,-0.0989440872685715
5.5552,-0.0115014798592685,-0.0991482619361291
5.5568,-0.0124624278085911,-0.0993470489598775
5.5584,-0.0134243199717915,-0.0995404724863855
5.56,-0.0143871590827141,-0.0997285550493014
5.5616,-0.0153509496560774,-0.0999113174524285
5.5632,-0.016315697884463,-0.100088778656296
5.5648,-0.0172814115284048,-0.100260955677435
5.5664,-0.0182480997992704,-0.100427863483645
5.568,-0.0192157732370451,-0.100589514906275
5.5696,-0.0201844435810062,-0.100745920556489
5.5712,-0.0211541236364955,-0.100897088742545
5.5728,-0.022124827135486,-0.101043025407066
5.5744,-0.0230965685938525,-0.101183734062313
5.576,-0.0240693631644281,-0.101319215741465
5.5776,-0.0250432264860652,-0.101449468949892
5.5792,-0.0260181745311861,-0.101574489636433
5.5808,-0.0269942234499398,-0.101694271163678
5.5824,-0.0279713894130468,-0.101808804295244
5.584,-0.0289496884539436,-0.101918077186058
5.5856,-0.0299291363097243,-0.102022075390642
5.5872,-0.0309097482622812,-0.102120781866401
5.5888,-0.0318915389807084,-0.102214177006904
5.5904,-0.0328745223639066,-0.102302238665178
5.592,-0.0338587113856859,-0.102384942196003
5.5936,-0.0348441179420271,-0.102462260511199
5.5952,-0.0358307527012356,-0.102534164132931
5.5968,-0.036818624957693,-0.102600621264003
5.5984,-0.0378077424895876,-0.102661597869164
5.6,-0.0387981114213081,-0.102717057754415
5.6016,-0.0397904683774992,-0.102767652572314
5.6032,-0.0407841177259539,-0.102812607613291
5.6048,-0.0417790575497185,-0.102851879098964
5.6064,-0.0427752836732032,-0.102885421640459
5.608,-0.0437727895615916,-0.102913188367727
5.6096,-0.0447715662286449,-0.102935131073881
5.6112,-0.0457716021529144,-0.102951200352516
5.6128,-0.0467728832024445,-0.102961345748053
5.6144,-0.047775392568978,-0.102965515910071
5.616,-0.0487791107110565,-0.102963658746653
5.6176,-0.0497840153068305,-0.102955721589334
5.6192,-0.0507900812167582,-0.102941651350753
5.6208,-0.0517972804558085,-0.102921394692007
5.6224,-0.0528055821763631,-0.102894898188316
5.624,-0.0538149526603213,-0.102862108495788
5.6256,-0.0548253553221011,-0.102822972518889
5.6272,-0.0558367507215433,-0.102777437577119
5.6288,-0.056849096586413,-0.102725451570895
5.6304,-0.0578623478460084,-0.102666963145437
5.632,-0.0588764566734623,-0.102601921852858
5.6336,-0.0598913725386524,-0.102530278311162
5.6352,-0.0609070422705043,-0.10245198435935
5.6368,-0.0619234101281065,-0.102366993208922
5.6384,-0.0629404178815184,-0.102275259590793
5.64,-0.063958004901385,-0.102176739896816
5.6416,-0.0649761082562495,-0.102071392315303
5.6432,-0.0659946628186747,-0.101959176960856
5.6448,-0.067013601378661,-0.101840055996908
5.6464,-0.0680328547642699,-0.101713993751559
5.648,-0.0690523519694473,-0.101580956825633
5.6496,-0.0700720202874578,-0.101440914192225
5.6512,-0.0710917854507137,-0.101293837288468
5.6528,-0.0721115717755099,-0.101139700097997
5.6544,-0.0731313023115665,-0.100978479225123
5.656,-0.0741508989954723,-0.100810153958512
5.6576,-0.0751702828081338,-0.100634706326173
5.6592,-0.0761893739349234,-0.100452121140346
5.6608,-0.0772080919276432,-0.100262386032604
5.6624,-0.0782263558692851,-0.100065491478157
5.664,-0.0792440845383988,-0.0998614308111612
5.6656,-0.0802611965756619,-0.0996502002286383
5.6672,-0.0812776106483653,-0.0994317987852981
5.6688,-0.082293245615594,-0.0992062283769688
5.6704,-0.0833080206909204,-0.0989734937147337
5.672,-0.0843218556036981,-0.0987336022889739
5.6736,-0.085334670756772,-0.0984865643233173
5.6752,-0.0863463873819862,-0.0982323927187935
5.6768,-0.0873569276908044,-0.0979711029888962
5.6784,-0.0883662150206331,-0.0977027131855512
5.68,-0.0893741739766593,-0.0974272438155896
5.6816,-0.0903807305669907,-0.0971447177492293
5.6832,-0.0913858123327052,-0.0968551601203609
5.6848,-0.0923893484706096,-0.0965585982184408
5.6864,-0.0933912699491084,-0.0962550613740891
5.688,-0.0943915096164791,-0.0959445808368951
5.6896,-0.095390002300859,-0.0956271896472272
5.6912,-0.0963866849029377,-0.0953029225018504
5.6928,-0.0973814964781667,-0.0949718156150472
5.6944,-0.0983743783117709,-0.0946339065736468
5.696,-0.0993652739830772,-0.0942892341887275
5.6976,-0.100354129421147,-0.0939378383438175
5.6992,-0.101340892949826,-0.0935797598393578
5.7008,-0.102325515324205,-0.0932150402353425
5.7024,-0.103307949755184,-0.0928437216919752
5.704,-0.104288151925556,-0.0924658468092074
5.7056,-0.105266079994605,-0.0920814584658648
5.7072,-0.106241694593704,-0.0916905996587873
