"Freq [GHz]","re(S(Antenna1_1_1,Antenna1_1_1)) []","im(S(Antenna1_1_1,Antenna1_1_1)) []"
5,0.0489745278381618,0.169484827352599
5.0016,0.0496146788451198,0.16873576567759
5.0032,0.0502485782231228,0.167986476098465
5.0048,0.0508763029363516,0.167237020682146
5.0064,0.0514979307104292,0.166487459328806
5.008,0.0521135399796365,0.165737849763619
5.0096,0.0527232098441258,0.16498824753052
5.0112,0.0533270200171369,0.164238705983972
5.0128,0.0539250507822083,0.163489276284739
5.0144,0.0545173829413916,0.162740007393669
5.016,0.0551040977694617,0.161990946070483
5.0176,0.0556852769681303,0.161242136869568
5.0192,0.056261002614756,0.160493622135782
5.0208,0.0568313571182568,0.159745442008263
5.0224,0.0573964231710198,0.158997634415243
5.024,0.0579562837019147,0.15825023507687
5.0256,0.0585110218298033,0.157503277508039
5.0272,0.059060720816553,0.156756793015218
5.0288,0.0596054640208477,0.156010810706296
5.0304,0.0601453348520015,0.155265357489422
5.032,0.0606804167238713,0.154520458078858
5.0336,0.0612107930077714,0.153776135000829
5.0352,0.0617365469883865,0.153032408601393
5.0368,0.0622577618191894,0.152289297048295
5.0384,0.0627745204733542,0.151546816343843
5.04,0.0632869057029766,0.150804980329781
5.0416,0.0637949999912889,0.150063800700164
5.0432,0.0642988855088815,0.149323287007244
5.0448,0.0647986440699206,0.148583446675351
5.0464,0.0652943570873715,0.147844285009789
5.048,0.065786105530219,0.147105805210723
5.0496,0.0662739698776924,0.146368008389078
5.0512,0.0667580300774887,0.145630893571437
5.0528,0.067238365504,0.144894457723945
5.0544,0.0677150549125384,0.144158695763214
5.056,0.0681881763965664,0.143423600572228
5.0576,0.0686578073509258,0.142689163015255
5.0592,0.0691240244220677,0.141955371959761
5.0608,0.0695869034712864,0.141222214291318
5.0624,0.0700465195349507,0.140489674932529
5.064,0.0705029467777408,0.139757736864937
5.0656,0.0709562584558825,0.139026381143952
5.0672,0.0714065268763859,0.138295586926765
5.0688,0.0718538233552826,0.137565331488277
5.0704,0.0722982181808669,0.136835590246014
5.072,0.0727397805709355,0.136106336785058
5.0736,0.0731785786360305,0.135377542876968
5.0752,0.0736146793396825,0.134649178508705
5.0768,0.0740481484626551,0.133921211905559
5.0784,0.0744790505591903,0.133193609559073
5.08,0.0749074489272557,0.132466336251971
5.0816,0.0753334055657913,0.131739355087083
5.0832,0.0757569811399594,0.131012627513267
5.0848,0.0761782349443928,0.130286113356342
5.0864,0.0765972248694462,0.129559770849004
5.088,0.0770140073644471,0.128833556658758
5.0896,0.0774286374009485,0.128107425920833
5.0912,0.0778411684419803,0.127381332269111
5.0928,0.0782516524073042,0.126655227871047
5.0944,0.0786601396356667,0.125929063456584
5.096,0.0790666788610544,0.12520278835408
5.0976,0.0794713171699481,0.124476350526218
5.0992,0.0798740999795789,0.123749696603925
5.1008,0.0802779406861832,0.123023764738285
5.1024,0.0806829381002593,0.122298316391451
5.104,0.0810862752218221,0.121572239002557
5.1056,0.0814879826636605,0.120845472360622
5.1072,0.0818880891755928,0.120117955330461
5.1088,0.0822866216157222,0.119389625891584
5.1104,0.0826836049386933,0.118660421179099
5.112,0.0830790621649464,0.117930277527609
5.1136,0.0834730143659734,0.117199130510113
5.1152,0.0838654806455716,0.116466914981893
5.1168,0.0842564781180981,0.115733565123406
5.1184,0.084646021890722,0.114999014483176
5.12,0.0850341250476783,0.114263196021672
5.1216,0.0854207986355174,0.113526042157194
5.1232,0.0858060516413577,0.112787484808747
5.1248,0.086189890985133,0.112047455442922
5.1264,0.0865723215028419,0.111305885120762
5.128,0.0869533459317939,0.110562704541632
5.1296,0.087332964899855,0.109817844091685
5.1312,0.0877111769156913,0.109071233890721
5.1328,0.0880879783570118,0.108322803840344
5.1344,0.0884633634598071,0.107572483671821
5.136,0.08883732431359,0.106820202994522
5.1376,0.0892098508506295,0.106065891345078
5.1392,0.0895809308391872,0.105309478236414
5.1408,0.0899505498807477,0.10455089320769
5.1424,0.090318691405249,0.103790065874137
5.144,0.0906853366653091,0.103026925976786
5.1456,0.0910504647354511,0.102261403433393
5.1472,0.0914140525113237,0.101493428391564
5.1488,0.0917760747069215,0.100722931275168
5.1504,0.0921365038607995,0.0999498428401571
5.152,0.0924953103312865,0.0991740942223696
5.1536,0.0928524623046941,0.0983956169913391
5.1552,0.093207925799523,0.0976143432040943
5.1568,0.0935616646676655,0.0968302054519543
5.1584,0.0939136406066038,0.0960431369173234
5.16,0.0942638131636062,0.0952530714234759
5.1616,0.0946121397449172,0.0944599434883424
5.1632,0.0949585756279451,0.0936636883742863
5.1648,0.0953030739724453,0.0928642421428814
5.1664,0.0956455858316986,0.0920615417076789
5.168,0.0959860601666856,0.091255524880977
5.1696,0.0963244438652571,0.0904461304345783
5.1712,0.0966606817502982,0.0896332981435513
5.1728,0.0969947166078894,0.0888169688419794
5.1744,0.0973264891964619,0.0879970844747124
5.176,0.0976559382759478,0.0871735881471076
5.1776,0.0979830006219252,0.0863464241787728
5.1792,0.0983076110537588,0.0855155381502981
5.1808,0.098629702453733,0.0846808769569906
5.1824,0.0989492057991823,0.0838423888595977
5.184,0.0992660501836138,0.0830000235290329
5.1856,0.0995801628448244,0.0821537321020916
5.1872,0.099891469200013,0.0813034672261674
5.1888,0.100199892868885,0.0804491831099596
5.1904,0.100505355709753,0.0795908355681822
5.192,0.100807777851629,0.0787283820722625
5.1936,0.10110707772931,0.0778617817940422
5.1952,0.101403172118459,0.0769909956544678
5.1968,0.10169597617068,0.0761159863672842
5.1984,0.101985403455582,0.0752367184827166
5.2,0.102271365996839,0.0743531584331574
5.2016,0.102555912951245,0.0734600235518397
5.2032,0.102836593018758,0.0725624571965163
5.2048,0.103113311778538,0.0716604387191292
5.2064,0.10338597362998,0.0707539495684754
5.208,0.103654481841734,0.0698429733228743
5.2096,0.103918738597727,0.0689274957238248
5.2112,0.104178645043165,0.0680075047076666
5.2128,0.104434101336538,0.0670829904362291
5.2144,0.104685006700612,0.0661539453274872
5.216,0.104931259469412,0.0652203640882047
5.2176,0.105172757145201,0.0642822437345826
5.2192,0.105409396445447,0.0633395836248966
5.2208,0.105641073362784,0.0623923854831399
5.2224,0.105867683211966,0.0614406534206557
5.224,0.106089120693806,0.0604843939637732
5.2256,0.106305279944114,0.0595236160714356
5.2272,0.106516054592625,0.0585583311578306
5.2288,0.106721337820911,0.0575885531110136
5.2304,0.106921022420296,0.0566142983095337
5.232,0.107115000848752,0.055635585638052
5.2336,0.107303165292791,0.0546524365049637
5.2352,0.107485407723349,0.0536648748520115
5.2368,0.107661619959653,0.0526729271699048
5.2384,0.107831693728092,0.0516766225049284
5.24,0.107995520723064,0.0506759924715583
5.2416,0.108152992668628,0.0496710712570688
5.2432,0.108304001380633,0.0486618956271428
5.2448,0.108448438828049,0.0476485049324773
5.2464,0.108586197196012,0.0466309411103914
5.248,0.10871716894767,0.0456092486854286
5.2496,0.108841246887306,0.0445834747679641
5.2512,0.1089583242229,0.043553669055803
5.2528,0.109068294629068,0.0425198838267869
5.2544,0.109171052310097,0.041482173934394
5.256,0.109266492062004,0.0404405968033377
5.2576,0.109354509337486,0.0393952124171714
5.2592,0.109435000307251,0.038346083311885
5.2608,0.109507861920255,0.037293274561508
5.2624,0.109572991972412,0.0362368537647075
5.264,0.109630289161306,0.0351768910323908
5.2656,0.109679653154886,0.034113458969303
5.2672,0.109720984648157,0.0330466326556312
5.2688,0.109754185425853,0.0319764896266029
5.2704,0.109779158425107,0.0309031098550909
5.272,0.109795807794104,0.0298265757222135
5.2736,0.109804038950733,0.0287469719979405
5.2752,0.109803758643217,0.0276643858116961
5.2768,0.109794875010741,0.0265789066279673
5.2784,0.109777297639071,0.025490626212908
5.28,0.109750937615152,0.0243996386059507
5.2816,0.109715707591707,0.0233060400894145
5.2832,0.109671521835823,0.0222099291501197
5.2848,0.10961829628452,0.0211114064469984
5.2864,0.109555948605316,0.0200105747747137
5.288,0.109484398241784,0.0189075390222749
5.2896,0.109403566469089,0.0178024061386606
5.2912,0.109313376446524,0.0166952850874379
5.2928,0.109213753267031,0.0155862868063916
5.2944,0.109104624003711,0.014475524163148
5.296,0.10898591776133,0.0133631119108096
5.2976,0.108857565721804,0.0122491666425851
5.2992,0.108719501192683,0.0111338067404295
5.3008,0.108569505520622,0.0100159365316808
5.3024,0.108407451206839,0.0088958147037062
5.304,0.108235415438566,0.0077748279965476
5.3056,0.108053346310488,0.0066531035415709
5.3072,0.107861194296174,0.00553076984212335
5.3088,0.107658912278495,0.00440795671518798
5.3104,0.107446455584033,0.00328479523604898
5.312,0.107223782013482,0.0021614176809555
5.3136,0.106990851868035,0.00103795747179464
5.3152,0.106747627981765,-8.54508822360801E-05
5.3168,0.106494075741994,-0.00120867184494669
5.3184,0.106230163117652,-0.00233156891447232
5.32,0.105955860683624,-0.00345400467658247
5.3216,0.105671141637097,-0.00457584087198907
5.3232,0.105375981820883,-0.00569693845464387
5.3248,0.105070359741741,-0.00681715765303847
5.3264,0.104754256588693,-0.00793635803449046
5.328,0.104427656241317,-0.00905439856443166
5.3296,0.104090545292048,-0.0101711376706839
5.3312,0.10374291305145,-0.011286433306737
5.3328,0.103384751561502,-0.0124001430160117
5.3344,0.103016055604849,-0.0135121239911257
5.336,0.102636822708068,-0.014622233144146
5.3376,0.102247053150904,-0.0157303271628411
5.3392,0.101846749967516,-0.0168362625819221
5.3408,0.101435918950696,-0.0179398958392819
5.3424,0.101014568649095,-0.019041083347223
5.344,0.10058271036943,-0.0201396815486837
5.3456,0.100140358170685,-0.0212355469894524
5.3472,0.0996875288613068,-0.0223285363713812
5.3488,0.0992242419923857,-0.0234185066245848
5.3504,0.0987505198508345,-0.0245053149651414
5.352,0.0982663874475557,-0.0255888189585775
5.3536,0.097771872509601,-0.0266688765831518
5.3552,0.0972670054683226,-0.0277453462912293
5.3568,0.0967518194405173,-0.0288180870700481
5.3584,0.0962263502155617,-0.029886958503569
5.36,0.0956906362415412,-0.0309518208319756
5.3616,0.0951447186003687,-0.0320125350120216
5.3632,0.0945886409938991,-0.0330689627761631
5.3648,0.0940224497180333,-0.0341209666909403
5.3664,0.0934461936408169,-0.035168410214905
5.368,0.0928599241775307,-0.0362111577566348
5.3696,0.0922636952697747,-0.0372490747284357
5.3712,0.0916575633495442,-0.0382820276063395
5.3728,0.091041587318301,-0.0393098839807887
5.3744,0.0904158285140344,-0.0403325126117189
5.376,0.0897803506793202,-0.0413497834826264
5.3776,0.0891352199323687,-0.0423615678536328
5.3792,0.0884805047300697,-0.0433677383075363
5.3808,0.0878162758330292,-0.0443681688058584
5.3824,0.0871426062726011,-0.0453627347348787
5.384,0.0864595713129125,-0.0463513129526636
5.3856,0.0857672484108835,-0.0473337818400827
5.3872,0.0850657171792399,-0.0483100213418214
5.3888,0.0843550593435233,-0.0492799130143785
5.3904,0.0836353587040916,-0.0502433400690607
5.392,0.0829067010921191,-0.0512001874129621
5.3936,0.0821691743275855,-0.0521503416909415
5.3952,0.0814228681732667,-0.0530936913265831
5.3968,0.0806678742907138,-0.0540301265591551
5.3984,0.0799042861982335,-0.0549595394835522
5.4,0.0791321992178582,-0.0558818240832362
5.4016,0.0783483746473171,-0.0567920109351602
5.4032,0.0775564487279978,-0.0576947465986897
5.4048,0.0767565247659086,-0.0585899371485083
5.4064,0.0759487075116321,-0.0594774907375199
5.408,0.0751331031092774,-0.0603573176177384
5.4096,0.0743098190474291,-0.0612293301651675
5.4112,0.0734789641080914,-0.0620934428996718
5.4128,0.0726406483136278,-0.0629495725118406
5.4144,0.0717949828766997,-0.0637976378768386
5.416,0.0709420801471996,-0.0646375600782503
5.4176,0.0700820535611845,-0.0654692624189114
5.4192,0.0692150175908012,-0.0662926704447355
5.4208,0.0683410876842129,-0.0671077119515279
5.4224,0.0674603802235219,-0.0679143170027906
5.424,0.0665730124626917,-0.0687124179415163
5.4256,0.0656791024814605,-0.0695019493949794
5.4272,0.0647787691282605,-0.0702828482945087
5.4288,0.0638721319711299,-0.0710550538732566
5.4304,0.062959311242626,-0.0718185076769565
5.432,0.0620404277857312,-0.0725731535706731
5.4336,0.0611156030077659,-0.0733189377405402
5.4352,0.06018495882029,-0.0740558086964925
5.4368,0.0592486175920138,-0.0747837172749835
5.4384,0.0583067020956962,-0.0755026166387004
5.44,0.0573593354570511,-0.0762124622762644
5.4416,0.0564066411006469,-0.076913211996925
5.4432,0.0554487427038103,-0.0776048259322419
5.4448,0.0544857641415239,-0.0782872665277621
5.4464,0.053517829436326,-0.0789604985386851
5.448,0.052545062712211,-0.0796244890205192
5.4496,0.0515675881415293,-0.080279207326728
5.4512,0.0505855298958831,-0.0809246250923722
5.4528,0.0495990121000263,-0.0815607162297378
5.4544,0.0486081587827656,-0.0821874569129562
5.456,0.047613093826856,-0.0828048255686191
5.4576,0.0466139409249017,-0.0834128028613804
5.4592,0.0456108235332565,-0.0840113716775522
5.4608,0.0446038648229249,-0.0846005171116895
5.4624,0.0435931876375612,-0.0851802264511708
5.464,0.0425789144456713,-0.0857504891567671
5.4656,0.0415611672996188,-0.0863112968432013
5.4672,0.0405400677904275,-0.0868626432647026
5.4688,0.0395157370055853,-0.0874045242905518
5.4704,0.038488295486922,-0.0879369378846176
5.472,0.0374578631892678,-0.0884598840868848
5.4736,0.036424559439964,-0.0889733649859747
5.4752,0.035388502899171,-0.0894773846996596
5.4768,0.0343498115205342,-0.089971949350367
5.4784,0.0333086025128273,-0.0904570670376773
5.48,0.0322649923029722,-0.0909327478138129
5.4816,0.0312190964974536,-0.0913990036611224
5.4832,0.0301710298502446,-0.0918558484585544
5.4848,0.0291209062229261,-0.0923032979591265
5.4864,0.0280688385523185,-0.092741369759384
5.488,0.0270149388204041,-0.093170083271856
5.4896,0.0259593180132618,-0.093589459694501
5.4912,0.0249020860999994,-0.093999521981147
5.4928,0.0238433519916923,-0.0944002948119241
5.4944,0.0227832235173202,-0.0947918045596919
5.496,0.0217218073927105,-0.0951740792644601
5.4976,0.0206592091924841,-0.0955471485928011
5.4992,0.0195955333200046,-0.0959110438122576
5.5008,0.0185308829853279,-0.0962657977587453
5.5024,0.0174653601751583,-0.0966114447969476
5.504,0.0163990656278083,-0.0969480207957041
5.5056,0.0153320988141584,-0.0972755630853962
5.5072,0.0142645579066219,-0.0975941104313248
5.5088,0.0131965397641154,-0.0979037029940827
5.5104,0.0121281399030314,-0.0982043822989213
5.512,0.0110594524852122,-0.0984961911951148
5.5136,0.00999057028993127,-0.0987791738273155
5.5152,0.00892158469987614,-0.0990533755959074
5.5168,0.00785258568013792,-0.0993188431233513
5.5184,0.00678366176319857,-0.0995756242155308
5.52,0.0057149000299303,-0.0998237678290879
5.5216,0.00464638609759081,-0.100063324035758
5.5232,0.00357820410183183,-0.100294343980699
5.5248,0.00251043668170084,-0.100516879852817
5.5264,0.00144316497265573,-0.100730984844089
5.528,0.00037646858557876,-0.100936713113878
5.5296,-0.000689574398201015,-0.101134119755249
5.5312,-0.00175488743788815,-0.101323260754281
5.5328,-0.0028193955491887,-0.101504192954372
5.5344,-0.00388302530528185,-0.101676974021543
5.536,-0.00494570484977807,-0.10184166240774
5.5376,-0.00600736390668378,-0.101998317311133
5.5392,-0.00706793377835338,-0.10214699864441
5.5408,-0.00812734736344116,-0.102287766992071
5.5424,-0.00918553914984538,-0.102420683579717
5.544,-0.010242445228653,-0.102545810237338
5.5456,-0.0112980032940774,-0.102663209357602
5.5472,-0.0123521526453902,-0.102772943865136
5.5488,-0.0134048341918512,-0.102875077178809
5.5504,-0.0144559904506345,-0.102969673176013
5.552,-0.015505565551749,-0.103056796155943
5.5536,-0.0165535052369528,-0.103136510804872
5.5552,-0.0175997568556685,-0.103208882161429
5.5568,-0.0186442693688911,-0.103273975579878
5.5584,-0.0196869933420915,-0.103331856693386
5.56,-0.0207278809481141,-0.103382591386301
5.5616,-0.0217668859590774,-0.103426245750428
5.5632,-0.022803963745263,-0.103462886055296
5.5648,-0.0238390712670048,-0.103492578714435
5.5664,-0.0248721670745704,-0.103515390250645
5.568,-0.0259032112970451,-0.103531387259275
5.5696,-0.0269321656412062,-0.103540636378489
5.5712,-0.0279589933763955,-0.103543204256545
5.5728,-0.028983659335386,-0.103539157514066
5.5744,-0.0300061298992525,-0.103528562715313
5.576,-0.0310263729942281,-0.103511486334465
5.5776,-0.0320443580755652,-0.103487994724192
5.5792,-0.0330600561213861,-0.103458154082433
5.5808,-0.0340734396225398,-0.103422030421978
5.5824,-0.0350844825684468,-0.103379689538644
5.584,-0.0360931604359436,-0.103331196980758
5.5856,-0.0370994501761243,-0.103276618018132
5.5872,-0.0381033302061812,-0.103216017612201
5.5888,-0.0391047803882384,-0.103149460386004
5.5904,-0.0401037820181866,-0.103077010594178
5.592,-0.0411003178155099,-0.102998732094703
5.5936,-0.0420943718991171,-0.102914688318899
5.5952,-0.0430859297791656,-0.102824942244031
5.5968,-0.044074978338883,-0.102729556364003
5.5984,-0.0450615058133876,-0.102628592664164
5.6,-0.0460455017785081,-0.102522112588415
5.6016,-0.0470219003255992,-0.102412813542314
5.6032,-0.0479958622733539,-0.102298324891291
5.6048,-0.0489673874976185,-0.102178702990965
5.6064,-0.0499364770562032,-0.102054003372459
5.608,-0.0509031331746916,-0.101924280718727
5.6096,-0.0518673592112449,-0.101789588837881
5.6112,-0.0528291596384144,-0.101649980645516
5.6128,-0.0537885400109445,-0.101505508137053
5.6144,-0.054745506944578,-0.101356222366071
5.616,-0.0557000680838565,-0.101202173429653
5.6176,-0.0566522320799305,-0.101043410440734
5.6192,-0.0576020085553582,-0.100879981510453
5.6208,-0.0585494080849085,-0.100711933731507
5.6224,-0.0594944421583631,-0.100539313153516
5.624,-0.0604371231573213,-0.100362164773388
5.6256,-0.0613774643200011,-0.100180532510689
5.6272,-0.0623154797180433,-0.099994459194019
5.6288,-0.063251184222313,-0.0998039865473951
5.6304,-0.0641845934727084,-0.0996091551696368
5.632,-0.0651157238459623,-0.0994100045237577
5.6336,-0.0660445924294524,-0.0992065729233625
5.6352,-0.0669712169840043,-0.0989988975180502
5.6368,-0.0678956159157065,-0.0987870142798216
5.6384,-0.0688178082437184,-0.0985709579944931
5.64,-0.069737813566085,-0.0983507622491162
5.6416,-0.0706556520305495,-0.098126459422403
5.6432,-0.0715713442963747,-0.0978980806741564
5.6448,-0.072484911510161,-0.0976656559377077
5.6464,-0.0733963752646699,-0.0974292139113591
5.648,-0.0743057575686473,-0.0971887820538327
5.6496,-0.0752130808166578,-0.096944386571725
5.6512,-0.0761183677489137,-0.0966960524209681
5.6528,-0.0770216414251099,-0.0964438032982971
5.6544,-0.0779229251842665,-0.0961876616387231
5.656,-0.0788222426175723,-0.0959276486100124
5.6576,-0.0797196175282338,-0.0956637841131728
5.6592,-0.0806150739003234,-0.0953960867779458
5.6608,-0.0815086358666432,-0.0951245739663042
5.6624,-0.0824003276735851,-0.0948492617679571
5.664,-0.0832901736459988,-0.0945701650028612
5.6656,-0.0841781981540619,-0.0942872972247383
5.6672,-0.0850644255811653,-0.0940006707185981
5.6688,-0.085948880287794,-0.0937102965112688
5.6704,-0.0868315865814204,-0.0934161843679337
5.672,-0.0877125686773981,-0.0931183428026739
5.6736,-0.088591850670872,-0.0928167790810173
5.6752,-0.0894694565016863,-0.0925114992274935
5.6768,-0.0903454099223044,-0.0922025080321962
5.6784,-0.0912197344607331,-0.0918898090603512
5.68,-0.0920924533934593,-0.0915734046608896
5.6816,-0.0929635897113907,-0.0912532959750293
5.6832,-0.0938331660848052,-0.0909294829478609
5.6848,-0.0947012048353096,-0.0906019643389408
5.6864,-0.0955677279018084,-0.0902707377348891
5.688,-0.0964327568104791,-0.0899357995619951
5.6896,-0.097296312642759,-0.0895971451018272
5.6912,-0.0981584160053377,-0.0892547685028504
5.6928,-0.0990190870009667,-0.0889086627950472
5.6944,-0.0998783451953709,-0.0885588199105468
5.696,-0.100736209591677,-0.0882052306962575
5.6976,-0.101592698598946,-0.0878478849315075
5.6992,-0.102447830004626,-0.0874867713496878
5.7008,-0.103301620945905,-0.0871218776529025
5.7024,-0.104154087882484,-0.0867531905346252
5.704,-0.105005246569356,-0.0863806956973574
5.7056,-0.105855112030305,-0.0860043778772948
5.7072,-0.106703698531904,-0.0856242208619973
5.7088,-0.107551019557939,-0.0852402075160641
