"Freq [GHz]","re(S(Antenna1_1_1,Antenna1_1_1)) []","im(S(Antenna1_1_1,Antenna1_1_1)) []"
5,0.0442218570971618,0.177975112093099
5.0016,0.0450596650841198,0.17732657250969
5.0032,0.0458932102021228,0.176673185059665
5.0048,0.0467224587833516,0.176014980376946
5.0064,0.0475473779444292,0.175351989757106
5.008,0.0483679356166365,0.174684245106119
5.0096,0.0491841005831258,0.17401177888622
5.0112,0.0499958425011369,0.173334624060372
5.0128,0.0508031319312083,0.172652814034639
5.0144,0.0516059403513916,0.171966382600269
5.016,0.0524042401794617,0.171275363872783
5.0176,0.0531980047821303,0.170579792232467
5.0192,0.053987208482256,0.169879702262382
5.0208,0.0547718265660568,0.169175128687063
5.0224,0.0555518352783198,0.168466106310943
5.024,0.0563272118246147,0.16775266995657
5.0256,0.0570979343555032,0.167034854404139
5.0272,0.057863981962753,0.166312694330618
5.0288,0.0586253346545477,0.165586224250796
5.0304,0.0593819733447015,0.164855478458822
5.032,0.0601338798188713,0.164120490972058
5.0336,0.0608810367157714,0.163381295475629
5.0352,0.0616234274903865,0.162637925269693
5.0368,0.0623610363821893,0.161890413218195
5.0384,0.0630938483753542,0.161138791701243
5.04,0.0638218491579766,0.160383092568291
5.0416,0.0645450250822889,0.159623347095524
5.0432,0.0652633631098815,0.158859585945693
5.0448,0.0659768507699206,0.158091839131101
5.0464,0.0666854761023715,0.157320135979919
5.048,0.067389227606219,0.156544505105923
5.0496,0.0680880941826924,0.155764974382078
5.0512,0.0687820650794887,0.154981570917237
5.0528,0.069471129828,0.154194321037445
5.0544,0.0701552781875384,0.153403250270214
5.056,0.0708345000785664,0.152608383333928
5.0576,0.0715087855259258,0.151809744129955
5.0592,0.0721781245940677,0.151007355740161
5.0608,0.0728425073232864,0.150201240427118
5.0624,0.0735019236679507,0.149391419639929
5.064,0.0741563634347408,0.148577914022737
5.0656,0.0748058162198825,0.147760743428352
5.0672,0.0754502713483859,0.146939926935265
5.0688,0.0760897178172826,0.146115482869077
5.0704,0.0767241442288669,0.145287428827214
5.072,0.0773535387439355,0.144455781708658
5.0736,0.0779778890200305,0.143620557745468
5.0752,0.0785971821596825,0.142781772539905
5.0768,0.0792114046606551,0.141939441103859
5.0784,0.0798205423671903,0.141093577901473
5.08,0.0804245804262557,0.140244196895771
5.0816,0.0810235032397913,0.139391311597382
5.0832,0.0816172944319594,0.138534935116467
5.0848,0.0822059368063928,0.137675080217342
5.0864,0.0827894123184462,0.136811759375004
5.088,0.0833677020444471,0.135944984834558
5.0896,0.0839407861539485,0.135074768671833
5.0912,0.0845086438909803,0.134201122855111
5.0928,0.0850712535533042,0.133324059311047
5.0944,0.0856285924816667,0.132443589989584
5.096,0.0861806370500544,0.13155972692808
5.0976,0.0867273626549481,0.130672482319218
5.0992,0.0872687437215789,0.129781868581925
5.1008,0.0878050766501832,0.128887540094285
5.1024,0.0883363143402593,0.127989493293451
5.104,0.0888620984148221,0.127088094995557
5.1056,0.0893823989586605,0.126183359836622
5.1072,0.0898971851475928,0.125275303023461
5.1088,0.0904064252717222,0.124363940390584
5.1104,0.0909100867676933,0.123449288466099
5.112,0.0914081362439464,0.122531364536609
5.1136,0.0919005395229734,0.121610186701113
5.1152,0.0923872616755716,0.120685773932893
5.1168,0.0928682670690981,0.119758146131406
5.1184,0.0933435194086221,0.118827324176176
5.12,0.0938129817919783,0.117893329977672
5.1216,0.0942766167586174,0.116956186522194
5.1232,0.0947343863476577,0.116015917912747
5.1248,0.095186252155733,0.115072549414922
5.1264,0.0956321753980419,0.114126107488762
5.128,0.0960721169715938,0.113176619821632
5.1296,0.096506037520655,0.112224115360085
5.1312,0.0969338975036913,0.111268624330721
5.1328,0.0973556572619118,0.110310178264044
5.1344,0.0977712770893071,0.109348810008321
5.136,0.09818071730349,0.108384553744422
5.1376,0.0985839383171295,0.107417444990678
5.1392,0.0989809007101872,0.106447520611714
5.1408,0.0993715653023477,0.10547481881129
5.1424,0.099755893224949,0.104499379131137
5.144,0.100133845993209,0.103521242439786
5.1456,0.100505385577051,0.102540450920393
5.1472,0.100870474471824,0.101557048049564
5.1488,0.101229075767422,0.100571078578168
5.1504,0.101581153215999,0.0995825885031571
5.152,0.101926671297986,0.0985916250343696
5.1536,0.102265595286594,0.0975982365643391
5.1552,0.102597891309323,0.0966024726270943
5.1568,0.102923526407685,0.0956043838549543
5.1584,0.103242468594414,0.0946040219363234
5.16,0.103554686907036,0.0936014395604759
5.1616,0.103860151459047,0.0925966903713424
5.1632,0.104158833487585,0.0915898289092864
5.1648,0.104450705397555,0.0905809105498814
5.1664,0.104735740802299,0.0895699914486789
5.168,0.105013914560286,0.088557128474977
5.1696,0.105285202808057,0.0875423791455783
5.1712,0.105549582988998,0.0865258015595513
5.1728,0.105807033877889,0.0855074543279794
5.1744,0.106057535601362,0.0844873965037124
5.176,0.106301069653648,0.0834656875131076
5.1776,0.106537618908625,0.0824423870787728
5.1792,0.106767167626359,0.0814175551522981
5.1808,0.106989701456233,0.0803912518359906
5.1824,0.107205207434882,0.0793635373145977
5.184,0.107413673979714,0.0783344717820329
5.1856,0.107615090878324,0.0773041153660916
5.1872,0.107809449273013,0.0762725280621673
5.1888,0.107996741641185,0.0752397696589596
5.1904,0.108176961771653,0.0742058996741822
5.192,0.108350104736229,0.0731709772822625
5.1936,0.10851616685771,0.0721350612570422
5.1952,0.108675145673459,0.0710982099004678
5.1968,0.10882703989568,0.0700604809892842
5.1984,0.108971849367682,0.0690219317157166
5.2,0.109109575016439,0.0679826186301574
5.2016,0.109239665457545,0.0669417453768397
5.2032,0.109362645384258,0.0659002398275163
5.2048,0.109478519264238,0.0648581571841293
5.2064,0.10958729245098,0.0638155518074754
5.208,0.109688971120734,0.0627724771718743
5.2096,0.109783562207827,0.0617289858328248
5.2112,0.109871073337565,0.0606851294006666
5.2128,0.109951512757538,0.0596409585162291
5.2144,0.110024889266612,0.0585965228234872
5.216,0.110091212146412,0.0575518709622047
5.2176,0.110150491085201,0.0565070505515826
5.2192,0.110202736109447,0.0554621081878966
5.2208,0.110247957507784,0.0544170894361399
5.2224,0.110286165758966,0.0533720388406557
5.224,0.110317371459806,0.0523269999267732
5.2256,0.110341585256114,0.0512820152164356
5.2272,0.110358817765625,0.0502371262438306
5.2288,0.110369079511911,0.0491923735790136
5.2304,0.110372380858296,0.0481477968495337
5.232,0.110368731937752,0.047103434778052
5.2336,0.110358142590791,0.0460593252089637
5.2352,0.110340622300349,0.0450155051540115
5.2368,0.110316180139653,0.0439720108333048
5.2384,0.110284824706092,0.0429288777197284
5.24,0.110246564078064,0.0418861405930583
5.2416,0.110201405755828,0.0408438335924688
5.2432,0.110149356621333,0.0398019902738428
5.2448,0.110090422893049,0.0387606436704773
5.2464,0.110024610086779,0.0377198263560914
5.248,0.10995192298247,0.0366795705107286
5.2496,0.109872365596006,0.0356399079888641
5.2512,0.109785941147,0.034600870389203
5.2528,0.109692652043568,0.0335624891270869
5.2544,0.109592499864097,0.032524795507494
5.256,0.109485485344004,0.0314878207994377
5.2576,0.109371608371486,0.0304515963118714
5.2592,0.109250867981251,0.029416153469085
5.2608,0.109123262364255,0.028381523887308
5.2624,0.108988788868412,0.0273477394509075
5.264,0.108847444016306,0.0263148323880908
5.2656,0.108699223521886,0.025282835346203
5.2672,0.108544122310157,0.0242517814659312
5.2688,0.108382134550853,0.0232217044543029
5.2704,0.108213253685107,0.0221926386558909
5.272,0.108037472467104,0.0211646191225135
5.2736,0.107854783002733,0.0201376816805405
5.2752,0.107665176795217,0.0191118629953961
5.2768,0.107468644797741,0.0180872006343673
5.2784,0.107265177469071,0.017063733125108
5.28,0.107054764827152,0.0160415000116507
5.2816,0.106837396515707,0.0150205419071145
5.2832,0.106613061868823,0.0140009005418197
5.2848,0.10638174997952,0.0129826188084984
5.2864,0.106143449770316,0.0119657408020737
5.288,0.105898150073784,0.0109503118565849
5.2896,0.105645839701089,0.00993637857622063
5.2912,0.105386507531524,0.00892398886241792
5.2928,0.105120142586031,0.0079131919359116
5.2944,0.104846734115711,0.00690403835374798
5.296,0.10456627168533,0.00589658002150963
5.2976,0.104278745256804,0.00489087019988508
5.2992,0.103984145278683,0.00388696350642946
5.3008,0.103682034097622,0.00288502106568079
5.3024,0.103372406501839,0.0018851240430062
5.304,0.103055685262566,0.000887234033747603
5.3056,0.102731864425488,-0.0001085888256291
5.3072,0.102400938980174,-0.00110228311917665
5.3088,0.102062904948495,-0.00209378618401202
5.3104,0.101717759465033,-0.00308303414805102
5.312,0.101365500863482,-0.0040699619722445
5.3136,0.101006128752035,-0.00505450349910536
5.3152,0.100639644092765,-0.00603659150503608
5.3168,0.100266049272994,-0.00701615775844669
5.3184,0.0998853481786516,-0.00799313308127232
5.32,0.0994975462596244,-0.00896744741618247
5.3216,0.0991026505970971,-0.00993902989718907
5.3232,0.0987006699558827,-0.0109078089242439
5.3248,0.0982916148457413,-0.0118737122422385
5.3264,0.097875497571693,-0.0128366670224905
5.328,0.0974523322753174,-0.0137965999480317
5.3296,0.0970221349810476,-0.0147534373020839
5.3312,0.0965849236294505,-0.015707105058437
5.3328,0.096140718109502,-0.0166575289750117
5.3344,0.0956895402828495,-0.0176046346871257
5.336,0.0952314140040678,-0.018548347807146
5.3376,0.0947663651359041,-0.0194885940208411
5.3392,0.0942944215575155,-0.0204252991859221
5.3408,0.0938156131636956,-0.0213583894332819
5.3424,0.093329971870095,-0.022287791265223
5.344,0.0928375315984299,-0.0232134316576837
5.3456,0.0923383282606854,-0.0241352381574524
5.3472,0.0918323997463068,-0.0250531389833812
5.3488,0.0913197858873857,-0.0259670631235848
5.3504,0.0908005284358345,-0.0268769404306414
5.352,0.0902746710165557,-0.0277827017157775
5.3536,0.089742259094601,-0.0286842788450518
5.3552,0.0892033399203226,-0.0295816048265293
5.3568,0.0886579624795173,-0.0304746138964481
5.3584,0.0881061774325617,-0.031363241608379
5.36,0.0875480370545412,-0.0322474249083756
5.3616,0.0869835951673687,-0.0331271022171216
5.3632,0.0864129070639991,-0.0340022135010631
5.3648,0.0858360294365333,-0.0348727003415403
5.3664,0.0852530202939169,-0.035738505998905
5.368,0.0846639388788307,-0.0365995754776348
5.3696,0.0840688455803747,-0.0374558555734357
5.3712,0.0834678018440442,-0.0383072949303395
5.3728,0.082860870078601,-0.0391538440847887
5.3744,0.0822481135609344,-0.0399954555017189
5.376,0.0816295963385202,-0.0408320836106264
5.3776,0.0810053831298687,-0.0416636848356328
5.3792,0.0803755392242697,-0.0424902176155363
5.3808,0.0797401303796292,-0.0433116424218584
5.3824,0.079099222720201,-0.0441279217718787
5.384,0.0784528826335125,-0.0449390202276636
5.3856,0.0778011766673835,-0.0457449044020827
5.3872,0.0771441714274399,-0.0465455429478214
5.3888,0.0764819334752233,-0.0473409065443785
5.3904,0.0758145292271916,-0.0481309678820607
5.392,0.0751420248553191,-0.0489157016369621
5.3936,0.0744644861891855,-0.0496950844369415
5.3952,0.0737819786205667,-0.0504690948325831
5.3968,0.0730945670099838,-0.0512377132491551
5.3984,0.0724023155961335,-0.0520009219465522
5.4,0.0717052879085182,-0.0527587049632362
5.4016,0.0710039230386071,-0.0535095256971602
5.4032,0.0702979768714978,-0.0542549120046897
5.4048,0.0695875095927086,-0.0549948559065083
5.4064,0.0688725802149321,-0.0557293509185199
5.408,0.0681532465120775,-0.0564583919677384
5.4096,0.0674295649576291,-0.0571819753131675
5.4112,0.0667015906691914,-0.0579000984456718
5.4128,0.0659693773584278,-0.0586127600048406
5.4144,0.0652329772863997,-0.0593199596788386
5.416,0.0644924412251996,-0.0600216981082503
5.4176,0.0637478184260845,-0.0607179767889114
5.4192,0.0629991565924012,-0.0614087979697355
5.4208,0.0622465018600129,-0.0620941645485279
5.4224,0.0614898987836219,-0.0627740799777906
5.424,0.0607293903288917,-0.0634485481525163
5.4256,0.0599650178714605,-0.0641175733139794
5.4272,0.0591968212021605,-0.0647811599445087
5.4288,0.0584248385377299,-0.0654393126682566
5.4304,0.057649106538826,-0.0660920361509565
5.432,0.0568696603332312,-0.0667393350006731
5.4336,0.0560865335454659,-0.0673812136695402
5.4352,0.05529975833159,-0.0680176763644925
5.4368,0.0545093654206138,-0.0686487269519835
5.4384,0.0537153841604962,-0.0692743688687004
5.44,0.0529178425699511,-0.0698946050422644
5.4416,0.0521167673947469,-0.070509437801925
5.4432,0.0513121841696103,-0.0711188688082419
5.4448,0.0505041172837239,-0.0717228989747621
5.4464,0.049692590051326,-0.0723215284016851
5.448,0.048877624786211,-0.0729147563115192
5.4496,0.0480592428785293,-0.073502580991728
5.4512,0.0472374648758831,-0.0740849997393721
5.4528,0.0464123105690263,-0.0746620088107378
5.4544,0.0455837990797656,-0.0752336033839562
5.456,0.044751948944856,-0.0757997775186191
5.4576,0.0439167782119017,-0.0763605241233804
5.4592,0.0430783045312565,-0.0769158349345522
5.4608,0.0422365452479249,-0.0774657004966895
5.4624,0.0413915174974612,-0.0780101101451708
5.464,0.0405432383028713,-0.0785490520057671
5.4656,0.0396917246645188,-0.0790825129872013
5.4672,0.0388369936620275,-0.0796104787937026
5.4688,0.0379790625391853,-0.0801329339315518
5.4704,0.0371179488078519,-0.0806498617288176
5.472,0.0362536703288678,-0.0811612443576848
5.4736,0.035386245407964,-0.0816670628655747
5.4752,0.034515692880671,-0.0821672972091596
5.4768,0.0336420321982342,-0.082661926295267
5.4784,0.0327652835085273,-0.0831509280271773
5.48,0.0318854677349722,-0.0836342793558129
5.4816,0.0310026066494536,-0.0841119563357224
5.4832,0.0301167229472446,-0.0845839341865545
5.4848,0.0292278403109261,-0.0850501873580265
5.4864,0.0283359834743185,-0.085510689599884
5.488,0.0274411782784041,-0.085965414035456
5.4896,0.0265434517262618,-0.086414333238701
5.4912,0.0256428320299994,-0.086857419314647
5.4928,0.0247393486506923,-0.0872946439829241
5.4944,0.0238330323403202,-0.0877259786637919
5.496,0.0229239151667105,-0.0881513945665601
5.4976,0.0220120305454841,-0.0885708627792011
5.4992,0.0210974132510046,-0.0889843543609576
5.5008,0.0201800994393279,-0.0893918404343453
5.5024,0.0192601266461583,-0.0897932922792476
5.504,0.0183375337948083,-0.0901886814268041
5.5056,0.0174123611881584,-0.0905779797532962
5.5072,0.0164846504986219,-0.0909611595739248
5.5088,0.0155544447491154,-0.0913381937352827
5.5104,0.0146217882930314,-0.0917090557074213
5.512,0.0136867267802122,-0.0920737196734148
5.5136,0.0127493071279313,-0.0924321606181155
5.5152,0.0118095774748761,-0.0927843544134073
5.5168,0.0108675871391379,-0.0931302779020513
5.5184,0.00992338656319857,-0.0934699089772308
5.52,0.0089770272579303,-0.0938032266602879
5.5216,0.00802856174359081,-0.0941302111730181
5.5232,0.00707804347983183,-0.094450844007849
5.5248,0.00612552679470084,-0.0947651079922871
5.5264,0.00517106681165573,-0.0950729873496286
5.528,0.00421471936957876,-0.0953744677546075
5.5296,0.00325654094079899,-0.0956695363840589
5.5312,0.00229658854211185,-0.0959581819622812
5.5328,0.0013349196488113,-0.0962403948010717
5.5344,0.000371592101718152,-0.0965161668336426
5.536,-0.000593335983778071,-0.0967854916436398
5.5376,-0.00155980632068378,-0.0970483644872329
5.5392,-0.00252776053735338,-0.0973047823097102
5.5408,-0.00349714028544116,-0.0975547437556713
5.5424,-0.00446788733184538,-0.0977982491733168
5.544,-0.00543994366365299,-0.098035300612338
5.5456,-0.00641325158207735,-0.0982659018151021
5.5472,-0.00738775380639024,-0.0984900582022362
5.5488,-0.00836339356885124,-0.0987077768515092
5.5504,-0.00934011471163448,-0.0989190664710133
5.552,-0.010317861782749,-0.0991239373655431
5.5536,-0.0112965801329528,-0.0993224013973715
5.5552,-0.0122762159966685,-0.0995144719415291
5.5568,-0.0132567165928911,-0.0997001638346775
5.5584,-0.0142380301980915,-0.0998794933185855
5.56,-0.0152201062371141,-0.100052477978801
5.5616,-0.0162028953560774,-0.100219136677528
5.5632,-0.017186349497263,-0.100379489481896
5.5648,-0.0181704219680048,-0.100533557587535
5.5664,-0.0191550675055704,-0.100681363238045
5.568,-0.0201402423370451,-0.100822929639875
5.5696,-0.0211259042362062,-0.100958280873889
5.5712,-0.0221120125643955,-0.101087441803245
5.5728,-0.023098528325386,-0.101210437979066
5.5744,-0.0240854141932525,-0.101327295540313
5.576,-0.0250726345482281,-0.101438041116465
5.5776,-0.0260601555015652,-0.101542701722892
5.5792,-0.0270479449163861,-0.101641304660433
5.5808,-0.0280359724145398,-0.101733877404678
5.5824,-0.0290242093904468,-0.101820447505244
5.584,-0.0300126290039436,-0.101901042477058
5.5856,-0.0310012061781243,-0.101975689695642
5.5872,-0.0319899175841812,-0.102044416286401
5.5888,-0.0329787416232384,-0.102107249027904
5.5904,-0.0339676583951866,-0.102164214238178
5.592,-0.0349566496725099,-0.102215337679003
5.5936,-0.0359456988581171,-0.102260644454199
5.5952,-0.0369347909381656,-0.102300158909931
5.5968,-0.037923912436883,-0.102333904539003
5.5984,-0.0389130513509876,-0.102361903891164
5.6,-0.0399021970969081,-0.102384178481415
5.6016,-0.0408908266133992,-0.102402053518314
5.6032,-0.0418794962205539,-0.102414277249291
5.6048,-0.0428682015886185,-0.102420865969964
5.6064,-0.0438569394348032,-0.102421834440459
5.608,-0.0448457074227916,-0.102417195825727
5.6096,-0.0458345040573449,-0.102406961638881
5.6112,-0.0468233285762144,-0.102391141688516
5.6128,-0.0478121808394445,-0.102369744040053
5.6144,-0.048801061214778,-0.102342774977071
5.616,-0.0497899704630565,-0.102310238972653
5.6176,-0.0507789096200305,-0.102272138668734
5.6192,-0.0517678798785582,-0.102228474861453
5.6208,-0.0527568824686085,-0.102179246492507
5.6224,-0.0537459185388631,-0.102124450650516
5.624,-0.0547349890365213,-0.102064082578388
5.6256,-0.0557240945893011,-0.101998135690689
5.6272,-0.0567132353877433,-0.101926601592019
5.6288,-0.057702411069313,-0.101849470108395
5.6304,-0.0586916206050084,-0.101766729323637
5.632,-0.0596808621872623,-0.101678365623758
5.6336,-0.0606701331218524,-0.101584363745362
5.6352,-0.0616594297227943,-0.10148470683405
5.6368,-0.0626487472105165,-0.101379376509822
5.6384,-0.0636380796147584,-0.101268352930493
5.64,-0.064627419681515,-0.101151614872116
5.6416,-0.0656167587850595,-0.101029139810403
5.6432,-0.0666060868449447,-0.100900904003156
5.6448,-0.067595392248661,-0.100766882583708
5.6464,-0.0685846617799699,-0.100627049655359
5.648,-0.0695738805535473,-0.100481378393833
5.6496,-0.0705630319552578,-0.100329841149725
5.6512,-0.0715520975900137,-0.100172409554968
5.6528,-0.0725410572356099,-0.100009054631297
5.6544,-0.0735298888034665,-0.0998397469097231
5.656,-0.0745185683071723,-0.0996644565390124
5.6576,-0.0755070698370338,-0.0994831534051728
5.6592,-0.0764953655432234,-0.0992958072469458
5.6608,-0.0774834256252432,-0.0991023877803042
5.6624,-0.0784712183293851,-0.0989028648119571
5.664,-0.0794587099532988,-0.0986972083588612
5.6656,-0.0804458648576619,-0.0984853887717383
5.6672,-0.0814326454861653,-0.0982673768465981
5.6688,-0.082419012391394,-0.0980431439422688
5.6704,-0.0834049242688204,-0.0978126620959337
5.672,-0.0843903379976981,-0.097575904136674
5.6736,-0.085375208688072,-0.0973328437860173
5.6752,-0.0863594897354863,-0.0970834557734935
5.6768,-0.0873431328810045,-0.0968277159331962
5.6784,-0.0883260882785331,-0.0965656013013512
5.68,-0.0893083045672593,-0.0962970902108896
5.6816,-0.0902897289499907,-0.0960221623810293
5.6832,-0.0912703072770052,-0.0957407990008609
5.6848,-0.0922499841345096,-0.0954529828059408
5.6864,-0.0932287029380084,-0.0951586981498891
5.688,-0.0942064060303791,-0.0948579310739951
5.6896,-0.095183034782459,-0.0945506693648272
5.6912,-0.0961585296989377,-0.0942369026088504
5.6928,-0.0971328305258667,-0.0939166222390472
5.6944,-0.0981058763617709,-0.0935898215735468
5.696,-0.0990776057703772,-0.0932564958512575
5.6976,-0.100047956894946,-0.0929166422535075
5.6992,-0.101016867575226,-0.0925702599266878
5.7008,-0.101984275464305,-0.0922173499899025
5.7024,-0.102950118143384,-0.0918579155426252
5.704,-0.103914333243256,-0.0914919616553574
5.7056,-0.104876858558405,-0.0911194953632948
5.7072,-0.105837632160104,-0.0907405256453973
