"Freq [GHz]","re(S(Antenna1_1_p1,Antenna1_1_p1)) []","im(S(Antenna1_1_p1,Antenna1_1_p1)) []"
3,0.0864571485653872,-0.101500441604587
3.002,0.0851378192969999,-0.102474137751128
3.004,0.0838076937069265,-0.103405975672213
3.006,0.0824702684495175,-0.104313138501833
3.008,0.0811321463710517,-0.105181340563078
3.01,0.0797830285392745,-0.106015586011891
3.012,0.0784442386309965,-0.106811618281245
3.014,0.0770963926497069,-0.10758127780484
3.016,0.0757430536821895,-0.108322337119087
3.018,0.0743977569632424,-0.109032287252679
3.02,0.0730563359173935,-0.109699633228505
3.022,0.0717165173536598,-0.110356707887112
3.024,0.0703801983603809,-0.110961729291568
3.026,0.0690438407471175,-0.111546660435792
3.028,0.0677267735395956,-0.112110862280353
3.03,0.0664257942327071,-0.112637116383811
3.032,0.0651266809146373,-0.113147157858385
3.034,0.0638241552450112,-0.11362775366826
3.036,0.0625493782121525,-0.114085418356279
3.038,0.0612794154934368,-0.114518416671175
3.04,0.0600222828457017,-0.114931179449268
3.042,0.058777023470807,-0.115319102862676
3.044,0.05755848765924,-0.115693060735039
3.046,0.0563443993648701,-0.116047439366736
3.048,0.055139103635786,-0.116382599018716
3.05,0.0539501391612692,-0.116702481011954
3.052,0.052782976740858,-0.117004153383805
3.054,0.05163202376255,-0.117299579662539
3.056,0.0505069770691328,-0.117594286264182
3.058,0.0493789254926504,-0.117853375019212
3.06,0.0482780302339762,-0.11812572022334
3.062,0.0471981367485629,-0.118380563440313
3.064,0.0461286209602852,-0.118632148655263
3.066,0.0450750849894716,-0.118872626807194
3.068,0.0440291166660752,-0.119114420192156
3.07,0.0430083599929626,-0.1193406948089
3.072,0.0419977918034154,-0.119575170420082
3.074,0.0410036559077382,-0.119813217861131
3.076,0.0400240270580651,-0.120042717668602
3.078,0.0390514125313133,-0.120277761191142
3.08,0.0381000176572896,-0.120517105737073
3.082,0.0371546946210308,-0.12076095970049
3.084,0.036217249509247,-0.121014380264999
3.086,0.0353009104399667,-0.121264997797127
3.088,0.0343878668144046,-0.121519823799151
3.09,0.0334819551039499,-0.121790534186669
3.092,0.032578085818368,-0.122067288695825
3.094,0.0316837353312107,-0.122347561389958
3.096,0.0307949555484003,-0.122643945498094
3.098,0.0299150544959856,-0.122930258710897
3.1,0.0290286834561464,-0.123257859937316
3.102,0.0281440209503232,-0.12358148592308
3.104,0.0272643031003112,-0.123916181005592
3.106,0.026379015689991,-0.124262579767469
3.108,0.0254893162560803,-0.124618996726813
3.11,0.0246013485044295,-0.124986503546959
3.112,0.0236961411932531,-0.125367613766783
3.114,0.0227980836495584,-0.125754967886964
3.116,0.0218810108027158,-0.126153760424707
3.118,0.0209778080018076,-0.12656658805327
3.12,0.0200322374811886,-0.126990137738144
3.122,0.0191016590728488,-0.127422785503856
3.124,0.0181300028198793,-0.127868829385503
3.126,0.0171548192782858,-0.128322394148957
3.128,0.0161723308219227,-0.128783771152773
3.13,0.0151653235737671,-0.129252057095722
3.132,0.0141429561243201,-0.129719222123102
3.134,0.013101931126284,-0.130200831820731
3.136,0.012041476709521,-0.130689901160617
3.138,0.0109572156701748,-0.131177640428332
3.14,0.0098480555920765,-0.131661064572134
3.142,0.00872321082334423,-0.13215254333681
3.144,0.00757481428530222,-0.132644731644205
3.146,0.00639879571654882,-0.133136769691471
3.148,0.00519741592036578,-0.133619790931098
3.15,0.00397164846428789,-0.134107840267622
3.152,0.00272395407493698,-0.134582912269115
3.154,0.00144348072517696,-0.13505845634337
3.156,0.0001405537334208,-0.135522781434885
3.158,-0.00119487253076567,-0.135974694789539
3.16,-0.0025523970768068,-0.136414649047572
3.162,-0.003936506680004,-0.136837906958463
3.164,-0.0053500100672148,-0.13725417049256
3.166,-0.0067762873921991,-0.13766773351927
3.168,-0.0082539600937878,-0.138028472440574
3.17,-0.0097383467837379,-0.138403135604821
3.172,-0.011261571438365,-0.138732324811584
3.174,-0.012807289229902,-0.139054439063355
3.176,-0.0143711850185904,-0.139351515686713
3.178,-0.0159570770745646,-0.139626719284705
3.18,-0.0175778453023719,-0.139858471199031
3.182,-0.0192153884413407,-0.140078158466046
3.184,-0.0208760002636394,-0.140260633055555
3.186,-0.0225502757090488,-0.140410362379373
3.188,-0.0242536544805233,-0.14053679313075
3.19,-0.0259702115594359,-0.140626686426557
3.192,-0.0276971912896117,-0.140679849673312
3.194,-0.0294541257210576,-0.140704364672998
3.196,-0.0312121801584375,-0.140689316136725
3.198,-0.0329872707702961,-0.140631467418217
3.2,-0.0347734729169762,-0.140540212374068
3.202,-0.0365786372403491,-0.140409040266932
3.204,-0.038380257892184,-0.140236945675445
3.206,-0.0401915790603099,-0.140029802005038
3.208,-0.0420129140134999,-0.139779035661586
3.21,-0.0438412106430784,-0.13949626109589
3.212,-0.0456584024682741,-0.139147232042009
3.214,-0.0474882079772763,-0.138786898575442
3.216,-0.0492934297163783,-0.138352279752167
3.218,-0.0511204840880702,-0.137893590604524
3.22,-0.0529333709500896,-0.137394433169005
3.222,-0.0547491865916105,-0.136862360052815
3.224,-0.0565424700711017,-0.136280003596418
3.226,-0.0583185690739182,-0.13564312919985
3.228,-0.0600920295064161,-0.134970745478954
3.23,-0.0618540935502065,-0.134262598291507
3.232,-0.0636008537754913,-0.133514158726175
3.234,-0.0653287518464804,-0.132725298505403
3.236,-0.067040721947483,-0.131902891206159
3.238,-0.0687473473558185,-0.131039310105569
3.24,-0.0703993377303694,-0.130135504356458
3.242,-0.0720474913209061,-0.129196442181793
3.244,-0.0736718060551684,-0.128223178419981
3.246,-0.075263895216613,-0.127220248519128
3.248,-0.0768356527899803,-0.126181728636137
3.25,-0.0783804839814992,-0.125108397186781
3.252,-0.0798916352159234,-0.124011494069633
3.254,-0.0813727686362231,-0.122876213624938
3.256,-0.0828170820490309,-0.121721391148383
3.258,-0.0842350103348637,-0.120535194937805
3.26,-0.085622781529013,-0.119326964784794
3.262,-0.0869718465002309,-0.118099662697253
3.264,-0.0882884430101025,-0.116842383800867
3.266,-0.0895655761471733,-0.115567954053483
3.268,-0.0908213415448425,-0.114279989730469
3.27,-0.0920234978229247,-0.112968137927685
3.272,-0.09319950101203,-0.111649922091856
3.274,-0.0943310586655963,-0.110309677520755
3.276,-0.0954266063197412,-0.108963376104929
3.278,-0.0964900176137944,-0.107602434556719
3.28,-0.0975133414075796,-0.106238854756684
3.282,-0.0985038805324739,-0.104864862721279
3.284,-0.0994536442511423,-0.103485528287745
3.286,-0.100368133660069,-0.102095092765387
3.288,-0.101244417809811,-0.100708008655274
3.29,-0.102086524380976,-0.099327046987023
3.292,-0.102895651371971,-0.097941310257529
3.294,-0.103664902060459,-0.096558243342683
3.296,-0.104402718731602,-0.095178161316055
3.298,-0.105111811613017,-0.093803059250541
3.3,-0.105778953391485,-0.092435186925977
3.302,-0.106419583474401,-0.0910764239397829
3.304,-0.107032340575971,-0.0897209976034987
3.306,-0.107607087085186,-0.0883855112773946
3.308,-0.108157710078481,-0.0870583569550116
3.31,-0.108678214779183,-0.085744733694678
3.312,-0.109173363505738,-0.0844405006201005
3.314,-0.109635607095602,-0.0831352630708205
3.316,-0.110092344971956,-0.0818758901137823
3.318,-0.110514022593156,-0.0806222970358324
3.32,-0.110918018503918,-0.0793859331592342
3.322,-0.111294374164244,-0.0781657851411902
3.324,-0.111658710576161,-0.0769651527283709
3.326,-0.112002850142144,-0.0757786442234426
3.328,-0.112334090723734,-0.0746050215795907
3.33,-0.112647417958514,-0.0734666279481052
3.332,-0.112942752090903,-0.0723415262548989
3.334,-0.113234188806251,-0.0712343366221291
3.336,-0.113511271561604,-0.0701485662647856
3.338,-0.113780859693247,-0.0690857517532834
3.34,-0.114042102632002,-0.0680324419001442
3.342,-0.114298732761126,-0.0670102274126365
3.344,-0.114546886218499,-0.0660076019644825
3.346,-0.114794251379659,-0.0650173668375703
3.348,-0.115041807778631,-0.0640549609287129
3.35,-0.115288323651474,-0.063103821948455
3.352,-0.115528696937631,-0.0621672266998617
3.354,-0.115774641914032,-0.0612511662274176
3.356,-0.116026173795974,-0.0603559586288962
3.358,-0.116284517040741,-0.0594778685223293
3.36,-0.116543220020048,-0.0586055200619887
3.362,-0.116808482171194,-0.0577563896314171
3.364,-0.117085093822034,-0.0569192534805198
3.366,-0.117364868132697,-0.0560889735726916
3.368,-0.117657847924099,-0.0552770151380128
3.37,-0.117963927446204,-0.0544670621054807
3.372,-0.118274109039098,-0.0536761674083162
3.374,-0.118598209382788,-0.0528825222433304
3.376,-0.118941356086842,-0.0521034974783154
3.378,-0.119293750241772,-0.0513260332845588
3.38,-0.11966067524018,-0.0505522884643595
3.382,-0.120032905105734,-0.0497823584306676
3.384,-0.120429912494887,-0.0490142829457444
3.386,-0.120836478287414,-0.048244390762935
3.388,-0.121259692007689,-0.0474770395756745
3.39,-0.121698987160798,-0.0467040052229831
3.392,-0.122151550503399,-0.0459244180124763
3.394,-0.122620895091402,-0.0451432805963839
3.396,-0.123104011127427,-0.0443517845107036
3.398,-0.123593656707031,-0.0435548116111993
3.4,-0.124113988368788,-0.0427442735711265
3.402,-0.124638788811073,-0.0419215507756012
3.404,-0.125175584013757,-0.0410919233450835
3.406,-0.125723797508559,-0.0402476746269242
3.408,-0.126293133316336,-0.03938473938105
3.41,-0.126864622097074,-0.0385033341476889
3.412,-0.127450908970713,-0.0376057123882155
3.414,-0.128044369458788,-0.0366911180840991
3.416,-0.12864837272285,-0.0357492428269436
3.418,-0.129259670568692,-0.0347973933566081
3.42,-0.129874598399408,-0.0338195083424765
3.422,-0.130497852218225,-0.0328121066867805
3.424,-0.131127149585167,-0.031785901781063
3.426,-0.131760467006508,-0.0307351686107225
3.428,-0.132390909217079,-0.0296548200836846
3.43,-0.133019060358331,-0.0285483307981962
3.432,-0.133647543147248,-0.0274161921876924
3.434,-0.134277228855069,-0.0262505165508036
3.436,-0.134903378060843,-0.0250651644774868
3.438,-0.135520661036747,-0.0238484831132454
3.44,-0.136127593787615,-0.0226066591005102
3.442,-0.136731838431095,-0.0213248288750755
3.444,-0.137321840669102,-0.0200186090587369
3.446,-0.137904010455034,-0.0186855403879866
3.448,-0.138465014225294,-0.0173230906648652
3.45,-0.139017791407751,-0.0159276681249477
3.452,-0.139548023622694,-0.0145032830914222
3.454,-0.140062245665179,-0.0130511267423464
3.456,-0.140553927482762,-0.0115746348549808
3.458,-0.141020710432086,-0.0100682071123249
3.46,-0.141472520806375,-0.00853199890269163
3.462,-0.14188616347874,-0.00697179440552981
3.464,-0.142285756030315,-0.00538986315128308
3.466,-0.14264997630724,-0.00377703032145996
3.468,-0.142984298001509,-0.00214360211279526
3.47,-0.14328977768862,-0.0004849708955774
3.472,-0.143558743156117,0.00119106330087292
3.474,-0.14379975647693,0.00289008853161661
3.476,-0.143998024306626,0.0046047556863116
3.478,-0.144162239365446,0.0063456428393468
3.48,-0.144293209588248,0.0080955277247556
3.482,-0.144375387010277,0.0098592959610513
3.484,-0.144427441360791,0.0116378036558373
3.486,-0.144433524331562,0.0134306450563406
3.488,-0.144403994762227,0.0152290176497411
3.49,-0.144328196354493,0.0170343887403574
3.492,-0.144207061025232,0.0188538061816897
3.494,-0.144047999458395,0.0206676158482793
3.496,-0.143847115672865,0.022489205247363
3.498,-0.143594331643101,0.0243134853943831
3.5,-0.143302268028695,0.0261311845641319
3.502,-0.142964637326824,0.0279466494857651
3.504,-0.142584597044503,0.0297559662973738
3.506,-0.142157593396821,0.0315625306245141
3.508,-0.141685750737933,0.0333572158274342
3.51,-0.141173767219048,0.0351409128114722
3.512,-0.140611243942218,0.0369050619356368
3.514,-0.140014846474046,0.0386676522059
3.516,-0.139374003868291,0.0404079350922318
3.518,-0.138690421190324,0.0421261493485331
3.52,-0.137965764732516,0.0438233848593474
3.522,-0.137197244581488,0.0454994942344514
3.524,-0.13639849562227,0.0471547750082149
3.526,-0.135554093849351,0.0487854376128455
3.528,-0.134679742189635,0.0503863599764167
3.53,-0.133766292201279,0.0519504666727345
3.532,-0.132819344991471,0.0534922774510371
3.534,-0.131839195623063,0.0550060798574984
3.536,-0.130827948558135,0.0564833617455535
3.538,-0.129790316605494,0.057925735982104
3.54,-0.12872193030602,0.0593310544524222
3.542,-0.127629484684001,0.0606991705850213
3.544,-0.12651240513731,0.0620321728902127
3.546,-0.12537748728255,0.0633280536145896
3.548,-0.124217326221099,0.0645841193022344
3.55,-0.123033952296067,0.0657977854228438
3.552,-0.121841393195899,0.0669716815215516
3.554,-0.120633401569678,0.0681063304786826
3.556,-0.119411461216874,0.0691971410282487
3.558,-0.118181223718116,0.0702475395062887
3.56,-0.116940063676794,0.0712603239290024
3.562,-0.115695169391887,0.0722217221807256
3.564,-0.114440383441437,0.0731488042217101
3.566,-0.113186277955482,0.0740334595856854
3.568,-0.11193129191027,0.0748776779412709
3.57,-0.110676609838569,0.0756801123162099
3.572,-0.109433122895901,0.0764418275903531
3.574,-0.108189012230728,0.0771630415785179
3.576,-0.106948912308573,0.0778533503731303
3.578,-0.105725747219098,0.078497729332669
3.58,-0.104503095809155,0.0791106221389463
3.582,-0.103299988758755,0.0796854610161691
3.584,-0.102108889892027,0.080225814527838
3.586,-0.100935666955117,0.0807315434024247
3.588,-0.099776120779043,0.0812073709788896
3.59,-0.098645633158549,0.0816536351409944
3.592,-0.097530165288871,0.0820684961984159
3.594,-0.096435035504522,0.0824550608326786
3.596,-0.095365685250021,0.0828180446258876
3.598,-0.094304339181576,0.0831503681453024
3.6,-0.093279220646798,0.0834709769616428
3.602,-0.092286210584316,0.083767359682311
3.604,-0.091305412729454,0.0840390925603087
3.606,-0.090362232860802,0.0843002543530682
3.608,-0.089437924473851,0.0845378901664054
3.61,-0.0885455012045481,0.0847690638110366
3.612,-0.0876801079428813,0.0849858416421414
3.614,-0.08684750793643,0.0851999823369679
3.616,-0.0860371757339138,0.0853987210495591
3.618,-0.0852592749187556,0.085594531269539
3.62,-0.0845106466125832,0.0857942908119458
3.622,-0.0837821609388115,0.0859824314525597
3.624,-0.0830885045861408,0.0861705705669854
3.626,-0.0824173762141196,0.0863635026585147
3.628,-0.0817749329356849,0.0865641471218085
3.63,-0.0811572786907032,0.0867679128303693
3.632,-0.0805617873245401,0.0869797005878583
3.634,-0.0799916968816142,0.0872041356602071
3.636,-0.0794479998630088,0.0874362319635139
3.638,-0.078921806668026,0.0876799921438041
3.64,-0.0784224234028427,0.0879279141945675
3.642,-0.0779323228151157,0.0882138630971043
3.644,-0.0774670144946463,0.0884984616256958
3.646,-0.0770149848790528,0.0888059782816065
3.648,-0.0765819966744769,0.0891254063508645
3.65,-0.0761502258913152,0.0894801111358599
3.652,-0.0757475298439752,0.089843319779808
3.654,-0.0753433067906551,0.090238840597948
3.656,-0.0749492306061943,0.090649735917621
3.658,-0.0745624866509053,0.091089276267148
3.66,-0.0741746600084804,0.091551089500507
3.662,-0.0738035646299445,0.092035453555842
3.664,-0.0734211598954043,0.092546169263797
3.666,-0.0730399335864947,0.093080839185651
3.668,-0.0726494220551271,0.093642794751292
3.67,-0.0722625611681147,0.094226818987007
3.672,-0.0718647629633519,0.094835735803068
3.674,-0.0714600408911932,0.095469940371169
3.676,-0.0710450445678499,0.096130307271703
3.678,-0.0706134263890144,0.096812753180789
3.68,-0.0701712271602285,0.097516689477218
3.682,-0.0697142590363316,0.098248722959147
3.684,-0.0692318114649687,0.098999486828662
3.686,-0.0687385784191483,0.099770618107165
3.688,-0.068218626992882,0.100559927833555
3.69,-0.0676738071198625,0.101367285097286
3.692,-0.0671003267232549,0.102194341259221
3.694,-0.066515705995515,0.103036983793341
3.696,-0.0658874566883013,0.103896563734246
3.698,-0.0652468989884635,0.104764510057544
3.7,-0.064559253383104,0.10564764078903
3.702,-0.0638563670567052,0.106540700207723
3.704,-0.0631079137633483,0.107436888992724
3.706,-0.0623345806190189,0.108346023029918
3.708,-0.0615186801229834,0.109254223370536
3.71,-0.0606831654142514,0.1101706701625
3.712,-0.0597958839981272,0.111084276400676
3.714,-0.058879889967879,0.111995840153918
3.716,-0.0579344475604147,0.112910535322981
3.718,-0.0569460367421621,0.113816007072269
3.72,-0.0559223679549527,0.114715658889034
3.722,-0.0548587179120388,0.115607339515907
3.724,-0.053754500144209,0.116481562002197
3.726,-0.0526233117159882,0.117344161836529
3.728,-0.0514536149819552,0.118202608451823
3.73,-0.0502499490231279,0.119034299236062
3.732,-0.0490086808635063,0.119845344049342
3.734,-0.0477305659966625,0.120639088689959
3.736,-0.0464162275824823,0.121408886865801
3.738,-0.0450734023739857,0.122153763377591
3.74,-0.0437033269792767,0.122870030358037
3.742,-0.0422939147775766,0.12355973334779
3.744,-0.040856912757405,0.1242130978803
3.746,-0.0393955057808577,0.124847550097493
3.748,-0.0379021549039832,0.12542655980337
3.75,-0.036385141964317,0.125986045979433
3.752,-0.0348470836394924,0.126512400764967
3.754,-0.0332825856319863,0.126989333493228
3.756,-0.0316976742580003,0.127433702275486
3.758,-0.0300928882634503,0.127838088936918
3.76,-0.0284790535000652,0.128203856240421
3.762,-0.0268440749736571,0.128523186421226
3.764,-0.0251905333114565,0.128800284784489
3.766,-0.0235358547726317,0.129035420035677
3.768,-0.0218611183708991,0.129216255388851
3.77,-0.0201920842462739,0.129363550296864
3.772,-0.0185086602499708,0.129463628061422
3.774,-0.0168234456403071,0.129511774202994
3.776,-0.0151374672039638,0.129513850900683
3.778,-0.0134542950706697,0.129478648121911
3.78,-0.0117723902366254,0.129384883822047
3.782,-0.0100980374505656,0.129250534713885
3.784,-0.0084285446315603,0.129072585407062
3.786,-0.00677390950724622,0.12884853080731
3.788,-0.00513089796741815,0.128574407755673
3.79,-0.00349880591114551,0.128265475017565
3.792,-0.00188266453704067,0.127902966801754
3.794,-0.000285532222662329,0.127502743099247
3.796,0.00129280966491871,0.127062655906083
3.798,0.00284620523443312,0.126583379268006
3.8,0.00437873337655323,0.126057303541077
3.802,0.00588388536790921,0.125493489459191
3.804,0.00736431871693597,0.124894573434454
3.806,0.00881358202457551,0.124261315235585
3.808,0.0102333642928525,0.123595191094074
3.81,0.0116219677522498,0.122897925586413
3.812,0.0129768573249829,0.122162977905143
3.814,0.0142995540840902,0.121400404500862
3.816,0.0155853912423718,0.120613467427147
3.818,0.0168313375321842,0.119801230525396
3.82,0.0180414983240711,0.118965732847597
3.822,0.0192134706592572,0.118099060817044
3.824,0.0203449130409409,0.117227091354941
3.826,0.0214373354014711,0.116329158982983
3.828,0.0224899108593591,0.115422706925835
3.83,0.0235048727961134,0.114497285574272
3.832,0.0244680802029344,0.11355523342733
3.834,0.025402254657221,0.112612687362642
3.836,0.0262893561389614,0.111659941055143
3.838,0.0271309106669229,0.110702813216797
3.84,0.0279354563946799,0.109741194081522
3.842,0.0287021097865272,0.108783116194449
3.844,0.0294190304531687,0.107828856510506
3.846,0.030104065947273,0.106875383070342
3.848,0.030751694648873,0.105916484282313
3.85,0.0313522600505855,0.104970451830336
3.852,0.031922716843659,0.10403468186177
3.854,0.0324452526458963,0.103114507732213
3.856,0.0329438991993614,0.102204641602251
3.858,0.0334086633399444,0.101305518295237
3.86,0.033827989537777,0.100429396078943
3.862,0.0342202432154504,0.09956379000526
3.864,0.0345788922550784,0.098728536627821
3.866,0.0349138543312071,0.097913729163613
3.868,0.0352175431475446,0.097109127891543
3.87,0.0354999000465121,0.096330489255022
3.872,0.0357467006046653,0.095584964946482
3.874,0.0359808712259071,0.094859082900894
3.876,0.0361888311315539,0.094158070939267
3.878,0.0363747377542417,0.09348165555413
3.88,0.0365462349276352,0.092847377725995
3.882,0.0367064052530098,0.092236684039816
3.884,0.0368517338096259,0.091656546541439
3.886,0.0369808443274743,0.091100995434021
3.888,0.0371005209798174,0.090585163744479
3.89,0.0372191673203879,0.090089767329916
3.892,0.0373287798426088,0.089624115534054
3.894,0.0374395171876607,0.089198984553631
3.896,0.0375337055203541,0.08879836449488
3.898,0.0376406934528694,0.0884258289199227
3.9,0.0377472531195106,0.088088588103221
3.902,0.0378568879475812,0.0877776601280452
3.904,0.0379721018331329,0.0874960578629138
