"Freq [GHz]","re(S(Antenna1_1_p1,Antenna1_1_p1)) []","im(S(Antenna1_1_p1,Antenna1_1_p1)) []"
3,0.0923143676583872,-0.111989822946587
3.002,0.0903537178309999,-0.113285486459128
3.004,0.0883648235139265,-0.114518493158213
3.006,0.0863643116545175,-0.115666158101833
3.008,0.0843391574710517,-0.116748645266078
3.01,0.0822957540176745,-0.117743441312891
3.012,0.0802403414589965,-0.118678821107245
3.014,0.0781818888977069,-0.11953120937384
3.016,0.0761168097741895,-0.120313679003087
3.018,0.0740610451732424,-0.121010813826679
3.02,0.0719991369473935,-0.121642032312505
3.022,0.0699569670526598,-0.122200892979112
3.024,0.0679180029593809,-0.122689861879568
3.026,0.0658970775211175,-0.123100366454792
3.028,0.0638969151975956,-0.123449398156353
3.03,0.0619193082757071,-0.123725142968811
3.032,0.0599658161046373,-0.123939471391385
3.034,0.0580508925750112,-0.12409252904926
3.036,0.0561610290531525,-0.124182666774279
3.038,0.0543072209334368,-0.124216485745175
3.04,0.0524922215007017,-0.124194968927268
3.042,0.050724724452807,-0.124125974821676
3.044,0.04899068267324,-0.123998183428039
3.046,0.0473034699038701,-0.123826619041736
3.048,0.045663392657786,-0.123614724429616
3.05,0.0440789975422692,-0.123355434252254
3.052,0.042542123751858,-0.123066589573705
3.054,0.04105533963155,-0.122749430075839
3.056,0.0396259585601328,-0.122389652763182
3.058,0.0382466061736504,-0.122013586632212
3.06,0.0369244736089762,-0.12161179891234
3.062,0.0356574044175629,-0.121186899575213
3.064,0.0344317056592852,-0.120750150324763
3.066,0.0333016813664716,-0.120308636198194
3.068,0.0321877632080752,-0.119847421614156
3.07,0.0311438740539626,-0.1193732727749
3.072,0.0301647393294154,-0.118915038442082
3.074,0.0292482424897382,-0.118468935911131
3.076,0.0283611003150651,-0.118003496856602
3.078,0.0275600828953133,-0.117568242323142
3.08,0.0267727216652896,-0.117137752352073
3.082,0.0260467966900308,-0.11671786933249
3.084,0.025396089470247,-0.116336245770999
3.086,0.0247576491979667,-0.115954664598127
3.088,0.0241792144724046,-0.115610581446151
3.09,0.0236582603959499,-0.115310137595669
3.092,0.023157284750368,-0.115026021053825
3.094,0.0226858645532107,-0.114759298291958
3.096,0.0222554261744003,-0.114542721623094
3.098,0.0218619661729856,-0.114365318018897
3.1,0.0215041156241464,-0.114231970336316
3.102,0.0211754792533232,-0.11415295751408
3.104,0.0208558557328112,-0.114115216867592
3.106,0.020554415360891,-0.114105016896469
3.108,0.0202682933310803,-0.114126634667813
3.11,0.0200023819669295,-0.114240210311959
3.112,0.0197391110852531,-0.114354255466783
3.114,0.0194871298415584,-0.114539866011964
3.116,0.0192317741506158,-0.114776380222707
3.118,0.0189774216266076,-0.11507665742327
3.12,0.0187172723101886,-0.115398779000144
3.122,0.0184524764858488,-0.115773424074856
3.124,0.0181713688518793,-0.116212819156503
3.126,0.0178705048442858,-0.116695436093957
3.128,0.0175554659769227,-0.117222808997773
3.13,0.0172188019467671,-0.117798132501722
3.132,0.0168435787953201,-0.118436989464102
3.134,0.016449917537284,-0.119099080388731
3.136,0.016034181547521,-0.119788852375617
3.138,0.0155727446751748,-0.120525420521332
3.14,0.0150746508400765,-0.121305801229134
3.142,0.0145344316623442,-0.12212361320881
3.144,0.0139371395463022,-0.122980626186205
3.146,0.0133184069725488,-0.123851324702471
3.148,0.0126205400903658,-0.124771866023098
3.15,0.0119090646602879,-0.125692332466622
3.152,0.011123095156937,-0.126647778623115
3.154,0.010284389592177,-0.12762023864637
3.156,0.0093677510784208,-0.128618747690885
3.158,0.00843516652223433,-0.129609408065539
3.16,0.0074261004081932,-0.130614832957072
3.162,0.006321347152996,-0.131642352231263
3.164,0.0051935928697852,-0.13265473079996
3.166,0.0040138704228009,-0.13367018299577
3.168,0.0027534089322122,-0.134680260990574
3.17,0.0014130962092621,-0.135677567121821
3.172,4.48783516350006E-05,-0.136673683665184
3.174,-0.001404698540902,-0.137644925724355
3.176,-0.0029343588505904,-0.138602629281713
3.178,-0.0044874440855646,-0.139529720263705
3.18,-0.0061230096733719,-0.140432030860031
3.182,-0.0078370257543407,-0.141303273829046
3.184,-0.0095841007246394,-0.142132792075555
3.186,-0.0113860968490488,-0.142928431748373
3.188,-0.0132537227235233,-0.14369482156475
3.19,-0.0151729982374359,-0.144412033160557
3.192,-0.0171673615756117,-0.145063432198312
3.194,-0.0191740914500576,-0.145693844991998
3.196,-0.0212423574214375,-0.146259512766725
3.198,-0.0233572721102961,-0.146765778408217
3.2,-0.0255185978479762,-0.147210826088068
3.202,-0.0277346510273491,-0.147576324566932
3.204,-0.029952755083184,-0.147922057737445
3.206,-0.0322274382923099,-0.148172309777038
3.208,-0.0345330072934999,-0.148369938870586
3.21,-0.0368697006730784,-0.14846269341289
3.212,-0.0392239546212741,-0.148508823281009
3.214,-0.0415959957942763,-0.148484266826442
3.216,-0.0439807847200783,-0.148384062757167
3.218,-0.0463908787189802,-0.148203660429524
3.22,-0.0487989085878896,-0.147952345970005
3.222,-0.0512194244663105,-0.147622052816815
3.224,-0.0536506477781017,-0.147221080591418
3.226,-0.0560611068964182,-0.14673559456985
3.228,-0.0584845882307161,-0.146172203493954
3.23,-0.0608860512682065,-0.145532376842507
3.232,-0.0632802218754913,-0.144819897822175
3.234,-0.0656586766974804,-0.144023008088403
3.236,-0.068009846981483,-0.143154427386159
3.238,-0.0703430698428185,-0.142214701410569
3.24,-0.0726531323343694,-0.141192966187458
3.242,-0.0749333766929061,-0.140103053033793
3.244,-0.0771677467241684,-0.138943015557981
3.246,-0.079365902746613,-0.137712780910128
3.248,-0.0815223895919803,-0.136416110772137
3.25,-0.0836397527324992,-0.135054396947781
3.252,-0.0857189836069234,-0.133636867922633
3.254,-0.0877286224192231,-0.132154961013938
3.256,-0.0896980677820309,-0.130607571400383
3.258,-0.0916148689098637,-0.129014135331805
3.26,-0.093462257762013,-0.127365513158794
3.262,-0.0952618716152309,-0.125670869802253
3.264,-0.0969839969761025,-0.123927298632867
3.266,-0.0986546732831733,-0.122144447426483
3.268,-0.100253632068842,-0.120316795381469
3.27,-0.101786771470925,-0.118455079567985
3.272,-0.10325783075403,-0.116571062767156
3.274,-0.104651000610596,-0.114648969021265
3.276,-0.105972144571741,-0.112697017378829
3.278,-0.107218860027794,-0.110726237336619
3.28,-0.10840931128858,-0.108748338978684
3.282,-0.109502232913474,-0.106742149253869
3.284,-0.110539972651142,-0.104728962586745
3.286,-0.111503619539069,-0.102713538452387
3.288,-0.112383030412811,-0.100686357952274
3.29,-0.113207866604976,-0.098665187174023
3.292,-0.113942853113971,-0.096647317920529
3.294,-0.114633396322459,-0.094632954608683
3.296,-0.115226687845602,-0.092638728771055
3.298,-0.115769235139017,-0.090659231545541
3.3,-0.116232853336485,-0.088685185096977
3.302,-0.116633513007401,-0.0867455431217829
3.304,-0.116972767123971,-0.0848207794204987
3.306,-0.117255829058186,-0.0829269687363946
3.308,-0.117465308198481,-0.0810598742690116
3.31,-0.117629916116183,-0.079227743651678
3.312,-0.117740736981738,-0.0774167688301005
3.314,-0.117784124680602,-0.0756702092908205
3.316,-0.117787471918956,-0.0739508536897823
3.318,-0.117741565439156,-0.0722763959908324
3.32,-0.117655963833918,-0.0706449253942342
3.322,-0.117522243580244,-0.0690628994451902
3.324,-0.117351981785161,-0.0675270237123709
3.326,-0.117145509628144,-0.0660503890064426
3.328,-0.116909078300334,-0.0646063376185907
3.33,-0.116644710116514,-0.0632246158691052
3.332,-0.116354390958803,-0.0618955796258989
3.334,-0.116041158611151,-0.0606210891131291
3.336,-0.115713788494404,-0.0594002304097856
3.338,-0.115369257697847,-0.0582472525782834
3.34,-0.115006199506002,-0.0571256162331442
3.342,-0.114646608051126,-0.0560671059996365
3.344,-0.114274224300499,-0.0550714404424825
3.346,-0.113900605547659,-0.0541255231945703
3.348,-0.113532365402631,-0.0532347823157129
3.35,-0.113166999368474,-0.052400485611455
3.352,-0.112809399243631,-0.0516098301318617
3.354,-0.112466487161032,-0.0508807350104176
3.356,-0.112146830694974,-0.0501971257228962
3.358,-0.111834272755741,-0.0495559099663293
3.36,-0.111535105469048,-0.0489671350379887
3.362,-0.111276438604194,-0.0484202948544171
3.364,-0.111038286497034,-0.0479185131505198
3.366,-0.110824032937697,-0.0474570584886916
3.368,-0.110650574420099,-0.0470372901280128
3.37,-0.110497116941204,-0.0466332141434807
3.372,-0.110377782930098,-0.0462888972253162
3.374,-0.110312587566788,-0.0459564935183304
3.376,-0.110283361870842,-0.0456587676323154
3.378,-0.110291161909772,-0.0453861290945588
3.38,-0.11033195487718,-0.0451417361143595
3.382,-0.110441470050734,-0.0449015186446676
3.384,-0.110593819039887,-0.0446890692707444
3.386,-0.110773153163414,-0.044483408717935
3.388,-0.111016348596689,-0.0442857749804745
3.39,-0.111295520098798,-0.0441018130613831
3.392,-0.111629496969399,-0.0439149468718763
3.394,-0.112006318885402,-0.0437312221816839
3.396,-0.112424619427427,-0.0435465819697036
3.398,-0.112914362596031,-0.0433487093681993
3.4,-0.113446956787788,-0.0431330549931265
3.402,-0.114007470711073,-0.0429115527376012
3.404,-0.114630026261757,-0.0426743193720835
3.406,-0.115300836468559,-0.0423993203869242
3.408,-0.116011274208336,-0.04212766339105
3.41,-0.116764086881074,-0.0418210976376889
3.412,-0.117563696744713,-0.0414805172522155
3.414,-0.118401192949788,-0.0411088138920991
3.416,-0.11927485536385,-0.0407013490039436
3.418,-0.120187120965692,-0.0402516970946081
3.42,-0.121133722649408,-0.0397818581914765
3.422,-0.122107613998225,-0.0392392327737805
3.424,-0.123118187768167,-0.038668120844063
3.426,-0.124159555311508,-0.0380477304297225
3.428,-0.125211786130079,-0.0373677009546846
3.43,-0.126296360548331,-0.0366581092211962
3.432,-0.127390545663248,-0.0358690514716924
3.434,-0.128509465065069,-0.0350375680608036
3.436,-0.129634366656843,-0.0341551783574868
3.438,-0.130776318313747,-0.0332044862872454
3.44,-0.131916130754315,-0.0321914921345102
3.442,-0.133062714365395,-0.0311376868450755
3.444,-0.134207638407002,-0.0300051438287369
3.446,-0.135360136330934,-0.0288074844219866
3.448,-0.136490881360694,-0.0275705746808652
3.45,-0.137611602302151,-0.0262621210239477
3.452,-0.138729722419694,-0.0249007468854222
3.454,-0.139827645593179,-0.0234698370483464
3.456,-0.140887956949762,-0.0219699358579808
3.458,-0.141940571200086,-0.0204358503353249
3.46,-0.142967697715375,-0.0188165286806916
3.462,-0.14395108697374,-0.0171389409575298
3.464,-0.144896505725315,-0.0154214447562831
3.466,-0.14582032439824,-0.01363434707846
3.468,-0.146703516024509,-0.0118085205607953
3.47,-0.14752000757762,-0.0099236118095774
3.472,-0.148305365928117,-0.00798706015512708
3.474,-0.14904367531093,-0.00600111734638339
3.476,-0.149727308576626,-0.0039747638256884
3.478,-0.150353664390446,-0.0019002580836532
3.48,-0.150920917321248,0.000213409975755601
3.482,-0.151436543760277,0.0023768040200513
3.484,-0.151880962389791,0.0045566168528373
3.486,-0.152266221341562,0.0067714744783406
3.488,-0.152584102235227,0.0090202902447411
3.49,-0.152829759306493,0.0112978322113574
3.492,-0.153011138145232,0.0135925284786897
3.494,-0.153121007093395,0.0159097356832793
3.496,-0.153168899012865,0.018243789856463
3.498,-0.153123978903101,0.0205884397288831
3.5,-0.153020608558695,0.0229549332149319
3.502,-0.152838164126824,0.0253055710449651
3.504,-0.152582696274503,0.0276764871458738
3.506,-0.152239091825821,0.0300414992831141
3.508,-0.151833509398933,0.0323960219394342
3.51,-0.151355663683048,0.0347466986554722
3.512,-0.150807556005218,0.0370689651586368
3.514,-0.150164876327046,0.0393788745139
3.516,-0.149468935851291,0.0416890016362318
3.518,-0.148682374718324,0.0439662766605331
3.52,-0.147850748162516,0.0462118931303474
3.522,-0.146917435098488,0.0484238990974514
3.524,-0.14593214896727,0.0506154815992149
3.526,-0.144894919092351,0.0527632631228455
3.528,-0.143768963015635,0.0548638605644167
3.53,-0.142593841003279,0.0569228060267345
3.532,-0.141364977391471,0.0589566818220371
3.534,-0.140049842672063,0.0609051232424984
3.536,-0.138701357258135,0.0628307962005535
3.538,-0.137312264369494,0.064699683659104
3.54,-0.13584533026802,0.0664980400514222
3.542,-0.134336195303001,0.0682411628710213
3.544,-0.13279616437031,0.0699376958512127
3.546,-0.13120467662355,0.0715474840945896
3.548,-0.129593667324099,0.0731246658922344
3.55,-0.127928643566067,0.0746065193428438
3.552,-0.126236664925199,0.0760365762815516
3.554,-0.124521348304678,0.0773872237886826
3.556,-0.122783971846874,0.0786778793882487
3.558,-0.121022886337016,0.0798963155262887
3.56,-0.119241141521894,0.0810544770090024
3.562,-0.117464193186587,0.0821207355007256
3.564,-0.115660546092437,0.0831402377917101
3.566,-0.113850496888482,0.0840602534756854
3.568,-0.11204882853927,0.0849173601972709
3.57,-0.110240120758569,0.0857229703192099
3.572,-0.108436785607901,0.0864311510293531
3.574,-0.106645156967728,0.0870940760775179
3.576,-0.104871049600573,0.0876695993721303
3.578,-0.103121815730098,0.088181432796669
3.58,-0.101360457400155,0.0886290639559463
3.582,-0.099639944187755,0.0890173186121691
3.584,-0.097947867514027,0.089345936260838
3.586,-0.096287482200117,0.0896008008764247
3.588,-0.094646608007043,0.0898191919278896
3.59,-0.093043769949549,0.0899576248839944
3.592,-0.091486390979871,0.0900497988184159
3.594,-0.089964403741522,0.0900884470946786
3.596,-0.088480671503021,0.0900882998408876
3.598,-0.087043156391576,0.0900315314543024
3.6,-0.085652740436798,0.0899387370526428
3.602,-0.084311221244316,0.089808266689311
3.604,-0.083017212839454,0.0896345258643087
3.606,-0.081770825110802,0.0894349449390682
3.608,-0.080592131163851,0.0891829410190054
3.61,-0.0794499454145481,0.0889232410619266
3.612,-0.0783787506428813,0.0886412570992414
3.614,-0.07736004419643,0.0883287801929679
3.616,-0.0763904443239138,0.0880134845444591
3.618,-0.0754789110287556,0.087667650068139
3.62,-0.0746288088425832,0.0873219123719458
3.622,-0.0738333903188115,0.0869622144925597
3.624,-0.0730944225361408,0.0866186628809854
3.626,-0.0724308671821196,0.0862612466925147
3.628,-0.0718069900066849,0.0859123787748085
3.63,-0.0712395357857032,0.0855714376563693
3.632,-0.0707097962545401,0.0852350082008583
3.634,-0.0702525372016142,0.0849230861972071
3.636,-0.0698643172420088,0.0846231071785139
3.638,-0.069504287621026,0.0843482498668041
3.64,-0.0691959468178427,0.0840943174825675
3.642,-0.0689378475391157,0.0838660513371043
3.644,-0.0687110744926463,0.0836766419126958
3.646,-0.0685307346910528,0.0835080037226065
3.648,-0.0684117469254769,0.0833777897008645
3.65,-0.0683126276993152,0.0832932454718599
3.652,-0.0682431826219752,0.083224330409808
3.654,-0.0682206803726551,0.083220166567948
3.656,-0.0682259415001943,0.083254517787621
3.658,-0.0682421288879053,0.083325519027148
3.66,-0.0682985109654804,0.083459971800507
3.662,-0.0683735284549445,0.083634999545842
3.664,-0.0684707679906043,0.083862001933797
3.666,-0.0685675189690947,0.084133585355651
3.668,-0.0686738558004271,0.084462415421292
3.67,-0.0688005831271147,0.084843371217007
3.672,-0.0689150028218519,0.085271748443068
3.674,-0.0690456987713932,0.085759534891169
3.676,-0.0691522691238499,0.086290980101703
3.678,-0.0692796069900144,0.086882766330789
3.68,-0.0693794808942285,0.087542339127218
3.682,-0.0694691581903316,0.088240684549147
3.684,-0.0695354686949687,0.088986226990662
3.686,-0.0695971247071483,0.089795499818165
3.688,-0.069619421288882,0.090640191986555
3.69,-0.0696153184268625,0.091534238705286
3.692,-0.0695961900512549,0.092473942134221
3.694,-0.069523091658515,0.093475432179341
3.696,-0.0694273431753013,0.094492529118246
3.698,-0.0692805510544635,0.095583909175544
3.7,-0.069102531809104,0.09670157078803
3.702,-0.0688790915377052,0.097854577189723
3.704,-0.0686077915293483,0.099049593136724
3.706,-0.0682980389890189,0.100270743031918
3.708,-0.0679079743529834,0.101508478879536
3.71,-0.0674796433942514,0.1027755885095
3.712,-0.0670029680481272,0.104069993711676
3.714,-0.066459240257879,0.105398529562918
3.716,-0.0658653870004147,0.106724431675981
3.718,-0.0652066917321621,0.108072616580269
3.72,-0.0644817972849527,0.109429517331434
3.722,-0.0637072827820388,0.110795448490807
3.724,-0.062855051334209,0.112166494270697
3.726,-0.0619420314559882,0.113550056891529
3.728,-0.0609800526119552,0.114904204537823
3.73,-0.0599313248131279,0.116276961426942
3.732,-0.0588268774735063,0.117626568492342
3.734,-0.0576651862966625,0.118956335527959
3.736,-0.0564320777224823,0.120276625746801
3.738,-0.0551401264439857,0.121572590085591
3.74,-0.0537897790142767,0.122839579863037
3.742,-0.0523714994135766,0.12408160203579
3.744,-0.050888381046405,0.1252995018023
3.746,-0.0493596024288577,0.126472086431493
3.748,-0.0477740611659832,0.12761422624337
3.75,-0.046119781529317,0.128704920197433
3.752,-0.0444179845644924,0.129759591073967
3.754,-0.0426712810189863,0.130765384960228
3.756,-0.0408717345400003,0.131711994985486
3.758,-0.0390260013524503,0.132622120694918
3.76,-0.0371344978570652,0.133470427430421
3.762,-0.0351868460886571,0.134255317971226
3.764,-0.0332096478244565,0.134987032964489
3.766,-0.0312038262026317,0.135649833815677
3.768,-0.0291623600908991,0.136253957368851
3.77,-0.0270901809002739,0.136791931066864
3.772,-0.0250084440039708,0.137258805771422
3.774,-0.0228833469754071,0.137656469592994
3.776,-0.0207378376443638,0.137989316520683
3.778,-0.0185764020372697,0.138240777361911
3.78,-0.0164071602626254,0.138420081222047
3.782,-0.0142267183185656,0.138531227403885
3.784,-0.0120492410635603,0.138572141607062
3.786,-0.00986360390334622,0.13852752559731
3.788,-0.00768121092431815,0.138425785345673
3.79,-0.00551351916814551,0.138234562167565
3.792,-0.00335448575604067,0.137983794161754
3.794,-0.00118781242366233,0.137648576359247
3.796,0.000943623104918709,0.137246930952083
3.798,0.00306664591843312,0.136761616192006
3.8,0.00515692603155323,0.136215926579077
3.802,0.00721791082790921,0.135606604130191
3.804,0.00925407513193597,0.134920639557454
3.806,0.0112496413655755,0.134170497826585
3.808,0.0132112487248525,0.133357191295074
3.81,0.0151290845882498,0.132491970560413
3.812,0.017012167639983,0.131538402658143
3.814,0.0188460104780902,0.130563498359862
3.816,0.0206301891323718,0.129527127741147
3.818,0.0223595872921842,0.128397439379396
3.82,0.0240367561540711,0.127246496921597
3.822,0.0256541470692572,0.126048724962044
3.824,0.0272204701609409,0.124819459639941
3.826,0.0287261372314711,0.123526284246983
3.828,0.0301652992693591,0.122225743048835
3.83,0.0315391346261134,0.120855666307572
3.832,0.0328529005329344,0.11947539018603
3.834,0.034098742097221,0.118057592221142
3.836,0.0352803809489614,0.116625402450143
3.838,0.0363874778969229,0.115167862730797
3.84,0.0374329211746799,0.113697724017522
3.842,0.0383917632565272,0.112202706514449
3.844,0.0392874058331687,0.110700050699506
3.846,0.040118640077273,0.109196670119342
3.848,0.040874428188873,0.107694809835313
3.85,0.0415597837305855,0.106186961644336
3.852,0.042181000082659,0.10468707189177
3.854,0.0427428205078963,0.103201859820213
3.856,0.0432263441863614,0.101724355579251
3.858,0.0436472577399444,0.100266040687237
3.86,0.044014251786777,0.098826938559943
3.862,0.0443070981254504,0.09741681740826
3.864,0.0445271438190784,0.096013868574821
3.866,0.0447059930692071,0.094646110475613
3.868,0.0448180681295446,0.093315190930543
3.87,0.0448588306795121,0.092014463475022
3.872,0.0448797924076653,0.090752581266482
3.874,0.0448367368449071,0.089531820970894
3.876,0.0447418625175539,0.088354689189267
3.878,0.0445941880402417,0.08722446553413
3.88,0.0443962095286352,0.086137231815995
3.882,0.0441739235700098,0.085101675839816
3.884,0.0439230012966259,0.084119381391439
3.886,0.0436394380719743,0.083180834104021
3.888,0.0433094956468174,0.082308794084479
3.89,0.0429652149880879,0.081484821339916
3.892,0.0426028418006088,0.080710086204054
3.894,0.0421914777046607,0.080011265023631
3.896,0.0417867493293541,0.07935907607488
3.898,0.0413736790431694,0.0787572069799227
3.9,0.0409400903927106,0.078234662893221
3.902,0.0405068268435812,0.0777608462580452
3.904,0.0400689086651329,0.0773462114029138
3.906,0.0396320053735004,0.0769873147280863
