"Freq [GHz]","re(S(Tx_p1,Tx_p1)) []","im(S(Tx_p1,Tx_p1)) []"
1,-0.01610797457,-0.03218855405
1.01,-0.0174139256,-0.03150793785
1.02,-0.01869493141,-0.03077048456
1.03,-0.01994820162,-0.02997707092
1.04,-0.02117098694,-0.02912872083
1.05,-0.02236058648,-0.0282266026
1.06,-0.02351435498,-0.0272720259
1.07,-0.02462970986,-0.0262664384
1.08,-0.02570413804,-0.02521142205
1.09,-0.02673520259,-0.02410868917
1.1,-0.02772054912,-0.02296007808
1.11,-0.02865791199,-0.02176754864
1.12,-0.02954512023,-0.02053317736
1.13,-0.03038010324,-0.01925915231
1.14,-0.03116089619,-0.01794776782
1.15,-0.03188564516,-0.01660141887
1.16,-0.032552612,-0.01522259529
1.17,-0.03316017888,-0.01381387578
1.18,-0.03370685252,-0.01237792166
1.19,-0.03419126814,-0.0109174705
1.2,-0.03461219305,-0.009435329584
1.21,-0.03496852992,-0.00793436916
1.22,-0.03525931974,-0.006417515628
1.23,-0.03548374441,-0.004887744561
1.24,-0.03564112897,-0.00334807364
1.25,-0.03573094353,-0.001801555498
1.26,-0.0357528048,-0.0002512704941
1.27,-0.03570647726,0.001299680568
1.28,-0.03559187404,0.002848183754
1.29,-0.03540905732,0.004391119337
1.3,-0.03515823852,0.005925369138
1.31,-0.03483977799,0.007447823847
1.32,-0.03445418446,0.008955390317
1.33,-0.03400211403,0.01044499881
1.34,-0.03348436893,0.01191361018
1.35,-0.0329018958,0.01335822296
1.36,-0.03225578374,0.01477588036
1.37,-0.03154726195,0.01616367718
1.38,-0.03077769711,0.01751876655
1.39,-0.02994859035,0.0188383665
1.4,-0.02906157398,0.02011976648
1.41,-0.02811840787,0.02136033358
1.42,-0.02712097557,0.02255751866
1.43,-0.02607128011,0.02370886217
1.44,-0.02497143951,0.02481199988
1.45,-0.02382368212,0.02586466827
1.46,-0.02263034154,0.02686470975
1.47,-0.02139385149,0.02781007759
1.48,-0.02011674029,0.02869884058
1.49,-0.01880162524,0.02952918748
1.5,-0.01745120669,0.03029943108
1.51,-0.01606826206,0.03100801209
1.52,-0.01465563955,0.03165350259
1.53,-0.0132162518,0.03223460931
1.54,-0.01175306933,0.0327501765
1.55,-0.0102691139,0.03319918851
1.56,-0.008767451726,0.03358077206
1.57,-0.007251186671,0.03389419814
1.58,-0.005723453257,0.03413888359
1.59,-0.004187409689,0.03431439238
1.6,-0.002646230808,0.03442043649
1.61,-0.001103101017,0.03445687649
1.62,0.0004387928025,0.03442372177
1.63,0.001976268372,0.03432113041
1.64,0.003506155078,0.03414940871
1.65,0.005025300993,0.03390901044
1.66,0.006530579844,0.03360053568
1.67,0.008018897918,0.03322472936
1.68,0.009487200872,0.03278247944
1.69,0.01093248045,0.03227481488
1.7,0.01235178108,0.0317029031
1.71,0.01374220634,0.03106804733
1.72,0.01510092529,0.0303716835
1.73,0.01642517861,0.02961537693
1.74,0.01771228461,0.02880081869
1.75,0.01895964504,0.02792982171
1.76,0.02016475064,0.02700431655
1.77,0.02132518658,0.02602634704
1.78,0.0224386376,0.02499806552
1.79,0.02350289295,0.02392172799
1.8,0.02451585104,0.02279968892
1.81,0.02547552392,0.02163439592
1.82,0.02638004137,0.02042838416
1.83,0.02722765485,0.01918427067
1.84,0.02801674105,0.01790474842
1.85,0.02874580523,0.0165925802
1.86,0.02941348422,0.01525059251
1.87,0.03001854914,0.01388166911
1.88,0.03055990779,0.01248874466
1.89,0.03103660673,0.01107479811
1.9,0.03144783309,0.009642846094
1.91,0.03179291596,0.008195936221
1.92,0.0320713276,0.006737140316
1.93,0.03228268414,0.005269547636
1.94,0.03242674614,0.003796258057
1.95,0.03250341874,0.002320375257
1.96,0.03251275143,0.0008449999091
1.97,0.03245493761,-0.0006267770993
1.98,0.03233031376,-0.002091881404
1.99,0.03213935831,-0.003547261847
2,0.03188269018,-0.004989897091
2.01,0.03156106704,-0.006416802139
2.02,0.03117538323,-0.007825034761
2.03,0.03072666744,-0.009211701804
2.04,0.03021607998,-0.01057396537
2.05,0.02964490993,-0.01190904885
2.06,0.02901457185,-0.0132142428
2.07,0.02832660234,-0.01448691068
2.08,0.02758265626,-0.01572449434
2.09,0.02678450274,-0.01692451939
2.1,0.02593402095,-0.01808460033
2.11,0.02503319561,-0.01920244543
2.12,0.02408411232,-0.02027586148
2.13,0.02308895261,-0.02130275821
2.14,0.02204998891,-0.02228115248
2.15,0.02096957921,-0.02320917227
2.16,0.01985016165,-0.02408506038
2.17,0.01869424886,-0.02490717781
2.18,0.01750442224,-0.02567400696
2.19,0.01628332607,-0.02638415447
2.2,0.01503366146,-0.02703635379
2.21,0.01375818031,-0.02762946749
2.22,0.01245967903,-0.02816248926
2.23,0.01114099231,-0.02863454556
2.24,0.009804986798,-0.02904489707
2.25,0.008454554666,-0.02939293972
2.26,0.007092607236,-0.02967820551
2.27,0.005722068536,-0.02990036296
2.28,0.004345868864,-0.0300592173
2.29,0.002966938374,-0.03015471035
2.3,0.001588200677,-0.03018692003
2.31,0.0002125664891,-0.03015605967
2.32,-0.001157072663,-0.03006247696
2.33,-0.002517850675,-0.02990665264
2.34,-0.003866933003,-0.02968919884
2.35,-0.005201522721,-0.0294108572
2.36,-0.006518866451,-0.0290724967
2.37,-0.007816260182,-0.02867511119
2.38,-0.009091054952,-0.02821981665
2.39,-0.01034066238,-0.02770784826
2.4,-0.01156256003,-0.02714055711
2.41,-0.01275429663,-0.02651940676
2.42,-0.01391349709,-0.02584596951
2.43,-0.01503786732,-0.02512192251
2.44,-0.01612519885,-0.02434904355
2.45,-0.01717337329,-0.02352920676
2.46,-0.01818036646,-0.02266437805
2.47,-0.0191442524,-0.02175661037
2.48,-0.02006320709,-0.02080803883
2.49,-0.02093551193,-0.01982087566
2.5,-0.02175955698,-0.01879740497
2.51,-0.02253384392,-0.01773997745
2.52,-0.02325698878,-0.01665100488
2.53,-0.0239277244,-0.01553295461
2.54,-0.02454490259,-0.01438834386
2.55,-0.02510749601,-0.01321973401
2.56,-0.02561459986,-0.01202972474
2.57,-0.02606543316,-0.01082094824
2.58,-0.02645933985,-0.009596063228
2.59,-0.02679578954,-0.008357749064
2.6,-0.02707437807,-0.007108699774
2.61,-0.02729482764,-0.00585161811
2.62,-0.02745698682,-0.004589209604
2.63,-0.02756083018,-0.003324176658
2.64,-0.02760645766,-0.002059212668
2.65,-0.02759409367,-0.0007969961981
2.66,-0.02752408594,0.0004598147785
2.67,-0.0273969041,0.00170858856
2.68,-0.02721313794,0.002946725311
2.69,-0.0269734955,0.004171662553
2.7,-0.02667880085,0.005380880543
2.71,-0.02632999164,0.006571907525
2.72,-0.02592811641,0.007742324852
2.73,-0.0254743317,0.008889771953
2.74,-0.02496989887,0.01001195115
2.75,-0.02441618081,0.0111066323
2.76,-0.02381463831,0.01217165727
2.77,-0.02316682636,0.01320494423
2.78,-0.02247439018,0.01420449174
2.79,-0.02173906113,0.01516838261
2.8,-0.02096265239,0.01609478763
2.81,-0.02014705455,0.01698196901
2.82,-0.01929423105,0.01782828362
2.83,-0.01840621337,0.01863218599
2.84,-0.01748509632,0.01939223111
2.85,-0.01653303297,0.02010707697
2.86,-0.01555222967,0.02077548682
2.87,-0.01454494092,0.02139633126
2.88,-0.01351346411,0.02196858999
2.89,-0.01246013429,0.02249135343
2.9,-0.01138731882,0.02296382392
2.91,-0.01029741204,0.02338531681
2.92,-0.009192829842,0.02375526124
2.93,-0.008076004306,0.02407320063
2.94,-0.006949378278,0.02433879298
2.95,-0.005815399985,0.02455181085
2.96,-0.004676517666,0.02471214113
2.97,-0.003535174241,0.02481978455
2.98,-0.002393802019,0.02487485493
2.99,-0.001254817475,0.0248775782
3,-0.0001206160881,0.02482829115
3.01,0.001006432738,0.02472743998
3.02,0.002123990659,0.02457557861
3.03,0.003229755279,0.02437336674
3.04,0.004321464918,0.02412156769
3.05,0.005396903268,0.02382104606
3.06,0.006453903908,0.02347276517
3.07,0.007490354682,0.02307778426
3.08,0.008504201926,0.02263725554
3.09,0.009493454537,0.02215242104
3.1,0.01045618788,0.02162460932
3.11,0.0113905475,0.0210552319
3.12,0.0122947527,0.02044577968
3.13,0.01316709986,0.01979781912
3.14,0.01400596564,0.01911298828
3.15,0.01480980993,0.01839299274
3.16,0.01557717858,0.01763960146
3.17,0.01630670602,0.01685464242
3.18,0.01699711752,0.01603999826
3.19,0.01764723136,0.01519760175
3.2,0.01825596071,0.01432943127
3.21,0.01882231529,0.01343750612
3.22,0.01934540286,0.01252388188
3.23,0.0198244304,0.01159064564
3.24,0.02025870511,0.01063991123
3.25,0.0206476352,0.009673814418
3.26,0.02099073038,0.00869450814
3.27,0.02128760223,0.007704157644
3.28,0.02153796421,0.006704935711
3.29,0.02174163157,0.005699017871
3.3,0.02189852096,0.004688577649
3.31,0.02200864983,0.003675781859
3.32,0.02207213563,0.002662785942
3.33,0.0220891948,0.001651729366
3.34,0.0220601415,0.0006447311052
3.35,0.02198538622,-0.0003561148144
3.36,0.0218654341,-0.001348743666
3.37,0.0217008831,-0.002331124282
3.38,0.02149242199,-0.003301263204
3.39,0.02124082814,-0.004257208719
3.4,0.02094696507,-0.005197054762
3.41,0.02061177999,-0.006118944705
3.42,0.02023630099,-0.007021074985
3.43,0.01982163419,-0.0079016986
3.44,0.01936896073,-0.008759128449
3.45,0.01887953355,-0.00959174051
3.46,0.01835467415,-0.01039797685
3.47,0.01779576911,-0.01117634849
3.48,0.01720426655,-0.01192543803
3.49,0.01658167253,-0.01264390218
3.5,0.01592954724,-0.01333047405
3.51,0.01524950122,-0.01398396525
3.52,0.01454319139,-0.01460326785
3.53,0.01381231714,-0.01518735607
3.54,0.01305861622,-0.01573528786
3.55,0.01228386067,-0.01624620619
3.56,0.0114898527,-0.01671934025
3.57,0.01067842052,-0.01715400631
3.58,0.009851414133,-0.01754960856
3.59,0.009010701165,-0.01790563955
3.6,0.008158162648,-0.01822168059
3.61,0.007295688832,-0.01849740191
3.62,0.006425175004,-0.01873256252
3.63,0.005548517342,-0.01892701004
3.64,0.004667608794,-0.01908068024
3.65,0.003784335006,-0.01919359637
3.66,0.002900570301,-0.01926586839
3.67,0.002018173718,-0.01929769191
3.68,0.001138985122,-0.01928934706
3.69,0.0002648213895,-0.01924119711
3.7,-0.0006025273203,-0.01915368691
3.71,-0.001461301202,-0.01902734126
3.72,-0.002309774339,-0.01886276298
3.73,-0.003146258135,-0.01866063095
3.74,-0.003969104628,-0.01842169793
3.75,-0.004776709687,-0.01814678828
3.76,-0.005567516081,-0.01783679546
3.77,-0.006340016417,-0.01749267954
3.78,-0.007092755945,-0.01711546446
3.79,-0.007824335209,-0.01670623524
3.8,-0.008533412567,-0.01626613505
3.81,-0.009218706549,-0.01579636222
3.82,-0.009878998066,-0.01529816712
3.83,-0.01051313245,-0.01477284896
3.84,-0.01112002137,-0.01422175253
3.85,-0.01169864451,-0.01364626487
3.86,-0.01224805115,-0.01304781183
3.87,-0.01276736159,-0.01242785469
3.88,-0.01325576829,-0.0117878866
3.89,-0.01371253701,-0.01112942908
3.9,-0.01413700762,-0.01045402844
3.91,-0.01452859482,-0.009763252226
3.92,-0.01488678872,-0.009058685612
3.93,-0.01521115515,-0.008341927808
3.94,-0.01550133587,-0.007614588473
3.95,-0.01575704861,-0.006878284139
3.96,-0.01597808692,-0.006134634654
3.97,-0.01616431986,-0.005385259654
3.98,-0.01631569155,-0.004631775075
3.99,-0.01643222049,-0.003875789699
4,-0.01651399884,-0.003118901764
4.01,-0.01656119145,-0.002362695617
4.02,-0.01657403474,-0.001608738444
4.03,-0.01655283553,-0.0008585770646
4.04,-0.0164979696,-0.0001137348059
4.05,-0.01640988022,0.0006242915396
4.06,-0.01628907647,0.001354034667
4.07,-0.0161361315,0.002074059615
4.08,-0.01595168061,0.002782966522
4.09,-0.01573641923,0.00347939328
4.1,-0.01549110082,0.004162018068
4.11,-0.01521653463,0.004829561782
4.12,-0.01491358339,0.005480790336
4.13,-0.01458316085,0.006114516849
4.14,-0.01422622934,0.006729603694
4.15,-0.0138437971,0.007324964426
4.16,-0.0134369157,0.007899565576
4.17,-0.01300667729,0.008452428305
4.18,-0.01255421179,0.008982629922
4.19,-0.01208068409,0.009489305267
4.2,-0.01158729117,0.009971647947
4.21,-0.01107525913,0.01042891143
4.22,-0.01054584031,0.01086041001
4.23,-0.01000031026,0.0112655196
4.24,-0.009439964775,0.01164367839
4.25,-0.008866116861,0.01199438741
4.26,-0.008280093758,0.01231721085
4.27,-0.007683233913,0.01261177636
4.28,-0.007076883988,0.01287777507
4.29,-0.00646239588,0.01311496161
4.3,-0.005841123756,0.0133231539
4.31,-0.005214421129,0.0135022328
4.32,-0.004583637958,0.01365214172
4.33,-0.003950117794,0.01377288596
4.34,-0.003315194973,0.01386453205
4.35,-0.002680191861,0.01392720689
4.36,-0.002046416154,0.01396109677
4.37,-0.001415158247,0.01396644632
4.38,-0.0007876886679,0.01394355728
4.39,-0.0001652555853,0.01389278721
4.4,0.0004509176043,0.01381454808
4.41,0.001059634608,0.01370930475
4.42,0.001659728479,0.01357757333
4.43,0.002250063771,0.01341991951
4.44,0.002829538599,0.01323695674
4.45,0.003397086593,0.01302934436
4.46,0.003951678765,0.01279778564
4.47,0.004492325259,0.01254302575
4.48,0.005018077,0.01226584968
4.49,0.005528027236,0.01196708005
4.5,0.006021312963,0.01164757493
4.51,0.00649711624,0.01130822556
4.52,0.00695466539,0.01094995405
4.53,0.007393236084,0.010573711
4.54,0.007812152307,0.01018047319
4.55,0.00821078721,0.009771241083
4.56,0.008588563838,0.009347036475
4.57,0.008944955747,0.008908899995
4.58,0.009279487499,0.008457888675
4.59,0.009591735035,0.007995073478
4.6,0.009881325943,0.007521536845
4.61,0.0101479396,0.007038370235
4.62,0.01039130718,0.006546671684
4.63,0.01061121163,0.00604754338
4.64,0.0108074874,0.00554208926
4.65,0.01098002017,0.005031412632
4.66,0.01112874646,0.004516613834
4.67,0.01125365307,0.003998787922
4.68,0.01135477649,0.00347902241
4.69,0.01143220213,0.002958395047
4.7,0.01148606356,0.00243797165
4.71,0.01151654155,0.001918803991
4.72,0.0115238631,0.001401927739
4.73,0.0115083003,0.0008883604713
4.74,0.01147016921,0.0003790997442
4.75,0.01140982854,-0.0001248787626
4.76,0.01132767836,-0.0006226230301
4.77,0.01122415871,-0.001113206408
4.78,0.01109974806,-0.001595729244
4.79,0.01095496183,-0.002069320431
4.8,0.01079035077,-0.002533138875
4.81,0.01060649932,-0.00298637487
4.82,0.01040402388,-0.00342825139
4.83,0.0101835711,-0.003858025296
4.84,0.009945816047,-0.004274988437
4.85,0.009691460405,-0.004678468681
4.86,0.009421230605,-0.005067830831
4.87,0.009135875937,-0.005442477464
4.88,0.008836166638,-0.005801849665
4.89,0.008522891962,-0.006145427674
4.9,0.008196858237,-0.00647273143
4.91,0.007858886908,-0.006783321031
4.92,0.007509812581,-0.007076797088
4.93,0.007150481066,-0.007352800992
4.94,0.006781747415,-0.007611015092
4.95,0.006404473983,-0.007851162768
4.96,0.006019528492,-0.008073008428
4.97,0.005627782108,-0.008276357404
4.98,0.005230107555,-0.008461055765
4.99,0.004827377232,-0.008626990046
5,0.00442046138,-0.008774086886
5.01,0.004010226264,-0.00890231259
5.02,0.003597532402,-0.009011672607
5.03,0.003183232829,-0.009102210931
5.04,0.002768171406,-0.009174009429
5.05,0.002353181169,-0.009227187095
5.06,0.001939082735,-0.00926189923
5.07,0.001526682759,-0.009278336564
5.08,0.001116772433,-0.009276724307
5.09,0.0007101260633,-0.009257321139
5.1,0.0003074996872,-0.00922041815
5.11,-9.037023639E-05,-0.009166337718
5.12,-0.0004827680777,-0.009095432336
5.13,-0.0008690002201,-0.009008083399
5.14,-0.001248396177,-0.008904699941
5.15,-0.001620309643,-0.008785717332
5.16,-0.001984119466,-0.008651595941
5.17,-0.002339230563,-0.008502819762
5.18,-0.002685074752,-0.008339895015
5.19,-0.003021111515,-0.008163348718
5.2,-0.003346828687,-0.007973727237
5.21,-0.003661743076,-0.007771594818
5.22,-0.003965401005,-0.007557532108
5.23,-0.004257378776,-0.007332134656
5.24,-0.004537283072,-0.007096011412
5.25,-0.004804751275,-0.006849783226
5.26,-0.005059451716,-0.006594081336
5.27,-0.00530108385,-0.006329545867
5.28,-0.005529378367,-0.006056824333
5.29,-0.00574409722,-0.00577657015
5.3,-0.005945033595,-0.005489441158
5.31,-0.006132011807,-0.005196098165
5.32,-0.006304887132,-0.004897203508
5.33,-0.006463545574,-0.004593419629
5.34,-0.006607903563,-0.004285407687
5.35,-0.006737907601,-0.003973826187
5.36,-0.00685353384,-0.003659329652
5.37,-0.006954787605,-0.003342567311
5.38,-0.007041702863,-0.00302418184
5.39,-0.007114341637,-0.002704808124
5.4,-0.007172793368,-0.002385072074
5.41,-0.007217174232,-0.002065589471
5.42,-0.007247626404,-0.001746964866
5.43,-0.007264317286,-0.001429790518
5.44,-0.007267438687,-0.001114645383
5.45,-0.007257205972,-0.0008020941445
5.46,-0.007233857165,-0.0004926863058
5.47,-0.007197652033,-0.0001869553208
5.48,-0.007148871122,0.0001145822154
5.49,-0.007087814783,0.0004114273254
5.5,-0.007014802161,0.0007030993549
5.51,-0.006930170167,0.0009891366234
5.52,-0.006834272431,0.00126909702
5.53,-0.006727478239,0.001542558544
5.54,-0.006610171453,0.001809119792
5.55,-0.006482749426,0.002068400386
5.56,-0.006345621901,0.002320041347
5.57,-0.006199209917,0.002563705421
5.58,-0.006043944698,0.002799077337
5.59,-0.005880266554,0.003025864021
5.6,-0.005708623777,0.003243794752
5.61,-0.005529471548,0.00345262127
5.62,-0.005343270846,0.003652117821
5.63,-0.005150487373,0.003842081163
5.64,-0.004951590487,0.004022330518
5.65,-0.004747052151,0.004192707467
5.66,-0.004537345899,0.004353075811
5.67,-0.004322945824,0.004503321375
5.68,-0.00410432558,0.004643351773
5.69,-0.003881957414,0.004773096125
5.7,-0.00365631122,0.004892504736
5.71,-0.003427853619,0.005001548733
5.72,-0.003197047065,0.005100219667
5.73,-0.002964348987,0.00518852907
5.74,-0.002730210957,0.005266507988
5.75,-0.002495077889,0.005334206472
5.76,-0.002259387279,0.005391693047
5.77,-0.00202356847,0.005439054144
5.78,-0.00178804196,0.005476393507
5.79,-0.001553218742,0.005503831582
5.8,-0.001319499684,0.005521504873
5.81,-0.001087274948,0.005529565285
5.82,-0.0008569234405,0.005528179445
5.83,-0.0006288123112,0.005517528009
5.84,-0.0004032964833,0.005497804951
5.85,-0.0001807182273,0.005469216842
5.86,3.859322681E-05,0.005431982118
5.87,0.0002543220389,0.005386330345
5.88,0.0004661660672,0.005332501467
5.89,0.0006738371388,0.00527074506
5.9,0.0008770612809,0.005201319578
5.91,0.001075578913,0.005124491603
5.92,0.001269145005,0.005040535093
5.93,0.001457529188,0.004949730634
5.94,0.001640515845,0.0048523647
5.95,0.001817904147,0.004748728917
5.96,0.001989508068,0.004639119338
5.97,0.002155156362,0.004523835725
5.98,0.0023146925,0.004403180846
5.99,0.002467974587,0.004277459786
6,0.002614875238,0.004146979267
