"Freq [GHz]","re(S(Tx_p1,Tx_p1)) []","im(S(Tx_p1,Tx_p1)) []"
1,-0.04168787637,-0.08384819084
1.01,-0.04484540968,-0.08213051638
1.02,-0.04794331138,-0.08029136974
1.03,-0.05097655682,-0.07833265367
1.04,-0.05394020575,-0.0762564771
1.05,-0.05682940765,-0.07406514927
1.06,-0.05963940682,-0.07176117419
1.07,-0.06236554715,-0.06934724531
1.08,-0.06500327659,-0.06682624043
1.09,-0.06754815157,-0.06420121685
1.1,-0.06999584109,-0.06147540676
1.11,-0.07234213082,-0.05865221291
1.12,-0.07458292712,-0.05573520441
1.13,-0.07671426099,-0.0527281128
1.14,-0.07873229205,-0.0496348283
1.15,-0.08063331259,-0.04645939619
1.16,-0.08241375164,-0.04320601337
1.17,-0.08407017921,-0.039879025
1.18,-0.08559931061,-0.0364829212
1.19,-0.08699801092,-0.03302233386
1.2,-0.08826329969,-0.0295020334
1.21,-0.08939235576,-0.02592692552
1.22,-0.09038252228,-0.02230204788
1.23,-0.091231312,-0.01863256668
1.24,-0.09193641267,-0.0149237731
1.25,-0.09249569271,-0.01118107956
1.26,-0.09290720706,-0.007410015681
1.27,-0.09316920316,-0.0036162241
1.28,-0.09328012723,0.0001945441263
1.29,-0.09323863053,0.004016434413
1.3,-0.09304357592,0.007843493933
1.31,-0.09269404437,0.01166967731
1.32,-0.09218934165,0.0154888528
1.33,-0.09152900504,0.01929480888
1.34,-0.09071280995,0.02308126142
1.35,-0.08974077662,0.02684186133
1.36,-0.08861317668,0.03057020282
1.37,-0.08733053953,0.03425983217
1.38,-0.08589365864,0.03790425707
1.39,-0.08430359754,0.04149695669
1.4,-0.08256169555,0.04503139212
1.41,-0.08066957319,0.04850101764
1.42,-0.07862913718,0.05189929243
1.43,-0.07644258496,0.05521969289
1.44,-0.0741124088,0.0584557256
1.45,-0.07164139928,0.06160094076
1.46,-0.06903264812,0.06464894618
1.47,-0.06628955047,0.06759342178
1.48,-0.06341580638,0.07042813453
1.49,-0.06041542153,0.07314695388
1.5,-0.05729270715,0.07574386751
1.51,-0.05405227906,0.07821299745
1.52,-0.05069905586,0.08054861649
1.53,-0.0472382561,0.08274516483
1.54,-0.04367539453,0.08479726691
1.55,-0.04001627732,0.08669974832
1.56,-0.03626699624,0.08844765281
1.57,-0.03243392177,0.09003625925
1.58,-0.02852369517,0.0914610985
1.59,-0.02454321942,0.09271797011
1.6,-0.02049964907,0.09380295884
1.61,-0.01640037901,0.09471245076
1.62,-0.01225303212,0.09544314909
1.63,-0.008065445842,0.09599208941
1.64,-0.003845657688,0.09635665451
1.65,0.0003981103325,0.09653458842
1.66,0.00465746828,0.0965240099
1.67,0.008923875863,0.09632342506
1.68,0.01318866096,0.09593173911
1.69,0.01744303908,0.09534826728
1.7,0.02167813363,0.09457274464
1.71,0.02588499706,0.0936053349
1.72,0.03005463271,0.09244663809
1.73,0.03417801732,0.09109769703
1.74,0.03824612423,0.08956000255
1.75,0.04224994704,0.08783549746
1.76,0.04618052377,0.0859265791
1.77,0.05002896137,0.08383610057
1.78,0.05378646058,0.08156737047
1.79,0.05744434091,0.07912415129
1.8,0.06099406577,0.07651065619
1.81,0.06442726768,0.0737315444
1.82,0.06773577328,0.070791915
1.83,0.07091162824,0.06769729931
1.84,0.07394712191,0.06445365163
1.85,0.07683481155,0.0610673386
1.86,0.07956754609,0.05754512694
1.87,0.08213848941,0.05389416982
1.88,0.08454114278,0.05012199176
1.89,0.08676936676,0.04623647205
1.9,0.08881740202,0.0422458269
1.91,0.09067988942,0.0381585902
1.92,0.09235188889,0.03398359307
1.93,0.09382889727,0.02972994212
1.94,0.09510686497,0.02540699664
1.95,0.09618221129,0.02102434469
1.96,0.09705183843,0.0165917782
1.97,0.09771314408,0.01211926719
1.98,0.09816403249,0.007616933077
1.99,0.09840292409,0.003095021363
2,0.09842876344,-0.001436126393
2.01,0.09824102559,-0.005966101115
2.02,0.09783972078,-0.01048445519
2.03,0.09722539738,-0.01498073178
2.04,0.09639914325,-0.01944449436
2.05,0.09536258515,-0.0238653564
2.06,0.09411788665,-0.02823301098
2.07,0.09266774407,-0.03253726042
2.08,0.09101538079,-0.0367680456
2.09,0.08916453984,-0.04091547501
2.1,0.08711947474,-0.04496985332
2.11,0.08488493862,-0.04892170952
2.12,0.08246617179,-0.05276182427
2.13,0.0798688876,-0.05648125664
2.14,0.07709925683,-0.06007136991
2.15,0.07416389048,-0.06352385646
2.16,0.07106982118,-0.06683076165
2.17,0.06782448323,-0.06998450653
2.18,0.06443569129,-0.07297790933
2.19,0.06091161784,-0.07580420575
2.2,0.05726076959,-0.07845706778
2.21,0.05349196269,-0.08093062112
2.22,0.04961429711,-0.08321946115
2.23,0.04563713005,-0.08531866731
2.24,0.0415700487,-0.08722381585
2.25,0.0374228422,-0.08893099103
2.26,0.03320547315,-0.09043679452
2.27,0.02892804862,-0.09173835322
2.28,0.02460079083,-0.09283332522
2.29,0.02023400757,-0.09371990416
2.3,0.01583806256,-0.0943968217
2.31,0.01142334574,-0.09486334833
2.32,0.007000243655,-0.09511929243
2.33,0.002579110094,-0.09516499756
2.34,-0.001829763006,-0.09500133808
2.35,-0.006216174217,-0.09462971309
2.36,-0.01057004077,-0.09405203875
2.37,-0.01488142607,-0.09327073893
2.38,-0.01914056652,-0.09228873441
2.39,-0.02333789752,-0.09110943049
2.4,-0.02746407857,-0.08973670327
2.41,-0.03151001743,-0.08817488446
2.42,-0.03546689316,-0.08642874495
2.43,-0.03932617809,-0.08450347717
2.44,-0.04307965859,-0.08240467628
2.45,-0.04671945454,-0.08013832029
2.46,-0.05023803749,-0.07771074927
2.47,-0.05362824755,-0.07512864363
2.48,-0.05688330873,-0.07239900162
2.49,-0.05999684293,-0.06952911615
2.5,-0.06296288246,-0.06652655106
2.51,-0.06577588103,-0.06339911677
2.52,-0.06843072322,-0.0601548457
2.53,-0.07092273249,-0.05680196722
2.54,-0.0732476776,-0.05334888255
2.55,-0.07540177754,-0.04980413947
2.56,-0.07738170497,-0.04617640702
2.57,-0.0791845881,-0.04247445033
2.58,-0.08080801122,-0.03870710564
2.59,-0.08225001363,-0.03488325552
2.6,-0.08350908732,-0.03101180451
2.61,-0.08458417317,-0.02710165518
2.62,-0.08547465592,-0.02316168474
2.63,-0.08618035774,-0.01920072218
2.64,-0.08670153078,-0.01522752617
2.65,-0.08703884835,-0.0112507636
2.66,-0.08719339517,-0.007278989011
2.67,-0.08716665652,-0.00332062483
2.68,-0.08696050641,0.0006160574903
2.69,-0.08657719496,0.004522955349
2.7,-0.08601933484,0.008392151895
2.71,-0.08528988709,0.01221593189
2.72,-0.08439214623,0.01598679653
2.73,-0.08332972475,0.01969747712
2.74,-0.08210653722,0.02334094775
2.75,-0.08072678382,0.02691043674
2.76,-0.07919493367,0.03039943707
2.77,-0.07751570782,0.03380171562
2.78,-0.07569406205,0.0371113213
2.79,-0.0737351696,0.04032259211
2.8,-0.0716444038,0.04343016107
2.81,-0.06942732079,0.04642896111
2.82,-0.0670896423,0.04931422885
2.83,-0.06463723863,0.05208150747
2.84,-0.06207611179,0.05472664848
2.85,-0.05941237901,0.05724581261
2.86,-0.05665225652,0.0596354698
2.87,-0.05380204377,0.06189239827
2.88,-0.05086810804,0.06401368283
2.89,-0.0478568696,0.06599671239
2.9,-0.04477478729,0.06783917679
2.91,-0.04162834474,0.06953906294
2.92,-0.03842403712,0.07109465035
2.93,-0.03516835848,0.07250450611
2.94,-0.03186778981,0.07376747943
2.95,-0.02852878756,0.07488269568
2.96,-0.02515777301,0.07584955005
2.97,-0.02176112212,0.07666770095
2.98,-0.01834515613,0.07733706304
2.99,-0.01491613278,0.07785780019
3,-0.01148023816,0.07823031811
3.01,-0.008043579206,0.078455257
3.02,-0.00461217679,0.0785334841
3.03,-0.001191959418,0.07846608618
3.04,0.002211242516,0.07825436216
3.05,0.005591701923,0.07789981566
3.06,0.008943799709,0.07740414781
3.07,0.01226202897,0.07676925009
3.08,0.01554099876,0.0759971974
3.09,0.01877543742,0.07509024128
3.1,0.02196019552,0.07405080346
3.11,0.02509024854,0.07288146949
3.12,0.02816069918,0.0715849828
3.13,0.0311667794,0.0701642389
3.14,0.03410385235,0.06862227994
3.15,0.03696741398,0.06696228955
3.16,0.03975309463,0.06518758786
3.17,0.04245666048,0.06330162698
3.18,0.04507401492,0.06130798658
3.19,0.04760119993,0.05921036982
3.2,0.05003439745,0.05701259956
3.21,0.05236993084,0.05471861466
3.22,0.05460426636,0.05233246667
3.23,0.05673401476,0.04985831655
3.24,0.05875593308,0.04730043165
3.25,0.06066692648,0.04466318275
3.26,0.06246405035,0.04195104126
3.27,0.06414451256,0.03916857646
3.28,0.06570567589,0.03632045274
3.29,0.06714506075,0.03341142692
3.3,0.06846034805,0.03044634542
3.31,0.06964938228,0.02743014149
3.32,0.07071017488,0.02436783218
3.33,0.07164090778,0.02126451531
3.34,0.07243993711,0.01812536613
3.35,0.07310579717,0.01495563385
3.36,0.07363720452,0.01176063784
3.37,0.07403306226,0.008545763631
3.38,0.07429246445,0.005316458522
3.39,0.07441470055,0.002078226861
3.4,0.07439926007,-0.001163375034
3.41,0.07424583716,-0.004402744369
3.42,0.07395433524,-0.007634237785
3.43,0.07352487162,-0.01085217771
3.44,0.07295778203,-0.01405085917
3.45,0.07225362503,-0.01722455707
3.46,0.07141318633,-0.02036753393
3.47,0.07043748281,-0.02347404815
3.48,0.06932776637,-0.02653836272
3.49,0.0680855275,-0.02955475441
3.5,0.06671249846,-0.03251752345
3.51,0.06521065612,-0.03542100369
3.52,0.06358222432,-0.03825957315
3.53,0.06182967586,-0.04102766506
3.54,0.05995573386,-0.04371977924
3.55,0.05796337259,-0.04633049398
3.56,0.05585581774,-0.04885447807
3.57,0.053636546,-0.05128650338
3.58,0.05130928397,-0.05362145747
3.59,0.04887800637,-0.05585435666
3.6,0.04634693347,-0.05798035911
3.61,0.04372052778,-0.05999477814
3.62,0.04100348992,-0.06189309561
3.63,0.03820075364,-0.06367097531
3.64,0.03531748006,-0.06532427639
3.65,0.032359051,-0.0668490666
3.66,0.02933106146,-0.06824163557
3.67,0.02623931123,-0.06949850766
3.68,0.02308979564,-0.07061645478
3.69,0.01988869543,-0.07159250871
3.7,0.01664236574,-0.07242397309
3.71,0.01335732432,-0.07310843503
3.72,0.01004023882,-0.07364377609
3.73,0.006697913357,-0.07402818273
3.74,0.00333727425,-0.07426015618
3.75,-3.464495735E-05,-0.07433852154
3.76,-0.003410719205,-0.07426243613
3.77,-0.006783748281,-0.07403139708
3.78,-0.01014647381,-0.07364524805
3.79,-0.01349159681,-0.07310418497
3.8,-0.01681179579,-0.07240876091
3.81,-0.02009974527,-0.07155988989
3.82,-0.02334813474,-0.07055884967
3.83,-0.02654968794,-0.06940728348
3.84,-0.0296971824,-0.06810720059
3.85,-0.03278346922,-0.0666609758
3.86,-0.03580149288,-0.06507134774
3.87,-0.03874431128,-0.06334141599
3.88,-0.04160511555,-0.06147463703
3.89,-0.04437724994,-0.05947481901
3.9,-0.04705423143,-0.05734611528
3.91,-0.04962976914,-0.05509301674
3.92,-0.05209778335,-0.05272034306
3.93,-0.05445242421,-0.05023323264
3.94,-0.05668808984,-0.04763713148
3.95,-0.05879944399,-0.04493778094
3.96,-0.06078143299,-0.04214120431
3.97,-0.06262930197,-0.03925369247
3.98,-0.06433861039,-0.03628178839
3.99,-0.06590524665,-0.03323227073
4,-0.06732544178,-0.03011213653
4.01,-0.06859578224,-0.02692858296
4.02,-0.06971322156,-0.02368898837
4.03,-0.07067509101,-0.02040089248
4.04,-0.07147910905,-0.01707197599
4.05,-0.07212338965,-0.0137100395
4.06,-0.07260644935,-0.010322982
4.07,-0.07292721308,-0.006918778777
4.08,-0.07308501866,-0.003505459044
4.09,-0.07307962005,-9.108324593E-05
4.1,-0.07291118915,0.003316279865
4.11,-0.07258031638,0.006708576264
4.12,-0.07208800976,0.01007778974
4.13,-0.07143569277,0.01341596491
4.14,-0.07062520072,0.01671523017
4.15,-0.06965877585,0.01996782036
4.16,-0.06853906106,0.02316609913
4.17,-0.06726909231,0.026302581
4.18,-0.06585228974,0.02936995283
4.19,-0.06429244756,0.03236109487
4.2,-0.06259372262,0.03526910106
4.21,-0.06076062191,0.0380872987
4.22,-0.05879798883,0.04080926732
4.23,-0.05671098841,0.04342885669
4.24,-0.05450509154,0.04594020395
4.25,-0.05218605811,0.04833774968
4.26,-0.0497599194,0.05061625303
4.27,-0.04723295949,0.05277080571
4.28,-0.04461169601,0.05479684481
4.29,-0.04190286011,0.05669016449
4.3,-0.0391133759,0.05844692643
4.31,-0.03625033928,0.06006366898
4.32,-0.03332099634,0.06153731506
4.33,-0.03033272143,0.06286517876
4.34,-0.02729299488,0.06404497055
4.35,-0.02420938057,0.06507480124
4.36,-0.02108950335,0.0659531845
4.37,-0.01794102641,0.06667903809
4.38,-0.01477162879,0.06725168375
4.39,-0.01158898295,0.06767084569
4.4,-0.008400732578,0.06793664788
4.41,-0.005214470711,0.06804960992
4.42,-0.002037718245,0.06801064176
4.43,0.001122097102,0.0678210371
4.44,0.004257661298,0.06748246564
4.45,0.007361793891,0.06699696416
4.46,0.01042746722,0.0663669265
4.47,0.01344782491,0.06559509247
4.48,0.01641619954,0.06468453578
4.49,0.01932612946,0.063638651
4.5,0.02217137471,0.06246113967
4.51,0.02494593194,0.06115599556
4.52,0.02764404843,0.05972748922
4.53,0.0302602349,0.05818015181
4.54,0.03278927742,0.05651875835
4.55,0.03522624811,0.05474831043
4.56,0.03756651474,0.05287401846
4.57,0.0398057492,0.05090128355
4.58,0.0419399348,0.04883567907
4.59,0.04396537244,0.04668293197
4.6,0.04587868551,0.04444890399
4.61,0.04767682381,0.04213957274
4.62,0.04935706611,0.03976101284
4.63,0.05091702173,0.03731937704
4.64,0.05235463091,0.03482087758
4.65,0.05366816408,0.03227176771
4.66,0.05485622013,0.02967832349
4.67,0.05591772355,0.02704682597
4.68,0.05685192061,0.02438354372
4.69,0.05765837453,0.02169471589
4.7,0.05833695981,0.01898653575
4.71,0.0588878556,0.01626513481
4.72,0.05931153826,0.01353656761
4.73,0.05960877317,0.01080679707
4.74,0.05978060578,0.008081680684
4.75,0.05982835202,0.00536695733
4.76,0.05975358811,0.002668234955
4.77,0.05955813978,-9.020999006E-06
4.78,0.05924407104,-0.002659498327
4.79,0.0588136725,-0.005278047942
4.8,0.05826944936,-0.007859692912
4.81,0.05761410905,-0.01039963662
4.82,0.05685054867,-0.01289327009
4.83,0.05598184222,-0.01533617834
4.84,0.05501122773,-0.01772414605
4.85,0.05394209435,-0.02005316217
4.86,0.05277796936,-0.02231942383
4.87,0.05152250533,-0.02451933935
4.88,0.05017946734,-0.0266495305
4.89,0.04875272033,-0.02870683385
4.9,0.04724621673,-0.03068830156
4.91,0.04566398428,-0.03259120124
4.92,0.04401011417,-0.03441301526
4.93,0.04228874955,-0.03615143931
4.94,0.04050407433,-0.0378043804
4.95,0.0386603025,-0.03936995427
4.96,0.03676166779,-0.04084648218
4.97,0.03481241386,-0.04223248735
4.98,0.03281678493,-0.04352669078
4.99,0.03077901695,-0.04472800684
5,0.02870332929,-0.04583553831
5.01,0.02659391693,-0.04684857131
5.02,0.02445494324,-0.04776656974
5.03,0.02229053324,-0.04858916973
5.04,0.02010476749,-0.04931617371
5.05,0.01790167643,-0.04994754446
5.06,0.01568523533,-0.05048339908
5.07,0.01345935974,-0.05092400284
5.08,0.01122790139,-0.05126976308
5.09,0.008994644723,-0.05152122313
5.1,0.006763303777,-0.05167905631
5.11,0.004537519582,-0.05174406
5.12,0.002320857982,-0.05171714992
5.13,0.0001168078598,-0.05159935445
5.14,-0.00207122026,-0.05139180933
5.15,-0.00423989526,-0.05109575236
5.16,-0.006385966161,-0.05071251855
5.17,-0.008506262567,-0.05024353534
5.18,-0.01059769486,-0.04969031827
5.19,-0.01265725419,-0.04905446675
5.2,-0.01468201225,-0.04833766031
5.21,-0.01666912093,-0.04754165498
5.22,-0.01861581186,-0.04666828009
5.23,-0.02051939585,-0.04571943533
5.24,-0.02237726232,-0.04469708808
5.25,-0.02418687868,-0.04360327105
5.26,-0.02594578971,-0.04244008026
5.27,-0.02765161711,-0.04120967317
5.28,-0.02930205895,-0.03991426715
5.29,-0.03089488936,-0.03855613817
5.3,-0.03242795831,-0.03713761969
5.31,-0.03389919152,-0.03566110176
5.32,-0.03530659056,-0.03412903029
5.33,-0.03664823316,-0.03254390643
5.34,-0.0379222737,-0.03090828615
5.35,-0.03912694395,-0.02922477982
5.36,-0.04026055399,-0.02749605189
5.37,-0.04132149343,-0.02572482064
5.38,-0.04230823285,-0.02391385787
5.39,-0.04321932546,-0.0220659886
5.4,-0.04405340905,-0.02018409064
5.41,-0.04480920813,-0.01827109423
5.42,-0.04548553638,-0.01632998134
5.43,-0.04608129921,-0.01436378499
5.44,-0.04659549665,-0.01237558834
5.45,-0.04702722637,-0.01036852353
5.46,-0.04737568689,-0.008345770314
5.47,-0.04764018093,-0.006310554481
5.48,-0.04782011896,-0.004266145919
5.49,-0.0479150228,-0.002215856419
5.5,-0.04792452932,-0.0001630371527
5.51,-0.04784839422,0.001888924197
5.52,-0.04768649579,0.003936606651
5.53,-0.04743883873,0.005976559513
5.54,-0.0471055579,0.00800530633
5.55,-0.04668692194,0.01001934922
5.56,-0.04618333693,0.01201517358
5.57,-0.04559534974,0.01398925322
5.58,-0.04492365136,0.01593805579
5.59,-0.04416907989,0.01785804866
5.6,-0.04333262337,0.01974570516
5.61,-0.04241542231,0.02159751112
5.62,-0.04141877188,0.02340997179
5.63,-0.04034412377,0.02517961909
5.64,-0.03919308769,0.02690301913
5.65,-0.03796743245,0.02857678006
5.66,-0.03666908657,0.03019756009
5.67,-0.03530013848,0.03176207584
5.68,-0.03386283617,0.03326711079
5.69,-0.0323595864,0.03470952394
5.7,-0.03079295333,0.03608625864
5.71,-0.02916565659,0.03739435138
5.72,-0.02748056881,0.03863094077
5.73,-0.02574071258,0.03979327649
5.74,-0.02394925679,0.04087872814
5.75,-0.02210951243,0.04188479413
5.76,-0.0202249277,0.04280911041
5.77,-0.01829908266,0.04364945899
5.78,-0.01633568316,0.0444037764
5.79,-0.01433855424,0.04507016172
5.8,-0.012311633,0.04564688451
5.81,-0.01025896077,0.04613239229
5.82,-0.008184674933,0.04652531767
5.83,-0.006093000011,0.04682448513
5.84,-0.00398823841,0.04702891725
5.85,-0.001874760602,0.04713784055
5.86,0.0002430051121,0.04715069074
5.87,0.002360583268,0.0470671174
5.88,0.004473462279,0.04688698812
5.89,0.006577105825,0.04661039199
5.9,0.008666964552,0.04623764239
5.91,0.01073848803,0.0457692792
5.92,0.01278713696,0.04520607021
5.93,0.0148083955,0.04454901188
5.94,0.01679778378,0.04379932933
5.95,0.0187508705,0.04295847558
5.96,0.02066328549,0.04202813007
5.97,0.02253073236,0.04101019634
5.98,0.02434900099,0.03990679903
5.99,0.02611397995,0.03872028006
6,0.02782166876,0.03745319404
