"Freq [GHz]","re(S(Tx_p1,Tx_p1)) []","im(S(Tx_p1,Tx_p1)) []"
1,-0.008825080408,-0.1323424476
1.01,-0.01337205352,-0.1318766743
1.02,-0.01791809473,-0.1312478913
1.03,-0.0224561506,-0.1304550583
1.04,-0.02697912543,-0.1294974975
1.05,-0.03147989873,-0.1283748916
1.06,-0.03595134245,-0.1270872807
1.07,-0.04038633779,-0.1256350596
1.08,-0.04477779184,-0.1240189731
1.09,-0.04911865372,-0.1222401123
1.1,-0.05340193048,-0.1202999084
1.11,-0.05762070254,-0.1182001281
1.12,-0.06176813875,-0.1159428665
1.13,-0.06583751108,-0.1135305405
1.14,-0.06982220876,-0.1109658816
1.15,-0.0737157521,-0.1082519279
1.16,-0.07751180573,-0.1053920156
1.17,-0.08120419142,-0.1023897706
1.18,-0.08478690034,-0.09924909874
1.19,-0.08825410492,-0.09597417632
1.2,-0.09160017003,-0.09256944007
1.21,-0.0948196637,-0.08903957652
1.22,-0.09790736735,-0.08538951126
1.23,-0.1008582853,-0.08162439771
1.24,-0.103667654,-0.07774960569
1.25,-0.1063309501,-0.07377070962
1.26,-0.1088438988,-0.06969347657
1.27,-0.1112024809,-0.06552385395
1.28,-0.1134029395,-0.06126795711
1.29,-0.1154417859,-0.05693205672
1.3,-0.1173158057,-0.05252256598
1.31,-0.1190220632,-0.04804602773
1.32,-0.1205579057,-0.04350910145
1.33,-0.1219209675,-0.03891855018
1.34,-0.123109173,-0.03428122743
1.35,-0.1241207388,-0.02960406399
1.36,-0.1249541763,-0.02489405481
1.37,-0.1256082925,-0.02015824588
1.38,-0.1260821912,-0.01540372118
1.39,-0.1263752728,-0.01063758962
1.4,-0.1264872344,-0.0058669722
1.41,-0.1264180687,-0.001098989213
1.42,-0.1261680626,0.003659252426
1.43,-0.1257377953,0.008400671645
1.44,-0.1251281358,0.01311822552
1.45,-0.1243402399,0.01780492138
1.46,-0.1233755469,0.02245382871
1.47,-0.1222357756,0.02705809075
1.48,-0.1209229198,0.03161093596
1.49,-0.1194392437,0.03610568906
1.5,-0.1177872765,0.04053578195
1.51,-0.1159698067,0.04489476415
1.52,-0.1139898762,0.04917631312
1.53,-0.1118507738,0.05337424405
1.54,-0.1095560282,0.05748251948
1.55,-0.107109401,0.06149525847
1.56,-0.1045148795,0.06540674542
1.57,-0.1017766684,0.06921143855
1.58,-0.09889918211,0.07290397797
1.59,-0.09588703628,0.07647919337
1.6,-0.09274503921,0.07993211133
1.61,-0.08947818306,0.08325796219
1.62,-0.08609163477,0.08645218655
1.63,-0.08259072686,0.08951044134
1.64,-0.07898094799,0.09242860548
1.65,-0.07526793342,0.09520278512
1.66,-0.07145745524,0.09782931845
1.67,-0.06755541262,0.1003047801
1.68,-0.06356782177,0.1026259852
1.69,-0.05950080599,0.1047899928
1.7,-0.05536058554,0.1067941091
1.71,-0.05115346748,0.1086358901
1.72,-0.04688583552,0.1103131439
1.73,-0.04256413976,0.1118239327
1.74,-0.03819488653,0.1131665742
1.75,-0.03378462817,0.1143396428
1.76,-0.02933995288,0.1153419697
1.77,-0.02486747456,0.1161726441
1.78,-0.02037382276,0.1168310124
1.79,-0.01586563272,0.1173166778
1.8,-0.01134953541,0.1176294996
1.81,-0.006832147717,0.1177695919
1.82,-0.002320062789,0.1177373219
1.83,0.002180159579,0.117533308
1.84,0.006662002375,0.1171584173
1.85,0.01111900067,0.1166137633
1.86,0.01554475073,0.1159007026
1.87,0.01993291903,0.1150208319
1.88,0.02427725101,0.1139759838
1.89,0.02857157969,0.1127682235
1.9,0.03280983405,0.1113998444
1.91,0.03698604728,0.1098733633
1.92,0.04109436474,0.108191516
1.93,0.04512905172,0.1063572522
1.94,0.04908450099,0.1043737299
1.95,0.05295524012,0.1022443101
1.96,0.0567359385,0.09997255121
1.97,0.06042141422,0.09756220264
1.98,0.06400664057,0.09501719889
1.99,0.0674867524,0.092341653
2,0.07085705212,0.08953985002
2.01,0.07411301552,0.08661624017
2.02,0.07725029726,0.0835754319
2.03,0.08026473611,0.08042218479
2.04,0.0831523599,0.07716140222
2.05,0.0859093902,0.07379812402
2.06,0.08853224673,0.07033751889
2.07,0.09101755146,0.06678487674
2.08,0.09336213243,0.06314560091
2.09,0.0955630273,0.05942520028
2.1,0.09761748657,0.05562928132
2.11,0.0995229766,0.05176354003
2.12,0.1012771822,0.04783375381
2.13,0.102878009,0.04384577328
2.14,0.1043235856,0.03980551402
2.15,0.1056122653,0.0357189483
2.16,0.1067426277,0.03159209677
2.17,0.1077134797,0.02743102011
2.18,0.1085238565,0.02324181064
2.19,0.1091730224,0.019030584
2.2,0.1096604708,0.01480347077
2.21,0.1099859244,0.01056660808
2.22,0.1101493352,0.006326131327
2.23,0.1101508835,0.002088165838
2.24,0.1099909774,-0.002141181389
2.25,0.1096702515,-0.006355829907
2.26,0.1091895657,-0.01054973399
2.27,0.1085500035,-0.01471689075
2.28,0.10775287,-0.01885134814
2.29,0.1067996896,-0.02294721294
2.3,0.1056922038,-0.02699865863
2.31,0.1044323682,-0.0309999331
2.32,0.1030223495,-0.0349453664
2.33,0.1014645223,-0.03882937824
2.34,0.09976146587,-0.04264648543
2.35,0.09791595962,-0.04639130919
2.36,0.09593097975,-0.05005858232
2.37,0.09380969464,-0.05364315624
2.38,0.09155546046,-0.05714000782
2.39,0.08917181629,-0.06054424613
2.4,0.08666247925,-0.06385111896
2.41,0.0840313392,-0.06705601921
2.42,0.08128245331,-0.07015449106
2.43,0.07842004045,-0.07314223598
2.44,0.07544847526,-0.0760151185
2.45,0.07237228211,-0.07876917186
2.46,0.06919612884,-0.08140060332
2.47,0.06592482025,-0.08390579939
2.48,0.06256329152,-0.08628133072
2.49,0.0591166013,-0.08852395685
2.5,0.05558992478,-0.09063063064
2.51,0.05198854649,-0.09259850249
2.52,0.04831785299,-0.09442492434
2.53,0.04458332539,-0.09610745338
2.54,0.04079053178,-0.09764385546
2.55,0.03694511942,-0.0990321083
2.56,0.03305280696,-0.1002704044
2.57,0.0291193764,-0.1013571536
2.58,0.02515066504,-0.1022909857
2.59,0.02115255728,-0.1030707518
2.6,0.01713097637,-0.1036955271
2.61,0.0130918761,-0.1041646114
2.62,0.009041232342,-0.1044775308
2.63,0.004985034631,-0.1046340384
2.64,0.0009292776506,-0.1046341148
2.65,-0.003120047299,-0.1044779684
2.66,-0.007156960862,-0.1041660352
2.67,-0.01117550419,-0.1036989785
2.68,-0.01516974752,-0.1030776883
2.69,-0.01913379871,-0.1023032799
2.7,-0.02306181178,-0.1013770929
2.71,-0.02694799543,-0.1003006892
2.72,-0.03078662144,-0.09907585133
2.73,-0.0345720331,-0.0977045799
2.74,-0.0382986535,-0.09618909099
2.75,-0.04196099377,-0.09453181322
2.76,-0.04555366119,-0.09273538447
2.77,-0.04907136727,-0.09080264825
2.78,-0.05250893557,-0.08873664986
2.79,-0.05586130954,-0.08654063209
2.8,-0.05912356011,-0.08421803077
2.81,-0.06229089312,-0.08177246994
2.82,-0.06535865667,-0.07920775669
2.83,-0.0683223482,-0.07652787584
2.84,-0.07117762138,-0.07373698416
2.85,-0.07392029285,-0.0708394045
2.86,-0.07654634869,-0.06783961945
2.87,-0.07905195065,-0.06474226496
2.88,-0.08143344222,-0.0615521235
2.89,-0.08368735434,-0.05827411709
2.9,-0.08581041094,-0.05491330009
2.91,-0.08779953412,-0.05147485168
2.92,-0.08965184913,-0.04796406826
2.93,-0.091364689,-0.04438635548
2.94,-0.09293559889,-0.04074722023
2.95,-0.09436234011,-0.03705226231
2.96,-0.09564289388,-0.03330716604
2.97,-0.09677546464,-0.02951769163
2.98,-0.09775848318,-0.02568966645
2.99,-0.09859060928,-0.02182897613
3,-0.09927073411,-0.01794155559
3.01,-0.09979798224,-0.01403337987
3.02,-0.1001717132,-0.01011045499
3.03,-0.100391523,-0.006178808644
3.04,-0.1004572445,-0.002244480847
3.05,-0.1003689487,0.001686485451
3.06,-0.1001269443,0.005608053795
3.07,-0.09973177759,0.009514203665
3.08,-0.09918423211,0.01339893993
3.09,-0.09848532738,0.01725630228
3.1,-0.09763631765,0.02108037463
3.11,-0.09663869015,0.02486529448
3.12,-0.09549416293,0.02860526223
3.13,-0.09420468236,0.03229455035
3.14,-0.09277242026,0.0359275126
3.15,-0.09119977062,0.03949859295
3.16,-0.08948934596,0.04300233454
3.17,-0.08764397335,0.04643338841
3.18,-0.08566669005,0.04978652212
3.19,-0.08356073878,0.05305662814
3.2,-0.0813295627,0.0562387321
3.21,-0.07897679993,0.05932800085
3.22,-0.07650627792,0.06231975027
3.23,-0.07392200728,0.06520945284
3.24,-0.07122817551,0.067992745
3.25,-0.06842914025,0.07066543423
3.26,-0.06552942232,0.07322350587
3.27,-0.06253369848,0.07566312964
3.28,-0.0594467939,0.07798066587
3.29,-0.05627367435,0.08017267144
3.3,-0.0530194382,0.08223590535
3.31,-0.04968930812,0.08416733399
3.32,-0.0462886226,0.08596413612
3.33,-0.04282282728,0.08762370737
3.34,-0.03929746606,0.08914366451
3.35,-0.03571817202,0.09052184928
3.36,-0.03209065825,0.09175633186
3.37,-0.02842070845,0.09284541395
3.38,-0.02471416747,0.09378763147
3.39,-0.02097693171,0.0945817569
3.4,-0.01721493945,0.0952268011
3.41,-0.01343416104,0.09572201489
3.42,-0.009640589146,0.0960668901
3.43,-0.005840228828,0.09626116025
3.44,-0.002039087691,0.09630480082
3.45,0.001756834022,0.09619802912
3.46,0.005541553302,0.09594130371
3.47,0.009309114227,0.09553532344
3.48,0.01305359776,0.09498102606
3.49,0.01676913149,0.09427958646
3.5,0.02044989928,0.09343241441
3.51,0.02409015082,0.09244115202
3.52,0.02768421106,0.09130767072
3.53,0.03122648952,0.09003406787
3.54,0.03471148942,0.08862266297
3.55,0.03813381667,0.08707599352
3.56,0.04148818868,0.08539681051
3.57,0.04476944293,0.08358807348
3.58,0.04797254534,0.08165294533
3.59,0.05109259845,0.07959478666
3.6,0.05412484932,0.07741714993
3.61,0.05706469712,0.07512377313
3.62,0.05990770057,0.07271857327
3.63,0.06264958496,0.0702056395
3.64,0.06528624896,0.06758922597
3.65,0.06781377109,0.06487374438
3.66,0.07022841586,0.06206375636
3.67,0.07252663959,0.05916396547
3.68,0.07470509585,0.0561792091
3.69,0.07676064063,0.05311445007
3.7,0.07869033705,0.04997476809
3.71,0.08049145975,0.04676535096
3.72,0.08216149892,0.04349148567
3.73,0.08369816391,0.04015854934
3.74,0.08509938646,0.03677200002
3.75,0.08636332356,0.03333736732
3.76,0.08748835987,0.02986024307
3.77,0.08847310977,0.02634627174
3.78,0.089316419,0.0228011409
3.79,0.09001736589,0.01923057166
3.8,0.09057526219,0.01564030895
3.81,0.09098965345,0.0120361119
3.82,0.0912603191,0.008423744225
3.83,0.09138727198,0.004808964568
3.84,0.09137075758,0.001197516934
3.85,0.09121125284,-0.002404878829
3.86,0.09090946453,-0.005992536471
3.87,0.09046632729,-0.009559812691
3.88,0.08988300126,-0.01310111638
3.89,0.08916086927,-0.01661091771
3.9,0.08830153378,-0.02008375716
3.91,0.08730681333,-0.02351425427
3.92,0.0861787387,-0.0268971163
3.93,0.08491954873,-0.0302271467
3.94,0.08353168571,-0.03349925334
3.95,0.08201779058,-0.03670845653
3.96,0.08038069766,-0.03984989685
3.97,0.07862342917,-0.04291884269
3.98,0.07674918944,-0.04591069754
3.99,0.07476135879,-0.04882100707
4,0.07266348716,-0.05164546583
4.01,0.07045928753,-0.05437992373
4.02,0.06815262898,-0.05702039225
4.03,0.06574752964,-0.05956305024
4.04,0.06324814933,-0.06200424948
4.05,0.06065878205,-0.0643405199
4.06,0.05798384826,-0.06656857447
4.07,0.05522788698,-0.0686853137
4.08,0.05239554775,-0.07068782987
4.09,0.04949158243,-0.07257341087
4.1,0.04652083686,-0.07433954366
4.11,0.04348824245,-0.07598391744
4.12,0.04039880767,-0.07750442636
4.13,0.03725760936,-0.07889917196
4.14,0.03406978416,-0.0801664652
4.15,0.03084051971,-0.0813048281
4.16,0.02757504591,-0.08231299505
4.17,0.02427862618,-0.08318991374
4.18,0.02095654865,-0.0839347457
4.19,0.01761411744,-0.08454686652
4.2,0.01425664389,-0.08502586568
4.21,0.01088943791,-0.08537154601
4.22,0.007517799363,-0.0855839228
4.23,0.004147009481,-0.0856632226
4.24,0.0007823224493,-0.08560988162
4.25,-0.002571042962,-0.08542454379
4.26,-0.005907911632,-0.08510805854
4.27,-0.009223160194,-0.0846614782
4.28,-0.01251172499,-0.08408605511
4.29,-0.01576860987,-0.08338323838
4.3,-0.01898889384,-0.08255467039
4.31,-0.0221677385,-0.08160218298
4.32,-0.0253003953,-0.08052779334
4.33,-0.02838221262,-0.07933369963
4.34,-0.03140864258,-0.07802227637
4.35,-0.0343752477,-0.07659606949
4.36,-0.03727770724,-0.07505779124
4.37,-0.0401118234,-0.07341031477
4.38,-0.04287352715,-0.07165666857
4.39,-0.04555888395,-0.06980003065
4.4,-0.04816409903,-0.06784372252
4.41,-0.05068552258,-0.06579120301
4.42,-0.05311965454,-0.06364606191
4.43,-0.05546314911,-0.06141201345
4.44,-0.05771281907,-0.05909288959
4.45,-0.05986563971,-0.05669263325
4.46,-0.06191875248,-0.05421529136
4.47,-0.06386946842,-0.05166500782
4.48,-0.06571527116,-0.04904601636
4.49,-0.06745381975,-0.04636263333
4.5,-0.06908295109,-0.04361925036
4.51,-0.0706006821,-0.0408203271
4.52,-0.07200521155,-0.03797038372
4.53,-0.07329492166,-0.03507399356
4.54,-0.07446837928,-0.03213577563
4.55,-0.0755243369,-0.02916038721
4.56,-0.07646173324,-0.02615251633
4.57,-0.0772796936,-0.02311687441
4.58,-0.07797752995,-0.0200581888
4.59,-0.07855474062,-0.01698119544
4.6,-0.07901100982,-0.01389063156
4.61,-0.0793462068,-0.01079122841
4.62,-0.07956038473,-0.007687704119
4.63,-0.07965377938,-0.004584756565
4.64,-0.07962680744,-0.001487056416
4.65,-0.07948006461,0.001600759766
4.66,-0.07921432349,0.004674096302
4.67,-0.07883053107,0.007728405036
4.68,-0.0783298062,0.01075919186
4.69,-0.07771343656,0.01376202306
4.7,-0.07698287566,0.0167325316
4.71,-0.07613973941,0.0196664231
4.72,-0.07518580259,0.0225594818
4.73,-0.07412299509,0.02540757629
4.74,-0.07295339794,0.028206665
4.75,-0.07167923917,0.03095280162
4.76,-0.07030288944,0.03364214025
4.77,-0.0688268576,0.03627094037
4.78,-0.06725378595,0.03883557164
4.79,-0.0655864455,0.04133251842
4.8,-0.06382773092,0.04375838416
4.81,-0.06198065551,0.04610989557
4.82,-0.06004834595,0.04838390647
4.83,-0.05803403692,0.05057740156
4.84,-0.05594106573,0.05268749987
4.85,-0.05377286669,0.05471145801
4.86,-0.05153296553,0.05664667324
4.87,-0.04922497364,0.05849068621
4.88,-0.0468525823,0.06024118356
4.89,-0.04441955686,0.06189600025
4.9,-0.04192973077,0.06345312168
4.91,-0.03938699971,0.06491068553
4.92,-0.03679531555,0.06626698345
4.93,-0.03415868037,0.06752046243
4.94,-0.03148114045,0.06866972599
4.95,-0.02876678019,0.06971353515
4.96,-0.02601971615,0.07065080916
4.97,-0.02324409096,0.07148062598
4.98,-0.02044406735,0.07220222255
4.99,-0.01762382215,0.07281499491
5,-0.01478754034,0.07331849794
5.01,-0.01193940913,0.07371244509
5.02,-0.009083612124,0.0739967077
5.03,-0.00622432346,0.07417131426
5.04,-0.003365702092,0.07423644939
5.05,-0.0005118860881,0.07419245263
5.06,0.002333012974,0.07403981703
5.07,0.005164915542,0.07377918757
5.08,0.007979779533,0.07341135939
5.09,0.01077360569,0.07293727575
5.1,0.01354244282,0.07235802595
5.11,0.01628239298,0.07167484297
5.12,0.01898961647,0.07088910097
5.13,0.02166033683,0.07000231261
5.14,0.02429084556,0.06901612626
5.15,0.02687750691,0.06793232298
5.16,0.02941676234,0.06675281341
5.17,0.03190513501,0.06547963446
5.18,0.03433923407,0.06411494593
5.19,0.03671575878,0.0626610269
5.2,0.03903150254,0.06112027209
5.21,0.04128335675,0.05949518805
5.22,0.0434683145,0.05778838919
5.23,0.04558347418,0.0560025938
5.24,0.04762604282,0.05414061984
5.25,0.04959333939,0.05220538073
5.26,0.05148279785,0.05019988102
5.27,0.05329197009,0.04812721191
5.28,0.05501852868,0.04599054677
5.29,0.05666026947,0.04379313652
5.3,0.05821511399,0.041538305
5.31,0.05968111172,0.03922944417
5.32,0.06105644218,0.03687000938
5.33,0.06233941684,0.03446351449
5.34,0.0635284808,0.03201352694
5.35,0.06462221445,0.02952366287
5.36,0.06561933476,0.02699758207
5.37,0.06651869657,0.02443898301
5.38,0.06731929356,0.02185159779
5.39,0.06802025917,0.01923918705
5.4,0.06862086723,0.01660553493
5.41,0.06912053253,0.01395444393
5.42,0.06951881107,0.01128972988
5.43,0.06981540031,0.0086152168
5.44,0.07001013907,0.005934731827
5.45,0.07010300741,0.00325210015
5.46,0.0700941262,0.0005711399443
5.47,0.06998375663,-0.002104342655
5.48,0.0697722995,-0.004770558561
5.49,0.06946029429,-0.007423740704
5.5,0.06904841819,-0.01006014896
5.51,0.06853748483,-0.01267607505
5.52,0.0679284429,-0.01526784737
5.53,0.06722237465,-0.01783183575
5.54,0.06642049415,-0.02036445623
5.55,0.0655241454,-0.02286217567
5.56,0.06453480037,-0.02532151637
5.57,0.06345405678,-0.02773906057
5.58,0.06228363577,-0.03011145487
5.59,0.06102537941,-0.03243541462
5.6,0.05968124809,-0.03470772813
5.61,0.05825331775,-0.03692526087
5.62,0.05674377692,-0.03908495951
5.63,0.0551549237,-0.04118385594
5.64,0.05348916256,-0.04321907102
5.65,0.051749001,-0.04518781844
5.66,0.04993704614,-0.04708740827
5.67,0.04805600107,-0.04891525046
5.68,0.04610866121,-0.05066885828
5.69,0.04409791049,-0.05234585151
5.7,0.04202671738,-0.05394395956
5.71,0.03989813089,-0.0554610245
5.72,0.0377152764,-0.05689500382
5.73,0.03548135145,-0.05824397319
5.74,0.03319962137,-0.05950612894
5.75,0.03087341486,-0.06067979051
5.76,0.02850611948,-0.06176340263
5.77,0.02610117705,-0.06275553743
5.78,0.023662079,-0.06365489634
5.79,0.0211923616,-0.06446031185
5.8,0.01869560116,-0.06517074908
5.81,0.01617540919,-0.06578530719
5.82,0.01363542746,-0.06630322064
5.83,0.01107932305,-0.06672386021
5.84,0.008510783335,-0.06704673393
5.85,0.005933510933,-0.06727148779
5.86,0.003351218662,-0.06739790623
5.87,0.0007676244267,-0.06742591252
5.88,-0.001813553888,-0.06735556889
5.89,-0.00438860354,-0.06718707655
5.9,-0.006953822051,-0.06692077545
5.91,-0.009505522334,-0.06655714391
5.92,-0.0120400378,-0.06609679801
5.93,-0.01455372747,-0.06554049086
5.94,-0.01704298104,-0.06488911161
5.95,-0.01950422391,-0.06414368436
5.96,-0.02193392222,-0.06330536677
5.97,-0.02432858781,-0.06237544861
5.98,-0.02668478315,-0.06135535003
5.99,-0.02899912614,-0.0602466197
6,-0.031268295,-0.05905093274
