"Freq [GHz]","re(S(Tx_p1,Tx_p1)) []","im(S(Tx_p1,Tx_p1)) []"
1,-0.005220454583,-0.03990742829
1.01,-0.00649629536,-0.03962811936
1.02,-0.007763500643,-0.03930939822
1.03,-0.00902070702,-0.0389515164
1.04,-0.01026657967,-0.03855477889
1.05,-0.01149981358,-0.03811954051
1.06,-0.01271913442,-0.03764620232
1.07,-0.01392329919,-0.03713520815
1.08,-0.01511109655,-0.03658704135
1.09,-0.01628134692,-0.03600222161
1.1,-0.01743290234,-0.03538130199
1.11,-0.01856464614,-0.03472486609
1.12,-0.01967549235,-0.03403352547
1.13,-0.020764385,-0.0333079172
1.14,-0.02183029725,-0.0325487017
1.15,-0.02287223036,-0.03175656068
1.16,-0.02388921256,-0.03093219545
1.17,-0.02488029784,-0.0300763253
1.18,-0.02584456462,-0.02918968622
1.19,-0.02678111446,-0.02827302979
1.2,-0.02768907063,-0.02732712231
1.21,-0.02856757676,-0.02635274417
1.22,-0.02941579544,-0.0253506894
1.23,-0.03023290689,-0.02432176548
1.24,-0.03101810765,-0.02326679331
1.25,-0.03177060936,-0.02218660748
1.26,-0.03248963761,-0.02108205656
1.27,-0.0331744309,-0.01995400375
1.28,-0.03382423972,-0.0188033276
1.29,-0.03443832578,-0.01763092287
1.3,-0.03501596131,-0.01643770162
1.31,-0.03555642863,-0.01522459435
1.32,-0.03605901983,-0.01399255128
1.33,-0.03652303663,-0.01274254371
1.34,-0.03694779042,-0.01147556552
1.35,-0.03733260256,-0.01019263459
1.36,-0.03767680481,-0.008894794432
1.37,-0.03797974001,-0.007583115732
1.38,-0.03824076295,-0.006258697914
1.39,-0.03845924146,-0.004922670717
1.4,-0.03863455774,-0.00357619571
1.41,-0.03876610983,-0.002220467763
1.42,-0.03885331337,-0.0008567164439
1.43,-0.03889560349,0.000513792684
1.44,-0.03889243699,0.001889756869
1.45,-0.03884329456,0.003269835114
1.46,-0.03874768336,0.004652647259
1.47,-0.03860513962,0.00603677324
1.48,-0.03841523149,0.007420752515
1.49,-0.03817756202,0.008803083696
1.5,-0.03789177219,0.01018222439
1.51,-0.03755754421,0.01155659124
1.52,-0.03717460476,0.01292456028
1.53,-0.03674272844,0.01428446738
1.54,-0.0362617412,0.01563460916
1.55,-0.03573152385,0.01697324397
1.56,-0.03515201561,0.01829859326
1.57,-0.03452321763,0.01960884321
1.58,-0.03384519652,0.02090214658
1.59,-0.03311808785,0.02217662492
1.6,-0.03234209956,0.02343037107
1.61,-0.03151751533,0.02466145182
1.62,-0.03064469783,0.02586791103
1.63,-0.02972409185,0.02704777288
1.64,-0.02875622727,0.0281990455
1.65,-0.02774172192,0.0293197248
1.66,-0.02668128418,0.03040779858
1.67,-0.02557571542,0.03146125088
1.68,-0.02442591222,0.03247806663
1.69,-0.02323286834,0.03345623641
1.7,-0.02199767637,0.0343937615
1.71,-0.02072152922,0.03528865915
1.72,-0.01940572117,0.03613896792
1.73,-0.01805164873,0.03694275331
1.74,-0.01666081113,0.03769811345
1.75,-0.01523481043,0.0384031849
1.76,-0.01377535134,0.03905614863
1.77,-0.01228424065,0.03965523598
1.78,-0.01076338633,0.04019873478
1.79,-0.009214796157,0.04068499538
1.8,-0.007640576085,0.04111243683
1.81,-0.006042928142,0.04147955289
1.82,-0.00442414797,0.04178491811
1.83,-0.002786621976,0.04202719382
1.84,-0.001132824091,0.04220513398
1.85,0.0005346878594,0.04231759095
1.86,0.002213276158,0.04236352114
1.87,0.00390022758,0.0423419904
1.88,0.005592758139,0.04225217935
1.89,0.007288018196,0.04209338834
1.9,0.008983097913,0.0418650423
1.91,0.01067503304,0.04156669523
1.92,0.01236081101,0.04119803445
1.93,0.01403737739,0.04075888452
1.94,0.01570164251,0.04024921084
1.95,0.01735048851,0.03966912287
1.96,0.01898077648,0.03901887701
1.97,0.02058935395,0.03829887907
1.98,0.02217306253,0.03750968638
1.99,0.0237287457,0.03665200937
2,0.02525325682,0.03572671285
2.01,0.02674346725,0.03473481678
2.02,0.02819627455,0.03367749655
2.03,0.02960861076,0.03255608287
2.04,0.03097745079,0.03137206115
2.05,0.03229982071,0.03012707037
2.06,0.03357280618,0.02882290154
2.07,0.03479356071,0.02746149566
2.08,0.03595931395,0.02604494111
2.09,0.03706737983,0.02457547071
2.1,0.03811516458,0.02305545818
2.11,0.03910017464,0.02148741418
2.12,0.04002002434,0.01987398191
2.13,0.04087244339,0.01821793219
2.14,0.04165528413,0.01652215814
2.15,0.04236652851,0.01478966945
2.16,0.0430042948,0.0130235862
2.17,0.04356684395,0.01122713225
2.18,0.04405258562,0.00940362835
2.19,0.04446008388,0.007556484764
2.2,0.04478806246,0.005689193647
2.21,0.04503540966,0.003805321051
2.22,0.04520118277,0.001908498646
2.23,0.04528461207,2.415175388E-06
2.24,0.04528510439,-0.001909192347
2.25,0.04520224617,-0.003822547652
2.26,0.045035806,-0.005733844425
2.27,0.0447857367,-0.007639255683
2.28,0.04445217688,-0.009534943282
2.29,0.04403545196,-0.01141706753
2.3,0.04353607465,-0.0132817969
2.31,0.04295474495,-0.0151253177
2.32,0.04229234953,-0.01694384391
2.33,0.04154996066,-0.01873362682
2.34,0.04072883453,-0.0204909648
2.35,0.03983040909,-0.0222122128
2.36,0.03885630131,-0.02389379191
2.37,0.03780830398,-0.02553219869
2.38,0.0366883819,-0.02712401431
2.39,0.03549866767,-0.02866591356
2.4,0.03424145693,-0.03015467354
2.41,0.03291920309,-0.03158718218
2.42,0.03153451169,-0.03296044644
2.43,0.03009013422,-0.0342716001
2.44,0.02858896153,-0.03551791142
2.45,0.02703401691,-0.03669679021
2.46,0.02542844865,-0.03780579467
2.47,0.02377552236,-0.03884263774
2.48,0.02207861285,-0.03980519307
2.49,0.02034119576,-0.04069150052
2.5,0.01856683889,-0.04149977117
2.51,0.01675919323,-0.04222839189
2.52,0.0149219838,-0.0428759294
2.53,0.01305900024,-0.04344113382
2.54,0.01117408731,-0.0439229417
2.55,0.009271135108,-0.04432047852
2.56,0.007354069309,-0.04463306069
2.57,0.005426841229,-0.04486019693
2.58,0.003493417878,-0.04500158923
2.59,0.001557771974,-0.04505713313
2.6,-0.0003761280245,-0.04502691756
2.61,-0.002304327852,-0.04491122409
2.62,-0.004222897299,-0.04471052566
2.63,-0.006127939972,-0.04442548477
2.64,-0.008015602921,-0.04405695115
2.65,-0.009882086109,-0.0436059589
2.66,-0.0117236517,-0.04307372316
2.67,-0.0135366331,-0.04246163628
2.68,-0.0153174438,-0.04177126345
2.69,-0.01706258592,-0.04100433801
2.7,-0.01876865846,-0.04016275614
2.71,-0.02043236521,-0.03924857128
2.72,-0.0220505224,-0.03826398807
2.73,-0.02362006586,-0.0372113559
2.74,-0.02513805793,-0.03609316215
2.75,-0.02660169386,-0.03491202504
2.76,-0.02800830786,-0.03367068621
2.77,-0.02935537867,-0.03237200299
2.78,-0.03064053475,-0.03101894039
2.79,-0.03186155891,-0.02961456295
2.8,-0.03301639253,-0.02816202625
2.81,-0.03410313933,-0.02666456834
2.82,-0.03512006858,-0.02512550098
2.83,-0.03606561788,-0.02354820081
2.84,-0.03693839536,-0.02193610032
2.85,-0.03773718151,-0.02029267888
2.86,-0.03846093039,-0.01862145367
2.87,-0.03910877039,-0.0169259706
2.88,-0.03968000455,-0.0152097953
2.89,-0.04017411025,-0.01347650408
2.9,-0.04059073856,-0.01172967509
2.91,-0.04092971308,-0.009972879463
2.92,-0.04119102823,-0.008209672643
2.93,-0.04137484717,-0.006443585897
2.94,-0.04148149929,-0.004678117961
2.95,-0.04151147719,-0.002916726919
2.96,-0.04146543334,-0.001162822302
2.97,-0.04134417625,0.0005802425598
2.98,-0.04114866635,0.002309177916
2.99,-0.04088001143,0.004020764679
3,-0.04053946182,0.005711861209
3.01,-0.04012840519,0.007379409761
3.02,-0.03964836106,0.009020442599
3.03,-0.03910097506,0.01063208776
3.04,-0.0384880129,0.01221157443
3.05,-0.03781135416,0.01375623798
3.06,-0.03707298583,0.01526352457
3.07,-0.03627499569,0.01673099537
3.08,-0.03541956552,0.01815633042
3.09,-0.03450896418,0.01953733204
3.1,-0.03354554061,0.02087192779
3.11,-0.03253171671,0.02215817313
3.12,-0.03146998018,0.02339425359
3.13,-0.03036287734,0.0245784865
3.14,-0.02921300589,0.02570932239
3.15,-0.02802300777,0.02678534595
3.16,-0.02679556198,0.02780527655
3.17,-0.02553337747,0.02876796846
3.18,-0.0242391862,0.02967241058
3.19,-0.02291573615,0.03051772586
3.2,-0.02156578463,0.03130317036
3.21,-0.02019209159,0.03202813191
3.22,-0.01879741316,0.03269212849
3.23,-0.0173844954,0.0332948062
3.24,-0.01595606815,0.03383593703
3.25,-0.01451483921,0.03431541624
3.26,-0.01306348868,0.03473325952
3.27,-0.01160466354,0.03508959985
3.28,-0.0101409725,0.03538468412
3.29,-0.008674981143,0.03561886958
3.3,-0.007209207288,0.03579262
3.31,-0.005746116668,0.03590650172
3.32,-0.004288118898,0.03596117946
3.33,-0.002837563723,0.03595741208
3.34,-0.001396737582,0.03589604807
3.35,3.213953589E-05,0.03577802112
3.36,0.001446916926,0.03560434539
3.37,0.002845515701,0.03537611092
3.38,0.004225931015,0.03509447883
3.39,0.005586233992,0.03476067659
3.4,0.006924573348,0.03437599324
3.41,0.008239176727,0.03394177461
3.42,0.00952835174,0.03345941861
3.43,0.01079048673,0.03293037052
3.44,0.01202405126,0.03235611834
3.45,0.01322759633,0.0317381883
3.46,0.01439975434,0.03107814032
3.47,0.01553923882,0.03037756371
3.48,0.01664484392,0.02963807291
3.49,0.01771544365,0.02886130338
3.5,0.01874999097,0.02804890769
3.51,0.01974751661,0.02720255165
3.52,0.0207071278,0.02632391074
3.53,0.02162800673,0.02541466657
3.54,0.02250940893,0.02447650368
3.55,0.02335066151,0.02351110637
3.56,0.02415116122,0.02252015586
3.57,0.02491037246,0.02150532752
3.58,0.0256278252,0.0204682884
3.59,0.02630311277,0.01941069491
3.6,0.02693588963,0.01833419073
3.61,0.02752586913,0.01724040488
3.62,0.02807282115,0.01613095002
3.63,0.02857656978,0.01500742097
3.64,0.02903699102,0.01387139338
3.65,0.02945401044,0.01272442261
3.66,0.02982760092,0.01156804278
3.67,0.03015778037,0.01040376604
3.68,0.03044460956,0.009233081984
3.69,0.03068818996,0.008057457191
3.7,0.03088866171,0.006878334994
3.71,0.03104620165,0.005697135343
3.72,0.03116102139,0.004515254823
3.73,0.03123336561,0.003334066794
3.74,0.03126351033,0.002154921643
3.75,0.03125176137,0.0009791471423
3.76,0.03119845295,-0.000191951102
3.77,0.03110394639,-0.001357089125
3.78,0.0309686289,-0.002515004007
3.79,0.03079291258,-0.003664453229
3.8,0.03057723353,-0.004804213981
3.81,0.03032205105,-0.005933082446
3.82,0.03002784706,-0.007049873065
3.83,0.02969512559,-0.008153417801
3.84,0.02932441245,-0.009242565409
3.85,0.02891625495,-0.01031618073
3.86,0.02847122191,-0.011373144
3.87,0.02798990357,-0.01241235026
3.88,0.02747291184,-0.01343270873
3.89,0.02692088052,-0.01443314232
3.9,0.02633446563,-0.01541258718
3.91,0.02571434594,-0.0163699924
3.92,0.02506122348,-0.01730431966
3.93,0.02437582414,-0.01821454316
3.94,0.02365889844,-0.0190996495
3.95,0.02291122222,-0.0199586378
3.96,0.02213359749,-0.02079051986
3.97,0.02132685325,-0.02159432045
3.98,0.02049184634,-0.02236907779
3.99,0.01962946238,-0.02311384409
4,0.0187406166,-0.02382768626
4.01,0.01782625477,-0.02450968675
4.02,0.01688735397,-0.02515894454
4.03,0.01592492352,-0.02577457623
4.04,0.01494000566,-0.02635571727
4.05,0.01393367633,-0.02690152338
4.06,0.01290704576,-0.02741117198
4.07,0.01186125911,-0.02788386387
4.08,0.01079749687,-0.02831882496
4.09,0.00971697527,-0.02871530808
4.1,0.008620946541,-0.02907259497
4.11,0.007510699024,-0.02938999833
4.12,0.006387557186,-0.02966686394
4.13,0.005252881476,-0.02990257289
4.14,0.004108068035,-0.03009654385
4.15,0.002954548245,-0.03024823544
4.16,0.001793788121,-0.03035714859
4.17,0.0006272875284,-0.030422829
4.18,-0.0005434207708,-0.03044486954
4.19,-0.001716772255,-0.03042291278
4.2,-0.002891171955,-0.03035665338
4.21,-0.004064995959,-0.03024584058
4.22,-0.005236593092,-0.0300902806
4.23,-0.006404286795,-0.02988983898
4.24,-0.007566377177,-0.02964444298
4.25,-0.008721143259,-0.02935408374
4.26,-0.009866845398,-0.02901881849
4.27,-0.01100172789,-0.02863877261
4.28,-0.01212402174,-0.02821414159
4.29,-0.01323194761,-0.02774519285
4.3,-0.01432371895,-0.02723226748
4.31,-0.0153975452,-0.02667578175
4.32,-0.01645163527,-0.0260762285
4.33,-0.01748420104,-0.02543417839
4.34,-0.01849346107,-0.02475028093
4.35,-0.01947764436,-0.02402526529
4.36,-0.02043499429,-0.023259941
4.37,-0.02136377259,-0.02245519831
4.38,-0.02226226344,-0.02161200845
4.39,-0.02312877759,-0.02073142359
4.4,-0.02396165661,-0.01981457659
4.41,-0.02475927708,-0.01886268053
4.42,-0.02552005492,-0.01787702792
4.43,-0.02624244963,-0.01685898975
4.44,-0.02692496857,-0.01581001429
4.45,-0.02756617128,-0.0147316255
4.46,-0.0281646736,-0.0136254214
4.47,-0.02871915194,-0.01249307198
4.48,-0.02922834732,-0.011336317
4.49,-0.02969106945,-0.01015696349
4.5,-0.03010620057,-0.008956882985
4.51,-0.03047269935,-0.007738008527
4.52,-0.03078960449,-0.006502331466
4.53,-0.03105603829,-0.00525189798
4.54,-0.03127121,-0.003988805401
4.55,-0.03143441902,-0.002715198316
4.56,-0.03154505793,-0.001433264463
4.57,-0.03160261522,-0.0001452304341
4.58,-0.03160667797,0.001146642811
4.59,-0.03155693412,0.002440064601
4.6,-0.03145317465,0.003732719369
4.61,-0.03129529541,0.00502227162
4.62,-0.03108329875,0.00630637102
4.63,-0.03081729485,0.007582657621
4.64,-0.03049750279,0.008848767167
4.65,-0.03012425131,0.01010233651
4.66,-0.02969797933,0.01134100906
4.67,-0.02921923611,0.01256244034
4.68,-0.02868868116,0.01376430354
4.69,-0.02810708382,0.0149442951
4.7,-0.02747532257,0.01610014026
4.71,-0.02679438397,0.01722959869
4.72,-0.02606536136,0.01833046996
4.73,-0.02528945323,0.01940059908
4.74,-0.02446796126,0.02043788185
4.75,-0.02360228814,0.02144027021
4.76,-0.02269393498,0.02240577747
4.77,-0.02174449854,0.02333248338
4.78,-0.02075566812,0.02421853908
4.79,-0.01972922219,0.02506217193
4.8,-0.01866702475,0.02586169012
4.81,-0.01757102142,0.02661548708
4.82,-0.01644323535,0.02732204577
4.83,-0.01528576279,0.02797994266
4.84,-0.01410076853,0.02858785154
4.85,-0.01289048108,0.02914454704
4.86,-0.01165718767,0.02964890796
4.87,-0.0104032291,0.03009992027
4.88,-0.009130994353,0.03049667985
4.89,-0.007842915114,0.03083839498
4.9,-0.006541460161,0.03112438849
4.91,-0.005229129604,0.03135409963
4.92,-0.003908449049,0.03152708564
4.93,-0.002581963675,0.03164302295
4.94,-0.001252232243,0.03170170818
4.95,7.817892687E-05,0.03170305868
4.96,0.001406702023,0.03164711286
4.97,0.002730773804,0.03153403009
4.98,0.004047841654,0.03136409042
4.99,0.005355369618,0.03113769381
5,0.006650844375,0.03085535916
5.01,0.007931781165,0.03051772298
5.02,0.009195729614,0.03012553775
5.03,0.01044027948,0.02967966998
5.04,0.01166306626,0.02918109794
5.05,0.01286177668,0.02863090914
5.06,0.01403415403,0.02803029748
5.07,0.01517800335,0.02738056018
5.08,0.01629119637,0.02668309439
5.09,0.01737167637,0.02593939357
5.1,0.0184174627,0.02515104363
5.11,0.01942665521,0.02431971883
5.12,0.02039743832,0.02344717748
5.13,0.02132808495,0.02253525739
5.14,0.02221696013,0.02158587122
5.15,0.02306252437,0.02060100156
5.16,0.02386333675,0.01958269593
5.17,0.02461805778,0.01853306159
5.18,0.02532545184,0.01745426024
5.19,0.02598438949,0.01634850262
5.2,0.02659384937,0.01521804301
5.21,0.02715291986,0.01406517366
5.22,0.02766080039,0.01289221916
5.23,0.02811680248,0.0117015308
5.24,0.02852035046,0.01049548082
5.25,0.02887098192,0.009276456781
5.26,0.02916834777,0.008046855847
5.27,0.02941221211,0.006809079148
5.28,0.02960245172,0.005565526165
5.29,0.02973905532,0.004318589194
5.3,0.02982212247,0.003070647874
5.31,0.02985186226,0.001824063818
5.32,0.0298285917,0.0005811753493
5.33,0.02975273383,-0.0006557076413
5.34,0.02962481561,-0.001884308698
5.35,0.02944546552,-0.003102389654
5.36,0.02921541097,-0.004307755322
5.37,0.02893547543,-0.005498258013
5.38,0.02860657541,-0.006671801861
5.39,0.0282297172,-0.007826346965
5.4,0.02780599341,-0.008959913311
5.41,0.02733657938,-0.01007058449
5.42,0.02682272938,-0.01115651118
5.43,0.0262657727,-0.01221591444
5.44,0.02566710958,-0.01324708868
5.45,0.02502820704,-0.0142484045
5.46,0.02435059459,-0.01521831121
5.47,0.02363585988,-0.0161553391
5.48,0.0228856442,-0.01705810154
5.49,0.02210163803,-0.0179252967
5.5,0.02128557646,-0.01875570913
5.51,0.02043923461,-0.01954821101
5.52,0.01956442304,-0.02030176321
5.53,0.01866298312,-0.02101541605
5.54,0.01773678249,-0.02168830983
5.55,0.01678771046,-0.02231967512
5.56,0.0158176735,-0.02290883283
5.57,0.01482859078,-0.02345519395
5.58,0.01382238973,-0.02395825924
5.59,0.01280100179,-0.02441761848
5.6,0.01176635807,-0.02483294972
5.61,0.0107203853,-0.02520401812
5.62,0.009665001748,-0.02553067476
5.63,0.008602113345,-0.02581285515
5.64,0.007533609886,-0.02605057762
5.65,0.006461361404,-0.02624394151
5.66,0.005387214664,-0.02639312517
5.67,0.004312989833,-0.02649838391
5.68,0.003240477287,-0.0265600477
5.69,0.002171434599,-0.02657851878
5.7,0.001107583686,-0.02655426918
5.71,5.060813787E-05,-0.02648783812
5.72,-0.0009978492834,-0.0263798293
5.73,-0.002036188962,-0.02623090808
5.74,-0.003062856565,-0.02604179868
5.75,-0.004076344999,-0.02581328126
5.76,-0.005075196179,-0.02554618891
5.77,-0.006058002619,-0.02524140469
5.78,-0.007023408842,-0.02489985861
5.79,-0.007970112603,-0.02452252457
5.8,-0.008896865946,-0.0241104173
5.81,-0.009802476072,-0.0236645894
5.82,-0.01068580605,-0.02318612821
5.83,-0.01154577535,-0.02267615291
5.84,-0.01238136024,-0.02213581152
5.85,-0.01319159395,-0.02156627798
5.86,-0.01397556681,-0.0209687493
5.87,-0.01473242614,-0.02034444276
5.88,-0.01546137602,-0.01969459317
5.89,-0.01616167697,-0.01902045023
5.9,-0.01683264547,-0.01832327593
5.91,-0.01747365337,-0.01760434204
5.92,-0.01808412719,-0.01686492778
5.93,-0.01866354735,-0.01610631743
5.94,-0.01921144725,-0.01532979821
5.95,-0.0197274123,-0.01453665812
5.96,-0.02021107889,-0.01372818396
5.97,-0.02066213326,-0.01290565946
5.98,-0.02108031034,-0.0120703635
5.99,-0.02146539248,-0.01122356842
6,-0.02181720823,-0.01036653852
