"Freq [GHz]","re(S(Tx_p1,Tx_p1)) []","im(S(Tx_p1,Tx_p1)) []"
1,-0.009433699559,-0.007581349545
1.01,-0.00973416828,-0.007126560236
1.02,-0.01001304389,-0.006659077121
1.03,-0.01026972741,-0.006179981833
1.04,-0.01050368075,-0.005690384848
1.05,-0.01071442777,-0.005191421761
1.06,-0.01090155518,-0.004684249543
1.07,-0.01106471321,-0.004170042805
1.08,-0.01120361602,-0.003649990067
1.09,-0.01131804196,-0.003125290057
1.1,-0.01140783354,-0.002597148042
1.11,-0.0114728973,-0.002066772204
1.12,-0.01151320337,-0.001535370077
1.13,-0.01152878489,-0.001004145049
1.14,-0.01151973727,-0.0004742929391
1.15,-0.01148621722,5.300133444E-05
1.16,-0.01142844162,0.0005765669943
1.17,-0.01134668623,0.00109525054
1.18,-0.01124128427,0.001607918774
1.19,-0.01111262477,0.002113461704
1.2,-0.0109611509,0.00261079533
1.21,-0.01078735806,0.003098864293
1.22,-0.01059179191,0.003576644389
1.23,-0.01037504625,0.004043144945
1.24,-0.01013776086,0.004497411048
1.25,-0.009880619171,0.00493852563
1.26,-0.009604345893,0.005365611393
1.27,-0.009309704576,0.00577783259
1.28,-0.008997495091,0.006174396646
1.29,-0.00866855106,0.006554555626
1.3,-0.008323737244,0.006917607542
1.31,-0.007963946896,0.00726289751
1.32,-0.007590099087,0.007589818746
1.33,-0.007203136017,0.00789781341
1.34,-0.006804020314,0.008186373295
1.35,-0.006393732334,0.008455040368
1.36,-0.005973267477,0.00870340716
1.37,-0.005543633509,0.008931117014
1.38,-0.005105847915,0.009137864188
1.39,-0.004660935278,0.009323393819
1.4,-0.004209924705,0.009487501762
1.41,-0.00375384729,0.009630034285
1.42,-0.003293733627,0.009750887654
1.43,-0.00283061139,0.009850007586
1.44,-0.002365502964,0.009927388599
1.45,-0.001899423149,0.009983073243
1.46,-0.001433376932,0.01001715123
1.47,-0.0009683573406,0.01002975849
1.48,-0.0005053433674,0.01002107606
1.49,-4.529798448E-05,0.009991329018
1.5,0.0004108337612,0.009940785183
1.51,0.0008621265629,0.009869753872
1.52,0.00130767658,0.009778584509
1.53,0.00174660307,0.009667665206
1.54,0.002178049936,0.009537421281
1.55,0.002601187165,0.00938831372
1.56,0.003015212192,0.009220837604
1.57,0.00341935115,0.00903552049
1.58,0.003812860043,0.008832920766
1.59,0.00419502581,0.008613625969
1.6,0.00456516731,0.008378251086
1.61,0.004922636205,0.00812743684
1.62,0.005266817752,0.007861847955
1.63,0.005597131515,0.007582171419
1.64,0.005913031981,0.007289114743
1.65,0.00621400909,0.006983404215
1.66,0.006499588688,0.006665783164
1.67,0.006769332888,0.006337010229
1.68,0.007022840364,0.005997857641
1.69,0.007259746559,0.005649109515
1.7,0.007479723822,0.005291560168
1.71,0.007682481473,0.004926012447
1.72,0.007867765797,0.004553276089
1.73,0.008035359978,0.0041741661
1.74,0.008185083962,0.003789501163
1.75,0.00831679426,0.003400102076
1.76,0.008430383699,0.00300679022
1.77,0.008525781112,0.002610386056
1.78,0.008602950973,0.002211707663
1.79,0.008661892989,0.001811569299
1.8,0.008702641638,0.001410780007
1.81,0.008725265663,0.001010142253
1.82,0.008729867525,0.0006104506004
1.83,0.008716582813,0.0002124904193
1.84,0.008685579615,-0.000182963362
1.85,0.008637057856,-0.0005751474725
1.86,0.008571248597,-0.0009633114749
1.87,0.008488413303,-0.001346718904
1.88,0.008388843081,-0.00172464837
1.89,0.008272857887,-0.002096394619
1.9,0.008140805706,-0.002461269564
1.91,0.007993061703,-0.002818603274
1.92,0.007830027357,-0.003167744926
1.93,0.007652129558,-0.003508063719
1.94,0.007459819691,-0.00383894976
1.95,0.007253572697,-0.004159814905
1.96,0.007033886106,-0.004470093564
1.97,0.00680127906,-0.004769243477
1.98,0.006556291308,-0.005056746447
1.99,0.006299482187,-0.005332109043
2,0.006031429584,-0.005594863262
2.01,0.005752728876,-0.005844567157
2.02,0.005463991862,-0.006080805434
2.03,0.005165845672,-0.006303190003
2.04,0.004858931658,-0.0065113605
2.05,0.004543904277,-0.006704984773
2.06,0.004221429953,-0.006883759323
2.07,0.003892185929,-0.007047409717
2.08,0.0035568591,-0.007195690956
2.09,0.003216144834,-0.007328387808
2.1,0.002870745788,-0.007445315099
2.11,0.0025213707,-0.007546317966
2.12,0.002168733178,-0.007631272069
2.13,0.001813550474,-0.007700083758
2.14,0.001456542253,-0.007752690205
2.15,0.00109842935,-0.007789059482
2.16,0.0007399325186,-0.007809190606
2.17,0.0003817711773,-0.007813113528
2.18,2.466214616E-05,-0.007800889085
2.19,-0.0003306816174,-0.0077726089
2.2,-0.000683552286,-0.007728395234
2.21,-0.001033248431,-0.007668400791
2.22,-0.00137907629,-0.007592808474
2.23,-0.001720351029,-0.007501831085
2.24,-0.002056398008,-0.007395710981
2.25,-0.002386554028,-0.007274719674
2.26,-0.002710168578,-0.007139157381
2.27,-0.003026605072,-0.006989352515
2.28,-0.003335242063,-0.006825661131
2.29,-0.003635474454,-0.006648466312
2.3,-0.00392671468,-0.006458177503
2.31,-0.004208393875,-0.006255229795
2.32,-0.004479963015,-0.006040083147
2.33,-0.004740894035,-0.00581322156
2.34,-0.004990680912,-0.0055751522
2.35,-0.005228840725,-0.005326404461
2.36,-0.005454914675,-0.005067528982
2.37,-0.005668469068,-0.004799096613
2.38,-0.005869096256,-0.004521697325
2.39,-0.006056415541,-0.004235939083
2.4,-0.006230074029,-0.003942446655
2.41,-0.006389747432,-0.003641860394
2.42,-0.006535140825,-0.003334834964
2.43,-0.006665989343,-0.003022038024
2.44,-0.006782058829,-0.002704148884
2.45,-0.006883146409,-0.002381857109
2.46,-0.00696908102,-0.002055861099
2.47,-0.007039723863,-0.001726866636
2.48,-0.007094968797,-0.001395585394
2.49,-0.007134742657,-0.001062733435
2.5,-0.007159005508,-0.000729029674
2.51,-0.007167750822,-0.0003951943298
2.52,-0.007161005586,-6.194735555E-05
2.53,-0.007138830326,0.0002699931379
2.54,-0.007101319067,0.0005999124695
2.55,-0.007048599206,0.0009271009785
2.56,-0.006980831307,0.001250855616
2.57,-0.006898208821,0.001570481531
2.58,-0.006800957727,0.00188529365
2.59,-0.00668933609,0.002194618246
2.6,-0.006563633541,0.002497794482
2.61,-0.00642417068,0.002794175949
2.62,-0.0062712984,0.003083132162
2.63,-0.006105397133,0.003364050039
2.64,-0.005926876019,0.003636335341
2.65,-0.005736172003,0.003899414074
2.66,-0.00553374886,0.004152733852
2.67,-0.00532009614,0.004395765208
2.68,-0.005095728057,0.004628002858
2.69,-0.004861182303,0.004848966916
2.7,-0.0046170188,0.005058204041
2.71,-0.00436381839,0.005255288528
2.72,-0.004102181471,0.005439823335
2.73,-0.003832726575,0.005611441036
2.74,-0.003556088896,0.005769804711
2.75,-0.003272918768,0.005914608752
2.76,-0.002983880111,0.006045579596
2.77,-0.002689648818,0.00616247638
2.78,-0.002390911129,0.006265091509
2.79,-0.002088361956,0.006353251144
2.8,-0.001782703195,0.006426815602
2.81,-0.001474642013,0.006485679665
2.82,-0.001164889111,0.006529772807
2.83,-0.0008541569888,0.006559059325
2.84,-0.0005431581924,0.006573538383
2.85,-0.0002326035647,0.00657324396
2.86,7.679950201E-05,0.006558244712
2.87,0.000384348805,0.006528643741
2.88,0.0006893490565,0.00648457827
2.89,0.000991113591,0.006426219234
2.9,0.001288966049,0.006353770774
2.91,0.001582242033,0.00626746965
2.92,0.001870290731,0.006167584567
2.93,0.002152476497,0.006054415412
2.94,0.002428180401,0.005928292413
2.95,0.002696801717,0.005789575216
2.96,0.002957759373,0.005638651888
2.97,0.003210493334,0.005475937844
2.98,0.003454465938,0.005301874697
2.99,0.003689163156,0.005116929054
3,0.003914095795,0.004921591236
3.01,0.004128800624,0.004716373941
3.02,0.004332841429,0.004501810854
3.03,0.004525809994,0.004278455202
3.04,0.004707326999,0.004046878263
3.05,0.004877042836,0.003807667831
3.06,0.005034638345,0.00356142664
3.07,0.005179825461,0.003308770763
3.08,0.005312347774,0.00305032797
3.09,0.005431981005,0.002786736073
3.1,0.005538533383,0.002518641246
3.11,0.005631845941,0.00224669633
3.12,0.005711792717,0.001971559138
3.13,0.005778280861,0.001693890744
3.14,0.005831250659,0.001414353782
3.15,0.005870675459,0.001133610751
3.16,0.005896561513,0.0008523223236
3.17,0.005908947723,0.0005711456829
3.18,0.005907905311,0.0002907328694
3.19,0.005893537392,1.172916044E-05
3.2,0.005865978469,-0.0002652285223
3.21,0.005825393847,-0.00053951317
3.22,0.005771978962,-0.0008105092043
3.23,0.005705958642,-0.001077613952
3.24,0.005627586285,-0.001340239071
3.25,0.00553714297,-0.001597811926
3.26,0.005434936503,-0.001849776911
3.27,0.005321300396,-0.002095596708
3.28,0.005196592781,-0.002334753487
3.29,0.005061195278,-0.002566750048
3.3,0.0049155118,-0.002791110882
3.31,0.004759967315,-0.003007383172
3.32,0.004595006559,-0.003215137725
3.33,0.004421092714,-0.003413969815
3.34,0.004238706045,-0.00360349997
3.35,0.004048342511,-0.003783374664
3.36,0.003850512341,-0.003953266944
3.37,0.003645738594,-0.004112876968
3.38,0.003434555703,-0.004261932472
3.39,0.003217507995,-0.004400189149
3.4,0.002995148213,-0.004527430951
3.41,0.002768036029,-0.004643470315
3.42,0.002536736558,-0.004748148299
3.43,0.002301818874,-0.004841334649
3.44,0.002063854537,-0.004922927782
3.45,0.001823416133,-0.004992854696
3.46,0.001581075833,-0.005051070801
3.47,0.001337403966,-0.005097559676
3.48,0.001092967625,-0.005132332757
3.49,0.0008483292968,-0.005155428955
3.5,0.0006040455256,-0.005166914199
3.51,0.0003606656124,-0.005166880924
3.52,0.0001187303521,-0.005155447487
3.53,-0.0001212291868,-0.005132757531
3.54,-0.0003586928377,-0.005098979284
3.55,-0.0005931524644,-0.00505430481
3.56,-0.0008241130401,-0.004998949205
3.57,-0.001051093673,-0.004933149749
3.58,-0.001273628581,-0.004857165009
3.59,-0.001491268005,-0.004771273904
3.6,-0.001703579071,-0.004675774733
3.61,-0.001910146591,-0.004570984167
3.62,-0.0021105738,-0.004457236211
3.63,-0.002304483038,-0.004334881143
3.64,-0.002491516369,-0.004204284422
3.65,-0.002671336134,-0.004065825583
3.66,-0.002843625447,-0.003919897116
3.67,-0.003008088625,-0.003766903328
3.68,-0.003164451554,-0.003607259197
3.69,-0.003312462001,-0.003441389229
3.7,-0.003451889856,-0.003269726297
3.71,-0.003582527314,-0.003092710497
3.72,-0.003704189005,-0.002910787999
3.73,-0.003816712054,-0.002724409909
3.74,-0.003919956093,-0.002534031138
3.75,-0.004013803212,-0.002340109291
3.76,-0.004098157853,-0.002143103566
3.77,-0.004172946657,-0.001943473676
3.78,-0.004238118256,-0.001741678787
3.79,-0.004293643016,-0.00153817649
3.8,-0.004339512732,-0.001333421784
3.81,-0.00437574028,-0.001127866102
3.82,-0.004402359223,-0.0009219563603
3.83,-0.004419423377,-0.0007161340339
3.84,-0.004427006341,-0.000510834277
3.85,-0.004425200986,-0.0003064850697
3.86,-0.004414118914,-0.0001035064038
3.87,-0.004393889884,9.769049467E-05
3.88,-0.004364661209,0.0002967039044
3.89,-0.004326597127,0.0004931423094
3.9,-0.004279878146,0.0006866250593
3.91,-0.004224700371,0.00087678299
3.92,-0.004161274809,0.001063259003
3.93,-0.004089826655,0.001245708606
3.94,-0.00401059457,0.001423800408
3.95,-0.003923829939,0.001597216582
3.96,-0.003829796128,0.001765653276
3.97,-0.00372876772,0.001928820994
3.98,-0.003621029761,0.002086444932
3.99,-0.00350687699,0.002238265271
4,-0.003386613076,0.002384037443
4.01,-0.003260549845,0.002523532345
4.02,-0.00312900652,0.002656536525
4.03,-0.002992308959,0.002782852332
4.04,-0.002850788899,0.002902298019
4.05,-0.002704783205,0.00301470783
4.06,-0.002554633132,0.003119932035
4.07,-0.002400683595,0.003217836951
4.08,-0.002243282444,0.003308304912
4.09,-0.002082779761,0.003391234228
4.1,-0.001919527161,0.003466539106
4.11,-0.001753877114,0.003534149538
4.12,-0.001586182278,0.00359401118
4.13,-0.001416794846,0.003646085186
4.14,-0.001246065916,0.003690348035
4.15,-0.001074344868,0.003726791326
4.16,-0.0009019787676,0.003755421554
4.17,-0.0007293117836,0.003776259868
4.18,-0.0005566846209,0.003789341808
4.19,-0.000384433976,0.003794717028
4.2,-0.000212892009,0.003792448996
4.21,-4.238583438E-05,0.003782614685
4.22,0.0001267629691,0.003765304248
4.23,0.0002942388305,0.003740620677
4.24,0.0004597326396,0.003708679454
4.25,0.0006229421813,0.003669608187
4.26,0.0007835725518,0.003623546239
4.27,0.0009413365563,0.003570644343
4.28,0.001095955089,0.003511064211
4.29,0.001247157493,0.003444978135
4.3,0.001394681909,0.003372568582
4.31,0.001538275596,0.003294027774
4.32,0.001677695246,0.003209557274
4.33,0.001812707271,0.003119367557
4.34,0.001943088087,0.00302367758
4.35,0.002068624364,0.002922714341
4.36,0.002189113277,0.002816712449
4.37,0.002304362729,0.002705913667
4.38,0.002414191565,0.002590566473
4.39,0.002518429767,0.002470925606
4.4,0.002616918632,0.002347251607
4.41,0.002709510944,0.002219810367
4.42,0.002796071119,0.002088872665
4.43,0.002876475342,0.001954713702
4.44,0.002950611688,0.00181761264
4.45,0.003018380226,0.001677852133
4.46,0.003079693112,0.001535717856
4.47,0.003134474665,0.001391498038
4.48,0.003182661424,0.001245482989
4.49,0.003224202199,0.001097964621
4.5,0.0032590581,0.0009492359806
4.51,0.003287202551,0.0007995907676
4.52,0.003308621293,0.0006493228607
4.53,0.003323312369,0.0004987258402
4.54,0.00333128609,0.0003480925102
4.55,0.003332564992,0.0001977144219
4.56,0.003327183771,4.788139656E-05
4.57,0.003315189205,-0.0001011189504
4.58,0.003296640058,-0.0002490016841
4.59,0.003271606968,-0.0003954850235
4.6,0.003240172314,-0.0005402908123
4.61,0.003202430077,-0.0006831449874
4.62,0.003158485666,-0.0008237780444
4.63,0.003108455744,-0.0009619254989
4.64,0.003052468023,-0.001097328344
4.65,0.00299066105,-0.001229733501
4.66,0.002923183966,-0.00135889427
4.67,0.002850196257,-0.001484570764
4.68,0.002771867476,-0.001606530345
4.69,0.002688376955,-0.00172454805
4.7,0.002599913491,-0.001838407002
4.71,0.002506675024,-0.00194789882
4.72,0.002408868282,-0.002052824014
4.73,0.002306708424,-0.002152992365
4.74,0.00220041865,-0.002248223299
4.75,0.002090229803,-0.002338346245
4.76,0.001976379952,-0.002423200974
4.77,0.001859113951,-0.002502637931
4.78,0.001738682992,-0.002576518542
4.79,0.001615344135,-0.00264471551
4.8,0.001489359821,-0.002707113088
4.81,0.001360997373,-0.002763607336
4.82,0.001230528486,-0.002814106354
4.83,0.001098228696,-0.002858530495
4.84,0.0009643768392,-0.002896812561
4.85,0.0008292545033,-0.002928897964
4.86,0.0006931454623,-0.002954744874
4.87,0.0005563351043,-0.002974324339
4.88,0.0004191098504,-0.002987620375
4.89,0.0002817565654,-0.002994630034
4.9,0.000144561963,-0.002995363446
4.91,7.812004726E-06,-0.002989843827
4.92,-0.0001282087033,-0.002978107468
4.93,-0.0002632175172,-0.002960203688
4.94,-0.0003969343625,-0.002936194758
4.95,-0.0005290823406,-0.002906155802
4.96,-0.0006593883336,-0.002870174664
4.97,-0.0007875836048,-0.002828351742
4.98,-0.000913404395,-0.002780799797
4.99,-0.001036592511,-0.002727643736
5,-0.001156895906,-0.002669020351
5.01,-0.001274069249,-0.002605078048
5.02,-0.001387874488,-0.002535976527
5.03,-0.00149808139,-0.002461886449
5.04,-0.001604468073,-0.002382989068
5.05,-0.001706821524,-0.002299475833
5.06,-0.001804938089,-0.002211547967
5.07,-0.001898623956,-0.002119416021
5.08,-0.001987695604,-0.002023299398
5.09,-0.002071980241,-0.001923425854
5.1,-0.002151316209,-0.001820030981
5.11,-0.002225553371,-0.001713357662
5.12,-0.002294553463,-0.001603655504
5.13,-0.002358190426,-0.00149118026
5.14,-0.002416350707,-0.001376193225
5.15,-0.002468933523,-0.001258960617
5.16,-0.002515851105,-0.001139752946
5.17,-0.002557028898,-0.001018844371
5.18,-0.00259240574,-0.0008965120351
5.19,-0.002621933995,-0.0007730354045
5.2,-0.002645579664,-0.0006486955909
5.21,-0.002663322448,-0.0005237746702
5.22,-0.002675155788,-0.0003985549972
5.23,-0.00268108686,-0.0002733185176
5.24,-0.00268113654,-0.0001483460797
5.25,-0.002675339329,-2.391674834E-05
5.26,-0.002663743245,9.969287849E-05
5.27,-0.002646409676,0.0002222093463
5.28,-0.002623413202,0.000343363014
5.29,-0.002594841376,0.0004628887132
5.3,-0.002560794478,0.0005805263973
5.31,-0.002521385222,0.0006960217754
5.32,-0.002476738448,0.0008091269317
5.33,-0.002426990764,0.0009196009276
5.34,-0.002372290164,0.001027210385
5.35,-0.002312795621,0.001131730045
5.36,-0.002248676637,0.001232943313
5.37,-0.002180112779,0.001330642768
5.38,-0.002107293178,0.001424630654
5.39,-0.002030416007,0.001514719341
5.4,-0.001949687939,0.00160073176
5.41,-0.001865323572,0.001682501801
5.42,-0.001777544847,0.001759874692
5.43,-0.001686580436,0.001832707331
5.44,-0.00159266512,0.001900868598
5.45,-0.001496039151,0.001964239621
5.46,-0.001396947599,0.002022714016
5.47,-0.00129563969,0.002076198089
5.48,-0.001192368132,0.002124610997
5.49,-0.001087388441,0.002167884876
5.5,-0.0009809582559,0.002205964937
5.51,-0.0008733366511,0.002238809512
5.52,-0.0007647834531,0.002266390077
5.53,-0.0006555585545,0.002288691228
5.54,-0.0005459212338,0.002305710621
5.55,-0.00043612948,0.002317458885
5.56,-0.0003264393257,0.002323959482
5.57,-0.00021710419,0.002325248548
5.58,-0.0001083742327,0.002321374689
5.59,-4.957234573E-07,0.002312398745
5.6,0.0001062895745,0.002298393522
5.61,0.0002117450025,0.002279443491
5.62,0.0003156395849,0.002255644459
5.63,0.0004177485875,0.002227103202
5.64,0.0005178540526,0.002193937079
5.65,0.00061574531,0.002156273611
5.66,0.0007112194626,0.002114250043
5.67,0.0008040818453,0.002068012873
5.68,0.0008941464548,0.002017717363
5.69,0.0009812363515,0.001963527033
5.7,0.00106518403,0.001905613125
5.71,0.001145831759,0.001844154067
5.72,0.001223031887,0.001779334903
5.73,0.001296647123,0.001711346724
5.74,0.001366550769,0.001640386082
5.75,0.001432626937,0.001566654396
5.76,0.001494770717,0.001490357347
5.77,0.001552888319,0.001411704277
5.78,0.001606897177,0.001330907573
5.79,0.001656726024,0.001248182057
5.8,0.001702314923,0.001163744378
5.81,0.001743615274,0.001077812401
5.82,0.001780589784,0.0009906046034
5.83,0.001813212403,0.0009023394806
5.84,0.001841468225,0.0008132349545
5.85,0.001865353369,0.0007235077964
5.86,0.001884874812,0.00063337306
5.87,0.00190005021,0.0005430435286
5.88,0.001910907674,0.0004527291772
5.89,0.001917485531,0.000362636651
5.9,0.001919832051,0.0002729687628
5.91,0.001918005152,0.0001839240098
5.92,0.001912072082,9.569611059E-05
5.93,0.001902109074,8.473564887E-06
5.94,0.001888200984,-7.756076365E-05
5.95,0.00187044091,-0.0001622300407
5.96,0.001848929791,-0.0002453638296
5.97,0.001823775991,-0.0003267984331
5.98,0.001795094865,-0.0004063772097
5.99,0.001763008322,-0.0004839508619
6,0.001727644362,-0.0005593776972
