"Freq [GHz]","re(S(Tx_p1,Tx_p1)) []","im(S(Tx_p1,Tx_p1)) []"
1,0.01392575743,-0.1631669886
1.01,0.008973320313,-0.1631348553
1.02,0.004015234699,-0.1629537738
1.03,-0.0009426902292,-0.1626228543
1.04,-0.005894657787,-0.1621415184
1.05,-0.0108348989,-0.1615094893
1.06,-0.01575768642,-0.1607267835
1.07,-0.02065734855,-0.1597937001
1.08,-0.02552828148,-0.1587108114
1.09,-0.0303649612,-0.1574789524
1.1,-0.03516195443,-0.1560992097
1.11,-0.03991392874,-0.1545729114
1.12,-0.04461566187,-0.1529016153
1.13,-0.04926205016,-0.1510870981
1.14,-0.05384811626,-0.149131344
1.15,-0.05836901592,-0.1470365336
1.16,-0.06282004414,-0.144805032
1.17,-0.06719664039,-0.1424393777
1.18,-0.07149439316,-0.1399422717
1.19,-0.07570904381,-0.1373165657
1.2,-0.07983648957,-0.1345652515
1.21,-0.08387278595,-0.1316914498
1.22,-0.08781414848,-0.1286984
1.23,-0.09165695373,-0.1255894492
1.24,-0.09539773979,-0.1223680428
1.25,-0.09903320612,-0.1190377141
1.26,-0.1025602128,-0.1156020749
1.27,-0.1059757796,-0.1120648067
1.28,-0.1092770837,-0.1084296518
1.29,-0.1124614581,-0.1047004049
1.3,-0.1155263888,-0.1008809053
1.31,-0.1184695118,-0.09697502944
1.32,-0.1212886099,-0.09298668388
1.33,-0.1239816092,-0.0889197989
1.34,-0.1265465747,-0.0847783224
1.35,-0.1289817069,-0.08056621435
1.36,-0.131285337,-0.07628744181
1.37,-0.1334559226,-0.07194597435
1.38,-0.1354920433,-0.06754578005
1.39,-0.1373923959,-0.06309082191
1.4,-0.1391557895,-0.05858505487
1.41,-0.1407811413,-0.05403242316
1.42,-0.1422674716,-0.04943685831
1.43,-0.1436138994,-0.04480227742
1.44,-0.144819638,-0.04013258209
1.45,-0.1458839902,-0.0354316576
1.46,-0.1468063449,-0.0307033726
1.47,-0.1475861724,-0.02595157921
1.48,-0.1482230212,-0.02118011342
1.49,-0.1487165142,-0.01639279591
1.5,-0.1490663455,-0.01159343315
1.51,-0.1492722778,-0.0067858188
1.52,-0.1493341395,-0.001973735411
1.53,-0.1492518225,0.00283904368
1.54,-0.1490252805,0.007648752214
1.55,-0.1486545271,0.01245162871
1.56,-0.1481396353,0.01724391404
1.57,-0.147480736,0.02202184884
1.58,-0.1466780183,0.02678167091
1.59,-0.1457317291,0.03151961252
1.6,-0.1446421738,0.03623189777
1.61,-0.1434097172,0.04091473988
1.62,-0.1420347847,0.04556433864
1.63,-0.1405178639,0.05017687787
1.64,-0.1388595068,0.0547485231
1.65,-0.1370603323,0.05927541933
1.66,-0.1351210287,0.06375368902
1.67,-0.1330423573,0.06817943029
1.68,-0.1308251557,0.07254871542
1.69,-0.1284703416,0.07685758955
1.7,-0.125978917,0.0811020698
1.71,-0.1233519727,0.08527814463
1.72,-0.1205906927,0.08938177362
1.73,-0.1176963596,0.09340888763
1.74,-0.1146703591,0.09735538939
1.75,-0.1115141857,0.1012171544
1.76,-0.1082294479,0.1049900326
1.77,-0.1048178738,0.1086698499
1.78,-0.1012813165,0.112252411
1.79,-0.09762176015,0.1157335017
1.8,-0.09384132514,0.1191088931
1.81,-0.08994227386,0.1223743444
1.82,-0.08592701627,0.1255256083
1.83,-0.08179811524,0.1285584352
1.84,-0.0775582919,0.1314685787
1.85,-0.07321043066,0.1342518018
1.86,-0.06875758415,0.136903883
1.87,-0.0642029778,0.1394206231
1.88,-0.05955001419,0.141797853
1.89,-0.05480227706,0.1440314411
1.9,-0.04996353491,0.1461173016
1.91,-0.04503774428,0.1480514034
1.92,-0.04002905255,0.1498297793
1.93,-0.03494180024,0.151448535
1.94,-0.02978052292,0.1529038595
1.95,-0.02454995249,0.1541920351
1.96,-0.01925501794,0.1553094477
1.97,-0.01390084556,0.1562525981
1.98,-0.008492758511,0.1570181123
1.99,-0.003036275778,0.1576027534
2,0.002462889537,0.1580034328
2.01,0.007998832565,0.1582172213
2.02,0.01356545972,0.1582413614
2.03,0.01915649246,0.1580732785
2.04,0.0247654717,0.1577105928
2.05,0.03038576302,0.1571511307
2.06,0.03601056255,0.1563929369
2.07,0.04163290357,0.1554342852
2.08,0.04724566388,0.1542736901
2.09,0.05284157388,0.1529099182
2.1,0.05841322533,0.1513419984
2.11,0.06395308091,0.1495692327
2.12,0.06945348438,0.1475912065
2.13,0.07490667156,0.1454077984
2.14,0.08030478183,0.143019189
2.15,0.08563987044,0.1404258707
2.16,0.09090392133,0.1376286552
2.17,0.09608886066,0.1346286816
2.18,0.1011865709,0.1314274239
2.19,0.1061889053,0.128026697
2.2,0.1110877034,0.1244286628
2.21,0.1158748063,0.1206358355
2.22,0.1205420729,0.1166510858
2.23,0.1250813967,0.1124776445
2.24,0.1294847221,0.1081191053
2.25,0.1337440623,0.1035794271
2.26,0.1378515164,0.09886293451
2.27,0.1417992873,0.09397431853
2.28,0.1455796997,0.08891863564
2.29,0.1491852182,0.08370130619
2.3,0.1526084656,0.07832811184
2.31,0.1558422409,0.07280519203
2.32,0.1588795381,0.06713903947
2.33,0.1617135638,0.06133649466
2.34,0.1643377557,0.05540473948
2.35,0.1667458003,0.0493512897
2.36,0.168931651,0.04318398665
2.37,0.1708895451,0.0369109878
2.38,0.1726140211,0.03054075644
2.39,0.1740999355,0.02408205039
2.4,0.1753424791,0.01754390982
2.41,0.1763371926,0.01093564407
2.42,0.1770799822,0.004266817638
2.43,0.1775671341,-0.002452764713
2.44,0.1777953285,-0.009213073726
2.45,0.177761653,-0.0160038722
2.46,0.1774636152,-0.02281473237
2.47,0.1768991547,-0.02963505395
2.48,0.1760666539,-0.036454083
2.49,0.1749649481,-0.0432609314
2.5,0.1735933348,-0.05004459694
2.51,0.1719515822,-0.056793984
2.52,0.1700399361,-0.06349792485
2.53,0.1678591263,-0.07014520127
2.54,0.1654103721,-0.07672456678
2.55,0.1626953861,-0.08322476912
2.56,0.1597163774,-0.08963457316
2.57,0.1564760539,-0.09594278395
2.58,0.1529776222,-0.1021382702
2.59,0.1492247884,-0.1082099875
2.6,0.1452217556,-0.1141470024
2.61,0.1409732219,-0.1199385154
2.62,0.1364843762,-0.1255738852
2.63,0.1317608931,-0.1310426517
2.64,0.1268089271,-0.1363345596
2.65,0.1216351046,-0.1414395815
2.66,0.1162465158,-0.1463479408
2.67,0.1106507047,-0.1510501343
2.68,0.1048556583,-0.1555369539
2.69,0.09886979463,-0.1597995091
2.7,0.09270194968,-0.1638292475
2.71,0.086361363,-0.1676179754
2.72,0.07985766262,-0.1711578784
2.73,0.07320084875,-0.1744415397
2.74,0.06640127644,-0.1774619597
2.75,0.05946963741,-0.1802125727
2.76,0.0524169409,-0.1826872645
2.77,0.04525449363,-0.1848803882
2.78,0.03799387896,-0.1867867791
2.79,0.03064693527,-0.1884017691
2.8,0.02322573357,-0.1897211992
2.81,0.01574255446,-0.190741432
2.82,0.008209864442,-0.1914593624
2.83,0.0006402916829,-0.1918724273
2.84,-0.00695339877,-0.1919786139
2.85,-0.01455833021,-0.1917764679
2.86,-0.0221615399,-0.1912650986
2.87,-0.02975000502,-0.1904441846
2.88,-0.03731066892,-0.1893139772
2.89,-0.04483046751,-0.1878753027
2.9,-0.05229635591,-0.1861295637
2.91,-0.05969533506,-0.1840787387
2.92,-0.06701447842,-0.181725381
2.93,-0.07424095856,-0.1790726155
2.94,-0.0813620737,-0.1761241348
2.95,-0.08836527401,-0.172884194
2.96,-0.09523818768,-0.1693576038
2.97,-0.1019686467,-0.165549723
2.98,-0.1085447121,-0.1614664489
2.99,-0.1149546992,-0.1571142072
3,-0.1211872017,-0.1524999404
3.01,-0.1272311158,-0.1476310952
3.02,-0.1330756632,-0.1425156082
3.03,-0.1387104139,-0.1371618912
3.04,-0.1441253081,-0.1315788151
3.05,-0.149310677,-0.1257756926
3.06,-0.1542572629,-0.11976226
3.07,-0.1589562391,-0.1135486585
3.08,-0.1633992277,-0.1071454138
3.09,-0.1675783171,-0.100563415
3.1,-0.1714860788,-0.09381389372
3.11,-0.1751155822,-0.08690840078
3.12,-0.1784604089,-0.0798587835
3.13,-0.1815146661,-0.07267716173
3.14,-0.1842729982,-0.06537590349
3.15,-0.1867305975,-0.05796759999
3.16,-0.188883214,-0.05046504022
3.17,-0.1907271635,-0.04288118513
3.18,-0.1922593345,-0.03522914144
3.19,-0.1934771942,-0.02752213519
3.2,-0.1943787928,-0.01977348507
3.21,-0.1949627668,-0.01199657555
3.22,-0.1952283407,-0.004204829971
3.23,-0.1951753279,0.003588316381
3.24,-0.1948041297,0.01136944323
3.25,-0.1941157336,0.01912517212
3.26,-0.1931117099,0.02684219302
3.27,-0.1917942072,0.03450729079
3.28,-0.1901659468,0.04210737127
3.29,-0.1882302154,0.04962948707
3.3,-0.1859908573,0.05706086293
3.31,-0.1834522648,0.06438892059
3.32,-0.1806193677,0.07160130317
3.33,-0.1774976215,0.07868589894
3.34,-0.1740929952,0.08563086447
3.35,-0.170411957,0.09242464704
3.36,-0.1664614595,0.09905600641
3.37,-0.1622489242,0.1055140357
3.38,-0.1577822248,0.1117881815
3.39,-0.1530696693,0.1178682632
3.4,-0.1481199818,0.123744491
3.41,-0.1429422832,0.1294074836
3.42,-0.1375460713,0.1348482845
3.43,-0.1319412001,0.1400583772
3.44,-0.1261378586,0.1450296995
3.45,-0.1201465488,0.1497546571
3.46,-0.1139780635,0.1542261354
3.47,-0.1076434632,0.1584375106
3.48,-0.1011540533,0.1623826595
3.49,-0.09452135996,0.1660559687
3.5,-0.0877571067,0.1694523415
3.51,-0.08087318996,0.1725672049
3.52,-0.07388165494,0.1753965146
3.53,-0.06679467118,0.1779367591
3.54,-0.0596245081,0.1801849629
3.55,-0.05238351058,0.1821386876
3.56,-0.04508407452,0.1837960333
3.57,-0.03773862258,0.1851556374
3.58,-0.03035958009,0.1862166732
3.59,-0.02295935118,0.1869788472
3.6,-0.01555029518,0.187442395
3.61,-0.008144703358,0.1876080762
3.62,-0.0007547760547,0.1874771689
3.63,0.006607399752,0.1870514618
3.64,0.01392987241,0.1863332471
3.65,0.021200847,0.1853253106
3.66,0.02840870623,0.1840309222
3.67,0.03554203066,0.1824538251
3.68,0.04258961828,0.1805982238
3.69,0.04954050343,0.1784687715
3.7,0.05638397498,0.1760705572
3.71,0.06310959373,0.173409091
3.72,0.06970720906,0.17049029
3.73,0.07616697475,0.1673204623
3.74,0.08247936392,0.1639062913
3.75,0.08863518319,0.1602548188
3.76,0.09462558586,0.1563734282
3.77,0.1004420843,0.1522698268
3.78,0.1060765612,0.1479520277
3.79,0.1115212804,0.1434283316
3.8,0.116768896,0.1387073079
3.81,0.1218124612,0.1337977758
3.82,0.1266454359,0.1287087855
3.83,0.1312616936,0.1234495981
3.84,0.1356555267,0.1180296668
3.85,0.1398216518,0.1124586169
3.86,0.1437552131,0.1067462265
3.87,0.1474517859,0.1009024069
3.88,0.150907378,0.0949371827
3.89,0.1541184311,0.08886067294
3.9,0.1570818211,0.0826830715
3.91,0.1597948572,0.07641462814
3.92,0.1622552808,0.07006562967
3.93,0.1644612624,0.06364638138
3.94,0.1664113992,0.05716718881
3.95,0.1681047106,0.05063833981
3.96,0.1695406338,0.04407008706
3.97,0.1707190182,0.03747263094
3.98,0.1716401192,0.03085610287
3.99,0.1723045915,0.02423054913
4,0.1727134815,0.01760591514
4.01,0.1728682192,0.01099203034
4.02,0.1727706098,0.004398593543
4.03,0.172422824,-0.002164841108
4.04,0.1718273887,-0.008688877588
4.05,0.1709871769,-0.01516429086
4.06,0.1699053965,-0.02158203908
4.07,0.16858558,-0.02793327524
4.08,0.1670315725,-0.03420935811
4.09,0.1652475206,-0.04040186254
4.1,0.16323786,-0.04650258911
4.11,0.1610073032,-0.05250357316
4.12,0.1585608276,-0.05839709308
4.13,0.1559036621,-0.06417567799
4.14,0.153041275,-0.06983211477
4.15,0.1499793608,-0.07535945438
4.16,0.1467238273,-0.08075101757
4.17,0.1432807826,-0.08600039994
4.18,0.1396565222,-0.09110147636
4.19,0.1358575159,-0.09604840475
4.2,0.1318903947,-0.1008356293
4.21,0.1277619386,-0.105457883
4.22,0.123479063,-0.1099101897
4.23,0.1190488069,-0.1141878656
4.24,0.1144783198,-0.1182865198
4.25,0.1097748502,-0.1222020553
4.26,0.1049457326,-0.1259306682
4.27,0.09999837668,-0.1294688474
4.28,0.09494025504,-0.1328133734
4.29,0.08977889223,-0.1359613169
4.3,0.08452185367,-0.1389100365
4.31,0.07917673493,-0.1416571766
4.32,0.07375115134,-0.1442006647
4.33,0.0682527279,-0.146538708
4.34,0.06268908955,-0.1486697901
4.35,0.05706785177,-0.1505926676
4.36,0.05139661148,-0.1523063656
4.37,0.04568293839,-0.1538101737
4.38,0.03993436659,-0.1551036414
4.39,0.0341583866,-0.1561865737
4.4,0.02836243769,-0.1570590258
4.41,0.02255390065,-0.1577212984
4.42,0.0167400908,-0.1581739325
4.43,0.01092825146,-0.1584177038
4.44,0.005125547695,-0.1584536178
4.45,-0.0006609395863,-0.1582829042
4.46,-0.006424219177,-0.1579070113
4.47,-0.01215739482,-0.1573276004
4.48,-0.01785367015,-0.1565465406
4.49,-0.02350635331,-0.1555659032
4.5,-0.02910886125,-0.1543879557
4.51,-0.03465472387,-0.1530151572
4.52,-0.04013758772,-0.1514501519
4.53,-0.04555121958,-0.1496957648
4.54,-0.05088950978,-0.1477549957
4.55,-0.05614647523,-0.1456310142
4.56,-0.06131626231,-0.1433271545
4.57,-0.06639314957,-0.1408469105
4.58,-0.07137155018,-0.1381939307
4.59,-0.07624601431,-0.1353720136
4.6,-0.08101123127,-0.1323851028
4.61,-0.08566203162,-0.1292372823
4.62,-0.09019338908,-0.1259327725
4.63,-0.09460042238,-0.1224759252
4.64,-0.09887839702,-0.1188712197
4.65,-0.1030227269,-0.1151232589
4.66,-0.1070289762,-0.1112367647
4.67,-0.1108928604,-0.1072165744
4.68,-0.1146102486,-0.1030676368
4.69,-0.1181771643,-0.09879500866
4.7,-0.1215897876,-0.09440385069
4.71,-0.1248444562,-0.08989942421
4.72,-0.1279376672,-0.08528708759
4.73,-0.1308660788,-0.08057229275
4.74,-0.1336265114,-0.07576058181
4.75,-0.13621595,-0.07085758369
4.76,-0.138631545,-0.06586901076
4.77,-0.1408706149,-0.06080065549
4.78,-0.142930647,-0.05565838715
4.79,-0.1448093004,-0.05044814842
4.8,-0.1465044067,-0.04517595203
4.81,-0.1480139731,-0.03984787735
4.82,-0.1493361835,-0.03447006692
4.83,-0.1504694011,-0.02904872287
4.84,-0.1514121704,-0.02359010338
4.85,-0.1521632193,-0.01810051893
4.86,-0.1527214611,-0.01258632847
4.87,-0.1530859974,-0.007053935561
4.88,-0.1532561196,-0.001509784255
4.89,-0.1532313117,0.004039645063
4.9,-0.1530112526,0.009587840031
4.91,-0.1525958181,0.01512826081
4.92,-0.1519850834,0.02065434475
4.93,-0.1511793256,0.02615951128
4.94,-0.1501790254,0.03163716688
4.95,-0.1489848699,0.03708071037
4.96,-0.1475977543,0.04248353833
4.97,-0.1460187842,0.04783905071
4.98,-0.1442492776,0.05314065669
4.99,-0.1422907664,0.05838178075
5,-0.1401449987,0.0635558689
5.01,-0.1378139398,0.06865639518
5.02,-0.1352997741,0.07367686838
5.03,-0.1326049061,0.07861083886
5.04,-0.1297319616,0.08345190578
5.05,-0.1266837884,0.08819372429
5.06,-0.123463457,0.09283001315
5.07,-0.1200742611,0.09735456235
5.08,-0.1165197173,0.101761241
5.09,-0.1128035655,0.1060440056
5.1,-0.1089297679,0.1101969078
5.11,-0.1049025086,0.1142141033
5.12,-0.1007261921,0.11808986
5.13,-0.09640544233,0.1218185667
5.14,-0.09194510027,0.1253947422
5.15,-0.08735022217,0.1288130434
5.16,-0.08262607675,0.1320682751
5.17,-0.0777781423,0.1351553981
5.18,-0.07281210328,0.1380695391
5.19,-0.06773384646,0.1408059988
5.2,-0.06254945673,0.1433602617
5.21,-0.0572652124,0.1457280046
5.22,-0.05188758007,0.1479051058
5.23,-0.0464232091,0.1498876538
5.24,-0.04087892553,0.1516719564
5.25,-0.03526172569,0.1532545488
5.26,-0.02957876918,0.1546322025
5.27,-0.02383737156,0.1558019338
5.28,-0.01804499649,0.1567610113
5.29,-0.01220924741,0.1575069647
5.3,-0.006337858867,0.1580375914
5.31,-0.0004386872993,0.1583509651
5.32,0.005480298546,0.1584454417
5.33,0.01141102764,0.158319667
5.34,0.01734533712,0.1579725827
5.35,0.02327498311,0.1574034324
5.36,0.02919165195,0.1566117675
5.37,0.03508697177,0.155597452
5.38,0.04095252446,0.1543606678
5.39,0.04677985796,0.1529019185
5.4,0.0525604988,0.1512220337
5.41,0.05828596503,0.1493221718
5.42,0.06394777941,0.147203823
5.43,0.06953748275,0.1448688117
5.44,0.0750466476,0.1423192978
5.45,0.0804668921,0.1395577779
5.46,0.08578989392,0.1365870857
5.47,0.09100740448,0.1334103921
5.48,0.09611126317,0.1300312039
5.49,0.1010934117,0.1264533629
5.5,0.1059459086,0.1226810435
5.51,0.1106609435,0.1187187499
5.52,0.1152308517,0.1145713132
5.53,0.1196481283,0.1102438866
5.54,0.1239054428,0.1057419412
5.55,0.1279956532,0.1010712604
5.56,0.1319118199,0.09623793388
5.57,0.13564722,0.09124835065
5.58,0.1391953602,0.08610919186
5.59,0.1425499911,0.08082742256
5.6,0.1457051197,0.07541028302
5.61,0.1486550228,0.06986527933
5.62,0.1513942588,0.06420017337
5.63,0.1539176806,0.05842297218
5.64,0.1562204465,0.05254191669
5.65,0.1582980324,0.04656546991
5.66,0.1601462416,0.04050230449
5.67,0.1617612161,0.03436128977
5.68,0.1631394453,0.02815147829
5.69,0.1642777763,0.02188209179
5.7,0.1651734217,0.0155625067
5.71,0.165823968,0.009202239227
5.72,0.1662273828,0.002810929951
5.73,0.1663820217,-0.003601671921
5.74,0.1662866341,-0.01002572472
5.75,0.1659403689,-0.0164513108
5.76,0.1653427784,-0.02286845331
5.77,0.1644938231,-0.0292671333
5.78,0.1633938738,-0.03563730698
5.79,0.1620437149,-0.04196892328
5.8,0.1604445451,-0.04825194148
5.81,0.1585979788,-0.05447634904
5.82,0.1565060456,-0.0606321795
5.83,0.1541711897,-0.06670953042
5.84,0.1515962683,-0.07269858137
5.85,0.1487845486,-0.07858961184
5.86,0.1457397052,-0.08437301918
5.87,0.1424658153,-0.09003933631
5.88,0.1389673543,-0.09557924942
5.89,0.1352491898,-0.1009836154
5.9,0.1313165748,-0.1062434791
5.91,0.127175141,-0.1113500902
5.92,0.1228308899,-0.11629492
5.93,0.1182901844,-0.121069678
5.94,0.1135597391,-0.1256663273
5.95,0.1086466094,-0.1300771007
5.96,0.1035581812,-0.1342945154
5.97,0.09830215845,-0.1383113882
5.98,0.09288655066,-0.1421208489
5.99,0.08731966006,-0.1457163546
6,0.08161006761,-0.1490917021
