"Freq [GHz]","re(S(Tx_p1,Tx_p1)) []","im(S(Tx_p1,Tx_p1)) []"
1,-0.01019217495,-0.08578340435
1.01,-0.01314147863,-0.08518592499
1.02,-0.01607320232,-0.08448125907
1.03,-0.01898256038,-0.08366966885
1.04,-0.02186479217,-0.08275167098
1.05,-0.02471517471,-0.08172803221
1.06,-0.02752903505,-0.08059976453
1.07,-0.03030176225,-0.0793681199
1.08,-0.03302881897,-0.07803458445
1.09,-0.03570575267,-0.07660087234
1.1,-0.03832820638,-0.07506891904
1.11,-0.04089192902,-0.07344087434
1.12,-0.04339278535,-0.07171909487
1.13,-0.04582676535,-0.06990613632
1.14,-0.04818999323,-0.06800474528
1.15,-0.05047873587,-0.06601785072
1.16,-0.05268941078,-0.06394855527
1.17,-0.05481859365,-0.06180012608
1.18,-0.05686302523,-0.05957598555
1.19,-0.0588196178,-0.05727970176
1.2,-0.0606854611,-0.05491497874
1.21,-0.06245782764,-0.05248564647
1.22,-0.06413417761,-0.04999565089
1.23,-0.06571216312,-0.04744904359
1.24,-0.067189632,-0.04484997156
1.25,-0.06856463097,-0.04220266676
1.26,-0.06983540835,-0.03951143571
1.27,-0.07100041619,-0.03678064898
1.28,-0.07205831184,-0.03401473078
1.29,-0.07300795906,-0.0312181485
1.3,-0.07384842857,-0.02839540231
1.31,-0.07457899805,-0.02555101491
1.32,-0.07519915169,-0.02268952127
1.33,-0.07570857922,-0.01981545857
1.34,-0.07610717445,-0.0169333563
1.35,-0.07639503333,-0.01404772648
1.36,-0.07657245156,-0.01116305409
1.37,-0.07663992174,-0.008283787715
1.38,-0.07659813011,-0.005414330447
1.39,-0.07644795285,-0.002559031005
1.4,-0.07619045197,0.0002778248592
1.41,-0.07582687085,0.00309202267
1.42,-0.07535862937,0.005879427228
1.43,-0.07478731877,0.008635990295
1.44,-0.07411469607,0.01135775795
1.45,-0.07334267828,0.01404087757
1.46,-0.0724733363,0.01668160452
1.47,-0.07150888851,0.01927630837
1.48,-0.07045169414,0.02182147884
1.49,-0.06930424648,0.0243137313
1.5,-0.06806916577,0.02674981183
1.51,-0.06674919204,0.02912660203
1.52,-0.06534717766,0.03144112322
1.53,-0.06386607986,0.03369054043
1.54,-0.06230895313,0.0358721658
1.55,-0.06067894144,0.03798346173
1.56,-0.05897927051,0.04002204348
1.57,-0.05721323994,0.04198568142
1.58,-0.05538421539,0.04387230289
1.59,-0.0534956207,0.0456799936
1.6,-0.05155093005,0.04740699868
1.61,-0.04955366018,0.04905172324
1.62,-0.04750736264,0.05061273269
1.63,-0.04541561613,0.05208875252
1.64,-0.0432820189,0.05347866779
1.65,-0.04111018137,0.05478152226
1.66,-0.03890371878,0.05599651709
1.67,-0.036666244,0.0571230093
1.68,-0.03440136059,0.05816050978
1.69,-0.03211265593,0.05910868109
1.7,-0.02980369466,0.05996733488
1.71,-0.02747801222,0.06073642902
1.72,-0.02513910871,0.0614160645
1.73,-0.02279044292,0.062006482
1.74,-0.02043542664,0.06250805829
1.75,-0.01807741923,0.06292130228
1.76,-0.01571972242,0.06324685102
1.77,-0.01336557543,0.06348546531
1.78,-0.01101815033,0.0636380253
1.79,-0.008680547748,0.06370552581
1.8,-0.006355792784,0.06368907154
1.81,-0.004046831299,0.06358987217
1.82,-0.001756526467,0.06340923731
1.83,0.0005123443643,0.06314857139
1.84,0.002757092509,0.06280936843
1.85,0.004975120471,0.0623932068
1.86,0.007163924176,0.0619017439
1.87,0.009321094891,0.06133671083
1.88,0.01144432086,0.06069990702
1.89,0.01353138862,0.05999319494
1.9,0.01558018408,0.05921849474
1.91,0.01758869322,0.05837777902
1.92,0.01955500262,0.05747306756
1.93,0.02147729963,0.05650642219
1.94,0.02335387232,0.05547994173
1.95,0.02518310918,0.054395757
1.96,0.02696349851,0.05325602595
1.97,0.02869362768,0.05206292892
1.98,0.03037218201,0.05081866404
1.99,0.03199794363,0.04952544275
2,0.03356978994,0.0481854855
2.01,0.03508669199,0.04680101755
2.02,0.03654771267,0.04537426506
2.03,0.03795200469,0.04390745125
2.04,0.03929880844,0.04240279278
2.05,0.04058744967,0.04086249637
2.06,0.0418173371,0.03928875553
2.07,0.04298795984,0.03768374757
2.08,0.04409888478,0.03604963078
2.09,0.04514975383,0.03438854183
2.1,0.04614028112,0.03270259337
2.11,0.04707025014,0.03099387184
2.12,0.04793951084,0.02926443555
2.13,0.04874797663,0.02751631285
2.14,0.04949562145,0.02575150066
2.15,0.0501824768,0.02397196308
2.16,0.05080862874,0.0221796303
2.17,0.05137421496,0.02037639763
2.18,0.05187942186,0.01856412481
2.19,0.05232448167,0.01674463545
2.2,0.0527096696,0.01491971669
2.21,0.05303530114,0.01309111904
2.22,0.05330172933,0.01126055637
2.23,0.05350934218,0.009429706058
2.24,0.05365856018,0.00760020939
2.25,0.0537498339,0.005773671971
2.26,0.0537836417,0.003951664375
2.27,0.05376048757,0.00213572289
2.28,0.05368089913,0.0003273503842
2.29,0.05354542568,-0.001471982707
2.3,0.05335463648,-0.003260837305
2.31,0.05310911909,-0.005037804517
2.32,0.05280947798,-0.006801504388
2.33,0.05245633313,-0.008550584589
2.34,0.05205031893,-0.01028371905
2.35,0.05159208314,-0.01199960653
2.36,0.05108228609,-0.01369696921
2.37,0.05052159995,-0.01537455121
2.38,0.04991070822,-0.01703111709
2.39,0.04925030538,-0.01866545042
2.4,0.04854109664,-0.02027635232
2.41,0.04778379792,-0.02186264001
2.42,0.04697913589,-0.02342314542
2.43,0.04612784828,-0.02495671387
2.44,0.04523068418,-0.02646220275
2.45,0.04428840461,-0.02793848033
2.46,0.04330178314,-0.02938442457
2.47,0.04227160668,-0.03079892214
2.48,0.04119867636,-0.03218086737
2.49,0.04008380853,-0.03352916147
2.5,0.03892783587,-0.03484271173
2.51,0.03773160857,-0.03612043095
2.52,0.03649599563,-0.03736123689
2.53,0.03522188622,-0.03856405193
2.54,0.03391019109,-0.03972780285
2.55,0.03256184403,-0.04085142074
2.56,0.03117780347,-0.04193384103
2.57,0.02975905393,-0.04297400378
2.58,0.0283066077,-0.04397085396
2.59,0.02682150638,-0.04492334206
2.6,0.02530482252,-0.04583042471
2.61,0.02375766116,-0.04669106554
2.62,0.02218116142,-0.04750423621
2.63,0.02057649805,-0.04826891754
2.64,0.01894488291,-0.04898410083
2.65,0.01728756639,-0.04964878935
2.66,0.01560583881,-0.05026199996
2.67,0.01390103168,-0.05082276487
2.68,0.01217451893,-0.05133013358
2.69,0.01042771799,-0.05178317493
2.7,0.00866209083,-0.05218097929
2.71,0.006879144787,-0.0525226609
2.72,0.005080433344,-0.05280736033
2.73,0.003267556733,-0.05303424698
2.74,0.001442162401,-0.05320252182
2.75,-0.000394054686,-0.05331142009
2.76,-0.00223935189,-0.05336021423
2.77,-0.004091938931,-0.05334821674
2.78,-0.005949978085,-0.05327478323
2.79,-0.00781158457,-0.05313931547
2.8,-0.009674827122,-0.05294126448
2.81,-0.01153772876,-0.05268013372
2.82,-0.01339826774,-0.05235548224
2.83,-0.01525437875,-0.05196692785
2.84,-0.01710395426,-0.05151415034
2.85,-0.01894484611,-0.05099689463
2.86,-0.02077486728,-0.05041497395
2.87,-0.02259179391,-0.04976827289
2.88,-0.02439336749,-0.04905675057
2.89,-0.02617729729,-0.04828044354
2.9,-0.02794126294,-0.04743946878
2.91,-0.02968291731,-0.04653402649
2.92,-0.03139988949,-0.04556440287
2.93,-0.03308978802,-0.0445309727
2.94,-0.03475020434,-0.04343420189
2.95,-0.03637871635,-0.04227464979
2.96,-0.03797289222,-0.04105297144
2.97,-0.03953029434,-0.03976991958
2.98,-0.04104848344,-0.03842634654
2.99,-0.0425250229,-0.03702320594
3,-0.04395748317,-0.03556155417
3.01,-0.04534344633,-0.03404255165
3.02,-0.04668051084,-0.03246746396
3.03,-0.04796629632,-0.03083766262
3.04,-0.04919844853,-0.02915462574
3.05,-0.05037464437,-0.02741993839
3.06,-0.05149259701,-0.0256352927
3.07,-0.05255006109,-0.02380248775
3.08,-0.05354483794,-0.02192342914
3.09,-0.0544747809,-0.02000012836
3.1,-0.05533780064,-0.01803470183
3.11,-0.05613187047,-0.01602936968
3.12,-0.05685503173,-0.0139864543
3.13,-0.05750539906,-0.01190837851
3.14,-0.05808116577,-0.009797663524
3.15,-0.05858060903,-0.007656926633
3.16,-0.05900209509,-0.005488878538
3.17,-0.05934408445,-0.003296320463
3.18,-0.05960513681,-0.001082140957
3.19,-0.05978391606,0.001150687573
3.2,-0.05987919507,0.003399112615
3.21,-0.05988986036,0.00566000556
3.22,-0.05981491662,0.007930165996
3.23,-0.05965349109,0.01020632624
3.24,-0.05940483767,0.01248515616
3.25,-0.05906834098,0.01476326818
3.26,-0.05864352009,0.01703722261
3.27,-0.05813003205,0.01930353311
3.28,-0.05752767526,0.02155867245
3.29,-0.05683639247,0.02379907845
3.3,-0.05605627362,0.02602116008
3.31,-0.05518755838,0.02822130384
3.32,-0.05423063836,0.03039588017
3.33,-0.0531860591,0.03254125019
3.34,-0.0520545217,0.03465377241
3.35,-0.05083688416,0.03672980974
3.36,-0.04953416237,0.03876573645
3.37,-0.04814753087,0.04075794537
3.38,-0.04667832309,0.04270285509
3.39,-0.04512803145,0.04459691724
3.4,-0.04349830697,0.04643662387
3.41,-0.04179095859,0.04821851479
3.42,-0.04000795213,0.04993918498
3.43,-0.03815140886,0.05159529196
3.44,-0.03622360374,0.05318356319
3.45,-0.03422696332,0.05470080338
3.46,-0.0321640632,0.05614390177
3.47,-0.03003762523,0.05750983936
3.48,-0.02785051428,0.05879569596
3.49,-0.02560573465,0.05999865726
3.5,-0.02330642623,0.06111602164
3.51,-0.02095586016,0.06214520695
3.52,-0.01855743428,0.06308375703
3.53,-0.01611466818,0.0639293481
3.54,-0.01363119791,0.06467979496
3.55,-0.01111077046,0.06533305692
3.56,-0.008557237801,0.06588724355
3.57,-0.005974550755,0.06634062017
3.58,-0.003366752474,0.06669161307
3.59,-0.000737971708,0.06693881442
3.6,0.001907584218,0.06708098693
3.61,0.004565636673,0.06711706822
3.62,0.007231843221,0.06704617477
3.63,0.009901805351,0.06686760565
3.64,0.0125710764,0.06658084586
3.65,0.0152351697,0.06618556925
3.66,0.01788956682,0.0656816412
3.67,0.02052972608,0.0650691208
3.68,0.02315109109,0.06434826272
3.69,0.02574909948,0.06351951866
3.7,0.0283191917,0.06258353837
3.71,0.03085681993,0.06154117035
3.72,0.033357457,0.06039346202
3.73,0.03581660541,0.05914165956
3.74,0.03822980633,0.05778720731
3.75,0.04059264865,0.05633174671
3.76,0.04290077793,0.05477711488
3.77,0.04514990542,0.05312534271
3.78,0.04733581693,0.05137865261
3.79,0.04945438166,0.04953945569
3.8,0.05150156091,0.04761034874
3.81,0.05347341673,0.04559411058
3.82,0.05536612032,0.04349369812
3.83,0.05717596038,0.04131224203
3.84,0.05889935122,0.0390530419
3.85,0.06053284066,0.03671956114
3.86,0.06207311775,0.03431542142
3.87,0.06351702025,0.03184439675
3.88,0.06486154179,0.02931040722
3.89,0.06610383885,0.02671751241
3.9,0.06724123741,0.02406990436
3.91,0.06827123923,0.02137190038
3.92,0.06919152793,0.01862793538
3.93,0.0699999746,0.01584255405
3.94,0.07069464319,0.01302040268
3.95,0.07127379539,0.01016622072
3.96,0.07173589528,0.007284832127
3.97,0.07207961343,0.004381136479
3.98,0.07230383076,0.001460099858
3.99,0.07240764183,-0.001473254442
4,0.07239035783,-0.00441385537
4.01,0.07225150907,-0.007356593742
4.02,0.07199084704,-0.01029633198
4.03,0.07160834605,-0.01322791395
4.04,0.07110420437,-0.01614617496
4.05,0.07047884497,-0.01904595167
4.06,0.06973291576,-0.02192209227
4.07,0.06886728938,-0.02476946643
4.08,0.06788306252,-0.02758297548
4.09,0.06678155477,-0.03035756242
4.1,0.06556430705,-0.03308822195
4.11,0.0642330795,-0.0357700104
4.12,0.062789849,-0.03839805564
4.13,0.06123680612,-0.04096756679
4.14,0.05957635176,-0.04347384388
4.15,0.05781109322,-0.04591228732
4.16,0.05594383991,-0.04827840719
4.17,0.05397759858,-0.05056783239
4.18,0.05191556818,-0.0527763195
4.19,0.04976113426,-0.05489976144
4.2,0.047517863,-0.05693419595
4.21,0.04518949482,-0.05887581365
4.22,0.0427799377,-0.06072096596
4.23,0.04029325998,-0.06246617261
4.24,0.037733683,-0.06410812888
4.25,0.03510557325,-0.06564371245
4.26,0.0324134343,-0.06706998998
4.27,0.0296618984,-0.06838422323
4.28,0.02685571779,-0.06958387482
4.29,0.02399975575,-0.07066661365
4.3,0.02109897742,-0.0716303198
4.31,0.01815844038,-0.07247308914
4.32,0.01518328503,-0.07319323739
4.33,0.01217872477,-0.07378930379
4.34,0.00915003606,-0.07426005435
4.35,0.006102548276,-0.07460448462
4.36,0.003041633481,-0.07482182193
4.37,-2.730390645E-05,-0.07491152727
4.38,-0.003098837532,-0.07487329666
4.39,-0.006167529573,-0.07470706197
4.4,-0.009227941245,-0.07441299139
4.41,-0.01227464332,-0.07399148933
4.42,-0.01530222661,-0.07344319583
4.43,-0.01830531248,-0.0727689856
4.44,-0.02127856323,-0.07196996643
4.45,-0.02421669242,-0.07104747727
4.46,-0.02711447516,-0.07000308573
4.47,-0.02996675815,-0.0688385852
4.48,-0.03276846972,-0.06755599147
4.49,-0.03551462961,-0.06615753887
4.5,-0.03820035857,-0.06464567606
4.51,-0.04082088783,-0.06302306128
4.52,-0.04337156822,-0.06129255729
4.53,-0.04584787918,-0.05945722577
4.54,-0.04824543741,-0.05752032143
4.55,-0.0505600053,-0.0554852857
4.56,-0.05278749897,-0.05335573999
4.57,-0.05492399615,-0.05113547872
4.58,-0.05696574354,-0.04882846185
4.59,-0.05890916399,-0.04643880723
4.6,-0.06075086321,-0.04397078252
4.61,-0.06248763615,-0.04142879691
4.62,-0.06411647299,-0.0388173925
4.63,-0.06563456471,-0.03614123547
4.64,-0.06703930826,-0.03340510698
4.65,-0.06832831132,-0.03061389388
4.66,-0.06949939664,-0.02777257917
4.67,-0.07055060585,-0.02488623239
4.68,-0.071480203,-0.02195999974
4.69,-0.07228667745,-0.0189990941
4.7,-0.07296874644,-0.01600878498
4.71,-0.07352535717,-0.01299438835
4.72,-0.07395568835,-0.009961256348
4.73,-0.07425915139,-0.006914767024
4.74,-0.07443539104,-0.003860314009
4.75,-0.07448428556,-0.0008032961781
4.76,-0.07440594653,0.002250892655
4.77,-0.07420071804,0.005296874016
4.78,-0.07386917552,0.008329294988
4.79,-0.07341212414,0.01134283835
4.8,-0.07283059661,0.01433223261
4.81,-0.07212585071,0.01729226191
4.82,-0.07129936626,0.02021777585
4.83,-0.07035284173,0.02310369901
4.84,-0.06928819033,0.02594504047
4.85,-0.06810753583,0.028736903
4.86,-0.06681320784,0.03147449209
4.87,-0.0654077368,0.03415312469
4.88,-0.06389384849,0.0367682378
4.89,-0.06227445829,0.03931539666
4.9,-0.06055266498,0.04179030278
4.91,-0.05873174429,0.04418880155
4.92,-0.05681514204,0.04650688965
4.93,-0.05480646705,0.04874072202
4.94,-0.0527094837,0.05088661858
4.95,-0.05052810427,0.05294107054
4.96,-0.04826638096,0.05490074638
4.97,-0.04592849772,0.0567624974
4.98,-0.04351876182,0.05852336296
4.99,-0.04104159527,0.06018057525
5,-0.03850152597,0.06173156373
5.01,-0.0359031788,0.06317395907
5.02,-0.03325126648,0.06450559678
5.03,-0.03055058034,0.06572452036
5.04,-0.02780598095,0.06682898398
5.05,-0.02502238875,0.06781745488
5.06,-0.02220477449,0.06868861514
5.07,-0.01935814973,0.06944136322
5.08,-0.01648755723,0.07007481491
5.09,-0.01359806141,0.07058830396
5.1,-0.01069473875,0.07098138218
5.11,-0.007782668269,0.07125381923
5.12,-0.004866922053,0.07140560187
5.13,-0.001952555819,0.07143693289
5.14,0.0009554003999,0.07134822955
5.15,0.003851951469,0.07114012165
5.16,0.006732146247,0.07081344921
5.17,0.009591086536,0.07036925972
5.18,0.01242393587,0.06980880502
5.19,0.01522592811,0.06913353784
5.2,0.01799237589,0.06834510791
5.21,0.02071867882,0.06744535773
5.22,0.02340033143,0.06643631806
5.23,0.02603293097,0.06532020301
5.24,0.02861218488,0.06409940481
5.25,0.03113391801,0.06277648829
5.26,0.03359407958,0.06135418512
5.27,0.03598874983,0.05983538766
5.28,0.03831414638,0.05822314263
5.29,0.04056663028,0.05652064451
5.3,0.04274271175,0.0547312287
5.31,0.04483905552,0.05285836447
5.32,0.04685248594,0.05090564768
5.33,0.04877999169,0.04887679335
5.34,0.0506187301,0.04677562805
5.35,0.05236603117,0.04460608215
5.36,0.05401940122,0.04237218188
5.37,0.05557652616,0.04007804136
5.38,0.05703527438,0.03772785445
5.39,0.05839369928,0.03532588655
5.4,0.05965004146,0.03287646635
5.41,0.06080273045,0.03038397749
5.42,0.06185038618,0.02785285024
5.43,0.06279181997,0.02528755312
5.44,0.06362603519,0.02269258451
5.45,0.06435222762,0.02007246438
5.46,0.06496978531,0.0174317259
5.47,0.06547828816,0.01477490724
5.48,0.06587750716,0.01210654336
5.49,0.06616740323,0.009431157906
5.5,0.06634812573,0.006753255201
5.51,0.0664200106,0.00407731235
5.52,0.06638357829,0.001407771474
5.53,0.06623953115,-0.001250967919
5.54,0.06598875075,-0.003894556402
5.55,0.06563229469,-0.006518701935
5.56,0.06517139323,-0.009119176985
5.57,0.06460744558,-0.01169182546
5.58,0.06394201595,-0.01423256943
5.59,0.06317682933,-0.01673741565
5.6,0.06231376696,-0.01920246182
5.61,0.06135486162,-0.02162390268
5.62,0.06030229268,-0.02399803576
5.63,0.05915838093,-0.02632126699
5.64,0.05792558318,-0.02859011597
5.65,0.05660648667,-0.03080122097
5.66,0.05520380339,-0.03295134375
5.67,0.05372036408,-0.03503737398
5.68,0.05215911221,-0.03705633343
5.69,0.05052309779,-0.03900537991
5.7,0.04881547099,-0.04088181084
5.71,0.04703947576,-0.04268306658
5.72,0.04519844327,-0.04440673342
5.73,0.04329578528,-0.04605054634
5.74,0.04133498751,-0.04761239137
5.75,0.03931960284,-0.0490903077
5.76,0.03725324461,-0.05048248952
5.77,0.03513957975,-0.0517872875
5.78,0.03298232199,-0.05300321002
5.79,0.03078522506,-0.05412892403
5.8,0.02855207588,-0.05516325569
5.81,0.02628668778,-0.05610519069
5.82,0.02399289375,-0.0569538743
5.83,0.0216745398,-0.05770861105
5.84,0.0193354783,-0.05836886426
5.85,0.01697956143,-0.0589342552
5.86,0.01461063474,-0.05940456201
5.87,0.01223253078,-0.05977971839
5.88,0.009849062841,-0.06005981195
5.89,0.007464018807,-0.06024508242
5.9,0.005081155155,-0.06033591953
5.91,0.002704191073,-0.06033286068
5.92,0.0003368027343,-0.06023658842
5.93,-0.002017382282,-0.06004792767
5.94,-0.004354790402,-0.05976784276
5.95,-0.006671907308,-0.05939743423
5.96,-0.008965282998,-0.05893793549
5.97,-0.01123153668,-0.05839070927
5.98,-0.01346736147,-0.05775724391
5.99,-0.01566952888,-0.05703914947
6,-0.01783489314,-0.05623815371
