"Freq [GHz]","re(S(Tx_p1,Tx_p1)) []","im(S(Tx_p1,Tx_p1)) []"
1,0.01163693887,-0.2212927192
1.01,0.004360835169,-0.2215397473
1.02,-0.002958645674,-0.2215410703
1.03,-0.01031127848,-0.2212927748
1.04,-0.01768665878,-0.2207914749
1.05,-0.0250742283,-0.2200343148
1.06,-0.03246330024,-0.219018969
1.07,-0.03984308429,-0.2177436431
1.08,-0.04720271143,-0.2162070731
1.09,-0.05453125849,-0.2144085234
1.1,-0.06181777235,-0.2123477849
1.11,-0.06905129385,-0.2100251711
1.12,-0.07622088137,-0.2074415145
1.13,-0.083315634,-0.2045981616
1.14,-0.09032471432,-0.2014969667
1.15,-0.09723737075,-0.1981402855
1.16,-0.1040429594,-0.1945309678
1.17,-0.1107309657,-0.1906723491
1.18,-0.1172910248,-0.1865682416
1.19,-0.1237129426,-0.1822229247
1.2,-0.1299867149,-0.1776411342
1.21,-0.1361025473,-0.1728280516
1.22,-0.1420508731,-0.1677892918
1.23,-0.1478223719,-0.1625308908
1.24,-0.1534079866,-0.1570592927
1.25,-0.1587989401,-0.1513813359
1.26,-0.1639867514,-0.1455042386
1.27,-0.1689632507,-0.1394355845
1.28,-0.1737205942,-0.1331833066
1.29,-0.1782512777,-0.1267556722
1.3,-0.1825481496,-0.1201612662
1.31,-0.1866044235,-0.1134089744
1.32,-0.1904136893,-0.1065079665
1.33,-0.1939699242,-0.09946767859
1.34,-0.1972675027,-0.09229779541
1.35,-0.2003012053,-0.08500823226
1.36,-0.2030662272,-0.07760911669
1.37,-0.2055581858,-0.07011076999
1.38,-0.2077731268,-0.06252368839
1.39,-0.209707531,-0.05485852428
1.4,-0.2113583185,-0.04712606711
1.41,-0.2127228533,-0.03933722437
1.42,-0.2137989465,-0.03150300245
1.43,-0.2145848591,-0.02363448743
1.44,-0.2150793036,-0.01574282598
1.45,-0.2152814452,-0.007839206247
1.46,-0.2151909014,6.516116065E-05
1.47,-0.2148077421,0.007959062105
1.48,-0.2141324877,0.01583129768
1.49,-0.2131661073,0.02367070281
1.5,-0.2119100154,0.03146616468
1.51,-0.2103660686,0.03920664088
1.52,-0.208536561,0.04688117734
1.53,-0.2064242192,0.05447892597
1.54,-0.2040321967,0.06198916199
1.55,-0.201364067,0.06940130091
1.56,-0.198423817,0.07670491518
1.57,-0.195215839,0.08388975039
1.58,-0.1917449224,0.09094574119
1.59,-0.1880162446,0.09786302663
1.6,-0.1840353618,0.1046319652
1.61,-0.1798081985,0.1112431491
1.62,-0.1753410375,0.1176874188
1.63,-0.1706405081,0.1239558758
1.64,-0.1657135748,0.1300398961
1.65,-0.1605675257,0.1359311428
1.66,-0.155209959,0.1416215773
1.67,-0.1496487713,0.1471034713
1.68,-0.1438921434,0.1523694175
1.69,-0.1379485271,0.1574123394
1.7,-0.1318266311,0.162225501
1.71,-0.1255354071,0.1668025161
1.72,-0.1190840347,0.1711373564
1.73,-0.112481907,0.1752243592
1.74,-0.1057386154,0.1790582345
1.75,-0.09886393449,0.182634072
1.76,-0.09186780667,0.1859473461
1.77,-0.08476032656,0.1889939219
1.78,-0.07755172531,0.1917700595
1.79,-0.07025235492,0.1942724178
1.8,-0.06287267237,0.1964980583
1.81,-0.05542322375,0.1984444474
1.82,-0.04791462834,0.2001094585
1.83,-0.04035756276,0.2014913737
1.84,-0.03276274505,0.2025888845
1.85,-0.02514091888,0.203401092
1.86,-0.01750283779,0.2039275066
1.87,-0.009859249522,0.2041680468
1.88,-0.002220880493,0.2041230382
1.89,0.005401579609,0.2037932104
1.9,0.01299749307,0.2031796952
1.91,0.02055628923,0.2022840229
1.92,0.02806747931,0.2011081183
1.93,0.0355206711,0.1996542966
1.94,0.04290558336,0.1979252584
1.95,0.05021205995,0.1959240841
1.96,0.05743008375,0.1936542284
1.97,0.06454979026,0.1911195132
1.98,0.07156148085,0.1883241215
1.99,0.07845563577,0.1852725892
2,0.08522292678,0.1819697981
2.01,0.09185422946,0.1784209671
2.02,0.09834063509,0.1746316436
2.03,0.1046734623,0.1706076949
2.04,0.110844268,0.1663552981
2.05,0.1168448587,0.1618809307
2.06,0.1226673001,0.1571913606
2.07,0.1283039277,0.152293635
2.08,0.1337473561,0.1471950704
2.09,0.1389904879,0.1419032406
2.1,0.1440265226,0.1364259662
2.11,0.1488489648,0.1307713023
2.12,0.1534516318,0.1249475268
2.13,0.1578286608,0.1189631283
2.14,0.1619745162,0.112826794
2.15,0.1658839953,0.1065473966
2.16,0.1695522345,0.1001339821
2.17,0.1729747148,0.09359575651
2.18,0.1761472666,0.08694207324
2.19,0.1790660738,0.08018241967
2.2,0.1817276784,0.073326404
2.21,0.1841289834,0.06638374188
2.22,0.1862672559,0.05936424301
2.23,0.1881401299,0.05227779764
2.24,0.1897456078,0.04513436309
2.25,0.1910820622,0.03794395017
2.26,0.192148237,0.03071660967
2.27,0.1929432477,0.02346241878
2.28,0.1934665818,0.01619146762
2.29,0.1937180979,0.008913845729
2.3,0.1936980254,0.001639628663
2.31,0.1934069628,-0.005621135358
2.32,0.1928458758,-0.0128584387
2.33,0.1920160956,-0.0200623275
2.34,0.1909193153,-0.02722291468
2.35,0.1895575877,-0.03433039287
2.36,0.1879333208,-0.04137504718
2.37,0.1860492746,-0.04834726781
2.38,0.1839085557,-0.05523756249
2.39,0.1815146134,-0.06203656873
2.4,0.1788712337,-0.06873506586
2.41,0.1759825335,-0.07532398688
2.42,0.1728529553,-0.08179443009
2.43,0.1694872599,-0.08813767044
2.44,0.1658905196,-0.09434517071
2.45,0.1620681115,-0.1004085923
2.46,0.1580257092,-0.106319806
2.47,0.1537692753,-0.112070902
2.48,0.149305053,-0.1176542002
2.49,0.1446395571,-0.1230622599
2.5,0.1397795655,-0.1282878891
2.51,0.1347321097,-0.1333241534
2.52,0.1295044651,-0.1381643853
2.53,0.1241041414,-0.1428021921
2.54,0.1185388723,-0.147231464
2.55,0.1128166049,-0.151446382
2.56,0.1069454893,-0.1554414252
2.57,0.1009338676,-0.1592113775
2.58,0.0947902627,-0.1627513345
2.59,0.088523367,-0.1660567092
2.6,0.08214203074,-0.1691232384
2.61,0.0756552503,-0.1719469875
2.62,0.06907215623,-0.1745243556
2.63,0.06240200119,-0.1768520802
2.64,0.05565414762,-0.1789272412
2.65,0.0488380554,-0.1807472646
2.66,0.0419632693,-0.1823099256
2.67,0.03503940636,-0.1836133515
2.68,0.02807614315,-0.1846560243
2.69,0.02108320301,-0.1854367822
2.7,0.01407034311,-0.1859548215
2.71,0.007047341582,-0.1862096973
2.72,2.398453076E-05,-0.1862013241
2.73,-0.006989946934,-0.1859299762
2.74,-0.01398468969,-0.185396287
2.75,-0.02095051157,-0.1846012486
2.76,-0.02787772435,-0.18354621
2.77,-0.03475669661,-0.182232876
2.78,-0.04157786664,-0.1806633047
2.79,-0.04833175519,-0.1788399048
2.8,-0.05500897822,-0.1767654328
2.81,-0.06160025945,-0.1744429894
2.82,-0.06809644287,-0.1718760153
2.83,-0.0744885051,-0.1690682871
2.84,-0.08076756754,-0.1660239121
2.85,-0.08692490849,-0.1627473235
2.86,-0.09295197492,-0.1592432741
2.87,-0.09884039421,-0.1555168305
2.88,-0.1045819855,-0.1515733665
2.89,-0.1101687711,-0.147418556
2.9,-0.1155929873,-0.1430583655
2.91,-0.1208470951,-0.1384990466
2.92,-0.1259237909,-0.1337471275
2.93,-0.1308160162,-0.1288094046
2.94,-0.1355169683,-0.1236929333
2.95,-0.1400201088,-0.1184050191
2.96,-0.1443191737,-0.1129532075
2.97,-0.1484081821,-0.107345274
2.98,-0.1522814443,-0.1015892141
2.99,-0.1559335706,-0.09569323211
3,-0.1593594786,-0.08966573054
3.01,-0.1625544011,-0.08351529859
3.02,-0.1655138925,-0.07725070065
3.03,-0.168233836,-0.07088086438
3.04,-0.1707104492,-0.06441486865
3.05,-0.1729402903,-0.05786193115
3.06,-0.1749202631,-0.05123139583
3.07,-0.1766476219,-0.04453272008
3.08,-0.1781199759,-0.03777546175
3.09,-0.179335293,-0.03096926597
3.1,-0.1802919033,-0.02412385186
3.11,-0.1809885018,-0.01724899897
3.12,-0.1814241512,-0.01035453377
3.13,-0.1815982835,-0.003450315842
3.14,-0.1815107014,0.003453775835
3.15,-0.1811615794,0.01034785682
3.16,-0.180551464,0.01722205114
3.17,-0.1796812737,0.02406650521
3.18,-0.1785522982,0.03087140185
3.19,-0.1771661973,0.03762697428
3.2,-0.1755249991,0.04432351999
3.21,-0.173631098,0.05095141474
3.22,-0.1714872514,0.05750112633
3.23,-0.1690965769,0.06396322841
3.24,-0.1664625485,0.07032841407
3.25,-0.1635889919,0.07658750942
3.26,-0.1604800797,0.08273148697
3.27,-0.1571403264,0.0887514788
3.28,-0.153574582,0.09463878964
3.29,-0.1497880261,0.1003849097
3.3,-0.1457861606,0.1059815271
3.31,-0.1415748026,0.1114205405
3.32,-0.1371600765,0.1166940712
3.33,-0.1325484054,0.1217944745
3.34,-0.1277465028,0.1267143516
3.35,-0.1227613629,0.1314465609
3.36,-0.1176002512,0.1359842283
3.37,-0.1122706943,0.1403207583
3.38,-0.1067804692,0.1444498436
3.39,-0.1011375926,0.1483654753
3.4,-0.0953503097,0.1520619517
3.41,-0.08942708205,0.1555338876
3.42,-0.08337657587,0.1587762224
3.43,-0.07720764956,0.1617842286
3.44,-0.07092934095,0.1645535185
3.45,-0.06455085431,0.1670800521
3.46,-0.05808154703,0.1693601431
3.47,-0.05153091606,0.1713904651
3.48,-0.04490858406,0.173168057
3.49,-0.03822428538,0.1746903282
3.5,-0.03148785174,0.1759550628
3.51,-0.02470919783,0.1769604236
3.52,-0.01789830667,0.1777049552
3.53,-0.01106521485,0.1781875874
3.54,-0.00421999764,0.1784076363
3.55,0.002627245971,0.1783648072
3.56,0.009466408363,0.1780591943
3.57,0.01628738838,0.1774912822
3.58,0.02308010649,0.1766619451
3.59,0.02983451992,0.1755724464
3.6,0.03654063777,0.174224437
3.61,0.04318853617,0.1726199535
3.62,0.04976837322,0.1707614159
3.63,0.05627040399,0.168651624
3.64,0.06268499534,0.1662937541
3.65,0.06900264056,0.1636913544
3.66,0.07521397394,0.1608483401
3.67,0.08130978513,0.1577689882
3.68,0.0872810332,0.154457931
3.69,0.09311886063,0.15092015
3.7,0.0988146069,0.1471609684
3.71,0.1043598219,0.1431860433
3.72,0.109746279,0.1390013578
3.73,0.1149659877,0.134613212
3.74,0.1200112064,0.1300282139
3.75,0.1248744538,0.1252532694
3.76,0.1295485214,0.1202955721
3.77,0.134026484,0.1151625928
3.78,0.1383017109,0.1098620681
3.79,0.1423678764,0.1044019887
3.8,0.1462189696,0.09879058782
3.81,0.1498493038,0.0930363282
3.82,0.1532535255,0.08714788975
3.83,0.1564266229,0.08113415615
3.84,0.1593639341,0.07500420144
3.85,0.162061154,0.06876727613
3.86,0.1645143414,0.06243279315
3.87,0.1667199254,0.05601031339
3.88,0.1686747109,0.0495095311
3.89,0.170375884,0.04294025899
3.9,0.1718210162,0.03631241316
3.91,0.1730080685,0.02963599783
3.92,0.1739353947,0.02292108994
3.93,0.1746017443,0.01617782358
3.94,0.1750062642,0.009416374334
3.95,0.1751485002,0.002646943574
3.96,0.1750283983,-0.004120257363
3.97,0.1746463043,-0.01087502298
3.98,0.1740029637,-0.01760716944
3.99,0.1730995205,-0.02430655038
4,0.1719375153,-0.03096307266
4.01,0.1705188834,-0.03756671202
4.02,0.1688459514,-0.04410752871
4.03,0.1669214339,-0.05057568288
4.04,0.1647484289,-0.05696144992
4.05,0.1623304136,-0.06325523557
4.06,0.1596712381,-0.06944759087
4.07,0.1567751202,-0.07552922681
4.08,0.1536466381,-0.08149102881
4.09,0.1502907238,-0.08732407088
4.1,0.1467126549,-0.0930196295
4.11,0.1429180464,-0.09856919716
4.12,0.1389128417,-0.1039644956
4.13,0.1347033038,-0.1091974885
4.14,0.1302960045,-0.1142603943
4.15,0.1256978147,-0.1191456978
4.16,0.1209158935,-0.123846162
4.17,0.1159576763,-0.1283548393
4.18,0.1108308638,-0.1326650823
4.19,0.1055434092,-0.1367705536
4.2,0.1001035059,-0.1406652361
4.21,0.09451957463,-0.1443434417
4.22,0.08880024979,-0.1477998203
4.23,0.08295436609,-0.1510293677
4.24,0.07699094445,-0.1540274336
4.25,0.07091917775,-0.1567897278
4.26,0.06474841629,-0.1593123277
4.27,0.05848815303,-0.1615916831
4.28,0.05214800859,-0.1636246219
4.29,0.04573771608,-0.1654083549
4.3,0.03926710569,-0.1669404794
4.31,0.03274608928,-0.1682189828
4.32,0.02618464471,-0.1692422453
4.33,0.01959280014,-0.170009042
4.34,0.01298061828,-0.1705185442
4.35,0.006358180589,-0.1707703206
4.36,-0.0002644285644,-0.1707643374
4.37,-0.006877137693,-0.1705009575
4.38,-0.01346990396,-0.1699809398
4.39,-0.02003272886,-0.1692054376
4.4,-0.02655567386,-0.1681759958
4.41,-0.03302887584,-0.1668945483
4.42,-0.0394425625,-0.1653634142
4.43,-0.04578706746,-0.1635852939
4.44,-0.05205284532,-0.1615632641
4.45,-0.05823048638,-0.1593007722
4.46,-0.06431073117,-0.1568016309
4.47,-0.07028448473,-0.154070011
4.48,-0.07614283057,-0.1511104348
4.49,-0.08187704435,-0.147927768
4.5,-0.08747860716,-0.1445272119
4.51,-0.09293921856,-0.1409142944
4.52,-0.09825080915,-0.1370948608
4.53,-0.1034055528,-0.1330750643
4.54,-0.1083958784,-0.1288613554
4.55,-0.1132144812,-0.1244604719
4.56,-0.1178543339,-0.1198794269
4.57,-0.122308697,-0.1151254981
4.58,-0.1265711285,-0.1102062157
4.59,-0.1306354938,-0.1051293498
4.6,-0.1344959745,-0.09990289805
4.61,-0.1381470766,-0.09453507279
4.62,-0.1415836387,-0.08903428748
4.63,-0.1448008394,-0.08340914329
4.64,-0.1477942035,-0.07766841529
4.65,-0.150559609,-0.07182103829
4.66,-0.1530932923,-0.06587609263
4.67,-0.1553918531,-0.05984278963
4.68,-0.1574522592,-0.05373045695
4.69,-0.1592718505,-0.04754852381
4.7,-0.1608483416,-0.04130650601
4.71,-0.1621798252,-0.03501399096
4.72,-0.1632647735,-0.02868062254
4.73,-0.1641020401,-0.02231608599
4.74,-0.1646908609,-0.01593009272
4.75,-0.1650308537,-0.009532365152
4.76,-0.1651220186,-0.003132621608
4.77,-0.1649647364,0.00325943881
4.78,-0.1645597673,0.009634151209
4.79,-0.1639082489,0.01598189982
4.8,-0.1630116928,0.02229313278
4.81,-0.1618719821,0.02855837676
4.82,-0.1604913666,0.03476825147
4.83,-0.158872459,0.04091348388
4.84,-0.1570182296,0.04698492233
4.85,-0.1549320004,0.0529735503
4.86,-0.1526174396,0.05887050002
4.87,-0.1500785542,0.06466706573
4.88,-0.1473196835,0.07035471667
4.89,-0.144345491,0.07592510973
4.9,-0.1411609564,0.0813701018
4.91,-0.137771367,0.08668176173
4.92,-0.1341823087,0.0918523819
4.93,-0.1303996561,0.09687448946
4.94,-0.1264295631,0.1017408571
4.95,-0.1222784523,0.1064445134
4.96,-0.1179530043,0.1109787529
4.97,-0.1134601467,0.1153371454
4.98,-0.1088070426,0.1195135449
4.99,-0.104001079,0.1235020986
5,-0.09904985457,0.1272972545
5.01,-0.09396116738,0.1308937689
5.02,-0.08874300241,0.134286714
5.03,-0.08340351865,0.1374714837
5.04,-0.07795103601,0.1404438002
5.05,-0.07239402211,0.1431997192
5.06,-0.06674107885,0.1457356347
5.07,-0.06100092879,0.1480482837
5.08,-0.0551824015,0.1501347497
5.09,-0.04929441965,0.1519924664
5.1,-0.04334598517,0.15361922
5.11,-0.03734616523,0.1550131516
5.12,-0.03130407824,0.1561727587
5.13,-0.02522887976,0.1570968965
5.14,-0.01912974853,0.1577847781
5.15,-0.01301587239,0.1582359747
5.16,-0.006896434329,0.1584504149
5.17,-0.0007805985692,0.1584283836
5.18,0.005322503243,0.1581705201
5.19,0.01140378576,0.1576778162
5.2,0.01745422351,0.1569516135
5.21,0.02346486433,0.1559935996
5.22,0.02942684264,0.154805805
5.23,0.03533139249,0.1533905981
5.24,0.04116986044,0.1517506812
5.25,0.04693371821,0.1498890846
5.26,0.05261457505,0.147809161
5.27,0.05820418987,0.1455145796
5.28,0.06369448308,0.1430093189
5.29,0.06907754817,0.14029766
5.3,0.07434566292,0.1373841791
5.31,0.07949130029,0.1342737392
5.32,0.08450713904,0.130971482
5.33,0.08938607387,0.1274828192
5.34,0.09412122529,0.1238134233
5.35,0.09870594908,0.1199692183
5.36,0.1031338453,0.1159563695
5.37,0.107398767,0.1117812743
5.38,0.1114948283,0.1074505506
5.39,0.1154164124,0.1029710271
5.4,0.1191581788,0.09834973187
5.41,0.1227150703,0.0935938814
5.42,0.1260823193,0.0887108689
5.43,0.1292554539,0.08370825286
5.44,0.1322303035,0.07859374515
5.45,0.1350030036,0.07337519904
5.46,0.1375700009,0.06806059703
5.47,0.1399280567,0.06265803854
5.48,0.1420742509,0.0571757275
5.49,0.1440059853,0.05162195987
5.5,0.1457209857,0.046005111
5.51,0.1472173046,0.04033362304
5.52,0.1484933223,0.03461599219
5.53,0.1495477486,0.02886075604
5.54,0.150379623,0.02307648085
5.55,0.1509883151,0.01727174881
5.56,0.1513735243,0.01145514546
5.57,0.151535279,0.005635247001
5.58,0.1514739353,-0.0001793921796
5.59,0.1511901751,-0.005980251984
5.6,0.1506850042,-0.01175885893
5.61,0.1499597494,-0.01750679838
5.62,0.1490160554,-0.02321572657
5.63,0.1478558813,-0.02887738259
5.64,0.1464814966,-0.03448360006
5.65,0.1448954765,-0.0400263187
5.66,0.1431006973,-0.04549759568
5.67,0.1411003311,-0.05088961673
5.68,0.1388978397,-0.05619470702
5.69,0.1364969693,-0.0614053418
5.7,0.1339017432,-0.06651415674
5.71,0.1311164553,-0.07151395806
5.72,0.1281456632,-0.0763977323
5.73,0.12499418,-0.08115865583
5.74,0.1216670671,-0.08579010399
5.75,0.1181696255,-0.09028566002
5.76,0.1145073874,-0.0946391235
5.77,0.1106861077,-0.09884451855
5.78,0.1067117545,-0.1028961016
5.79,0.1025905,-0.1067883691
5.8,0.09832871064,-0.1105160639
5.81,0.09393293775,-0.1140741829
5.82,0.08940990699,-0.1174579826
5.83,0.08476650838,-0.1206629853
5.84,0.08000978571,-0.1236849845
5.85,0.07514692602,-0.1265200502
5.86,0.07018524872,-0.1291645331
5.87,0.06513219475,-0.1316150696
5.88,0.05999531547,-0.133868585
5.89,0.05478226152,-0.1359222971
5.9,0.04950077158,-0.1377737192
5.91,0.04415866099,-0.1394206629
5.92,0.03876381043,-0.1408612397
5.93,0.03332415438,-0.1420938634
5.94,0.02784766976,-0.1431172505
5.95,0.02234236435,-0.1439304218
5.96,0.01681626536,-0.1445327026
5.97,0.01127740796,-0.1449237223
5.98,0.005733823827,-0.1451034145
5.99,0.0001935297895,-0.1450720157
6,-0.005335483506,-0.1448300643
