"Freq [GHz]","re(S(Tx_p1,Tx_p1)) []","im(S(Tx_p1,Tx_p1)) []"
1,-0.01129357279,-0.1782253836
1.01,-0.01712487067,-0.1774735305
1.02,-0.02294179313,-0.1765290079
1.03,-0.02873669893,-0.1753915142
1.04,-0.03450197948,-0.1740611164
1.05,-0.04023007451,-0.1725382406
1.06,-0.04591348683,-0.1708236613
1.07,-0.05154479619,-0.1689184915
1.08,-0.05711667238,-0.166824172
1.09,-0.06262188728,-0.1645424603
1.1,-0.06805332631,-0.1620754203
1.11,-0.07340399889,-0.1594254105
1.12,-0.07866704814,-0.1565950738
1.13,-0.08383575991,-0.1535873256
1.14,-0.0889035709,-0.1504053433
1.15,-0.09386407618,-0.1470525553
1.16,-0.09871103601,-0.1435326297
1.17,-0.1034383819,-0.1398494637
1.18,-0.1080402221,-0.1360071734
1.19,-0.1125108467,-0.1320100828
1.2,-0.1168447316,-0.1278627137
1.21,-0.1210365427,-0.1235697761
1.22,-0.1250811388,-0.1191361579
1.23,-0.1289735748,-0.1145669159
1.24,-0.1327091041,-0.1098672663
1.25,-0.1362831804,-0.1050425759
1.26,-0.1396914595,-0.1000983537
1.27,-0.1429298008,-0.09504024233
1.28,-0.1459942683,-0.08987401027
1.29,-0.1488811314,-0.08460554416
1.3,-0.1515868659,-0.07924084145
1.31,-0.1541081538,-0.0737860034
1.32,-0.1564418844,-0.06824722837
1.33,-0.1585851543,-0.06263080534
1.34,-0.1605352672,-0.05694310783
1.35,-0.1622897345,-0.05119058797
1.36,-0.1638462752,-0.04537977092
1.37,-0.1652028162,-0.03951724943
1.38,-0.166357492,-0.03360967871
1.39,-0.1673086454,-0.02766377141
1.4,-0.1680548274,-0.02168629285
1.41,-0.1685947978,-0.01568405631
1.42,-0.1689275253,-0.009663918544
1.43,-0.1690521886,-0.00363277529
1.44,-0.1689681765,0.00240244308
1.45,-0.1686750891,0.008434775893
1.46,-0.1681727388,0.01445723649
1.47,-0.1674611508,0.02046281655
1.48,-0.1665405649,0.02644449047
1.49,-0.1654114368,0.03239521978
1.5,-0.1640744393,0.03830795768
1.51,-0.1625304638,0.04417565369
1.52,-0.1607806226,0.04999125843
1.53,-0.1588262498,0.05574772862
1.54,-0.1566689039,0.06143803218
1.55,-0.1543103693,0.06705515367
1.56,-0.1517526585,0.07259209985
1.57,-0.1489980138,0.07804190557
1.58,-0.1460489095,0.08339763988
1.59,-0.1429080534,0.0886524125
1.6,-0.1395783895,0.0937993805
1.61,-0.1360630987,0.09883175534
1.62,-0.1323656014,0.1037428103
1.63,-0.1284895585,0.1085258879
1.64,-0.1244388726,0.1131744083
1.65,-0.1202176898,0.1176818773
1.66,-0.1158303997,0.1220418951
1.67,-0.1112816366,0.1262481655
1.68,-0.1065762796,0.1302945048
1.69,-0.1017194526,0.1341748515
1.7,-0.09671652352,0.1378832767
1.71,-0.09157310406,0.1414139934
1.72,-0.08629504787,0.1447613676
1.73,-0.08088844905,0.147919929
1.74,-0.07535963985,0.1508843812
1.75,-0.06971518786,0.1536496135
1.76,-0.06396189272,0.1562107118
1.77,-0.05810678212,0.1585629701
1.78,-0.05215710737,0.1607019017
1.79,-0.0461203382,0.1626232512
1.8,-0.04000415699,0.1643230056
1.81,-0.03381645235,0.165797406
1.82,-0.02756531197,0.1670429593
1.83,-0.02125901483,0.1680564491
1.84,-0.01490602274,0.1688349476
1.85,-0.008514971119,0.1693758263
1.86,-0.002094659116,0.1696767669
1.87,0.004345960968,0.1697357717
1.88,0.01079779498,0.1695511745
1.89,0.01725161888,0.1691216497
1.9,0.02369809141,0.1684462224
1.91,0.03012776742,0.1675242772
1.92,0.03653111185,0.1663555667
1.93,0.04289851434,0.1649402195
1.94,0.04922030447,0.1632787476
1.95,0.05548676756,0.1613720533
1.96,0.06168816104,0.159221435
1.97,0.06781473137,0.1568285926
1.98,0.07385673141,0.1541956324
1.99,0.07980443829,0.1513250704
2,0.08564817162,0.1482198355
2.01,0.0913783122,0.1448832714
2.02,0.09698532091,0.1413191381
2.03,0.102459758,0.1375316116
2.04,0.1077923025,0.1335252838
2.05,0.1129737719,0.1293051601
2.06,0.117995142,0.1248766572
2.07,0.1228475666,0.1202455992
2.08,0.1275223974,0.1154182126
2.09,0.1320112039,0.1104011209
2.1,0.136305793,0.1052013373
2.11,0.1403982285,0.09982625706
2.12,0.1442808505,0.0942836484
2.13,0.1479462945,0.08858164244
2.14,0.1513875097,0.08272872215
2.15,0.1545977777,0.07673371019
2.16,0.1575707302,0.07060575582
2.17,0.1603003658,0.06435432073
2.18,0.1627810674,0.0579891639
2.19,0.1650076176,0.05152032558
2.2,0.1669752145,0.04495811023
2.21,0.1686794857,0.03831306869
2.22,0.1701165027,0.03159597942
2.23,0.1712827931,0.02481782895
2.24,0.172175353,0.01798979156
2.25,0.1727916579,0.01112320827
2.26,0.1731296726,0.004229565087
2.27,0.17318786,-0.002679529312
2.28,0.1729651893,-0.009592366468
2.29,0.1724611421,-0.01649716156
2.3,0.1716757187,-0.02338207725
2.31,0.1706094419,-0.03023524793
2.32,0.16926336,-0.03704480426
2.33,0.1676390495,-0.04379889804
2.34,0.1657386147,-0.05048572713
2.35,0.1635646879,-0.05709356067
2.36,0.1611204268,-0.06361076417
2.37,0.158409512,-0.07002582474
2.38,0.1554361419,-0.0763273761
2.39,0.152205027,-0.08250422353
2.4,0.1487213832,-0.08854536851
2.41,0.1449909231,-0.09444003312
2.42,0.1410198464,-0.100177684
2.43,0.1368148291,-0.105748056
2.44,0.1323830115,-0.111141175
2.45,0.1277319847,-0.1163473808
2.46,0.1228697766,-0.1213573483
2.47,0.1178048358,-0.1261621092
2.48,0.1125460151,-0.1307530722
2.49,0.1071025541,-0.1351220422
2.5,0.1014840602,-0.1392612393
2.51,0.0957004886,-0.1431633161
2.52,0.08976212248,-0.1468213749
2.53,0.08367955093,-0.1502289827
2.54,0.0774636469,-0.1533801862
2.55,0.07112554428,-0.1562695251
2.56,0.06467661414,-0.158892044
2.57,0.05812844054,-0.161243304
2.58,0.05149279569,-0.1633193919
2.59,0.04478161466,-0.1651169291
2.6,0.03800696968,-0.1666330784
2.61,0.03118104414,-0.1678655503
2.62,0.02431610626,-0.1688126073
2.63,0.01742448263,-0.1694730671
2.64,0.01051853161,-0.1698463046
2.65,0.003610616665,-0.1699322522
2.66,-0.003286920258,-0.1697313989
2.67,-0.01016178521,-0.1692447885
2.68,-0.01700175862,-0.1684740153
2.69,-0.02379472133,-0.1674212201
2.7,-0.03052868044,-0.1660890832
2.71,-0.03719179462,-0.1644808174
2.72,-0.04377239907,-0.1626001588
2.73,-0.0502590299,-0.1604513574
2.74,-0.05664044795,-0.1580391652
2.75,-0.06290566193,-0.1553688245
2.76,-0.06904395086,-0.1524460537
2.77,-0.07504488574,-0.1492770334
2.78,-0.08089835038,-0.1458683902
2.79,-0.08659456134,-0.1422271803
2.8,-0.09212408701,-0.1383608721
2.81,-0.09747786559,-0.1342773274
2.82,-0.1026472221,-0.1299847825
2.83,-0.1076238846,-0.1254918279
2.84,-0.1123999985,-0.1208073877
2.85,-0.1169681411,-0.115940698
2.86,-0.1213213333,-0.1109012852
2.87,-0.1254530518,-0.1056989434
2.88,-0.1293572387,-0.1003437115
2.89,-0.1330283109,-0.09484584973
2.9,-0.1364611676,-0.0892158164
2.91,-0.139651197,-0.08346424369
2.92,-0.1425942815,-0.07760191376
2.93,-0.1452868014,-0.07163973465
2.94,-0.1477256383,-0.06558871606
2.95,-0.1499081762,-0.05945994523
2.96,-0.151832302,-0.05326456292
2.97,-0.1534964044,-0.04701373947
2.98,-0.154899372,-0.04071865124
2.99,-0.1560405901,-0.03439045717
3,-0.1569199361,-0.02804027581
3.01,-0.157537774,-0.02167916275
3.02,-0.157894948,-0.01531808842
3.03,-0.1579927744,-0.008967916543
3.04,-0.1578330337,-0.002639383079
3.05,-0.15741796,0.003656924186
3.06,-0.1567502311,0.009910585376
3.07,-0.1558329567,0.01611136755
3.08,-0.1546696665,0.02224924296
3.09,-0.1532642965,0.02831440655
3.1,-0.1516211757,0.03429729255
3.11,-0.1497450112,0.04018859034
3.12,-0.1476408733,0.04597925926
3.13,-0.1453141798,0.05166054265
3.14,-0.1427706797,0.05722398089
3.15,-0.1400164361,0.06266142347
3.16,-0.1370578098,0.06796504016
3.17,-0.1339014413,0.07312733114
3.18,-0.1305542332,0.07814113618
3.19,-0.1270233324,0.0829996428
3.2,-0.1233161116,0.0876963935
3.21,-0.119440151,0.09222529194
3.22,-0.1154032204,0.09658060817
3.23,-0.1112132603,0.1007569829
3.24,-0.1068783639,0.1047494308
3.25,-0.1024067586,0.1085533427
3.26,-0.09780678827,0.1121644875
3.27,-0.09308689492,0.1155790121
3.28,-0.08825560132,0.1187934414
3.29,-0.08332149351,0.121804677
3.3,-0.07829320377,0.1246099951
3.31,-0.0731793939,0.1272070441
3.32,-0.06798873893,0.1295938403
3.33,-0.06272991129,0.1317687642
3.34,-0.05741156542,0.1337305552
3.35,-0.05204232287,0.135478306
3.36,-0.04663075797,0.1370114567
3.37,-0.04118538403,0.1383297871
3.38,-0.03571464012,0.1394334103
3.39,-0.03022687844,0.1403227642
3.4,-0.02473035231,0.1409986035
3.41,-0.01923320475,0.1414619909
3.42,-0.01374345779,0.1417142879
3.43,-0.008269002276,0.1417571458
3.44,-0.002817588451,0.1415924955
3.45,0.002603182875,0.141222538
3.46,0.007985868498,0.1406497342
3.47,0.01332319035,0.1398767946
3.48,0.01860804238,0.1389066691
3.49,0.02383349682,0.1377425362
3.5,0.0289928098,0.1363877932
3.51,0.03407942643,0.1348460449
3.52,0.03908698515,0.1331210941
3.53,0.04400932171,0.1312169304
3.54,0.04884047238,0.1291377205
3.55,0.05357467678,0.1268877982
3.56,0.05820638011,0.1244716536
3.57,0.06273023498,0.1218939246
3.58,0.06714110264,0.1191593862
3.59,0.07143405393,0.1162729418
3.6,0.07560436973,0.1132396142
3.61,0.079647541,0.1100645363
3.62,0.0835592686,0.1067529431
3.63,0.08733546261,0.1033101632
3.64,0.09097224152,0.0997416111
3.65,0.09446593106,0.09605277937
3.66,0.09781306282,0.09224923154
3.67,0.1010103727,0.08833659514
3.68,0.1040547991,0.08432055503
3.69,0.106943481,0.08020684719
3.7,0.1096737562,0.07600125268
3.71,0.1122431589,0.07170959201
3.72,0.1146494176,0.06733771981
3.73,0.1168904531,0.06289151977
3.74,0.118964376,0.05837689991
3.75,0.1208694848,0.05379978808
3.76,0.1226042635,0.04916612778
3.77,0.1241673795,0.04448187416
3.78,0.1255576818,0.03975299032
3.79,0.1267741988,0.03498544376
3.8,0.1278161365,0.03018520309
3.81,0.1286828767,0.02535823484
3.82,0.1293739758,0.02051050048
3.83,0.1298891628,0.01564795352
3.84,0.1302283383,0.01077653676
3.85,0.1303915732,0.00590217964
3.86,0.130379108,0.001030795545
3.87,0.1301913515,-0.003831720716
3.88,0.1298288805,-0.008679495499
3.89,0.129292439,-0.0135066789
3.9,0.128582938,-0.01830744736
3.91,0.1277014553,-0.0230760063
3.92,0.1266492351,-0.0278065929
3.93,0.1254276885,-0.03249347886
3.94,0.1240383934,-0.03713097337
3.95,0.1224830946,-0.04171342619
3.96,0.1207637044,-0.04623523084
3.97,0.1188823031,-0.05069082798
3.98,0.116841139,-0.05507470901
3.99,0.1146426296,-0.05938141977
4,0.1122893616,-0.06360556455
4.01,0.1097840914,-0.06774181025
4.02,0.107129746,-0.07178489074
4.03,0.1043294233,-0.07572961158
4.04,0.1013863922,-0.07957085477
4.05,0.09830409326,-0.08330358395
4.06,0.09508613846,-0.08692284968
4.07,0.09173631161,-0.09042379503
4.08,0.08825856795,-0.0938016614
4.09,0.08465703384,-0.09705179456
4.1,0.08093600618,-0.1001696509
4.11,0.07709995161,-0.1031508038
4.12,0.07315350539,-0.1059909507
4.13,0.06910147003,-0.1086859193
4.14,0.06494881358,-0.1112316753
4.15,0.06070066762,-0.113624329
4.16,0.05636232484,-0.1158601429
4.17,0.05193923631,-0.1179355394
4.18,0.04743700828,-0.1198471079
4.19,0.04286139866,-0.1215916125
4.2,0.03821831298,-0.1231659999
4.21,0.03351379999,-0.124567407
4.22,0.02875404678,-0.1257931683
4.23,0.0239453734,-0.126840824
4.24,0.01909422711,-0.1277081272
4.25,0.01420717604,-0.1283930516
4.26,0.009290902463,-0.1288937989
4.27,0.004352195534,-0.1292088056
4.28,-0.0006020564204,-0.1293367506
4.29,-0.005564874109,-0.1292765616
4.3,-0.01052919595,-0.1290274217
4.31,-0.0154878872,-0.1285887756
4.32,-0.02043374957,-0.127960336
4.33,-0.02535953124,-0.1271420882
4.34,-0.03025793736,-0.1261342963
4.35,-0.03512164094,-0.1249375074
4.36,-0.0399432941,-0.1235525561
4.37,-0.0447155398,-0.1219805682
4.38,-0.04943102381,-0.1202229643
4.39,-0.0540824071,-0.1182814624
4.4,-0.0586623785,-0.1161580804
4.41,-0.06316366763,-0.1138551372
4.42,-0.0675790581,-0.1113752546
4.43,-0.0719014009,-0.108721357
4.44,-0.07612362802,-0.1058966716
4.45,-0.08023876619,-0.1029047275
4.46,-0.08423995069,-0.09974935379
4.47,-0.08812043934,-0.09643467778
4.48,-0.09187362645,-0.09296512171
4.49,-0.09549305678,-0.08934539919
4.5,-0.09897243945,-0.08558051076
4.51,-0.1023056619,-0.08167573879
4.52,-0.1054868034,-0.07763664164
4.53,-0.1085101488,-0.07346904699
4.54,-0.1113702019,-0.06917904464
4.55,-0.1140616984,-0.06477297836
4.56,-0.1165796189,-0.06025743724
4.57,-0.1189192012,-0.05563924617
4.58,-0.1210759525,-0.05092545575
4.59,-0.1230456612,-0.04612333142
4.6,-0.124824408,-0.04124034207
4.61,-0.1264085768,-0.03628414783
4.62,-0.1277948649,-0.03126258746
4.63,-0.1289802924,-0.02618366494
4.64,-0.1299622118,-0.02105553569
4.65,-0.1307383159,-0.01588649212
4.66,-0.1313066459,-0.01068494875
4.67,-0.1316655984,-0.005459426854
4.68,-0.1318139316,-0.0002185386471
4.69,-0.1317507709,0.005029028877
4.7,-0.131475614,0.0102745305
4.71,-0.1309883347,0.01550917961
4.72,-0.1302891858,0.02072416535
4.73,-0.1293788022,0.02591066995
4.74,-0.1282582015,0.03105988626
4.75,-0.1269287854,0.03616303544
4.76,-0.1253923389,0.0412113847
4.77,-0.1236510295,0.0461962651
4.78,-0.1217074053,0.05110908942
4.79,-0.1195643914,0.05594136982
4.8,-0.1172252871,0.06068473559
4.81,-0.1146937604,0.06533095059
4.82,-0.1119738428,0.06987193064
4.83,-0.1090699229,0.07429976053
4.84,-0.1059867388,0.07860671086
4.85,-0.1027293704,0.08278525448
4.86,-0.09930323004,0.08682808257
4.87,-0.09571405292,0.0907281203
4.88,-0.09196788647,0.09447854198
4.89,-0.08807107901,0.0980727858
4.9,-0.0840302677,0.1015045679
4.91,-0.07985236573,0.1047678959
4.92,-0.07554454888,0.1078570819
4.93,-0.07111424142,0.1107667545
4.94,-0.06656910138,0.1134918707
4.95,-0.06191700527,0.1160277264
4.96,-0.0571660323,0.1183699664
4.97,-0.05232444802,0.1205145942
4.98,-0.0474006876,0.1224579797
4.99,-0.04240333866,0.1241968674
5,-0.03734112375,0.1257283829
5.01,-0.0322228825,0.1270500388
5.02,-0.02705755353,0.1281597398
5.03,-0.02185415608,0.1290557868
5.04,-0.01662177157,0.1297368798
5.05,-0.01136952492,0.1302021206
5.06,-0.006106565872,0.1304510137
5.07,-0.0008420502328,0.1304834671
5.08,0.004414878811,0.1302997915
5.09,0.009655109348,0.1299006991
5.1,0.01486957927,0.129287301
5.11,0.02004929462,0.1284611041
5.12,0.02518534774,0.127424007
5.13,0.03026893519,0.1261782948
5.14,0.03529137525,0.1247266335
5.15,0.04024412527,0.1230720628
5.16,0.04511879841,0.121217989
5.17,0.04990718011,0.1191681763
5.18,0.05460124401,0.116926738
5.19,0.0591931674,0.1144981263
5.2,0.06367534606,0.1118871218
5.21,0.06804040859,0.1090988225
5.22,0.07228123011,0.1061386313
5.23,0.07639094524,0.1030122442
5.24,0.08036296052,0.0997256365
5.25,0.08419096606,0.09628504954
5.26,0.08786894644,0.09269697644
5.27,0.09139119097,0.0889681475
5.28,0.09475230305,0.08510551515
5.29,0.09794720885,0.08111623857
5.3,0.1009711651,0.07700766795
5.31,0.1038197663,0.07278732844
5.32,0.1064889507,0.06846290395
5.33,0.1089750056,0.06404222062
5.34,0.1112745726,0.0595332302
5.35,0.1133846503,0.05494399338
5.36,0.1153025979,0.05028266293
5.37,0.1170261373,0.04555746687
5.38,0.1185533537,0.04077669174
5.39,0.1198826967,0.03594866577
5.4,0.1210129796,0.03108174231
5.41,0.1219433781,0.02618428328
5.42,0.1226734287,0.02126464292
5.43,0.1232030256,0.01633115167
5.44,0.1235324173,0.01139210035
5.45,0.1236622028,0.006455724623
5.46,0.1235933261,0.001530189842
5.47,0.1233270708,-0.003376423824
5.48,0.1228650542,-0.008256135805
5.49,0.1222092199,-0.01310107914
5.5,0.1213618307,-0.01790351402
5.51,0.1203254606,-0.02265584089
5.52,0.1191029857,-0.02735061297
5.53,0.1176975757,-0.03198054835
5.54,0.1161126841,-0.03653854144
5.55,0.1143520382,-0.04101767393
5.56,0.1124196285,-0.04541122511
5.57,0.1103196984,-0.04971268165
5.58,0.1080567325,-0.05391574672
5.59,0.1056354455,-0.05801434854
5.6,0.1030607705,-0.06200264826
5.61,0.1003378469,-0.06587504723
5.62,0.09747200835,-0.06962619367
5.63,0.09446877065,-0.07325098863
5.64,0.09133381898,-0.07674459138
5.65,0.08807299565,-0.0801024241
5.66,0.0846922874,-0.08332017605
5.67,0.08119781285,-0.08639380698
5.68,0.07759580989,-0.08931955001
5.69,0.07389262313,-0.09209391392
5.7,0.07009469137,-0.09471368475
5.71,0.06620853526,-0.09717592691
5.72,0.06224074495,-0.09947798369
5.73,0.05819796804,-0.1016174772
5.74,0.05408689757,-0.1035923078
5.75,0.04991426028,-0.105400653
5.76,0.04568680513,-0.1070409658
5.77,0.04141129193,-0.1085119727
5.78,0.03709448039,-0.1098126711
5.79,0.03274311933,-0.1109423264
5.8,0.02836393626,-0.1119004685
5.81,0.02396362723,-0.1126868881
5.82,0.01954884706,-0.1133016324
5.83,0.01512619983,-0.1137450009
5.84,0.01070222977,-0.1140175404
5.85,0.006283412531,-0.1141200397
5.86,0.001876146739,-0.1140535245
5.87,-0.002513254002,-0.1138192518
5.88,-0.006878568783,-0.1134187038
5.89,-0.01121367666,-0.1128535817
5.9,-0.01551256356,-0.1121258003
5.91,-0.01976932883,-0.1112374803
5.92,-0.02397819134,-0.1101909432
5.93,-0.02813349531,-0.1089887033
5.94,-0.03222971573,-0.1076334621
5.95,-0.03626146336,-0.1061281007
5.96,-0.04022348949,-0.1044756736
5.97,-0.04411069027,-0.1026794011
5.98,-0.04791811068,-0.1007426632
5.99,-0.0516409483,-0.09866899202
6,-0.05527455661,-0.09646206535
