"Freq [GHz]","re(S(Tx_p1,Tx_p1)) []","im(S(Tx_p1,Tx_p1)) []"
1,-0.009443215408,-0.00757272408
1.01,-0.009743367015,-0.007117356674
1.02,-0.01002188973,-0.006649306992
1.03,-0.01027818504,-0.006169658868
1.04,-0.01051171542,-0.005679524961
1.05,-0.01072200546,-0.005180043018
1.06,-0.01090864272,-0.004672372124
1.07,-0.01107127841,-0.004157688961
1.08,-0.0112096278,-0.003637184066
1.09,-0.01132347045,-0.003112058125
1.1,-0.01141265022,-0.002583518294
1.11,-0.01147707512,-0.002052774571
1.12,-0.01151671682,-0.001521036226
1.13,-0.01153161017,-0.0009895082924
1.14,-0.01152185235,-0.0004593881432
1.15,-0.01148760193,6.813785002E-05
1.16,-0.01142907776,0.0005918975626
1.17,-0.01134655765,0.001110736257
1.18,-0.01124037694,0.001623519615
1.19,-0.01111092685,0.002129136644
1.2,-0.01095865281,0.002626502467
1.21,-0.01078405254,0.003114560977
1.22,-0.01058767404,0.003592287355
1.23,-0.01037011354,0.004058690444
1.24,-0.01013201324,0.004512814989
1.25,-0.009874059033,0.004953743713
1.26,-0.009596978113,0.005380599253
1.27,-0.009301536519,0.005792545938
1.28,-0.008988536609,0.006188791409
1.29,-0.008658814486,0.006568588091
1.3,-0.008313237381,0.006931234499
1.31,-0.007952700989,0.007276076389
1.32,-0.007578126794,0.007602507759
1.33,-0.007190459368,0.007909971688
1.34,-0.006790663665,0.008197961024
1.35,-0.006379722313,0.008466018921
1.36,-0.005958632919,0.008713739227
1.37,-0.005528405386,0.008940766729
1.38,-0.00509005926,0.00914679725
1.39,-0.004644621103,0.00933157761
1.4,-0.004193121906,0.009494905458
1.41,-0.003736594551,0.009636628969
1.42,-0.00327607132,0.009756646411
1.43,-0.002812581463,0.009854905607
1.44,-0.002347148827,0.009931403264
1.45,-0.001880789554,0.009986184211
1.46,-0.001414509853,0.01001934052
1.47,-0.0009493038403,0.01003101052
1.48,-0.0004861514674,0.01002137777
1.49,-2.601652939E-05,0.009990669851
1.5,0.0004301552425,0.009939157201
1.51,0.0008814379985,0.009867151754
1.52,0.001326927498,0.0097750056
1.53,0.001765742745,0.009663109534
1.54,0.002197027533,0.009531891577
1.55,0.002619951889,0.009381815423
1.56,0.003033713432,0.009213378864
1.57,0.003437538632,0.00902711216
1.58,0.003830683971,0.00882357638
1.59,0.004212437014,0.008603361724
1.6,0.004582117392,0.008367085806
1.61,0.004939077676,0.008115391936
1.62,0.005282704178,0.007848947376
1.63,0.005612417651,0.0075684416
1.64,0.005927673904,0.007274584536
1.65,0.006227964332,0.006968104823
1.66,0.006512816358,0.006649748062
1.67,0.0067817938,0.00632027508
1.68,0.007034497149,0.005980460204
1.69,0.007270563779,0.00563108955
1.7,0.007489668075,0.00527295933
1.71,0.007691521497,0.00490687418
1.72,0.007875872563,0.004533645512
1.73,0.008042506777,0.004154089887
1.74,0.00819124649,0.003769027419
1.75,0.008321950692,0.003379280212
1.76,0.008434514757,0.002985670819
1.77,0.008528870125,0.002589020739
1.78,0.008604983934,0.00219014895
1.79,0.008662858597,0.00178987047
1.8,0.00870253134,0.001388994958
1.81,0.008724073684,0.0009883253527
1.82,0.00872759089,0.0005886565419
1.83,0.008713221365,0.0001907740755
1.84,0.00868113602,-0.0002045470874
1.85,0.008631537604,-0.0005965437919
1.86,0.008564659992,-0.0009844658642
1.87,0.008480767451,-0.00136757725
1.88,0.008380153864,-0.001745157113
1.89,0.00826314193,-0.0021165009
1.9,0.008130082341,-0.002480921367
1.91,0.007981352925,-0.002837749561
1.92,0.007817357765,-0.003186335777
1.93,0.007638526298,-0.003526050466
1.94,0.007445312391,-0.003856285118
1.95,0.007238193388,-0.004176453095
1.96,0.007017669146,-0.004485990438
1.97,0.006784261047,-0.004784356635
1.98,0.006538510986,-0.005071035352
1.99,0.006280980349,-0.005345535126
2,0.006012248969,-0.005607390025
2.01,0.005732914061,-0.005856160274
2.02,0.005443589149,-0.006091432837
2.03,0.005144902968,-0.00631282197
2.04,0.004837498357,-0.006519969735
2.05,0.004522031132,-0.006712546476
2.06,0.00419916895,-0.006890251258
2.07,0.003869590152,-0.007052812269
2.08,0.003533982598,-0.007199987185
2.09,0.003193042487,-0.007331563495
2.1,0.002847473163,-0.007447358781
2.11,0.002497983916,-0.00754722097
2.12,0.00214528876,-0.007631028535
2.13,0.001790105214,-0.007698690656
2.14,0.001433153067,-0.007750147342
2.15,0.001075153132,-0.007785369509
2.16,0.0007168260026,-0.007804359007
2.17,0.0003588907915,-0.007807148613
2.18,2.063873853E-06,-0.007793801967
2.19,-0.0003529423776,-0.007764413472
2.2,-0.0007054208584,-0.007719108133
2.21,-0.001054670999,-0.007658041359
2.22,-0.001400000027,-0.007581398711
2.23,-0.001740724236,-0.007489395596
2.24,-0.002076170232,-0.007382276917
2.25,-0.002405676194,-0.007260316665
2.26,-0.002728593107,-0.007123817464
2.27,-0.003044285999,-0.006973110058
2.28,-0.003352135151,-0.006808552748
2.29,-0.003651537298,-0.006630530777
2.3,-0.003941906817,-0.006439455653
2.31,-0.004222676879,-0.006235764434
2.32,-0.004493300593,-0.00601991894
2.33,-0.004753252114,-0.005792404929
2.34,-0.005002027725,-0.00555373121
2.35,-0.005239146885,-0.005304428704
2.36,-0.00546415325,-0.005045049461
2.37,-0.005676615644,-0.004776165617
2.38,-0.005876129,-0.004498368305
2.39,-0.006062315251,-0.004212266522
2.4,-0.006234824183,-0.003918485943
2.41,-0.006393334228,-0.003617667691
2.42,-0.006537553216,-0.003310467068
2.43,-0.006667219066,-0.002997552238
2.44,-0.006782100421,-0.002679602875
2.45,-0.006881997228,-0.002357308775
2.46,-0.006966741248,-0.002031368431
2.47,-0.007036196511,-0.001702487579
2.48,-0.007090259696,-0.001371377712
2.49,-0.007128860448,-0.001038754571
2.5,-0.007151961623,-0.0007053366181
2.51,-0.00715955946,-0.0003718434802
2.52,-0.007151683679,-3.899438794E-05
2.53,-0.007128397506,0.0002924934032
2.54,-0.007089797617,0.0006219061967
2.55,-0.00703601401,0.0009485354442
2.56,-0.006967209798,0.001271679334
2.57,-0.006883580917,0.001590644373
2.58,-0.006785355761,0.001904746968
2.59,-0.006672794739,0.002213314982
2.6,-0.006546189747,0.002515689286
2.61,-0.006405863565,0.002811225282
2.62,-0.006252169178,0.003099294403
2.63,-0.006085489014,0.003379285583
2.64,-0.005906234114,0.003650606695
2.65,-0.005714843218,0.003912685946
2.66,-0.005511781789,0.004164973235
2.67,-0.005297540955,0.004406941461
2.68,-0.005072636395,0.004638087785
2.69,-0.004837607142,0.004857934828
2.7,-0.004593014342,0.005066031824
2.71,-0.004339439936,0.005261955698
2.72,-0.004077485292,0.005445312092
2.73,-0.003807769784,0.005615736309
2.74,-0.003530929315,0.005772894196
2.75,-0.003247614797,0.005916482946
2.76,-0.002958490589,0.006046231825
2.77,-0.00266423289,0.006161902817
2.78,-0.002365528107,0.00626329119
2.79,-0.002063071183,0.006350225975
2.8,-0.001757563905,0.006422570357
2.81,-0.00144971319,0.006480221983
2.82,-0.001140229358,0.00652311318
2.83,-0.0008298243854,0.006551211078
2.84,-0.0005192101587,0.006564517646
2.85,-0.000209096727,0.006563069639
2.86,9.980944538E-05,0.00654693845
2.87,0.0004068072154,0.006516229872
2.88,0.0007112024852,0.006471083768
2.89,0.001012309906,0.006411673655
2.9,0.001309454562,0.006338206192
2.91,0.001601973617,0.006250920591
2.92,0.001889217941,0.006150087927
2.93,0.002170553687,0.00603601038
2.94,0.002445363832,0.005909020383
2.95,0.002713049664,0.005769479696
2.96,0.002973032227,0.0056177784
2.97,0.003224753704,0.005454333822
2.98,0.003467678738,0.005279589383
2.99,0.003701295698,0.005094013382
3,0.003925117866,0.004898097718
3.01,0.004138684567,0.004692356547
3.02,0.004341562215,0.004477324887
3.03,0.004533345283,0.004253557171
3.04,0.0047136572,0.004021625752
3.05,0.004882151162,0.003782119365
3.06,0.005038510857,0.00353564155
3.07,0.005182451109,0.003282809046
3.08,0.005313718428,0.003024250149
3.09,0.005432091482,0.002760603053
3.1,0.005537381467,0.002492514172
3.11,0.005629432393,0.002220636443
3.12,0.00570812128,0.001945627627
3.13,0.00577335826,0.0016681486
3.14,0.005825086589,0.001388861656
3.15,0.005863282571,0.001108428803
3.16,0.005887955387,0.0008275100839
3.17,0.005899146841,0.0005467619032
3.18,0.005896931015,0.0002668353835
3.19,0.005881413842,-1.16252572E-05
3.2,0.00585273259,-0.0002879842945
3.21,0.005811055269,-0.0005616160527
3.22,0.005756579958,-0.0008319064199
3.23,0.005689534051,-0.001098254318
3.24,0.005610173436,-0.001360073129
3.25,0.005518781598,-0.001616792061
3.26,0.005415668656,-0.001867857471
3.27,0.005301170338,-0.002112734117
3.28,0.005175646891,-0.002350906358
3.29,0.00503948194,-0.002581879279
3.3,0.00489308129,-0.002805179762
3.31,0.004736871683,-0.003020357473
3.32,0.004571299507,-0.003226985783
3.33,0.004396829466,-0.003424662619
3.34,0.00421394322,-0.003613011231
3.35,0.004023137981,-0.003791680885
3.36,0.003824925098,-0.003960347481
3.37,0.003619828609,-0.004118714085
3.38,0.003408383775,-0.004266511388
3.39,0.00319113561,-0.004403498077
3.4,0.002968637395,-0.004529461133
3.41,0.002741449187,-0.004644216042
3.42,0.002510136334,-0.004747606934
3.43,0.002275267993,-0.004839506635
3.44,0.002037415654,-0.004919816644
3.45,0.001797151678,-0.004988467035
3.46,0.001555047858,-0.005045416281
3.47,0.001311673995,-0.005090651006
3.48,0.001067596502,-0.005124185659
3.49,0.0008233770364,-0.005146062127
3.5,0.0005795711663,-0.005156349275
3.51,0.0003367270705,-0.005155142421
3.52,9.538427924E-05,-0.005142562747
3.53,-0.0001439275427,-0.005118756655
3.54,-0.0003806897687,-0.005083895059
3.55,-0.000614395935,-0.005038172632
3.56,-0.000844552815,-0.00498180699
3.57,-0.001070681441,-0.004915037842
3.58,-0.001292318074,-0.004838126086
3.59,-0.001509015112,-0.004751352865
3.6,-0.001720341946,-0.004655018596
3.61,-0.001925885755,-0.004549441949
3.62,-0.002125252239,-0.004434958808
3.63,-0.002318066294,-0.004311921206
3.64,-0.002503972621,-0.004180696225
3.65,-0.002682636279,-0.004041664891
3.66,-0.002853743167,-0.003895221048
3.67,-0.003017000452,-0.003741770212
3.68,-0.003172136927,-0.003581728432
3.69,-0.003318903313,-0.003415521133
3.7,-0.003457072495,-0.003243581961
3.71,-0.003586439699,-0.003066351635
3.72,-0.003706822608,-0.002884276794
3.73,-0.003818061422,-0.00269780886
3.74,-0.003920018856,-0.002507402906
3.75,-0.004012580085,-0.002313516548
3.76,-0.004095652632,-0.002116608838
3.77,-0.004169166205,-0.001917139189
3.78,-0.004233072483,-0.00171556632
3.79,-0.00428734485,-0.001512347218
3.8,-0.004331978082,-0.001307936132
3.81,-0.004366987993,-0.001102783599
3.82,-0.004392411034,-0.0008973354925
3.83,-0.004408303849,-0.0006920321049
3.84,-0.004414742801,-0.0004873072692
3.85,-0.004411823453,-0.00028358751
3.86,-0.00439966002,-8.129123302E-05
3.87,-0.004378384789,0.000119172048
3.88,-0.00434814751,0.0003174024455
3.89,-0.004309114761,0.0005130103939
3.9,-0.004261469288,0.0007056173043
3.91,-0.004205409323,0.0008948561803
3.92,-0.004141147891,0.001080372191
3.93,-0.004068912084,0.001261823205
3.94,-0.00398894234,0.001438880283
3.95,-0.003901491695,0.001611228126
3.96,-0.003806825032,0.00177856549
3.97,-0.003705218324,0.001940605552
3.98,-0.003596957867,0.002097076241
3.99,-0.003482339511,0.00224772053
4,-0.003361667894,0.002392296684
4.01,-0.003235255672,0.002530578477
4.02,-0.00310342275,0.002662355364
4.03,-0.002966495524,0.002787432626
4.04,-0.002824806122,0.002905631466
4.05,-0.002678691653,0.003016789088
4.06,-0.002528493472,0.003120758727
4.07,-0.002374556442,0.003217409654
4.08,-0.002217228222,0.003306627154
4.09,-0.002056858555,0.003388312461
4.1,-0.001893798575,0.003462382683
4.11,-0.001728400132,0.003528770681
4.12,-0.001561015122,0.003587424938
4.13,-0.001391994842,0.003638309388
4.14,-0.001221689361,0.003681403237
4.15,-0.001050446898,0.003716700752
4.16,-0.0008786132351,0.003744211028
4.17,-0.0007065311305,0.003763957744
4.18,-0.0005345397624,0.003775978891
4.19,-0.0003629741862,0.00378032649
4.2,-0.0001921648111,0.003777066287
4.21,-2.243689622E-05,0.003766277443
4.22,0.0001458899347,0.003748052195
4.23,0.00031250216,0.00372249552
4.24,0.0004770928073,0.003689724778
4.25,0.0006393618826,0.003649869342
4.26,0.0007990167803,0.003603070225
4.27,0.000955772675,0.003549479695
4.28,0.001109352895,0.003489260877
4.29,0.001259489279,0.003422587353
4.3,0.00140592251,0.003349642752
4.31,0.001548402442,0.003270620334
4.32,0.001686688397,0.00318572257
4.33,0.001820549454,0.003095160709
4.34,0.001949764719,0.002999154355
4.35,0.002074123575,0.00289793102
4.36,0.002193425921,0.002791725691
4.37,0.002307482395,0.002680780383
4.38,0.002416114573,0.002565343688
4.39,0.002519155165,0.002445670331
4.4,0.002616448186,0.002322020707
4.41,0.002707849115,0.002194660433
4.42,0.002793225042,0.002063859885
4.43,0.002872454795,0.001929893736
4.44,0.002945429055,0.001793040497
4.45,0.003012050456,0.001653582047
4.46,0.003072233671,0.001511803173
4.47,0.003125905482,0.001367991094
4.48,0.003173004835,0.001222435001
4.49,0.003213482883,0.001075425577
4.5,0.00324730301,0.0009272545334
4.51,0.003274440841,0.0007782141343
4.52,0.003294884243,0.0006285967242
4.53,0.003308633301,0.0004786942556
4.54,0.003315700286,0.0003287978158
4.55,0.0033161096,0.0001791971543
4.56,0.003309897718,3.018021066E-05
4.57,0.003297113098,-0.0001179673566
4.58,0.003277816084,-0.00026496264
4.59,0.003252078795,-0.0004105259511
4.6,0.003219984989,-0.0005543812865
4.61,0.003181629912,-0.0006962567912
4.62,0.003137120139,-0.0008358852185
4.63,0.003086573381,-0.0009730043864
4.64,0.003030118294,-0.001107357629
4.65,0.002967894249,-0.001238694245
4.66,0.002900051103,-0.001366769934
4.67,0.002826748941,-0.00149134724
4.68,0.002748157801,-0.001612195967
4.69,0.002664457385,-0.001729093609
4.7,0.002575836746,-0.001841825753
4.71,0.002482493964,-0.001950186484
4.72,0.002384635794,-0.002053978772
4.73,0.002282477308,-0.002153014852
4.74,0.002176241508,-0.002247116589
4.75,0.002066158927,-0.002336115832
4.76,0.001952467214,-0.002419854749
4.77,0.001835410697,-0.002498186151
4.78,0.001715239935,-0.002570973801
4.79,0.001592211248,-0.002638092698
4.8,0.001466586239,-0.002699429348
4.81,0.001338631294,-0.002754882019
4.82,0.001208617071,-0.002804360966
4.83,0.001076817975,-0.002847788647
4.84,0.0009435116251,-0.002885099902
4.85,0.0008089782979,-0.002916242124
4.86,0.0006735003742,-0.002941175399
4.87,0.0005373617669,-0.002959872614
4.88,0.0004008473437,-0.002972319557
4.89,0.0002642423418,-0.002978514975
4.9,0.000127831776,-0.00297847061
4.91,-8.100157681E-06,-0.002972211214
4.92,-0.000143270682,-0.002959774525
4.93,-0.000277399041,-0.002941211222
4.94,-0.0004102071033,-0.002916584851
4.95,-0.0005414199643,-0.002885971714
4.96,-0.0006707665469,-0.002849460744
4.97,-0.000797980198,-0.002807153331
4.98,-0.0009227992799,-0.002759163134
4.99,-0.001044967755,-0.002705615857
5,-0.001164235761,-0.002646648994
5.01,-0.00128036018,-0.002582411551
5.02,-0.001393105187,-0.002513063728
5.03,-0.001502242799,-0.002438776585
5.04,-0.001607553393,-0.002359731674
5.05,-0.001708826222,-0.002276120639
5.06,-0.001805859904,-0.002188144799
5.07,-0.001898462894,-0.002096014697
5.08,-0.001986453934,-0.001999949627
5.09,-0.002069662486,-0.001900177138
5.1,-0.00214792913,-0.001796932511
5.11,-0.002221105948,-0.001690458222
5.12,-0.002289056875,-0.001581003373
5.13,-0.002351658022,-0.001468823113
5.14,-0.002408797974,-0.001354178037
5.15,-0.002460378052,-0.001237333572
5.16,-0.002506312551,-0.001118559345
5.17,-0.002546528939,-0.0009981285359
5.18,-0.002580968026,-0.0008763172259
5.19,-0.002609584103,-0.0007534037307
5.2,-0.002632345037,-0.0006296679278
5.21,-0.002649232343,-0.0005053905773
5.22,-0.002660241211,-0.0003808526391
5.23,-0.002665380502,-0.0002563345879
5.24,-0.002664672709,-0.0001321157276
5.25,-0.00265815388,-8.473508049E-06
5.26,-0.002645873505,0.0001143171546
5.27,-0.002627894366,0.0002359845521
5.28,-0.002604292359,0.0003562608498
5.29,-0.002575156269,0.0004748827434
5.3,-0.002540587524,0.0005915921031
5.31,-0.002500699899,0.0007061366053
5.32,-0.002455619206,0.0008182703472
5.33,-0.00240548293,0.0009277544453
5.34,-0.002350439855,0.001034357614
5.35,-0.002290649643,0.001137856723
5.36,-0.002226282393,0.001238037332
5.37,-0.002157518168,0.001334694204
5.38,-0.002084546498,0.001427631785
5.39,-0.002007565856,0.001516664667
5.4,-0.001926783109,0.001601618012
5.41,-0.001842412954,0.001682327952
5.42,-0.001754677324,0.001758641958
5.43,-0.001663804784,0.001830419171
5.44,-0.001570029907,0.001897530707
5.45,-0.001473592631,0.001959859921
5.46,-0.001374737613,0.002017302641
5.47,-0.001273713563,0.002069767364
5.48,-0.001170772577,0.002117175416
5.49,-0.001066169456,0.002159461071
5.5,-0.0009601610257,0.002196571646
5.51,-0.0008530054534,0.002228467541
5.52,-0.0007449615614,0.002255122259
5.53,-0.0006362881456,0.002276522372
5.54,-0.0005272432963,0.002292667467
5.55,-0.0004180837259,0.002303570043
5.56,-0.0003090641034,0.002309255378
5.57,-0.0002004364007,0.002309761356
5.58,-9.244924945E-05,0.002305138266
5.59,1.465268689E-05,0.002295448559
5.6,0.000120629326,0.002280766576
5.61,0.0002252457612,0.002261178247
5.62,0.000328272837,0.002236780753
5.63,0.000429487703,0.00220768216
5.64,0.0005286743453,0.002174001027
5.65,0.0006256240934,0.002135865987
5.66,0.0007201361016,0.0020934153
5.67,0.0008120178033,0.002046796383
5.68,0.0009010853365,0.001996165318
5.69,0.0009871639409,0.001941686343
5.7,0.001070088323,0.001883531318
5.71,0.001149702993,0.00182187918
5.72,0.001225862565,0.001756915377
5.73,0.001298432027,0.001688831299
5.74,0.001367286978,0.001617823686
5.75,0.001432313834,0.001544094035
5.76,0.001493409989,0.001467848001
5.77,0.001550483958,0.001389294781
5.78,0.00160345547,0.001308646516
5.79,0.001652255537,0.001226117668
5.8,0.001696826487,0.001141924417
5.81,0.001737121959,0.001056284054
5.82,0.001773106868,0.0009694143735
5.83,0.001804757339,0.0008815330822
5.84,0.001832060602,0.0007928572108
5.85,0.001855014865,0.000703602537
5.86,0.001873629146,0.0006139830218
5.87,0.001887923086,0.0005242102585
5.88,0.001897926721,0.0004344929374
5.89,0.00190368024,0.0003450363282
5.9,0.001905233705,0.00025604178
5.91,0.001902646756,0.000167706241
5.92,0.00189598828,8.022180045E-05
5.93,0.001885336072,-6.224748689E-06
5.94,0.001870776465,-9.14523225E-05
5.95,0.001852403942,-0.0001752859351
5.96,0.001830320739,-0.0002575570623
5.97,0.001804636418,-0.0003381039792
5.98,0.001775467439,-0.0004167720708
5.99,0.001742936709,-0.0004934141162
6,0.001707173128,-0.0005678905439
