"Freq [GHz]","re(S(Tx_p1,Tx_p1)) []","im(S(Tx_p1,Tx_p1)) []"
1,-0.03075304676,-0.1923929888
1.01,-0.03766841005,-0.1910111277
1.02,-0.04455319274,-0.1893657731
1.03,-0.05139545821,-0.1874566438
1.04,-0.05818325619,-0.1852840801
1.05,-0.06490465339,-0.1828490388
1.06,-0.07154776359,-0.1801530884
1.07,-0.0781007773,-0.1771984014
1.08,-0.08455199089,-0.1739877465
1.09,-0.09088983512,-0.1705244797
1.1,-0.09710290309,-0.1668125332
1.11,-0.1031799775,-0.1628564046
1.12,-0.1091100571,-0.1586611438
1.13,-0.1148823829,-0.1542323396
1.14,-0.1204864625,-0.1495761048
1.15,-0.1259120952,-0.1446990604
1.16,-0.1311493944,-0.1396083194
1.17,-0.1361888106,-0.1343114684
1.18,-0.1410211529,-0.1288165497
1.19,-0.1456376091,-0.1231320417
1.2,-0.1500297655,-0.1172668385
1.21,-0.1541896252,-0.1112302295
1.22,-0.1581096257,-0.1050318772
1.23,-0.1617826547,-0.09868179506
1.24,-0.1652020659,-0.09219032465
1.25,-0.1683616922,-0.0855681121
1.26,-0.1712558594,-0.07882608406
1.27,-0.1738793973,-0.07197542321
1.28,-0.17622765,-0.06502754346
1.29,-0.1782964858,-0.05799406468
1.3,-0.1800823046,-0.05088678719
1.31,-0.1815820449,-0.043717666
1.32,-0.1827931896,-0.03649878492
1.33,-0.1837137698,-0.02924233048
1.34,-0.1843423684,-0.02196056582
1.35,-0.1846781214,-0.01466580453
1.36,-0.1847207192,-0.007370384608
1.37,-0.1844704052,-8.664246972E-05
1.38,-0.1839279748,0.007173112902
1.39,-0.1830947717,0.01439662555
1.4,-0.1819726841,0.0215717179
1.41,-0.1805641391,0.02868631578
1.42,-0.1788720965,0.0357284731
1.43,-0.1769000408,0.04268639609
1.44,-0.174651973,0.04954846703
1.45,-0.1721324002,0.05630326754
1.46,-0.1693463251,0.06293960127
1.47,-0.1662992343,0.06944651592
1.48,-0.1629970851,0.07581332472
1.49,-0.1594462923,0.0820296271
1.5,-0.1556537131,0.0880853287
1.51,-0.1516266315,0.09397066057
1.52,-0.1473727425,0.09967619758
1.53,-0.1429001346,0.1051928759
1.54,-0.1382172721,0.1105120099
1.55,-0.1333329764,0.1156253076
1.56,-0.128256407,0.1205248855
1.57,-0.1229970415,0.1252032831
1.58,-0.1175646557,0.1296534748
1.59,-0.1119693022,0.1338688825
1.6,-0.1062212894,0.1378433862
1.61,-0.1003311598,0.1415713339
1.62,-0.09430966811,0.1450475503
1.63,-0.08816775852,0.1482673446
1.64,-0.0819165424,0.1512265171
1.65,-0.07556727543,0.1539213647
1.66,-0.06913133464,0.1563486854
1.67,-0.06262019542,0.1585057818
1.68,-0.05604540838,0.1603904636
1.69,-0.04941857634,0.1620010481
1.7,-0.04275133126,0.1633363615
1.71,-0.03605531139,0.1643957369
1.72,-0.02934213847,0.1651790131
1.73,-0.02262339518,0.1656865316
1.74,-0.0159106029,0.165919132
1.75,-0.009215199649,0.1658781478
1.76,-0.002548518454,0.1655653998
1.77,0.00407823391,0.1649831894
1.78,0.01065399776,0.1641342908
1.79,0.01716788089,0.1630219421
1.8,0.02360917837,0.1616498355
1.81,0.02996739192,0.160022107
1.82,0.03623224856,0.1581433248
1.83,0.04239371874,0.1560184773
1.84,0.04844203375,0.1536529599
1.85,0.05436770248,0.1510525619
1.86,0.06016152743,0.1482234514
1.87,0.06581462,0.145172161
1.88,0.07131841501,0.1419055718
1.89,0.07666468439,0.1384308973
1.9,0.08184555007,0.1347556667
1.91,0.08685349606,0.1308877076
1.92,0.09168137963,0.1268351287
1.93,0.09632244165,0.1226063012
1.94,0.100770316,0.1182098409
1.95,0.1050190381,0.113654589
1.96,0.1090630528,0.1089495936
1.97,0.1128972205,0.1041040898
1.98,0.1165168238,0.09912748108
1.99,0.1199175716,0.09402931891
2,0.1230956035,0.08881928363
2.01,0.1260474929,0.08350716455
2.02,0.1287702487,0.07810284017
2.03,0.1312613171,0.07261625856
2.04,0.1335185815,0.06705741766
2.05,0.1355403619,0.06143634583
2.06,0.1373254138,0.05576308242
2.07,0.1388729256,0.05004765867
2.08,0.1401825153,0.04430007876
2.09,0.141254227,0.03853030116
2.1,0.1420885255,0.03274822029
2.11,0.1426862908,0.02696364853
2.12,0.1430488121,0.02118629861
2.13,0.14317778,0.01542576642
2.14,0.143075279,0.009691514269
2.15,0.1427437791,0.003992854613
2.16,0.142186126,-0.001661065708
2.17,0.1414055317,-0.007261280686
2.18,0.1404055636,-0.0127990198
2.19,0.1391901335,-0.01826572212
2.2,0.1377634863,-0.02365304972
2.21,0.1361301872,-0.02895290055
2.22,0.1342951095,-0.03415742064
2.23,0.1322634215,-0.03925901556
2.24,0.1300405726,-0.04425036129
2.25,0.1276322797,-0.04912441437
2.26,0.1250445127,-0.0538744213
2.27,0.1222834804,-0.05849392725
2.28,0.1193556151,-0.06297678405
2.29,0.1162675579,-0.06731715744
2.3,0.113026143,-0.07150953353
2.31,0.109638383,-0.0755487246
2.32,0.1061114526,-0.07942987412
2.33,0.1024526731,-0.08314846096
2.34,0.09866949709,-0.08670030297
2.35,0.09476949213,-0.09008155974
2.36,0.09076032543,-0.09328873464
2.37,0.08664974801,-0.09631867617
2.38,0.08244557913,-0.09916857856
2.39,0.07815569079,-0.1018359816
2.4,0.0737879924,-0.10431877
2.41,0.06935041564,-0.1066151718
2.42,0.06485089947,-0.108723756
2.43,0.06029737545,-0.1106434303
2.44,0.05569775329,-0.1123734371
2.45,0.05105990667,-0.1139133499
2.46,0.04639165945,-0.1152630681
2.47,0.04170077215,-0.1164228125
2.48,0.03699492883,-0.1173931189
2.49,0.03228172441,-0.1181748319
2.5,0.02756865229,-0.1187690983
2.51,0.02286309252,-0.1191773598
2.52,0.01817230034,-0.1194013448
2.53,0.01350339526,-0.1194430607
2.54,0.008863350515,-0.1193047851
2.55,0.004258983158,-0.1189890566
2.56,-0.0003030554537,-0.1184986659
2.57,-0.004816288586,-0.1178366459
2.58,-0.009274422546,-0.1170062614
2.59,-0.01367135455,-0.1160109998
2.6,-0.01800118006,-0.1148545595
2.61,-0.02225819954,-0.1135408402
2.62,-0.02643692468,-0.1120739314
2.63,-0.03053208405,-0.1104581018
2.64,-0.0345386282,-0.1086977878
2.65,-0.0384517342,-0.1067975826
2.66,-0.0422668096,-0.1047622247
2.67,-0.04597949587,-0.1025965867
2.68,-0.04958567126,-0.1003056639
2.69,-0.05308145313,-0.09789456276
2.7,-0.05646319975,-0.09536848986
2.71,-0.05972751153,-0.09273274056
2.72,-0.0628712318,-0.08999268783
2.73,-0.065891447,-0.08715377123
2.74,-0.06878548642,-0.08422148595
2.75,-0.07155092147,-0.08120137212
2.76,-0.07418556441,-0.07809900421
2.77,-0.0766874667,-0.07491998063
2.78,-0.07905491685,-0.07166991363
2.79,-0.08128643787,-0.0683544193
2.8,-0.08338078432,-0.06497910799
2.81,-0.08533693896,-0.06154957485
2.82,-0.08715410899,-0.05807139073
2.83,-0.08883172201,-0.0545500934
2.84,-0.09036942158,-0.05099117905
2.85,-0.0917670625,-0.04740009409
2.86,-0.0930247058,-0.04378222732
2.87,-0.09414261339,-0.04014290251
2.88,-0.0951212426,-0.03648737115
2.89,-0.09596124031,-0.03282080581
2.9,-0.09666343701,-0.02914829362
2.91,-0.0972288406,-0.02547483033
2.92,-0.09765863004,-0.02180531461
2.93,-0.09795414885,-0.01814454279
2.94,-0.09811689853,-0.01449720398
2.95,-0.09814853175,-0.01086787554
2.96,-0.09805084562,-0.007261018969
2.97,-0.09782577475,-0.003680976158
2.98,-0.09747538441,-0.0001319660029
2.99,-0.09700186348,0.003381918582
3,-0.09640751761,0.006856713303
3.01,-0.09569476221,0.01028858475
3.02,-0.09486611558,0.01367383231
3.03,-0.09392419205,0.01700888975
3.04,-0.09287169522,0.02029032642
3.05,-0.09171141121,0.02351484816
3.06,-0.09044620209,0.02667929788
3.07,-0.08907899937,0.02978065582
3.08,-0.08761279767,0.03281603954
3.09,-0.08605064845,0.03578270357
3.1,-0.08439565397,0.03867803884
3.11,-0.0826509614,0.04149957183
3.12,-0.08081975705,0.04424496347
3.13,-0.07890526085,0.04691200781
3.14,-0.07691072099,0.04949863047
3.15,-0.07483940881,0.05200288689
3.16,-0.07269461379,0.0544229604
3.17,-0.0704796389,0.05675716009
3.18,-0.06819779606,0.05900391853
3.19,-0.06585240187,0.0611617894
3.2,-0.06344677355,0.06322944488
3.21,-0.06098422515,0.06520567305
3.22,-0.05846806395,0.06708937513
3.23,-0.05590158709,0.06887956262
3.24,-0.05328807849,0.07057535441
3.25,-0.05063080593,0.07217597386
3.26,-0.04793301839,0.07368074577
3.27,-0.04519794363,0.07508909339
3.28,-0.04242878601,0.0764005354
3.29,-0.03962872442,0.07761468289
3.3,-0.0368009106,0.07873123639
3.31,-0.03394846749,0.07974998284
3.32,-0.0310744879,0.08067079274
3.33,-0.02818203334,0.08149361725
3.34,-0.02527413301,0.08221848538
3.35,-0.02235378301,0.08284550128
3.36,-0.01942394566,0.08337484159
3.37,-0.01648754906,0.08380675289
3.38,-0.01354748673,0.08414154927
3.39,-0.01060661742,0.08437961
3.4,-0.00766776503,0.0845213773
3.41,-0.004733718663,0.08456735427
3.42,-0.001807232785,0.0845181029
3.43,0.001108972535,0.0843742423
3.44,0.004012211297,0.08413644696
3.45,0.006899831168,0.08380544522
3.46,0.009769213027,0.0833820179
3.47,0.01261777046,0.082866997
3.48,0.01544294922,0.08226126463
3.49,0.01824222669,0.08156575202
3.5,0.02101311125,0.0807814387
3.51,0.0237531418,0.07990935187
3.52,0.02645988712,0.07895056583
3.53,0.0291309454,0.07790620158
3.54,0.03176394369,0.0767774266
3.55,0.0343565375,0.07556545471
3.56,0.03690641036,0.07427154603
3.57,0.03941127355,0.07289700716
3.58,0.04186886579,0.07144319137
3.59,0.0442769531,0.06991149897
3.6,0.04663332873,0.06830337769
3.61,0.04893581319,0.06662032327
3.62,0.05118225438,0.06486388002
3.63,0.05337052786,0.06303564155
3.64,0.0554985372,0.06113725147
3.65,0.05756421451,0.05917040419
3.66,0.05956552107,0.05713684578
3.67,0.06150044814,0.05503837486
3.68,0.06336701779,0.05287684344
3.69,0.06516328407,0.05065415786
3.7,0.06688733414,0.0483722797
3.71,0.06853728966,0.04603322663
3.72,0.07011130829,0.04363907333
3.73,0.07160758534,0.04119195226
3.74,0.07302435557,0.03869405451
3.75,0.07435989514,0.03614763047
3.76,0.07561252369,0.03355499049
3.77,0.07678060658,0.03091850547
3.78,0.07786255726,0.02824060735
3.79,0.07885683977,0.02552378942
3.8,0.07976197135,0.02277060666
3.81,0.08057652522,0.01998367579
3.82,0.0812991334,0.01716567534
3.83,0.08192848972,0.01431934545
3.84,0.08246335287,0.01144748757
3.85,0.08290254956,0.008552964015
3.86,0.08324497778,0.005638697295
3.87,0.08348961007,0.002707669306
3.88,0.08363549694,-0.0002370796876
3.89,0.08368177029,-0.003192452259
3.9,0.08362764684,-0.006155295227
3.91,0.08347243168,-0.009122401274
3.92,0.08321552171,-0.01209051077
3.93,0.08285640922,-0.01505631382
3.94,0.08239468534,-0.01801645252
3.95,0.08183004357,-0.02096752346
3.96,0.08116228316,-0.0239060804
3.97,0.08039131258,-0.02682863725
3.98,0.07951715279,-0.02973167119
3.99,0.07853994052,-0.03261162609
4,0.07745993144,-0.0354649161
4.01,0.07627750322,-0.0382879295
4.02,0.07499315844,-0.04107703273
4.03,0.07360752744,-0.04382857471
4.04,0.07212137094,-0.04653889127
4.05,0.0705355826,-0.04920430987
4.06,0.06885119129,-0.05182115449
4.07,0.06706936325,-0.05438575071
4.08,0.06519140406,-0.05689443099
4.09,0.06321876034,-0.05934354012
4.1,0.06115302126,-0.06172944081
4.11,0.05899591986,-0.06404851953
4.12,0.05674933399,-0.06629719239
4.13,0.05441528715,-0.06847191123
4.14,0.05199594897,-0.0705691698
4.15,0.04949363542,-0.07258551009
4.16,0.04691080877,-0.07451752871
4.17,0.0442500772,-0.07636188338
4.18,0.04151419415,-0.07811529956
4.19,0.03870605739,-0.07977457698
4.2,0.03582870765,-0.08133659638
4.21,0.03288532711,-0.08279832619
4.22,0.02987923738,-0.08415682919
4.23,0.02681389728,-0.08540926929
4.24,0.02369290025,-0.08655291814
4.25,0.02051997137,-0.0875851618
4.26,0.01729896417,-0.08850350731
4.27,0.01403385692,-0.08930558924
4.28,0.0107287488,-0.08998917603
4.29,0.007387855528,-0.0905521764
4.3,0.004015504803,-0.09099264543
4.31,0.0006161313508,-0.0913087907
4.32,-0.002805728344,-0.0914989781
4.33,-0.006245441619,-0.09156173755
4.34,-0.009698285539,-0.09149576851
4.35,-0.0131594531,-0.09129994529
4.36,-0.01662405973,-0.09097332207
4.37,-0.02008715009,-0.09051513774
4.38,-0.02354370518,-0.08992482048
4.39,-0.02698864964,-0.08920199198
4.4,-0.03041685937,-0.08834647146
4.41,-0.03382316944,-0.08735827933
4.42,-0.0372023821,-0.08623764055
4.43,-0.04054927512,-0.08498498765
4.44,-0.04385861036,-0.08360096338
4.45,-0.04712514237,-0.082086423
4.46,-0.05034362736,-0.08044243628
4.47,-0.05350883221,-0.07867028894
4.48,-0.05661554361,-0.07677148391
4.49,-0.05965857743,-0.07474774201
4.5,-0.06263278806,-0.07260100229
4.51,-0.06553307795,-0.07033342198
4.52,-0.06835440712,-0.06794737594
4.53,-0.07109180282,-0.06544545575
4.54,-0.07374036908,-0.0628304683
4.55,-0.07629529641,-0.06010543397
4.56,-0.07875187138,-0.05727358438
4.57,-0.08110548621,-0.05433835965
4.58,-0.08335164828,-0.05130340525
4.59,-0.08548598961,-0.04817256841
4.6,-0.08750427612,-0.04494989401
4.61,-0.08940241694,-0.04163962013
4.62,-0.09117647341,-0.03824617311
4.63,-0.09282266804,-0.03477416212
4.64,-0.09433739317,-0.03122837341
4.65,-0.09571721955,-0.02761376406
4.66,-0.09695890458,-0.02393545532
4.67,-0.09805940033,-0.02019872556
4.68,-0.09901586135,-0.01640900282
4.69,-0.0998256521,-0.01257185696
4.7,-0.1004863541,-0.008692991454
4.71,-0.1009957729,-0.004778234776
4.72,-0.1013519443,-0.0008335314998
4.73,-0.1015531407,0.003135066988
4.74,-0.1015978767,0.007121412074
4.75,-0.1014849148,0.01111926781
4.76,-0.1012132695,0.0151223211
4.77,-0.1007822128,0.01912419213
4.78,-0.1001912776,0.0231184451
4.79,-0.09944026138,0.02709859913
4.8,-0.09852922954,0.03105813939
4.81,-0.09745851787,0.03499052846
4.82,-0.09622873471,0.03888921782
4.83,-0.09484076267,0.04274765946
4.84,-0.09329575969,0.04655931772
4.85,-0.0915951597,0.05031768106
4.86,-0.08974067269,0.05401627411
4.87,-0.08773428427,0.05764866956
4.88,-0.08557825472,0.06120850029
4.89,-0.08327511744,0.06468947132
4.9,-0.08082767694,0.06808537187
4.91,-0.07823900619,0.07139008731
4.92,-0.07551244353,0.07459761104
4.93,-0.07265158898,0.0777020563
4.94,-0.06966030001,0.08069766788
4.95,-0.06654268683,0.0835788336
4.96,-0.06330310708,0.0863400957
4.97,-0.05994616005,0.08897616203
4.98,-0.05647668035,0.09148191696
4.99,-0.05289973113,0.09385243213
5,-0.04922059673,0.09608297683
5.01,-0.04544477488,0.09816902821
5.02,-0.04157796844,0.1001062811
5.03,-0.03762607666,0.1018906575
5.04,-0.03359518598,0.1035183156
5.05,-0.02949156043,0.1049856589
5.06,-0.0253216316,0.1062893442
5.07,-0.02109198819,0.1074262895
5.08,-0.01680936521,0.1083936821
5.09,-0.01248063281,0.1091889847
5.1,-0.008112784742,0.1098099429
5.11,-0.00371292656,0.1102545907
5.12,0.0007117365493,0.1105212563
5.13,0.005153912167,0.110608567
5.14,0.009606233311,0.1105154539
5.15,0.01406127134,0.1102411556
5.16,0.01851154904,0.1097852219
5.17,0.02294955395,0.1091475166
5.18,0.02736775175,0.1083282193
5.19,0.03175859988,0.1073278277
5.2,0.03611456119,0.1061471584
5.21,0.04042811769,0.1047873472
5.22,0.04469178437,0.1032498491
5.23,0.04889812301,0.1015364376
5.24,0.05303975602,0.09964920352
5.25,0.05710938017,0.09759055246
5.26,0.06109978039,0.09536320278
5.27,0.06500384337,0.09297018216
5.28,0.06881457108,0.09041482383
5.29,0.07252509417,0.0877007622
5.3,0.07612868517,0.08483192781
5.31,0.0796187715,0.0818125418
5.32,0.08298894825,0.07864710969
5.33,0.08623299077,0.07534041467
5.34,0.08934486684,0.07189751028
5.35,0.09231874872,0.06832371253
5.36,0.09514902472,0.06462459156
5.37,0.09783031051,0.06080596264
5.38,0.10035746,0.05687387684
5.39,0.1027255759,0.052834611
5.4,0.1049300197,0.04869465745
5.41,0.1069664215,0.04446071304
5.42,0.1088306888,0.04013966794
5.43,0.1105190156,0.03573859389
5.44,0.1120278905,0.03126473211
5.45,0.1133541042,0.02672548082
5.46,0.1144947566,0.0221283824
5.47,0.1154472637,0.01748111029
5.48,0.1162093633,0.01279145544
5.49,0.1167791203,0.008067312664
5.5,0.1171549321,0.003316666631
5.51,0.117335532,-0.001452422363
5.52,0.1173199935,-0.006231832781
5.53,0.1171077329,-0.01101339642
5.54,0.1166985117,-0.01578891314
5.55,0.116092438,-0.02055016567
5.56,0.1152899684,-0.02528893455
5.57,0.1142919071,-0.0299970131
5.58,0.1130994068,-0.03466622238
5.59,0.1117139672,-0.03928842625
5.6,0.1101374333,-0.04385554628
5.61,0.1083719934,-0.04835957667
5.62,0.1064201764,-0.05279259908
5.63,0.1042848476,-0.05714679732
5.64,0.1019692052,-0.06141447186
5.65,0.09947677514,-0.06558805426
5.66,0.09681140551,-0.0696601213
5.67,0.09397726076,-0.07362340892
5.68,0.09097881485,-0.07747082586
5.69,0.08782084399,-0.08119546712
5.7,0.08450841874,-0.08479062696
5.71,0.08104689556,-0.08824981163
5.72,0.07744190783,-0.09156675179
5.73,0.07369935627,-0.09473541442
5.74,0.06982539884,-0.09775001439
5.75,0.06582644023,-0.1006050256
5.76,0.06170912071,-0.1032951917
5.77,0.05748030466,-0.105815536
5.78,0.05314706854,-0.1081613716
5.79,0.04871668852,-0.11032831
5.8,0.04419662768,-0.1123122702
5.81,0.03959452281,-0.1141094864
5.82,0.0349181709,-0.1157165157
5.83,0.03017551531,-0.1171302449
5.84,0.02537463159,-0.1183478967
5.85,0.02052371307,-0.1193670356
5.86,0.01563105621,-0.1201855728
5.87,0.01070504569,-0.1208017703
5.88,0.005754139381,-0.1212142452
5.89,0.0007868530926,-0.1214219727
5.9,-0.00418825478,-0.1214242879
5.91,-0.009162598714,-0.1212208884
5.92,-0.01412758158,-0.1208118348
5.93,-0.01907461024,-0.1201975516
5.94,-0.02399511108,-0.1193788264
5.95,-0.02888054563,-0.1183568093
5.96,-0.03372242603,-0.1171330113
5.97,-0.03851233054,-0.1157093017
5.98,-0.04324191876,-0.1140879057
5.99,-0.04790294696,-0.1122714002
6,-0.05248728299,-0.1102627097
