"Freq [GHz]","re(S(Tx_p1,Tx_p1)) []","im(S(Tx_p1,Tx_p1)) []"
1,-0.02153413074,-0.05889486468
1.01,-0.02383758919,-0.05801469093
1.02,-0.02611291914,-0.05703835057
1.03,-0.02835554223,-0.05596657904
1.04,-0.03056091136,-0.05480034975
1.05,-0.03272452243,-0.05354087123
1.06,-0.0348419259,-0.05218958392
1.07,-0.03690873814,-0.05074815637
1.08,-0.03892065255,-0.04921848102
1.09,-0.04087345041,-0.04760266946
1.1,-0.04276301151,-0.04590304727
1.11,-0.04458532443,-0.04412214838
1.12,-0.04633649658,-0.042262709
1.13,-0.04801276383,-0.04032766108
1.14,-0.04961049991,-0.03832012544
1.15,-0.05112622532,-0.03624340445
1.16,-0.05255661597,-0.03410097427
1.17,-0.05389851136,-0.03189647687
1.18,-0.05514892239,-0.02963371155
1.19,-0.05630503869,-0.02731662624
1.2,-0.05736423561,-0.0249493084
1.21,-0.05832408062,-0.02253597573
1.22,-0.05918233941,-0.02008096652
1.23,-0.05993698136,-0.01758872978
1.24,-0.06058618463,-0.0150638152
1.25,-0.06112834072,-0.0125108628
1.26,-0.06156205852,-0.009934592509
1.27,-0.06188616789,-0.007339793485
1.28,-0.06209972264,-0.00473131339
1.29,-0.06220200313,-0.002114047495
1.3,-0.06219251819,0.0005070722783
1.31,-0.06207100665,0.003127088378
1.32,-0.06183743823,0.005741028688
1.33,-0.061492014,0.008343917598
1.34,-0.06103516626,0.01093078707
1.35,-0.06046755788,0.01349668767
1.36,-0.05979008116,0.01603669953
1.37,-0.05900385619,0.01854594323
1.38,-0.0581102286,0.02101959058
1.39,-0.05711076691,0.02345287527
1.4,-0.05600725935,0.02584110337
1.41,-0.05480171015,0.02817966362
1.42,-0.0534963354,0.03046403756
1.43,-0.05209355843,0.03268980942
1.44,-0.0505960047,0.03485267579
1.45,-0.04900649631,0.03694845497
1.46,-0.04732804599,0.03897309614
1.47,-0.04556385077,0.04092268807
1.48,-0.04371728516,0.0427934677
1.49,-0.04179189403,0.04458182821
1.5,-0.03979138503,0.04628432683
1.51,-0.03771962074,0.04789769225
1.52,-0.03558061043,0.04941883165
1.53,-0.03337850157,0.05084483732
1.54,-0.03111757096,0.05217299285
1.55,-0.02880221566,0.05340077892
1.56,-0.02643694365,0.05452587864
1.57,-0.02402636424,0.05554618239
1.58,-0.02157517829,0.0564597923
1.59,-0.01908816823,0.05726502618
1.6,-0.01657018793,0.05796042099
1.61,-0.01402615243,0.05854473581
1.62,-0.01146102752,0.05901695439
1.63,-0.008879819272,0.05937628715
1.64,-0.006287563472,0.05962217263
1.65,-0.003689315007,0.05975427862
1.66,-0.001090137233,0.05977250256
1.67,0.00150490866,0.05967697165
1.68,0.004090774257,0.0594680423
1.69,0.006662434493,0.05914629921
1.7,0.009214898139,0.05871255386
1.71,0.01174321822,0.05816784259
1.72,0.01424250228,0.05751342414
1.73,0.01670792258,0.05675077675
1.74,0.01913472606,0.0558815948
1.75,0.02151824415,0.05490778494
1.76,0.02385390241,0.05383146182
1.77,0.0261372299,0.05265494338
1.78,0.02836386834,0.05138074569
1.79,0.030529581,0.05001157738
1.8,0.03263026132,0.04855033371
1.81,0.0346619412,0.04700009017
1.82,0.03662079902,0.04536409578
1.83,0.03850316727,0.04364576604
1.84,0.04030553994,0.04184867548
1.85,0.0420245794,0.03997654993
1.86,0.04365712303,0.03803325848
1.87,0.0452001894,0.03602280514
1.88,0.04665098404,0.03394932027
1.89,0.04800690486,0.03181705172
1.9,0.04926554707,0.02963035576
1.91,0.05042470771,0.02739368781
1.92,0.05148238975,0.02511159296
1.93,0.0524368057,0.02278869637
1.94,0.05328638078,0.02042969347
1.95,0.05402975568,0.01803934009
1.96,0.05466578875,0.01562244245
1.97,0.05519355787,0.01318384708
1.98,0.05561236165,0.01072843074
1.99,0.0559217204,0.008261090176
2,0.05612137639,0.00578673203
2.01,0.05621129382,0.003310262621
2.02,0.05619165822,0.0008365778297
2.03,0.05606287543,-0.001629446978
2.04,0.05582557008,-0.004082966959
2.05,0.05548058367,-0.006519177697
2.06,0.05502897211,-0.008933324997
2.07,0.05447200294,-0.01132071453
2.08,0.05381115198,-0.01367672133
2.09,0.05304809961,-0.01599679912
2.1,0.05218472671,-0.01827648939
2.11,0.05122311001,-0.02051143035
2.12,0.05016551725,-0.02269736557
2.13,0.04901440175,-0.02483015238
2.14,0.04777239682,-0.02690577003
2.15,0.04644230961,-0.02892032756
2.16,0.04502711477,-0.03087007133
2.17,0.04352994769,-0.03275139227
2.18,0.04195409747,-0.03456083278
2.19,0.04030299958,-0.03629509333
2.2,0.03858022823,-0.03795103861
2.21,0.0367894885,-0.0395257034
2.22,0.03493460822,-0.04101629802
2.23,0.03301952959,-0.0424202134
2.24,0.03104830066,-0.04373502575
2.25,0.02902506654,-0.04495850081
2.26,0.02695406053,-0.04608859768
2.27,0.02483959502,-0.0471234723
2.28,0.0226860523,-0.04806148037
2.29,0.02049787529,-0.04890117997
2.3,0.01827955812,-0.04964133366
2.31,0.01603563667,-0.05028091019
2.32,0.0137706791,-0.05081908574
2.33,0.01148927626,-0.05125524472
2.34,0.009196032224,-0.05158898018
2.35,0.006895554708,-0.0518200937
2.36,0.004592445612,-0.05194859491
2.37,0.002291291575,-0.05197470053
2.38,-3.345383798E-06,-0.05189883304
2.39,-0.00228693713,-0.05172161885
2.4,-0.004554998569,-0.05144388613
2.41,-0.006803096665,-0.05106666213
2.42,-0.009026859311,-0.05059117021
2.43,-0.01122198403,-0.05001882638
2.44,-0.0133842465,-0.04935123551
2.45,-0.01550950883,-0.04859018712
2.46,-0.0175937277,-0.04773765086
2.47,-0.01963296218,-0.04679577157
2.48,-0.02162338133,-0.04576686403
2.49,-0.02356127156,-0.04465340742
2.5,-0.02544304365,-0.04345803935
2.51,-0.02726523953,-0.04218354975
2.52,-0.02902453872,-0.04083287429
2.53,-0.03071776446,-0.03940908771
2.54,-0.03234188951,-0.03791539675
2.55,-0.03389404161,-0.03635513289
2.56,-0.03537150857,-0.03473174492
2.57,-0.03677174303,-0.03304879122
2.58,-0.03809236682,-0.03130993189
2.59,-0.03933117497,-0.02951892072
2.6,-0.04048613932,-0.02767959696
2.61,-0.04155541174,-0.02579587704
2.62,-0.04253732699,-0.02387174609
2.63,-0.04343040511,-0.02191124937
2.64,-0.0442333535,-0.0199184837
2.65,-0.04494506855,-0.01789758873
2.66,-0.04556463683,-0.01585273823
2.67,-0.04609133597,-0.01378813133
2.68,-0.04652463506,-0.01170798378
2.69,-0.04686419465,-0.009616519182
2.7,-0.04710986644,-0.007517960323
2.71,-0.04726169242,-0.00541652048
2.72,-0.04731990378,-0.003316394848
2.73,-0.04728491929,-0.00122175204
2.74,-0.04715734342,0.0008632743125
2.75,-0.04693796401,0.002934593831
2.76,-0.04662774955,0.00498816753
2.77,-0.04622784621,0.007020015795
2.78,-0.04573957437,0.009026226194
2.79,-0.04516442494,0.0110029611
2.8,-0.04450405526,0.01294646512
2.81,-0.04376028473,0.01485307228
2.82,-0.04293509006,0.01671921304
2.83,-0.04203060033,0.01854142098
2.84,-0.04104909164,0.02031633932
2.85,-0.03999298158,0.0220407271
2.86,-0.03886482341,0.02371146511
2.87,-0.03766729996,0.02532556154
2.88,-0.03640321735,0.02688015734
2.89,-0.03507549848,0.02837253117
2.9,-0.03368717626,0.0298001042
2.91,-0.03224138675,0.03116044444
2.92,-0.03074136208,0.0324512708
2.93,-0.02919042317,0.03367045679
2.94,-0.0275919724,0.03481603391
2.95,-0.02594948612,0.03588619462
2.96,-0.02426650702,0.03687929504
2.97,-0.02254663646,0.03779385719
2.98,-0.02079352672,0.03862857102
2.99,-0.01901087317,0.03938229587
3,-0.01720240644,0.04005406178
3.01,-0.01537188452,0.0406430703
3.02,-0.01352308492,0.04114869495
3.03,-0.01165979678,0.04157048141
3.04,-0.009785813056,0.04190814721
3.05,-0.007904922714,0.04216158121
3.06,-0.006020903024,0.0423308426
3.07,-0.004137511902,0.04241615966
3.08,-0.002258480358,0.04241792809
3.09,-0.0003875050503,0.04233670904
3.1,0.001471759035,0.04217322686
3.11,0.003315705767,0.0419283664
3.12,0.005140784903,0.04160317014
3.13,0.006943508948,0.04119883489
3.14,0.008720459846,0.0407167083
3.15,0.01046829547,0.04015828498
3.16,0.01218375589,0.03952520243
3.17,0.01386366949,0.03881923663
3.18,0.01550495877,0.03804229745
3.19,0.01710464594,0.03719642372
3.2,0.01865985834,0.03628377817
3.21,0.02016783347,0.03530664207
3.22,0.02162592384,0.03426740973
3.23,0.02303160155,0.03316858272
3.24,0.02438246254,0.03201276402
3.25,0.02567623056,0.0308026519
3.26,0.0269107609,0.02954103374
3.27,0.02808404374,0.0282307796
3.28,0.02919420723,0.0268748358
3.29,0.03023952029,0.02547621831
3.3,0.03121839503,0.02403800603
3.31,0.03212938891,0.02256333406
3.32,0.03297120657,0.02105538683
3.33,0.0337427013,0.01951739128
3.34,0.03444287624,0.01795260989
3.35,0.03507088525,0.01636433378
3.36,0.03562603343,0.01475587575
3.37,0.03610777736,0.01313056338
3.38,0.03651572498,0.01149173212
3.39,0.03684963522,0.009842718395
3.4,0.03710941726,0.008186852866
3.41,0.03729512949,0.006527453624
3.42,0.03740697825,0.004867819566
3.43,0.03744531613,0.003211223817
3.44,0.03741064011,0.001560907279
3.45,0.03730358935,-7.992771025E-05
3.46,0.03712494273,-0.001708123577
3.47,0.03687561611,-0.003320573574
3.48,0.03655665932,-0.004914227681
3.49,0.0361692529,-0.006486098343
3.5,0.03571470465,-0.008033266025
3.51,0.03519444583,-0.009552884581
3.52,0.03461002729,-0.01104218643
3.53,0.03396311522,-0.0124984875
3.54,0.03325548684,-0.01391919201
3.55,0.03248902581,-0.01530179696
3.56,0.03166571751,-0.01664389645
3.57,0.03078764409,-0.01794318572
3.58,0.02985697945,-0.01919746494
3.59,0.02887598397,-0.02040464281
3.6,0.02784699924,-0.02156273982
3.61,0.0267724425,-0.02266989133
3.62,0.02565480115,-0.02372435029
3.63,0.02449662702,-0.02472448982
3.64,0.02330053067,-0.02566880539
3.65,0.02206917551,-0.02655591678
3.66,0.02080527198,-0.02738456982
3.67,0.01951157158,-0.02815363775
3.68,0.01819086098,-0.02886212239
3.69,0.01684595597,-0.02950915495
3.7,0.01547969557,-0.0300939967
3.71,0.014094936,-0.03061603917
3.72,0.01269454477,-0.03107480428
3.73,0.01128139476,-0.03146994405
3.74,0.009858358345,-0.03180124014
3.75,0.008428301577,-0.03206860307
3.76,0.006994078464,-0.03227207117
3.77,0.005558525289,-0.03241180936
3.78,0.004124455043,-0.0324881076
3.79,0.002694651953,-0.03250137911
3.8,0.001271866123,-0.03245215839
3.81,-0.0001411916986,-0.03234109897
3.82,-0.001541855226,-0.03216897094
3.83,-0.002927507597,-0.03193665831
3.84,-0.004295586182,-0.03164515609
3.85,-0.00564358724,-0.03129556722
3.86,-0.006969070397,-0.03088909931
3.87,-0.00826966296,-0.03042706115
3.88,-0.009543064038,-0.0299108591
3.89,-0.01078704848,-0.02934199328
3.9,-0.01199947063,-0.02872205363
3.91,-0.01317826783,-0.02805271581
3.92,-0.0143214638,-0.02733573696
3.93,-0.01542717171,-0.02657295133
3.94,-0.01649359713,-0.02576626588
3.95,-0.01751904068,-0.02491765561
3.96,-0.0185019005,-0.02402915895
3.97,-0.0194406745,-0.02310287302
3.98,-0.02033396234,-0.02214094879
3.99,-0.02118046723,-0.02114558618
4,-0.02197899746,-0.02011902919
4.01,-0.02272846771,-0.01906356088
4.02,-0.02342790014,-0.01798149841
4.03,-0.02407642525,-0.016875188
4.04,-0.02467328244,-0.01574699994
4.05,-0.02521782047,-0.01459932357
4.06,-0.02570949756,-0.01343456227
4.07,-0.02614788135,-0.0122551285
4.08,-0.02653264859,-0.01106343887
4.09,-0.02686358466,-0.009861909242
4.1,-0.02714058278,-0.008652949881
4.11,-0.02736364312,-0.007438960711
4.12,-0.02753287163,-0.006222326599
4.13,-0.02764847867,-0.005005412751
4.14,-0.02771077748,-0.003790560187
4.15,-0.02772018241,-0.00258008132
4.16,-0.027677207,-0.001376255643
4.17,-0.02758246183,-0.0001813255347
4.18,-0.0274366523,0.001002507819
4.19,-0.0272405761,0.002173088361
4.2,-0.02699512061,0.003328308975
4.21,-0.02670126015,0.004466115139
4.22,-0.02636005303,0.005584508444
4.23,-0.02597263852,0.006681549945
4.24,-0.02554023366,0.00775536336
4.25,-0.02506412993,0.008804138098
4.26,-0.02454568985,0.00982613212
4.27,-0.02398634344,0.01081967463
4.28,-0.02338758463,0.01178316858
4.29,-0.02275096751,0.01271509299
4.3,-0.02207810257,0.01361400512
4.31,-0.02137065282,0.01447854243
4.32,-0.02063032992,0.0153074243
4.33,-0.01985889014,0.0160994537
4.34,-0.01905813041,0.01685351852
4.35,-0.01822988425,0.01756859281
4.36,-0.01737601769,0.0182437378
4.37,-0.01649842519,0.01887810269
4.38,-0.01559902556,0.01947092534
4.39,-0.01467975786,0.02002153267
4.4,-0.01374257728,0.02052934097
4.41,-0.01278945114,0.02099385594
4.42,-0.01182235479,0.02141467259
4.43,-0.01084326766,0.021791475
4.44,-0.009854169244,0.02212403579
4.45,-0.008857035229,0.02241221554
4.46,-0.007853833619,0.02265596194
4.47,-0.006846520951,0.02285530888
4.48,-0.00583703858,0.02301037524
4.49,-0.004827309036,0.02312136366
4.5,-0.003819232469,0.02318855906
4.51,-0.002814683194,0.02321232706
4.52,-0.001815506315,0.02319311225
4.53,-0.0008235144748,0.0231314363
4.54,0.0001595153081,0.02302789598
4.55,0.001131844672,0.02288316101
4.56,0.002091776837,0.02269797185
4.57,0.003037659402,0.02247313726
4.58,0.003967887013,0.02220953194
4.59,0.004880903909,0.02190809387
4.6,0.005775206325,0.0215698217
4.61,0.006649344756,0.021195772
4.62,0.007501926096,0.02078705641
4.63,0.008331615611,0.02034483878
4.64,0.009137138789,0.01987033216
4.65,0.009917283031,0.01936479581
4.66,0.0106708992,0.01882953214
4.67,0.011396903,0.01826588354
4.68,0.01209427626,0.01767522928
4.69,0.01276206799,0.0170589823
4.7,0.01339939537,0.016418586
4.71,0.01400544448,0.01575551105
4.72,0.01457947104,0.0150712521
4.73,0.01512080081,0.01436732461
4.74,0.01562883002,0.01364526156
4.75,0.01610302551,0.01290661028
4.76,0.01654292485,0.01215292924
4.77,0.0169481362,0.01138578484
4.78,0.01731833812,0.01060674832
4.79,0.0176532792,0.009817392601
4.8,0.01795277758,0.009019289229
4.81,0.01821672027,0.008214005376
4.82,0.01844506248,0.007403100858
4.83,0.01863782664,0.006588125226
4.84,0.01879510149,0.005770614929
4.85,0.01891704089,0.004952090536
4.86,0.01900386265,0.004134054034
4.87,0.01905584711,0.003317986206
4.88,0.01907333578,0.002505344092
4.89,0.01905672974,0.001697558528
4.9,0.01900648801,0.0008960317859
4.91,0.01892312584,0.000102135297
4.92,0.01880721287,-0.0006827925206
4.93,0.01865937124,-0.00145744834
4.94,0.01848027363,-0.0022205659
4.95,0.01827064123,-0.002970917875
4.96,0.01803124161,-0.003707317636
4.97,0.01776288657,-0.00442862091
4.98,0.01746642992,-0.00513372732
4.99,0.01714276523,-0.005821581819
5,0.01679282352,-0.006491176011
5.01,0.01641757091,-0.007141549357
5.02,0.01601800625,-0.007771790269
5.03,0.0155951587,-0.008381037085
5.04,0.01515008535,-0.008968478933
5.05,0.01468386875,-0.009533356483
5.06,0.01419761448,-0.01007496258
5.07,0.01369244869,-0.01059264276
5.08,0.01316951564,-0.01108579567
5.09,0.01262997527,-0.01155387336
5.1,0.01207500077,-0.01199638147
5.11,0.01150577613,-0.01241287931
5.12,0.01092349377,-0.01280297982
5.13,0.01032935214,-0.01316634946
5.14,0.009724553374,-0.01350270796
5.15,0.009110301,-0.01381182799
5.16,0.008487797632,-0.01409353472
5.17,0.007858242749,-0.01434770528
5.18,0.0072228305,-0.01457426818
5.19,0.006582747561,-0.01477320254
5.2,0.005939171047,-0.01494453734
5.21,0.005293266477,-0.01508835051
5.22,0.004646185799,-0.01520476799
5.23,0.003999065473,-0.01529396266
5.24,0.003353024625,-0.01535615326
5.25,0.002709163268,-0.01539160322
5.26,0.00206856058,-0.01540061936
5.27,0.001432273276,-0.01538355064
5.28,0.0008013340305,-0.01534078676
5.29,0.0001767499934,-0.01527275677
5.3,-0.0004404986273,-0.01517992757
5.31,-0.0010494599,-0.0150628024
5.32,-0.001649211423,-0.0149219193
5.33,-0.002238861504,-0.01475784952
5.34,-0.002817550246,-0.01457119585
5.35,-0.003384450564,-0.014362591
5.36,-0.00393876911,-0.0141326959
5.37,-0.004479747118,-0.01388219799
5.38,-0.005006661165,-0.01361180951
5.39,-0.005518823852,-0.01332226573
5.4,-0.006015584399,-0.01301432324
5.41,-0.006496329158,-0.01268875815
5.42,-0.006960482046,-0.01234636437
5.43,-0.007407504898,-0.01198795183
5.44,-0.007836897738,-0.01161434473
5.45,-0.00824819897,-0.0112263798
5.46,-0.008640985498,-0.01082490456
5.47,-0.009014872764,-0.0104107756
5.48,-0.009369514711,-0.009984856874
5.49,-0.009704603681,-0.009548018043
5.5,-0.01001987023,-0.009101132787
5.51,-0.01031508289,-0.008645077198
5.52,-0.01059004785,-0.008180728169
5.53,-0.01084460856,-0.007708961832
5.54,-0.01107864532,-0.007230652022
5.55,-0.01129207477,-0.006746668784
5.56,-0.01148484929,-0.006257876917
5.57,-0.01165695647,-0.005765134558
5.58,-0.01180841833,-0.005269291811
5.59,-0.01193929069,-0.004771189425
5.6,-0.01204966238,-0.00427165751
5.61,-0.01213965441,-0.003771514311
5.62,-0.01220941913,-0.003271565024
5.63,-0.01225913932,-0.002772600672
5.64,-0.0122890273,-0.002275397022
5.65,-0.01229932392,-0.001780713567
5.66,-0.0122902976,-0.001289292551
5.67,-0.01226224328,-0.0008018580571
5.68,-0.01221548138,-0.0003191151478
5.69,-0.01215035676,0.0001582509417
5.7,-0.01206723756,0.0006295755504
5.71,-0.01196651417,0.001094215284
5.72,-0.01184859805,0.001551548653
5.73,-0.01171392062,0.002000976652
5.74,-0.0115629321,0.002441923283
5.75,-0.0113961004,0.002873836032
5.76,-0.01121390991,0.003296186277
5.77,-0.01101686039,0.003708469652
5.78,-0.01080546579,0.004110206356
5.79,-0.01058025311,0.004500941409
5.8,-0.01034176126,0.004880244852
5.81,-0.01009053992,0.005247711901
5.82,-0.009827148375,0.005602963055
5.83,-0.009552154475,0.005945644144
5.84,-0.009266133471,0.006275426345
5.85,-0.008969666953,0.006592006137
5.86,-0.008663341786,0.006895105223
5.87,-0.008347749054,0.007184470408
5.88,-0.008023483036,0.007459873427
5.89,-0.007691140202,0.007721110743
5.9,-0.007351318235,0.007968003303
5.91,-0.007004615069,0.008200396259
5.92,-0.006651627968,0.00841815865
5.93,-0.00629295262,0.008621183061
5.94,-0.005929182265,0.008809385235
5.95,-0.005560906854,0.008982703675
5.96,-0.005188712236,0.009141099202
5.97,-0.004813179371,0.009284554497
5.98,-0.004434883587,0.009413073616
5.99,-0.004054393859,0.009526681482
6,-0.00367227212,0.00962542336
