"Freq [GHz]","re(S(Tx_p1,Tx_p1)) []","im(S(Tx_p1,Tx_p1)) []"
1,-0.0393599206,-0.08260219659
1.01,-0.04246108974,-0.08100088043
1.02,-0.04550844898,-0.07928094127
1.03,-0.04849713564,-0.07744397675
1.04,-0.05142235409,-0.07549178117
1.05,-0.05427938059,-0.07342634068
1.06,-0.05706356791,-0.07124982882
1.07,-0.05977034967,-0.06896460226
1.08,-0.06239524453,-0.06657319684
1.09,-0.06493386031,-0.06407832386
1.1,-0.0673818979,-0.06148286658
1.11,-0.06973515522,-0.05878987703
1.12,-0.07198953121,-0.05600257299
1.13,-0.07414102971,-0.05312433519
1.14,-0.07618576361,-0.05015870471
1.15,-0.07811995895,-0.04710938048
1.16,-0.07993995926,-0.04398021699
1.17,-0.08164223001,-0.040775222
1.18,-0.08322336331,-0.03749855437
1.19,-0.08468008278,-0.0341545219
1.2,-0.08600924866,-0.03074757913
1.21,-0.08720786315,-0.02728232513
1.22,-0.08827307607,-0.02376350112
1.23,-0.0892021907,-0.02019598798
1.24,-0.08999266989,-0.01658480362
1.25,-0.09064214247,-0.01293510005
1.26,-0.09114840983,-0.00925216021
1.27,-0.09150945282,-0.005541394458
1.28,-0.09172343875,-0.001808336754
1.29,-0.09178872868,0.001941359608
1.3,-0.09170388483,0.005701926682
1.31,-0.09146767811,0.009467487028
1.32,-0.09107909578,0.01323205938
1.33,-0.09053734913,0.01698956486
1.34,-0.08984188126,0.02073383375
1.35,-0.08899237471,0.02445861284
1.36,-0.08798875913,0.02815757347
1.37,-0.0868312188,0.03182432008
1.38,-0.08552019991,0.03545239953
1.39,-0.08405641771,0.03903531099
1.4,-0.08244086328,0.04256651654
1.41,-0.08067481004,0.04603945238
1.42,-0.0787598198,0.04944754077
1.43,-0.07669774837,0.05278420256
1.44,-0.07449075066,0.05604287032
1.45,-0.07214128517,0.0592170022
1.46,-0.06965211789,0.06230009623
1.47,-0.06702632549,0.06528570528
1.48,-0.06426729771,0.06816745251
1.49,-0.06137873906,0.07093904728
1.5,-0.05836466954,0.07359430154
1.51,-0.05522942459,0.07612714655
1.52,-0.05197765395,0.07853165
1.53,-0.04861431969,0.08080203337
1.54,-0.04514469308,0.08293268946
1.55,-0.0415743505,0.08491820022
1.56,-0.03790916818,0.08675335445
1.57,-0.03415531593,0.08843316572
1.58,-0.03031924961,0.08995289005
1.59,-0.0264077026,0.09130804358
1.6,-0.02242767598,0.09249441997
1.61,-0.01838642767,0.09350810746
1.62,-0.01429146031,0.09434550563
1.63,-0.01015050811,0.09500334166
1.64,-0.005971522458,0.09547868604
1.65,-0.001762656503,0.09576896766
1.66,0.002467751386,0.09587198821
1.67,0.006711195203,0.0957859358
1.68,0.01095901989,0.09550939769
1.69,0.01520244089,0.0950413721
1.7,0.01943256465,0.09438127901
1.71,0.02364040988,0.09352896986
1.72,0.02781692977,0.09248473614
1.73,0.03195303479,0.09124931673
1.74,0.03603961622,0.08982390399
1.75,0.04006757028,0.0882101485
1.76,0.04402782269,0.08641016246
1.77,0.04791135375,0.08442652165
1.78,0.05170922366,0.08226226593
1.79,0.05541259809,0.07992089826
1.8,0.059012774,0.0774063822
1.81,0.06250120534,0.07472313785
1.82,0.06586952885,0.07187603627
1.83,0.06910958961,0.06887039233
1.84,0.07221346641,0.06571195602
1.85,0.07517349672,0.06240690214
1.86,0.07798230121,0.05896181851
1.87,0.08063280776,0.05538369269
1.88,0.08311827475,0.05167989711
1.89,0.08543231368,0.04785817284
1.9,0.08756891083,0.04392661186
1.91,0.08952244812,0.03989363807
1.92,0.09128772276,0.03576798685
1.93,0.09285996598,0.03155868349
1.94,0.09423486037,0.02727502034
1.95,0.09540855605,0.02292653293
1.96,0.09637768545,0.01852297497
1.97,0.09713937664,0.01407429245
1.98,0.09769126519,0.009590596892
1.99,0.09803150448,0.005082137744
2,0.09815877439,0.0005592741987
2.01,0.09807228834,-0.003967553624
2.02,0.09777179867,-0.00848785395
2.03,0.09725760025,-0.01299111299
2.04,0.0965305324,-0.01746682484
2.05,0.09559197898,-0.02190452152
2.06,0.09444386677,-0.02629380307
2.07,0.09308866204,-0.03062436753
2.08,0.09152936532,-0.03488604079
2.09,0.08976950447,-0.03906880609
2.1,0.08781312595,-0.04316283312
2.11,0.0856647844,-0.04715850666
2.12,0.08332953053,-0.05104645445
2.13,0.08081289739,-0.05481757452
2.14,0.07812088497,-0.0584630615
2.15,0.0752599434,-0.06197443213
2.16,0.0722369545,-0.06534354966
2.17,0.06905921208,-0.06856264714
2.18,0.06573440078,-0.07162434958
2.19,0.06227057372,-0.07452169468
2.2,0.05867612898,-0.07724815235
2.21,0.0549597849,-0.07979764264
2.22,0.05113055452,-0.08216455232
2.23,0.04719771905,-0.0843437498
2.24,0.04317080054,-0.08633059846
2.25,0.03905953386,-0.08812096838
2.26,0.03487383814,-0.08971124632
2.27,0.03062378769,-0.091098344
2.28,0.02631958258,-0.09227970468
2.29,0.02197151888,-0.09325330791
2.3,0.01758995893,-0.09401767254
2.31,0.01318530136,-0.09457185805
2.32,0.008767951385,-0.09491546397
2.33,0.00434829113,-0.09504862768
2.34,-6.334964827E-05,-0.09497202043
2.35,-0.004456722489,-0.0946868417
2.36,-0.008821688632,-0.09419481184
2.37,-0.01314824682,-0.09349816318
2.38,-0.01742656042,-0.09259962951
2.39,-0.0216469837,-0.09150243407
2.4,-0.02580008728,-0.09021027607
2.41,-0.02987668255,-0.08872731586
2.42,-0.03386784514,-0.08705815876
2.43,-0.03776493712,-0.08520783761
2.44,-0.04155962816,-0.08318179427
2.45,-0.04524391534,-0.08098585992
2.46,-0.04881014167,-0.07862623447
2.47,-0.05225101327,-0.07610946503
2.48,-0.05555961513,-0.07344242355
2.49,-0.05872942544,-0.07063228383
2.5,-0.0617543284,-0.06768649784
2.51,-0.06462862564,-0.0646127716
2.52,-0.067347046,-0.06141904056
2.53,-0.06990475389,-0.05811344478
2.54,-0.07229735604,-0.05470430378
2.55,-0.07452090684,-0.05120009132
2.56,-0.076571912,-0.04760941024
2.57,-0.07844733093,-0.04394096721
2.58,-0.08014457743,-0.0402035478
2.59,-0.08166151907,-0.03640599171
2.6,-0.08299647516,-0.03255716844
2.61,-0.08414821325,-0.02866595326
2.62,-0.08511594442,-0.02474120383
2.63,-0.08589931722,-0.02079173733
2.64,-0.08649841044,-0.01682630825
2.65,-0.08691372464,-0.01285358693
2.66,-0.08714617272,-0.008882138888
2.67,-0.0871970693,-0.004920404999
2.68,-0.08706811924,-0.0009766825487
2.69,-0.08676140526,0.00294089274
2.7,-0.0862793747,0.006824363702
2.71,-0.0856248256,0.0106659677
2.72,-0.08480089203,0.01445815156
2.73,-0.08381102895,0.01819358537
2.74,-0.0826589965,0.02186517528
2.75,-0.08134884381,0.02546607513
2.76,-0.0798848926,0.02898969694
2.77,-0.07827172041,0.03242972039
2.78,-0.07651414362,0.03578010105
2.79,-0.07461720045,0.03903507766
2.8,-0.07258613384,0.0421891782
2.81,-0.07042637435,0.04523722497
2.82,-0.06814352321,0.0481743386
2.83,-0.06574333548,0.05099594107
2.84,-0.06323170344,0.05369775772
2.85,-0.06061464031,0.05627581839
2.86,-0.05789826419,0.05872645755
2.87,-0.05508878252,0.0610463137
2.88,-0.05219247687,0.06323232785
2.89,-0.04921568826,0.06528174138
2.9,-0.04616480292,0.06719209299
2.91,-0.04304623871,0.06896121525
2.92,-0.03986643196,0.07058723033
2.93,-0.03663182505,0.0720685453
2.94,-0.0333488545,0.07340384695
2.95,-0.03002393973,0.07459209614
2.96,-0.02666347243,0.07563252178
2.97,-0.02327380659,0.07652461455
2.98,-0.0198612492,0.07726812026
2.99,-0.0164320515,0.07786303313
3,-0.01299240092,0.07830958878
3.01,-0.009548413628,0.07860825723
3.02,-0.006106127657,0.07875973579
3.03,-0.002671496624,0.07876494192
3.04,0.0007496160143,0.07862500621
3.05,0.004151442163,0.07834126532
3.06,0.007528313803,0.07791525513
3.07,0.01087466724,0.07734870397
3.08,0.01418504692,0.07664352605
3.09,0.01745410884,0.07580181512
3.1,0.02067662365,0.07482583828
3.11,0.02384747935,0.07371803012
3.12,0.02696168378,0.07248098704
3.13,0.0300143669,0.0711174619
3.14,0.03300078273,0.06963035889
3.15,0.03591631133,0.06802272875
3.16,0.03875646049,0.06629776418
3.17,0.04151686745,0.0644587956
3.18,0.04419330054,0.06250928711
3.19,0.04678166081,0.06045283277
3.2,0.04927798374,0.05829315303
3.21,0.05167844093,0.05603409146
3.22,0.05397934199,0.05367961163
3.23,0.05617713643,0.05123379417
3.24,0.05826841584,0.04870083395
3.25,0.0602499161,0.04608503743
3.26,0.06211851989,0.04339082003
3.27,0.06387125933,0.04062270359
3.28,0.06550531887,0.03778531383
3.29,0.06701803842,0.03488337775
3.3,0.06840691664,0.03192172104
3.31,0.06966961456,0.02890526536
3.32,0.07080395934,0.02583902543
3.33,0.07180794831,0.02272810608
3.34,0.07267975318,0.01957769893
3.35,0.07341772448,0.01639307893
3.36,0.07402039613,0.01317960064
3.37,0.07448649024,0.009942694073
3.38,0.07481492199,0.006687860315
3.39,0.07500480459,0.003420666714
3.4,0.07505545442,0.0001467416715
3.41,0.07496639608,-0.003128230989
3.42,0.07473736751,-0.006398518101
3.43,0.07436832511,-0.009658343706
3.44,0.07385944869,-0.01290189609
3.45,0.07321114639,-0.01612333529
3.46,0.07242405934,-0.01931680117
3.47,0.07149906622,-0.0224764219
3.48,0.07043728748,-0.02559632306
3.49,0.06924008928,-0.02867063715
3.5,0.06790908705,-0.03169351364
3.51,0.06644614871,-0.03465912954
3.52,0.06485339741,-0.03756170036
3.53,0.0631332137,-0.04039549157
3.54,0.0612882373,-0.04315483048
3.55,0.05932136815,-0.04583411851
3.56,0.05723576693,-0.0484278438
3.57,0.05503485485,-0.05093059421
3.58,0.0527223127,-0.05333707052
3.59,0.0503020793,-0.05564209994
3.6,0.047778349,-0.0578406498
3.61,0.04515556845,-0.05992784136
3.62,0.04243843259,-0.06189896379
3.63,0.03963187967,-0.06374948804
3.64,0.03674108549,-0.06547508088
3.65,0.03377145672,-0.06707161872
3.66,0.0307286233,-0.06853520133
3.67,0.02761843,-0.06986216538
3.68,0.02444692698,-0.07104909768
3.69,0.02122035958,-0.07209284815
3.7,0.01794515708,-0.07299054226
3.71,0.0146279207,-0.07373959317
3.72,0.01127541066,-0.07433771325
3.73,0.007894532486,-0.074782925
3.74,0.004492322416,-0.0750735714
3.75,0.001075932117,-0.07520832545
3.76,-0.002347387379,-0.075186199
3.77,-0.005770302416,-0.07500655072
3.78,-0.009185414104,-0.07466909322
3.79,-0.0125852763,-0.07417389919
3.8,-0.01596241413,-0.0735214066
3.81,-0.01930934301,-0.07271242284
3.82,-0.02261858803,-0.0717481278
3.83,-0.02588270377,-0.07063007586
3.84,-0.02909429433,-0.06936019673
3.85,-0.03224603363,-0.0679407951
3.86,-0.0353306858,-0.06637454915
3.87,-0.03834112565,-0.06466450784
3.88,-0.04127035914,-0.06281408693
3.89,-0.04411154377,-0.06082706387
3.9,-0.04685800875,-0.05870757134
3.91,-0.04950327495,-0.05646008971
3.92,-0.05204107454,-0.05408943813
3.93,-0.05446537015,-0.05160076454
3.94,-0.05677037364,-0.04899953445
3.95,-0.05895056418,-0.04629151853
3.96,-0.06100070582,-0.04348277917
3.97,-0.06291586422,-0.04057965585
3.98,-0.06469142266,-0.0375887495
3.99,-0.06632309717,-0.0345169059
4,-0.06780695072,-0.03137119807
4.01,-0.06913940644,-0.02815890781
4.02,-0.07031725977,-0.02488750635
4.03,-0.07133768951,-0.02156463433
4.04,-0.07219826772,-0.01819808097
4.05,-0.07289696839,-0.01479576267
4.06,-0.07343217488,-0.01136570107
4.07,-0.07380268608,-0.007916000602
4.08,-0.07400772125,-0.004454825666
4.09,-0.07404692348,-0.0009903774796
4.1,-0.07392036186,0.002469129278
4.11,-0.0736285322,0.005915489974
4.12,-0.07317235639,0.00934053358
4.13,-0.07255318037,0.01273614619
4.14,-0.0717727707,0.01609429444
4.15,-0.07083330977,0.01940704866
4.16,-0.0697373896,0.02266660578
4.17,-0.06848800431,0.02586531187
4.18,-0.06708854132,0.02899568411
4.19,-0.06554277115,0.03205043232
4.2,-0.06385483607,0.03502247979
4.21,-0.06202923749,0.03790498344
4.22,-0.06007082215,0.04069135315
4.23,-0.05798476728,0.04337527026
4.24,-0.05577656463,0.04595070513
4.25,-0.05345200354,0.04841193375
4.26,-0.05101715307,0.05075355323
4.27,-0.04847834326,0.05297049623
4.28,-0.04584214564,0.05505804423
4.29,-0.04311535296,0.0570118396
4.3,-0.04030495833,0.05882789641
4.31,-0.03741813382,0.06050260994
4.32,-0.03446220854,0.06203276497
4.33,-0.03144464637,0.06341554263
4.34,-0.02837302339,0.06464852598
4.35,-0.02525500504,0.06572970419
4.36,-0.02209832325,0.06665747535
4.37,-0.01891075343,0.06743064794
4.38,-0.0157000916,0.06804844089
4.39,-0.01247413153,0.06851048232
4.4,-0.009240642235,0.06881680692
4.41,-0.006007345648,0.06896785207
4.42,-0.002781894766,0.06896445256
4.43,0.0004281478086,0.06880783418
4.44,0.003615330762,0.06849960597
4.45,0.006772334362,0.06804175143
4.46,0.009891990075,0.06743661846
4.47,0.01296729944,0.06668690832
4.48,0.01599145212,0.06579566351
4.49,0.01895784314,0.06476625477
4.5,0.02186008912,0.06360236703
4.51,0.02469204363,0.06230798469
4.52,0.02744781149,0.06088737602
4.53,0.03012176202,0.05934507691
4.54,0.0327085412,0.057685874
4.55,0.03520308275,0.05591478721
4.56,0.03760061804,0.0540370519
4.57,0.03989668485,0.05205810051
4.58,0.04208713495,0.04998354396
4.59,0.04416814055,0.04781915282
4.6,0.04613619951,0.04557083824
4.61,0.04798813941,0.04324463288
4.62,0.04972112042,0.04084667176
4.63,0.05133263706,0.03838317322
4.64,0.05282051879,0.03586042
4.65,0.05418292947,0.03328474048
4.66,0.05541836576,0.03066249033
4.67,0.05652565446,0.02800003431
4.68,0.0575039488,0.02530372865
4.69,0.05835272379,0.02257990379
4.7,0.0590717706,0.01983484769
4.71,0.05966119003,0.01707478965
4.72,0.06012138521,0.01430588487
4.73,0.06045305343,0.01153419954
4.74,0.06065717726,0.008765696755
4.75,0.06073501502,0.006006223094
4.76,0.06068809059,0.003261496023
4.77,0.06051818269,0.0005370920906
4.78,0.06022731362,-0.002161564058
4.79,0.05981773761,-0.004829209803
4.8,0.05929192879,-0.007460753826
4.81,0.05865256881,-0.0100512845
4.82,0.05790253423,-0.01259607744
4.83,0.05704488375,-0.0150906021
4.84,0.05608284526,-0.01753052761
4.85,0.0550198029,-0.01991172765
4.86,0.05385928399,-0.02223028453
4.87,0.05260494617,-0.0244824924
4.88,0.05126056445,-0.02666485969
4.89,0.04983001863,-0.02877411073
4.9,0.04831728069,-0.03080718658
4.91,0.04672640264,-0.03276124519
4.92,0.04506150453,-0.03463366081
4.93,0.04332676284,-0.03642202273
4.94,0.04152639924,-0.03812413347
4.95,0.03966466977,-0.03973800626
4.96,0.03774585439,-0.0412618621
4.97,0.03577424709,-0.04269412621
4.98,0.03375414641,-0.04403342413
4.99,0.03168984648,-0.04527857728
5,0.02958562862,-0.04642859832
5.01,0.0274457534,-0.04748268601
5.02,0.0252744533,-0.04844021996
5.03,0.02307592588,-0.04930075505
5.04,0.02085432752,-0.05006401569
5.05,0.01861376765,-0.05072988999
5.06,0.01635830356,-0.05129842381
5.07,0.01409193573,-0.05176981472
5.08,0.01181860365,-0.05214440603
5.09,0.009542182131,-0.05242268079
5.1,0.007266478096,-0.05260525589
5.11,0.004995227859,-0.05269287625
5.12,0.002732094775,-0.05268640916
5.13,0.0004806673318,-0.05258683874
5.14,-0.001755542399,-0.05239526065
5.15,-0.003973099961,-0.05211287698
5.16,-0.0061686494,-0.05174099139
5.17,-0.008338913875,-0.05128100448
5.18,-0.01048069601,-0.05073440948
5.19,-0.01259087806,-0.05010278815
5.2,-0.01466642184,-0.04938780702
5.21,-0.01670436862,-0.04859121392
5.22,-0.01870183876,-0.04771483481
5.23,-0.02065603141,-0.04676057083
5.24,-0.0225642241,-0.04573039579
5.25,-0.02442377233,-0.04462635377
5.26,-0.02623210918,-0.04345055717
5.27,-0.02798674499,-0.04220518484
5.28,-0.02968526712,-0.04089248061
5.29,-0.03132533979,-0.03951475199
5.3,-0.03290470411,-0.03807436902
5.31,-0.03442117821,-0.0365737634
5.32,-0.03587265758,-0.03501542775
5.33,-0.0372571156,-0.03340191497
5.34,-0.03857260426,-0.03173583773
5.35,-0.03981725517,-0.03001986808
5.36,-0.04098928067,-0.02825673705
5.37,-0.04208697538,-0.0264492343
5.38,-0.04310871777,-0.02460020774
5.39,-0.04405297214,-0.02271256315
5.4,-0.04491829081,-0.02078926367
5.41,-0.04570331648,-0.01883332923
5.42,-0.04640678489,-0.01684783581
5.43,-0.04702752769,-0.01483591459
5.44,-0.04756447553,-0.01280075082
5.45,-0.04801666126,-0.01074558253
5.46,-0.04838322343,-0.00867369901
5.47,-0.04866340984,-0.006588438949
5.48,-0.04885658128,-0.004493188331
5.49,-0.04896221534,-0.002391377996
5.5,-0.0489799103,-0.0002864808652
5.51,-0.04890938908,0.001817991177
5.52,-0.04875050323,0.003918490775
5.53,-0.04850323682,0.006011438969
5.54,-0.04816771035,0.008093229443
5.55,-0.0477441846,0.01016023316
5.56,-0.04723306425,0.01220880342
5.57,-0.04663490147,0.01423528125
5.58,-0.04595039923,0.01623600123
5.59,-0.04518041443,0.01820729774
5.6,-0.04432596071,0.02014551146
5.61,-0.04338821107,0.02204699635
5.62,-0.04236850003,0.02390812689
5.63,-0.0412683255,0.02572530576
5.64,-0.04008935022,0.02749497164
5.65,-0.0388334028,0.02921360751
5.66,-0.03750247829,0.03087774901
5.67,-0.03609873822,0.03248399317
5.68,-0.03462451021,0.03402900724
5.69,-0.03308228695,0.03550953771
5.7,-0.03147472472,0.03692241948
5.71,-0.02980464129,0.03826458507
5.72,-0.02807501322,0.03953307389
5.73,-0.02628897257,0.04072504155
5.74,-0.02444980305,0.04183776906
5.75,-0.02256093549,0.042868672
5.76,-0.02062594272,0.04381530959
5.77,-0.01864853385,0.04467539349
5.78,-0.01663254789,0.04544679652
5.79,-0.01458194685,0.04612756098
5.8,-0.01250080818,0.04671590679
5.81,-0.01039331663,0.0472102392
5.82,-0.008263755573,0.04760915613
5.83,-0.006116497804,0.04791145511
5.84,-0.003955995785,0.0481161397
5.85,-0.001786771419,0.0482224254
5.86,0.0003865946318,0.04822974506
5.87,0.002559474063,0.04813775363
5.88,0.004727202428,0.04794633236
5.89,0.00688509099,0.04765559227
5.9,0.009028438892,0.04726587703
5.91,0.01115254558,0.04677776507
5.92,0.01325272348,0.04619207096
5.93,0.0153243108,0.04550984611
5.94,0.01736268451,0.04473237862
5.95,0.01936327338,0.0438611924
5.96,0.02132157105,0.04289804552
5.97,0.02323314903,0.04184492771
5.98,0.02509366975,0.04070405714
5.99,0.02689889932,0.0394778763
6,0.02864472021,0.03816904724
