"Freq [GHz]","re(S(Tx_p1,Tx_p1)) []","im(S(Tx_p1,Tx_p1)) []"
1,-0.02152043587,-0.05890037666
1.01,-0.02382372324,-0.05802055103
1.02,-0.02609888947,-0.05704458049
1.03,-0.02834135747,-0.05597320051
1.04,-0.03054658144,-0.05480738444
1.05,-0.0327100586,-0.05354834072
1.06,-0.03482734075,-0.05219750961
1.07,-0.03689404562,-0.05075655943
1.08,-0.03890586797,-0.04922738233
1.09,-0.04085859047,-0.04761208953
1.1,-0.0427480943,-0.04591300616
1.11,-0.04457036943,-0.04413266565
1.12,-0.04632152466,-0.04227380361
1.13,-0.04799779727,-0.04033935133
1.14,-0.04959556234,-0.03833242888
1.15,-0.05111134177,-0.0362563378
1.16,-0.0525418128,-0.03411455337
1.17,-0.05388381628,-0.03191071654
1.18,-0.05513436441,-0.02964862556
1.19,-0.05629064809,-0.02733222719
1.2,-0.05735004392,-0.02496560769
1.21,-0.05831012058,-0.02255298341
1.22,-0.05916864489,-0.02009869126
1.23,-0.05992358737,-0.01760717877
1.24,-0.0605731272,-0.01508299408
1.25,-0.0611156569,-0.01253077557
1.26,-0.06154978629,-0.00995524145
1.27,-0.06187434606,-0.007361179112
1.28,-0.06208839083,-0.004753434355
1.29,-0.06219120165,-0.002136900528
1.3,-0.06218228799,0.0004834924358
1.31,-0.06206138919,0.003102789037
1.32,-0.06182847543,0.00571601927
1.33,-0.06148374811,0.008318209689
1.34,-0.06102763977,0.01090439448
1.35,-0.06046081342,0.01346962645
1.36,-0.05978416138,0.01600898805
1.37,-0.05899880365,0.01851760221
1.38,-0.05810608565,0.0209906431
1.39,-0.05710757558,0.02342334681
1.4,-0.05600506122,0.02581102183
1.41,-0.05480054622,0.02814905933
1.42,-0.05349624597,0.03043294328
1.43,-0.05209458295,0.03265826038
1.44,-0.05059818168,0.03482070962
1.45,-0.04900986313,0.03691611176
1.46,-0.04733263881,0.03894041836
1.47,-0.04556970436,0.04088972059
1.48,-0.04372443282,0.04276025772
1.49,-0.04180036737,0.04454842524
1.5,-0.0398012139,0.04625078264
1.51,-0.03773083306,0.04786406082
1.52,-0.0355932321,0.04938516909
1.53,-0.03339255626,0.05081120181
1.54,-0.03113308005,0.05213944457
1.55,-0.02881919809,0.05336737995
1.56,-0.02645541578,0.05449269287
1.57,-0.02404633974,0.05551327543
1.58,-0.02159666801,0.05642723137
1.59,-0.01911118009,0.05723287997
1.6,-0.01659472683,0.05792875955
1.61,-0.01405222009,0.05851363046
1.62,-0.01148862245,0.05898647754
1.63,-0.008908936621,0.05934651214
1.64,-0.006318194961,0.05959317365
1.65,-0.003721448844,0.05972613048
1.66,-0.001123758037,0.05974528058
1.67,0.001469819929,0.05965075146
1.68,0.004054240362,0.0594428997
1.69,0.006624481966,0.05912230996
1.7,0.009175557333,0.05868979352
1.71,0.01170252334,0.05814638632
1.72,0.01420049142,0.05749334652
1.73,0.01666463774,0.05673215159
1.74,0.01909021313,0.05586449491
1.75,0.02147255294,0.05489228198
1.76,0.02380708664,0.05381762608
1.77,0.02608934715,0.05264284355
1.78,0.02831498006,0.0513704487
1.79,0.03047975245,0.05000314816
1.8,0.0325795615,0.048543835
1.81,0.0346104428,0.04699558231
1.82,0.03656857836,0.04536163653
1.83,0.03845030422,0.04364541034
1.84,0.0402521178,0.04185047527
1.85,0.0419706848,0.03998055395
1.86,0.04360284584,0.03803951209
1.87,0.04514562256,0.03603135011
1.88,0.04659622348,0.0339601946
1.89,0.04795204929,0.03183028947
1.9,0.04921069787,0.02964598685
1.91,0.05036996874,0.02741173787
1.92,0.05142786717,0.02513208316
1.93,0.05238260779,0.02281164327
1.94,0.05323261774,0.02045510888
1.95,0.05397653941,0.01806723089
1.96,0.05461323268,0.01565281051
1.97,0.05514177666,0.01321668911
1.98,0.05556147105,0.01076373818
1.99,0.05587183693,0.008298849111
2,0.05607261713,0.005826923073
2.01,0.05616377617,0.003352860849
2.02,0.05614549961,0.000881552716
2.03,0.05601819308,-0.001582131624
2.04,0.05578248071,-0.004033353035
2.05,0.05543920324,-0.006467312839
2.06,0.05498941554,-0.008879262594
2.07,0.05443438382,-0.01126451373
2.08,0.05377558228,-0.01361844704
2.09,0.05301468944,-0.01593652196
2.1,0.05215358395,-0.01821428569
2.11,0.0511943401,-0.02044738207
2.12,0.05013922284,-0.02263156023
2.13,0.04899068248,-0.02476268301
2.14,0.04775134897,-0.02683673506
2.15,0.04642402584,-0.02884983071
2.16,0.04501168385,-0.03079822147
2.17,0.0435174542,-0.03267830331
2.18,0.04194462156,-0.0344866235
2.19,0.04029661666,-0.03621988721
2.2,0.03857700875,-0.03787496365
2.21,0.03678949766,-0.03944889193
2.22,0.03493790574,-0.0409388865
2.23,0.03302616948,-0.04234234217
2.24,0.03105833096,-0.04365683881
2.25,0.02903852913,-0.04488014557
2.26,0.0269709909,-0.04601022469
2.27,0.02486002207,-0.04704523497
2.28,0.02270999818,-0.0479835347
2.29,0.02052535518,-0.04882368426
2.3,0.0183105801,-0.04956444817
2.31,0.01607020156,-0.05020479684
2.32,0.01380878032,-0.05074390779
2.33,0.01153089972,-0.05118116642
2.34,0.009241156225,-0.05151616642
2.35,0.006944149832,-0.05174870968
2.36,0.004644474664,-0.05187880575
2.37,0.002346709524,-0.05190667094
2.38,5.540855648E-05,-0.05183272692
2.39,-0.002224908001,-0.05165759894
2.4,-0.004489762954,-0.05138211359
2.41,-0.00673473115,-0.0510072962
2.42,-0.008955448336,-0.05053436781
2.43,-0.01114761984,-0.04996474172
2.44,-0.01330702905,-0.04930001971
2.45,-0.01542954574,-0.04854198784
2.46,-0.01751113411,-0.04769261189
2.47,-0.01954786064,-0.04675403246
2.48,-0.02153590164,-0.04572855973
2.49,-0.02347155062,-0.04461866787
2.5,-0.02535122526,-0.04342698916
2.51,-0.02717147421,-0.0421563078
2.52,-0.02892898345,-0.04080955342
2.53,-0.03062058248,-0.03938979433
2.54,-0.03224325005,-0.03790023051
2.55,-0.03379411959,-0.03634418639
2.56,-0.03527048435,-0.03472510338
2.57,-0.03666980206,-0.03304653215
2.58,-0.03798969933,-0.03131212483
2.59,-0.03922797565,-0.02952562696
2.6,-0.04038260691,-0.02769086929
2.61,-0.04145174872,-0.02581175946
2.62,-0.04243373914,-0.02389227363
2.63,-0.04332710115,-0.02193644786
2.64,-0.04413054466,-0.01994836956
2.65,-0.04484296813,-0.01793216882
2.66,-0.0454634598,-0.01589200966
2.67,-0.04599129851,-0.01383208137
2.68,-0.0464259541,-0.0117565897
2.69,-0.04676708742,-0.009669748175
2.7,-0.04701454999,-0.007575769423
2.71,-0.04716838315,-0.005478856513
2.72,-0.04722881695,-0.003383194403
2.73,-0.04719626856,-0.001292941457
2.74,-0.04707134033,0.0007877789238
2.75,-0.0468548175,0.002854886556
2.76,-0.04654766549,0.004904352584
2.77,-0.04615102688,0.00693220744
2.78,-0.04566621798,0.008934548628
2.79,-0.04509472516,0.01090754833
2.8,-0.04443820071,0.01284746078
2.81,-0.0436984585,0.0147506295
2.82,-0.04287746927,0.01661349418
2.83,-0.04197735563,0.01843259746
2.84,-0.04100038678,0.02020459131
2.85,-0.03994897294,0.0219262433
2.86,-0.03882565957,0.02359444242
2.87,-0.03763312129,0.02520620476
2.88,-0.03637415557,0.02675867879
2.89,-0.03505167628,0.02824915039
2.9,-0.03366870691,0.02967504751
2.91,-0.03222837374,0.03103394457
2.92,-0.03073389876,0.03232356644
2.93,-0.02918859244,0.03354179219
2.94,-0.02759584636,0.03468665836
2.95,-0.02595912582,0.03575636204
2.96,-0.02428196215,0.03674926342
2.97,-0.02256794514,0.03766388815
2.98,-0.02082071523,0.03849892922
2.99,-0.0190439558,0.03925324854
3,-0.01724138526,0.03992587813
3.01,-0.01541674926,0.04051602096
3.02,-0.01357381284,0.04102305142
3.03,-0.01171635256,0.04144651547
3.04,-0.009848148714,0.04178613035
3.05,-0.007972977582,0.04204178401
3.06,-0.006094603713,0.04221353418
3.07,-0.004216772314,0.04230160703
3.08,-0.002343201726,0.04230639557
3.09,-0.0004775760008,0.04222845767
3.1,0.001376462383,0.04206851377
3.11,0.003215319682,0.04182744424
3.12,0.005035457884,0.04150628644
3.13,0.006833401548,0.04110623152
3.14,0.008605744456,0.04062862083
3.15,0.01034915608,0.04007494215
3.16,0.01206038783,0.03944682552
3.17,0.01373627913,0.03874603897
3.18,0.01537376318,0.03797448379
3.19,0.01696987257,0.03713418977
3.2,0.01852174461,0.03622731003
3.21,0.02002662639,0.03525611575
3.22,0.02148187958,0.03422299063
3.23,0.02288498496,0.03313042518
3.24,0.0242335467,0.03198101088
3.25,0.02552529626,0.03077743403
3.26,0.02675809614,0.02952246966
3.27,0.02792994314,0.0282189751
3.28,0.02903897151,0.02686988357
3.29,0.03008345567,0.02547819757
3.3,0.0310618126,0.02404698226
3.31,0.03197260406,0.0225793587
3.32,0.0328145383,0.02107849706
3.33,0.03358647161,0.01954760973
3.34,0.03428740944,0.01798994449
3.35,0.03491650729,0.01640877758
3.36,0.03547307123,0.01480740678
3.37,0.03595655809,0.01318914457
3.38,0.03636657539,0.01155731119
3.39,0.03670288088,0.009915227864
3.4,0.03696538189,0.008266210014
3.41,0.03715413426,0.006613560536
3.42,0.03726934099,0.00496056319
3.43,0.03731135067,0.003310476062
3.44,0.03728065557,0.001666525149
3.45,0.03717788941,3.18980458E-05
3.46,0.03700382491,-0.001590262216
3.47,0.03675937109,-0.003196863197
3.48,0.03644557026,-0.00478486892
3.49,0.03606359473,-0.00635130557
3.5,0.03561474343,-0.007893267018
3.51,0.03510043808,-0.009407920161
3.52,0.03452221934,-0.01089251006
3.53,0.03388174261,-0.01234436485
3.54,0.03318077371,-0.01376090052
3.55,0.0324211843,-0.01513962532
3.56,0.03160494719,-0.01647814409
3.57,0.03073413145,-0.01777416225
3.58,0.02981089736,-0.01902548962
3.59,0.02883749119,-0.0202300439
3.6,0.02781623994,-0.02138585397
3.61,0.02674954586,-0.02249106292
3.62,0.02563988091,-0.02354393079
3.63,0.02448978113,-0.02454283706
3.64,0.02330184092,-0.02548628284
3.65,0.02207870724,-0.02637289287
3.66,0.02082307378,-0.02720141713
3.67,0.01953767506,-0.02797073227
3.68,0.01822528053,-0.02867984273
3.69,0.01688868862,-0.02932788159
3.7,0.01553072083,-0.02991411111
3.71,0.01415421577,-0.03043792307
3.72,0.01276202327,-0.03089883879
3.73,0.01135699849,-0.03129650888
3.74,0.009941996128,-0.03163071274
3.75,0.008519864595,-0.0319013578
3.76,0.007093440351,-0.03210847851
3.77,0.00566554226,-0.03225223506
3.78,0.004238966068,-0.03233291183
3.79,0.002816478962,-0.03235091569
3.8,0.001400814259,-0.03230677394
3.81,-5.333799437E-06,-0.03220113212
3.82,-0.001399315104,-0.03203475157
3.83,-0.002778528608,-0.03180850673
3.84,-0.004140427098,-0.0315233823
3.85,-0.005482521809,-0.03118047017
3.86,-0.006802386871,-0.03078096617
3.87,-0.008097663588,-0.03032616658
3.88,-0.00936606452,-0.02981746461
3.89,-0.0106053774,-0.02925634655
3.9,-0.01181346882,-0.02864438785
3.91,-0.01298828776,-0.02798324911
3.92,-0.0141278689,-0.02727467181
3.93,-0.01523033566,-0.02652047401
3.94,-0.01629390313,-0.02572254592
3.95,-0.01731688073,-0.02488284536
3.96,-0.01829767458,-0.02400339311
3.97,-0.0192347898,-0.02308626819
3.98,-0.02012683241,-0.02213360313
3.99,-0.02097251117,-0.02114757906
4,-0.02177063904,-0.02013042089
4.01,-0.02252013449,-0.01908439231
4.02,-0.02322002261,-0.0180117909
4.03,-0.02386943587,-0.01691494313
4.04,-0.0244676148,-0.01579619938
4.05,-0.0250139083,-0.014657929
4.06,-0.02550777385,-0.0135025153
4.07,-0.0259487774,-0.0123323507
4.08,-0.02633659306,-0.01114983177
4.09,-0.02667100265,-0.009957354411
4.1,-0.0269518949,-0.008757309072
4.11,-0.02717926455,-0.007552076005
4.12,-0.02735321119,-0.006344020622
4.13,-0.02747393791,-0.005135488926
4.14,-0.02754174977,-0.00392880303
4.15,-0.02755705204,-0.002726256781
4.16,-0.02752034831,-0.001530111486
4.17,-0.02743223836,-0.0003425917641
4.18,-0.0272934159,0.0008341184929
4.19,-0.02710466612,0.001997880017
4.2,-0.02686686312,0.003146601932
4.21,-0.02658096712,0.004278245376
4.22,-0.02624802162,0.005390826971
4.23,-0.02586915031,0.006482422151
4.24,-0.02544555397,0.007551168312
4.25,-0.02497850715,0.008595267818
4.26,-0.02446935482,0.009612990822
4.27,-0.02391950885,0.01060267792
4.28,-0.02333044443,0.01156274266
4.29,-0.0227036964,0.01249167377
4.3,-0.02204085552,0.01338803739
4.31,-0.02134356463,0.01425047889
4.32,-0.02061351477,0.01507772473
4.33,-0.0198524413,0.01586858393
4.34,-0.01906211985,0.01662194954
4.35,-0.0182443624,0.01733679973
4.36,-0.01740101321,0.0180121989
4.37,-0.01653394478,0.0186472984
4.38,-0.01564505382,0.01924133723
4.39,-0.0147362572,0.01979364241
4.4,-0.01380948789,0.02030362932
4.41,-0.01286669098,0.02077080171
4.42,-0.01190981967,0.02119475161
4.43,-0.0109408313,0.02157515907
4.44,-0.009961683459,0.02191179167
4.45,-0.008974330126,0.02220450392
4.46,-0.007980717833,0.02245323643
4.47,-0.006982781949,0.02265801498
4.48,-0.005982443001,0.02281894937
4.49,-0.00498160308,0.02293623217
4.5,-0.003982142339,0.02301013725
4.51,-0.002985915571,0.02304101828
4.52,-0.001994748894,0.02302930694
4.53,-0.001010436526,0.02297551111
4.54,-3.473768282E-05,0.02288021287
4.55,0.0009306264267,0.02274406645
4.56,0.001883975477,0.02256779594
4.57,0.002823672786,0.02235219302
4.58,0.003748127949,0.02209811449
4.59,0.004655799343,0.02180647975
4.6,0.005545196497,0.02147826819
4.61,0.006414882329,0.02111451645
4.62,0.007263475241,0.02071631569
4.63,0.008089651078,0.02028480865
4.64,0.00889214494,0.01982118682
4.65,0.009669752852,0.0193266874
4.66,0.01042133328,0.0188025903
4.67,0.01114580853,0.01825021506
4.68,0.01184216593,0.01767091774
4.69,0.01250945897,0.0170660878
4.7,0.01314680818,0.01643714494
4.71,0.01375340195,0.01578553592
4.72,0.01432849714,0.01511273136
4.73,0.01487141961,0.0144202226
4.74,0.0153815645,0.0137095185
4.75,0.0158583965,0.01298214227
4.76,0.01630144988,0.01223962833
4.77,0.01671032838,0.01148351918
4.78,0.01708470505,0.0107153623
4.79,0.01742432184,0.009936707135
4.8,0.01772898917,0.009149102006
4.81,0.01799858525,0.008354091203
4.82,0.01823305539,0.007553212045
4.83,0.01843241113,0.006747992026
4.84,0.01859672922,0.005939946018
4.85,0.01872615058,0.005130573552
4.86,0.01882087903,0.004321356158
4.87,0.01888118003,0.00351375479
4.88,0.01890737922,0.00270920733
4.89,0.01889986095,0.001909126179
4.9,0.01885906663,0.001114895929
4.91,0.01878549305,0.0003278711365
4.92,0.01867969062,-0.0004506258179
4.93,0.01854226147,-0.001219306764
4.94,0.01837385758,-0.001976919685
4.95,0.01817517873,-0.002722250548
4.96,0.01794697047,-0.003454125042
4.97,0.017690022,-0.004171410194
4.98,0.01740516399,-0.004873015893
4.99,0.01709326636,-0.005557896294
5,0.01675523606,-0.006225051114
5.01,0.01639201472,-0.006873526818
5.02,0.01600457638,-0.007502417693
5.03,0.01559392513,-0.008110866807
5.04,0.0151610927,-0.008698066864
5.05,0.01470713615,-0.009263260935
5.06,0.0142331354,-0.009805743087
5.07,0.01374019089,-0.0103248589
5.08,0.01322942117,-0.01082000586
5.09,0.0127019605,-0.01129063369
5.1,0.01215895645,-0.01173624448
5.11,0.01160156759,-0.01215639282
5.12,0.0110309611,-0.01255068578
5.13,0.01044831045,-0.01291878274
5.14,0.00985479313,-0.0132603952
5.15,0.009251588369,-0.01357528646
5.16,0.008639874919,-0.01386327121
5.17,0.008020828865,-0.01412421496
5.18,0.007395621495,-0.01435803354
5.19,0.006765417201,-0.01456469231
5.2,0.006131371439,-0.01474420546
5.21,0.005494628749,-0.01489663514
5.22,0.004856320817,-0.0150220905
5.23,0.004217564616,-0.01512072673
5.24,0.003579460597,-0.01519274395
5.25,0.002943090948,-0.01523838608
5.26,0.002309517925,-0.01525793965
5.27,0.001679782249,-0.01525173251
5.28,0.001054901577,-0.01522013251
5.29,0.000435869044,-0.01516354615
5.3,-0.0001763481165,-0.01508241713
5.31,-0.0007808098775,-0.01497722489
5.32,-0.001376604646,-0.01484848313
5.33,-0.001962850412,-0.0146967382
5.34,-0.002538695818,-0.0145225676
5.35,-0.003103321145,-0.01432657833
5.36,-0.003655939228,-0.01410940526
5.37,-0.00419579628,-0.0138717095
5.38,-0.004722172641,-0.01361417668
5.39,-0.005234383447,-0.01333751535
5.4,-0.005731779217,-0.01304245522
5.41,-0.006213746364,-0.01272974546
5.42,-0.006679707619,-0.01240015305
5.43,-0.007129122389,-0.01205446104
5.44,-0.007561487027,-0.01169346685
5.45,-0.007976335032,-0.01131798061
5.46,-0.008373237175,-0.01092882347
5.47,-0.008751801543,-0.01052682592
5.48,-0.009111673527,-0.01011282618
5.49,-0.009452535723,-0.009687668548
5.5,-0.009774107775,-0.009252201802
5.51,-0.01007614615,-0.008807277636
5.52,-0.01035844385,-0.008353749109
5.53,-0.01062083004,-0.007892469125
5.54,-0.01086316968,-0.007424288957
5.55,-0.01108536299,-0.006950056798
5.56,-0.01128734497,-0.006470616355
5.57,-0.01146908482,-0.005986805479
5.58,-0.01163058528,-0.005499454841
5.59,-0.01177188197,-0.00500938665
5.6,-0.01189304267,-0.004517413411
5.61,-0.01199416653,-0.00402433674
5.62,-0.01207538328,-0.003530946216
5.63,-0.0121368524,-0.003038018292
5.64,-0.01217876219,-0.002546315244
5.65,-0.0122013289,-0.002056584185
5.66,-0.01220479577,-0.001569556117
5.67,-0.01218943205,-0.001085945048
5.68,-0.01215553205,-0.0006064471472
5.69,-0.01210341405,-0.0001317399702
5.7,-0.01203341933,0.0003375182778
5.71,-0.0119459111,0.0008006894166
5.72,-0.01184127341,0.001257155915
5.73,-0.0117199101,0.001706321463
5.74,-0.01158224373,0.002147611486
5.75,-0.01142871444,0.002580473614
5.76,-0.01125977891,0.003004378094
5.77,-0.0110759092,0.003418818151
5.78,-0.01087759173,0.003823310301
5.79,-0.01066532614,0.004217394611
5.8,-0.01043962421,0.004600634913
5.81,-0.01020100878,0.004972618971
5.82,-0.009950012702,0.005332958594
5.83,-0.009687177755,0.005681289714
5.84,-0.009413053613,0.006017272411
5.85,-0.009128196814,0.006340590897
5.86,-0.008833169744,0.006650953463
5.87,-0.008528539643,0.006948092379
5.88,-0.008214877631,0.00723176376
5.89,-0.007892757752,0.007501747392
5.9,-0.007562756042,0.007757846521
5.91,-0.007225449621,0.007999887614
5.92,-0.006881415809,0.008227720082
5.93,-0.00653123127,0.008441215972
5.94,-0.006175471177,0.008640269635
5.95,-0.005814708411,0.008824797357
5.96,-0.005449512783,0.008994736981
5.97,-0.00508045029,0.009150047483
5.98,-0.004708082393,0.009290708546
5.99,-0.004332965333,0.009416720099
6,-0.00395564947,0.009528101848
