"Freq [GHz]","re(S(Tx_p1,Tx_p1)) []","im(S(Tx_p1,Tx_p1)) []"
1,0.002166867582,-0.0752669112
1.01,-0.0001466548496,-0.07508159312
1.02,-0.002454807078,-0.07482550812
1.03,-0.004754821675,-0.0744986725
1.04,-0.007043961364,-0.07410124756
1.05,-0.009319525868,-0.07363353413
1.06,-0.01157885828,-0.07309596679
1.07,-0.01381935099,-0.07248910804
1.08,-0.01603845108,-0.07181364227
1.09,-0.01823366537,-0.07107036969
1.1,-0.02040256486,-0.07026020008
1.11,-0.02254278881,-0.06938414658
1.12,-0.02465204838,-0.06844331939
1.13,-0.02672812972,-0.06743891946
1.14,-0.02876889673,-0.0663722322
1.15,-0.03077229334,-0.06524462125
1.16,-0.03273634536,-0.06405752222
1.17,-0.03465916197,-0.06281243665
1.18,-0.03653893677,-0.0615109259
1.19,-0.03837394846,-0.06015460533
1.2,-0.04016256116,-0.05874513847
1.21,-0.04190322439,-0.05728423147
1.22,-0.04359447268,-0.05577362761
1.23,-0.04523492489,-0.05421510215
1.24,-0.04682328323,-0.05261045719
1.25,-0.04835833197,-0.05096151698
1.26,-0.04983893594,-0.04927012324
1.27,-0.05126403877,-0.04753813093
1.28,-0.05263266085,-0.04576740411
1.29,-0.0539438972,-0.04395981217
1.3,-0.05519691507,-0.0421172263
1.31,-0.05639095146,-0.04024151625
1.32,-0.05752531041,-0.03833454733
1.33,-0.0585993603,-0.03639817779
1.34,-0.05961253097,-0.0344342564
1.35,-0.06056431079,-0.03244462036
1.36,-0.06145424373,-0.03043109351
1.37,-0.06228192633,-0.0283954848
1.38,-0.06304700477,-0.0263395871
1.39,-0.06374917184,-0.02426517618
1.4,-0.06438816406,-0.02217401012
1.41,-0.06496375876,-0.02006782883
1.42,-0.06547577132,-0.01794835392
1.43,-0.06592405247,-0.01581728882
1.44,-0.06630848568,-0.01367631907
1.45,-0.06662898474,-0.0115271129
1.46,-0.06688549141,-0.009371321996
1.47,-0.06707797328,-0.007210582456
1.48,-0.06720642184,-0.005046515934
1.49,-0.06727085062,-0.002880730952
1.5,-0.06727129361,-0.000714824365
1.51,-0.06720780394,0.001449617054
1.52,-0.0670804526,0.003611014902
1.53,-0.06688932758,0.005767797347
1.54,-0.06663453312,0.007918397242
1.55,-0.06631618921,0.0100612502
1.56,-0.06593443134,0.01219479258
1.57,-0.06548941055,0.01431745956
1.58,-0.06498129357,0.01642768306
1.59,-0.06441026338,0.01852388981
1.6,-0.06377651984,0.02060449941
1.61,-0.0630802807,0.02266792241
1.62,-0.06232178273,0.02471255858
1.63,-0.06150128313,0.0267367951
1.64,-0.06061906116,0.02873900506
1.65,-0.05967541992,0.03071754591
1.66,-0.05867068841,0.03267075821
1.67,-0.0576052237,0.03459696444
1.68,-0.05647941335,0.03649446801
1.69,-0.05529367791,0.03836155251
1.7,-0.05404847365,0.04019648111
1.71,-0.05274429537,0.04199749621
1.72,-0.05138167932,0.04376281935
1.73,-0.04996120628,0.04549065124
1.74,-0.04848350467,0.04717917222
1.75,-0.04694925371,0.04882654286
1.76,-0.04535918672,0.05043090481
1.77,-0.04371409433,0.05199038203
1.78,-0.04201482777,0.05350308221
1.79,-0.04026230214,0.05496709847
1.8,-0.03845749961,0.05638051142
1.81,-0.03660147262,0.05774139139
1.82,-0.03469534697,0.05904780104
1.83,-0.03274032481,0.06029779817
1.84,-0.03073768757,0.0614894389
1.85,-0.02868879867,0.06262078099
1.86,-0.02659510616,0.06368988758
1.87,-0.02445814513,0.06469483101
1.88,-0.02227953994,0.06563369708
1.89,-0.02006100628,0.06650458935
1.9,-0.0178043529,0.06730563382
1.91,-0.01551148321,0.06803498378
1.92,-0.01318439656,0.06869082476
1.93,-0.0108251892,0.06927137983
1.94,-0.008436055038,0.06977491495
1.95,-0.006019286009,0.07019974447
1.96,-0.003577272174,0.07054423684
1.97,-0.001112501456,0.07080682037
1.98,0.001372440951,0.07098598908
1.99,0.00387487353,0.07108030864
2,0.006392019753,0.0710884224
2.01,0.008921009751,0.07100905735
2.02,0.01145888237,0.07084103018
2.03,0.01400258759,0.07058325328
2.04,0.01654898934,0.07023474071
2.05,0.01909486866,0.06979461407
2.06,0.02163692731,0.06926210837
2.07,0.02417179165,0.0686365777
2.08,0.02669601704,0.06791750078
2.09,0.02920609245,0.06710448643
2.1,0.03169844559,0.06619727875
2.11,0.03416944827,0.06519576213
2.12,0.03661542216,0.06409996611
2.13,0.03903264495,0.06291006986
2.14,0.04141735669,0.06162640645
2.15,0.0437657666,0.06024946688
2.16,0.04607406006,0.05877990369
2.17,0.04833840594,0.0572185343
2.18,0.05055496421,0.05556634396
2.19,0.05271989371,0.05382448841
2.2,0.05482936026,0.05199429601
2.21,0.05687954492,0.05007726962
2.22,0.05886665241,0.04807508791
2.23,0.06078691974,0.04598960636
2.24,0.06263662496,0.04382285778
2.25,0.06441209604,0.0415770523
2.26,0.0661097198,0.03925457699
2.27,0.06772595094,0.03685799495
2.28,0.06925732112,0.03439004396
2.29,0.070700448,0.03185363457
2.3,0.07205204432,0.0292518478
2.31,0.07330892689,0.02658793225
2.32,0.07446802555,0.02386530077
2.33,0.07552639201,0.02108752663
2.34,0.07648120856,0.01825833919
2.35,0.07732979663,0.01538161911
2.36,0.07806962516,0.012461393
2.37,0.07869831882,0.009501827723
2.38,0.07921366589,0.006507224115
2.39,0.07961362593,0.003482010322
2.4,0.07989633722,0.000430734666
2.41,0.08006012377,-0.002641941908
2.42,0.08010350207,-0.005731253806
2.43,0.08002518746,-0.008832339145
2.44,0.07982410006,-0.01194024851
2.45,0.07949937043,-0.01504995404
2.46,0.07905034462,-0.01815635891
2.47,0.07847658887,-0.02125430706
2.48,0.07777789388,-0.02433859327
2.49,0.07695427847,-0.02740397349
2.5,0.07600599283,-0.03044517542
2.51,0.07493352125,-0.03345690929
2.52,0.07373758424,-0.03643387889
2.53,0.07241914018,-0.03937079268
2.54,0.07097938641,-0.0422623751
2.55,0.06941975969,-0.04510337798
2.56,0.06774193615,-0.04788859199
2.57,0.06594783065,-0.05061285823
2.58,0.06403959554,-0.05327107967
2.59,0.06201961881,-0.05585823278
2.6,0.05989052173,-0.05836937896
2.61,0.05765515583,-0.06079967596
2.62,0.05531659932,-0.06314438917
2.63,0.05287815295,-0.06539890283
2.64,0.05034333525,-0.06755873095
2.65,0.04771587724,-0.06961952819
2.66,0.0449997166,-0.07157710036
2.67,0.04219899121,-0.07342741475
2.68,0.03931803226,-0.07516661014
2.69,0.03636135677,-0.07679100654
2.7,0.03333365961,-0.07829711447
2.71,0.0302398051,-0.079681644
2.72,0.02708481801,-0.08094151334
2.73,0.02387387427,-0.08207385693
2.74,0.02061229109,-0.08307603325
2.75,0.01730551683,-0.083945632
2.76,0.01395912038,-0.08468048084
2.77,0.01057878022,-0.08527865171
2.78,0.007170273134,-0.08573846642
2.79,0.003739462675,-0.08605850192
2.8,0.000292287284,-0.08623759481
2.81,-0.003165251792,-0.08627484541
2.82,-0.00662710281,-0.08616962115
2.83,-0.01008717603,-0.08592155937
2.84,-0.01353935636,-0.08553056957
2.85,-0.01697751611,-0.08499683493
2.86,-0.02039552791,-0.08432081331
2.87,-0.02378727756,-0.08350323753
2.88,-0.02714667701,-0.08254511506
2.89,-0.03046767729,-0.08144772705
2.9,-0.03374428142,-0.08021262674
2.91,-0.03697055722,-0.07884163722
2.92,-0.04014065001,-0.07733684856
2.93,-0.04324879524,-0.07570061433
2.94,-0.04628933085,-0.07393554745
2.95,-0.04925670949,-0.07204451552
2.96,-0.05214551051,-0.07003063545
2.97,-0.05495045165,-0.06789726756
2.98,-0.05766640049,-0.06564800912
2.99,-0.06028838548,-0.06328668728
3,-0.06281160677,-0.06081735153
3.01,-0.06523144649,-0.05824426552
3.02,-0.06754347877,-0.05557189855
3.03,-0.06974347925,-0.05280491641
3.04,-0.07182743417,-0.04994817186
3.05,-0.07379154894,-0.04700669466
3.06,-0.07563225631,-0.04398568116
3.07,-0.07734622387,-0.04089048355
3.08,-0.07893036117,-0.0377265987
3.09,-0.08038182622,-0.03449965672
3.1,-0.08169803135,-0.03121540922
3.11,-0.08287664863,-0.02787971724
3.12,-0.08391561458,-0.02449853898
3.13,-0.08481313433,-0.02107791736
3.14,-0.08556768513,-0.01762396734
3.15,-0.08617801928,-0.0141428631
3.16,-0.08664316636,-0.01064082514
3.17,-0.08696243492,-0.007124107267
3.18,-0.08713541346,-0.003598983557
3.19,-0.08716197077,-7.173526679E-05
3.2,-0.08704225572,0.003451362213
3.21,-0.0867766963,0.006964052366
3.22,-0.08636599813,0.01046011048
3.23,-0.08581114224,0.01393335647
3.24,-0.0851133824,0.01737766756
3.25,-0.08427424162,0.02078699076
3.26,-0.08329550827,0.02415535522
3.27,-0.08217923148,0.02747688426
3.28,-0.080927716,0.0307458072
3.29,-0.07954351653,0.03395647087
3.3,-0.07802943152,0.03710335083
3.31,-0.07638849638,0.04018106224
3.32,-0.07462397625,0.04318437034
3.33,-0.07273935832,0.04610820059
3.34,-0.07073834358,0.04894764832
3.35,-0.06862483824,0.05169798805
3.36,-0.0664029447,0.05435468227
3.37,-0.0640769521,0.05691338976
3.38,-0.06165132658,0.05936997347
3.39,-0.05913070113,0.06172050784
3.4,-0.05651986517,0.06396128563
3.41,-0.05382375386,0.06608882418
3.42,-0.05104743713,0.06809987119
3.43,-0.04819610849,0.06999140985
3.44,-0.04527507366,0.07176066352
3.45,-0.04228973905,0.07340509973
3.46,-0.03924560003,0.07492243367
3.47,-0.03614822918,0.07631063108
3.48,-0.03300326444,0.07756791059
3.49,-0.02981639716,0.07869274538
3.5,-0.02659336024,0.07968386441
3.51,-0.02333991616,0.08054025291
3.52,-0.02006184512,0.08126115244
3.53,-0.01676493329,0.08184606026
3.54,-0.01345496104,0.08229472823
3.55,-0.01013769141,0.08260716107
3.56,-0.006818858677,0.08278361419
3.57,-0.003504157123,0.08282459085
3.58,-0.0001992299751,0.08273083892
3.59,0.003090341381,0.08250334706
3.6,0.006359047961,0.08214334044
3.61,0.009601463454,0.08165227597
3.62,0.0128122542,0.08103183708
3.63,0.01598618885,0.08028392806
3.64,0.01911814769,0.079410668
3.65,0.02220313157,0.07841438426
3.66,0.02523627051,0.07729760566
3.67,0.02821283192,0.07606305521
3.68,0.03112822831,0.07471364263
3.69,0.03397802473,0.07325245642
3.7,0.03675794565,0.07168275571
3.71,0.03946388149,0.07000796189
3.72,0.0420918946,0.06823164992
3.73,0.04463822488,0.06635753947
3.74,0.04709929487,0.06438948584
3.75,0.04947171437,0.06233147079
3.76,0.0517522846,0.06018759309
3.77,0.05393800187,0.05796205912
3.78,0.05602606075,0.05565917329
3.79,0.05801385684,0.05328332838
3.8,0.05989898889,0.05083899589
3.81,0.06167926066,0.04833071638
3.82,0.0633526821,0.04576308977
3.83,0.06491747023,0.04314076573
3.84,0.06637204941,0.04046843409
3.85,0.06771505129,0.03775081534
3.86,0.0689453142,0.03499265125
3.87,0.07006188217,0.03219869559
3.88,0.07106400354,0.029373705
3.89,0.07195112905,0.02652243005
3.9,0.07272290969,0.02364960646
3.91,0.07337919399,0.0207599465
3.92,0.0739200251,0.01785813069
3.93,0.07434563737,0.01494879962
3.94,0.0746564527,0.01203654615
3.95,0.07485307649,0.009125907735
3.96,0.07493629335,0.00622135919
3.97,0.07490706244,0.003327305601
3.98,0.0747665126,0.000448075617
3.99,0.07451593725,-0.002412084959
4,0.07415678894,-0.005249019269
4.01,0.07369067385,-0.008058665159
4.02,0.07311934594,-0.01083706061
4.03,0.07244470105,-0.01358034881
4.04,0.07166877077,-0.01628478293
4.05,0.0707937162,-0.01894673047
4.06,0.06982182159,-0.02156267734
4.07,0.0687554879,-0.02412923153
4.08,0.06759722627,-0.02664312645
4.09,0.06634965142,-0.02910122392
4.1,0.06501547507,-0.03150051682
4.11,0.06359749924,-0.03383813139
4.12,0.06209860966,-0.03611132915
4.13,0.06052176911,-0.03831750858
4.14,0.05887001085,-0.04045420636
4.15,0.05714643207,-0.04251909839
4.16,0.05535418739,-0.04451000038
4.17,0.05349648252,-0.04642486829
4.18,0.05157656789,-0.04826179831
4.19,0.04959773251,-0.05001902667
4.2,0.04756329788,-0.05169492913
4.21,0.04547661205,-0.05328802021
4.22,0.04334104387,-0.05479695218
4.23,0.04115997728,-0.05622051377
4.24,0.03893680593,-0.05755762874
4.25,0.03667492783,-0.05880735413
4.26,0.03437774025,-0.05996887839
4.27,0.03204863483,-0.06104151927
4.28,0.02969099282,-0.0620247216
4.29,0.02730818058,-0.06291805485
4.3,0.02490354524,-0.06372121057
4.31,0.02248041062,-0.06443399972
4.32,0.0200420733,-0.06505634983
4.33,0.01759179897,-0.06558830213
4.34,0.01513281892,-0.06603000854
4.35,0.01266832679,-0.06638172861
4.36,0.01020147555,-0.06664382635
4.37,0.007735374629,-0.06681676712
4.38,0.005273087285,-0.06690111437
4.39,0.002817628202,-0.06689752643
4.4,0.0003719612451,-0.06680675326
4.41,-0.002061002564,-0.06662963321
4.42,-0.004478406891,-0.0663670898
4.43,-0.006877451743,-0.06602012849
4.44,-0.009255394951,-0.06558983355
4.45,-0.01160955348,-0.06507736491
4.46,-0.01393730458,-0.06448395509
4.47,-0.01623608677,-0.06381090617
4.48,-0.01850340069,-0.06305958686
4.49,-0.02073680982,-0.06223142966
4.5,-0.02293394106,-0.06132792797
4.51,-0.02509248517,-0.0603506335
4.52,-0.02721019716,-0.05930115357
4.53,-0.02928489654,-0.05818114863
4.54,-0.03131446745,-0.05699232983
4.55,-0.03329685881,-0.05573645667
4.56,-0.03523008427,-0.05441533483
4.57,-0.03711222223,-0.05303081399
4.58,-0.0389414157,-0.05158478587
4.59,-0.0407158722,-0.05007918229
4.6,-0.04243386357,-0.04851597333
4.61,-0.04409372583,-0.04689716569
4.62,-0.04569385893,-0.04522480101
4.63,-0.04723272657,-0.04350095436
4.64,-0.04870885604,-0.04172773285
4.65,-0.05012083797,-0.03990727424
4.66,-0.05146732622,-0.0380417457
4.67,-0.05274703772,-0.03613334261
4.68,-0.05395875237,-0.03418428746
4.69,-0.05510131299,-0.03219682879
4.7,-0.05617362525,-0.03017324019
4.71,-0.05717465779,-0.02811581936
4.72,-0.05810344221,-0.02602688722
4.73,-0.05895907328,-0.02390878702
4.74,-0.05974070912,-0.02176388352
4.75,-0.06044757145,-0.01959456217
4.76,-0.06107894598,-0.0174032283
4.77,-0.06163418273,-0.01519230632
4.78,-0.06211269656,-0.01296423892
4.79,-0.06251396768,-0.01072148621
4.8,-0.06283754226,-0.008466524941
4.81,-0.06308303306,-0.00620184757
4.82,-0.06325012021,-0.003929961389
4.83,-0.06333855196,-0.001653387553
4.84,-0.06334814552,0.0006253399301
4.85,-0.06327878798,0.002903675269
4.86,-0.06313043725,0.005179062027
4.87,-0.06290312302,0.007448934342
4.88,-0.0625969478,0.009710718219
4.89,-0.06221208798,0.01196183291
4.9,-0.06174879491,0.01419969242
4.91,-0.06120739598,0.01642170701
4.92,-0.06058829572,0.01862528499
4.93,-0.05989197694,0.02080783439
4.94,-0.05911900181,0.02296676493
4.95,-0.05827001292,0.02509949001
4.96,-0.05734573438,0.02720342884
4.97,-0.05634697282,0.02927600865
4.98,-0.0552746184,0.03131466712
4.99,-0.0541296457,0.03331685482
5,-0.05291311464,0.0352800378
5.01,-0.05162617123,0.03720170035
5.02,-0.05027004833,0.03907934781
5.03,-0.04884606623,0.04091050952
5.04,-0.04735563322,0.04269274191
5.05,-0.04580024597,0.04442363163
5.06,-0.04418148985,0.04610079886
5.07,-0.04250103907,0.04772190066
5.08,-0.04076065673,0.04928463445
5.09,-0.03896219471,0.05078674154
5.1,-0.03710759336,0.0522260108
5.11,-0.03519888111,0.05360028231
5.12,-0.03323817384,0.05490745118
5.13,-0.03122767409,0.05614547134
5.14,-0.02916967013,0.05731235942
5.15,-0.02706653476,0.05840619866
5.16,-0.024920724,0.05942514281
5.17,-0.02273477551,0.06036742014
5.18,-0.02051130685,0.06123133732
5.19,-0.01825301352,0.06201528342
5.2,-0.01596266676,0.06271773381
5.21,-0.01364311119,0.06333725405
5.22,-0.0112972622,0.06387250378
5.23,-0.008928103117,0.06432224046
5.24,-0.006538682176,0.06468532315
5.25,-0.004132109274,0.06496071613
5.26,-0.001711552502,0.06514749249
5.27,0.0007197655396,0.06524483752
5.28,0.003158571621,0.06525205211
5.29,0.005601545978,0.06516855588
5.3,0.008045326608,0.0649938903
5.31,0.01048651376,0.06472772153
5.32,0.0129216746,0.06436984318
5.33,0.01534734809,0.06392017884
5.34,0.01776005003,0.06337878446
5.35,0.02015627824,0.06274585045
5.36,0.02253251794,0.06202170367
5.37,0.02488524725,0.06120680909
5.38,0.02721094287,0.06030177128
5.39,0.02950608581,0.05930733565
5.4,0.03176716731,0.05822438939
5.41,0.03399069486,0.0570539622
5.42,0.03617319824,0.05579722672
5.43,0.03831123571,0.05445549871
5.44,0.04040140026,0.05303023688
5.45,0.04244032584,0.05152304252
5.46,0.04442469374,0.04993565875
5.47,0.04635123886,0.04826996956
5.48,0.04821675612,0.04652799846
5.49,0.05001810673,0.04471190686
5.5,0.05175222453,0.04282399219
5.51,0.05341612227,0.04086668562
5.52,0.05500689777,0.03884254953
5.53,0.05652174012,0.0367542747
5.54,0.05795793565,0.03460467711
5.55,0.05931287395,0.03239669453
5.56,0.06058405363,0.03013338273
5.57,0.06176908803,0.02781791144
5.58,0.06286571073,0.02545356004
5.59,0.06387178093,0.02304371289
5.6,0.06478528864,0.02059185449
5.61,0.0656043596,0.01810156425
5.62,0.06632726013,0.01557651111
5.63,0.06695240158,0.01302044784
5.64,0.06747834471,0.01043720513
5.65,0.06790380367,0.007830685419
5.66,0.06822764982,0.00520485656
5.67,0.06844891523,0.002563745223
5.68,0.06856679583,-8.856986744E-05
5.69,0.0685806544,-0.002747964872
5.7,0.06849002312,-0.005410277953
5.71,0.06829460587,-0.008071316532
5.72,0.06799428014,-0.01072686469
5.73,0.0675890987,-0.01337269066
5.74,0.06707929082,-0.01600455449
5.75,0.06646526322,-0.0186182157
5.76,0.06574760062,-0.02120944108
5.77,0.06492706595,-0.02377401248
5.78,0.06400460018,-0.02630773472
5.79,0.06298132182,-0.02880644342
5.8,0.06185852601,-0.03126601288
5.81,0.06063768327,-0.03368236395
5.82,0.05932043786,-0.03605147181
5.83,0.05790860581,-0.03836937376
5.84,0.05640417254,-0.04063217688
5.85,0.05480929017,-0.04283606562
5.86,0.05312627439,-0.0449773093
5.87,0.0513576011,-0.04705226943
5.88,0.04950590257,-0.04905740694
5.89,0.04757396336,-0.05098928921
5.9,0.04556471585,-0.05284459695
5.91,0.0434812355,-0.05462013084
5.92,0.0413267357,-0.05631281801
5.93,0.03910456243,-0.05791971825
5.94,0.03681818855,-0.05943803001
5.95,0.03447120784,-0.06086509613
5.96,0.03206732872,-0.06219840926
5.97,0.02961036779,-0.06343561709
5.98,0.0271042431,-0.06457452719
5.99,0.02455296713,-0.06561311159
6,0.02196063963,-0.06654951101
