"Freq [GHz]","re(S(Tx_p1,Tx_p1)) []","im(S(Tx_p1,Tx_p1)) []"
1,-0.01984800417,-0.08784555963
1.01,-0.02290950828,-0.08707346382
1.02,-0.02595402054,-0.0861947484
1.03,-0.02897748541,-0.08520937802
1.04,-0.03197584858,-0.08411747784
1.05,-0.03494506081,-0.08291933083
1.06,-0.0378810816,-0.08161537515
1.07,-0.0407798826,-0.08020620192
1.08,-0.04363745084,-0.07869255315
1.09,-0.04644979183,-0.07707531996
1.1,-0.04921293253,-0.075355541
1.11,-0.05192292427,-0.07353440118
1.12,-0.05457584565,-0.07161323062
1.13,-0.05716780542,-0.0695935038
1.14,-0.05969494543,-0.067476839
1.15,-0.06215344365,-0.06526499786
1.16,-0.0645395173,-0.06295988522
1.17,-0.0668494261,-0.06056354907
1.18,-0.06907947572,-0.05807818066
1.19,-0.07122602141,-0.05550611474
1.2,-0.07328547183,-0.0528498299
1.21,-0.07525429319,-0.05011194891
1.22,-0.07712901354,-0.04729523921
1.23,-0.07890622742,-0.04440261332
1.24,-0.08058260074,-0.04143712917
1.25,-0.08215487602,-0.03840199051
1.26,-0.08361987787,-0.03530054704
1.27,-0.08497451878,-0.03213629453
1.28,-0.08621580522,-0.02891287467
1.29,-0.08734084409,-0.02563407477
1.3,-0.08834684934,-0.02230382712
1.31,-0.08923114899,-0.01892620814
1.32,-0.08999119235,-0.01550543717
1.33,-0.09062455747,-0.01204587484
1.34,-0.09112895889,-0.008552021118
1.35,-0.09150225549,-0.005028512902
1.36,-0.09174245858,-0.001480121104
1.37,-0.09184774011,0.002088252701
1.38,-0.09181644101,0.005671580181
1.39,-0.09164707954,0.009264710682
1.4,-0.09133835974,0.01286237624
1.41,-0.09088917985,0.01645919715
1.42,-0.09029864066,0.02004968819
1.43,-0.08956605378,0.0236282654
1.44,-0.0886909498,0.0271892535
1.45,-0.08767308618,0.03072689395
1.46,-0.086512455,0.03423535363
1.47,-0.08520929038,0.03770873414
1.48,-0.08376407552,0.04114108173
1.49,-0.08217754946,0.0445263978
1.5,-0.08045071331,0.04785865011
1.51,-0.07858483604,0.0511317844
1.52,-0.07658145974,0.05433973674
1.53,-0.07444240427,0.05747644629
1.54,-0.07216977136,0.06053586864
1.55,-0.06976594795,0.06351198956
1.56,-0.06723360884,0.06639883924
1.57,-0.06457571868,0.06919050692
1.58,-0.06179553301,0.07188115584
1.59,-0.05889659864,0.0744650385
1.6,-0.05588275303,0.07693651223
1.61,-0.05275812288,0.07929005494
1.62,-0.04952712181,0.08152028097
1.63,-0.04619444699,0.0836219571
1.64,-0.042765075,0.0855900186
1.65,-0.03924425653,0.08741958519
1.66,-0.03563751026,0.08910597701
1.67,-0.0319506157,0.09064473033
1.68,-0.02818960499,0.09203161315
1.69,-0.0243607538,0.09326264045
1.7,-0.02047057124,0.09433408915
1.71,-0.01652578876,0.09524251259
1.72,-0.01253334814,0.09598475463
1.73,-0.008500388564,0.09655796311
1.74,-0.004434232778,0.09695960283
1.75,-0.0003423723529,0.09718746772
1.76,0.003767547849,0.09723969244
1.77,0.007887746025,0.09711476305
1.78,0.01201032054,0.096811527
1.79,0.01612726776,0.09632920206
1.8,0.02023050048,0.09566738446
1.81,0.02431186707,0.09482605592
1.82,0.02836317107,0.09380558974
1.83,0.03237619129,0.09260675574
1.84,0.03634270241,0.09123072415
1.85,0.04025449583,0.08967906828
1.86,0.04410340088,0.08795376612
1.87,0.04788130626,0.08605720061
1.88,0.05158018152,0.08399215884
1.89,0.05519209879,0.08176182985
1.9,0.0587092543,0.07936980138
1.91,0.06212399001,0.07682005517
1.92,0.06542881493,0.07411696117
1.93,0.06861642632,0.07126527039
1.94,0.07167973051,0.06827010664
1.95,0.07461186334,0.0651369569
1.96,0.07740621016,0.06187166059
1.97,0.08005642529,0.05848039767
1.98,0.08255645082,0.05496967553
1.99,0.08490053478,0.05134631479
2,0.08708324856,0.04761743406
2.01,0.08909950345,0.04379043365
2.02,0.09094456634,0.03987297828
2.03,0.09261407446,0.03587297886
2.04,0.09410404917,0.03179857345
2.05,0.09541090857,0.02765810734
2.06,0.09653147911,0.0234601124
2.07,0.09746300602,0.01921328578
2.08,0.09820316251,0.01492646794
2.09,0.09875005777,0.01060862019
2.1,0.09910224365,0.006268801707
2.11,0.09925872013,0.001916146221
2.12,0.09921893941,-0.002440161659
2.13,0.09898280864,-0.006790910328
2.14,0.09855069133,-0.01112688523
2.15,0.09792340746,-0.01543889296
2.16,0.09710223207,-0.01971778538
2.17,0.09608889268,-0.02395448361
2.18,0.09488556519,-0.02814000186
2.19,0.09349486854,-0.03226547102
2.2,0.09191985802,-0.03632216187
2.21,0.09016401729,-0.04030150791
2.22,0.08823124909,-0.04419512771
2.23,0.08612586476,-0.04799484663
2.24,0.08385257252,-0.05169271798
2.25,0.08141646462,-0.05528104338
2.26,0.07882300338,-0.05875239243
2.27,0.0760780061,-0.06209962147
2.28,0.07318762905,-0.06531589148
2.29,0.07015835049,-0.06839468498
2.3,0.06699695269,-0.07132982196
2.31,0.06371050334,-0.07411547468
2.32,0.06030633596,-0.07674618145
2.33,0.0567920298,-0.07921685919
2.34,0.05317538906,-0.08152281485
2.35,0.04946442151,-0.08365975557
2.36,0.04566731677,-0.08562379761
2.37,0.04179242408,-0.0874114741
2.38,0.03784822982,-0.08901974133
2.39,0.03384333477,-0.09044598398
2.4,0.02978643121,-0.09168801881
2.41,0.02568628,-0.09274409727
2.42,0.02155168755,-0.09361290664
2.43,0.01739148298,-0.09429357
2.44,0.01321449535,-0.09478564489
2.45,0.009029531166,-0.09508912067
2.46,0.004845352164,-0.09520441472
2.47,0.0006706534829,-0.09513236737
2.48,-0.003485957735,-0.09487423572
2.49,-0.007615983228,-0.09443168627
2.5,-0.01171105393,-0.09380678644
2.51,-0.01576294965,-0.09300199511
2.52,-0.01976361808,-0.09202015206
2.53,-0.02370519299,-0.09086446652
2.54,-0.02758001176,-0.08953850479
2.55,-0.03138063193,-0.08804617696
2.56,-0.03509984694,-0.08639172293
2.57,-0.03873070097,-0.08457969765
2.58,-0.04226650273,-0.08261495567
2.59,-0.04570083838,-0.08050263511
2.6,-0.04902758335,-0.07824814111
2.61,-0.05224091317,-0.07585712874
2.62,-0.05533531321,-0.07333548561
2.63,-0.05830558742,-0.07068931401
2.64,-0.06114686595,-0.06792491286
2.65,-0.0638546117,-0.06504875947
2.66,-0.06642462582,-0.06206749107
2.67,-0.06885305213,-0.05898788639
2.68,-0.07113638044,-0.0558168471
2.69,-0.07327144895,-0.05256137941
2.7,-0.07525544542,-0.04922857574
2.71,-0.07708590756,-0.04582559656
2.72,-0.07876072224,-0.04235965247
2.73,-0.08027812389,-0.0388379866
2.74,-0.08163669189,-0.03526785732
2.75,-0.08283534708,-0.03165652133
2.76,-0.08387334749,-0.02801121722
2.77,-0.08475028315,-0.02433914951
2.78,-0.08546607022,-0.02064747319
2.79,-0.08602094434,-0.01694327885
2.8,-0.08641545332,-0.0132335784
2.81,-0.0866504492,-0.009525291404
2.82,-0.08672707972,-0.005825232068
2.83,-0.08664677925,-0.002140096934
2.84,-0.08641125926,0.001523546765
2.85,-0.08602249833,0.005159272015
2.86,-0.08548273178,0.00876080221
2.87,-0.084794441,0.01232202061
2.88,-0.08396034249,0.01583697906
2.89,-0.08298337665,0.01929990596
2.9,-0.0818666964,0.0227052135
2.91,-0.0806136557,0.02604750415
2.92,-0.07922779796,0.02932157649
2.93,-0.07771284444,0.03252243018
2.94,-0.07607268262,0.03564527042
2.95,-0.07431135464,0.03868551156
2.96,-0.07243304589,0.04163878015
2.97,-0.07044207363,0.04450091729
2.98,-0.06834287584,0.04726798045
2.99,-0.0661400003,0.04993624459
3,-0.0638380938,0.05250220278
3.01,-0.06144189174,0.05496256633
3.02,-0.05895620793,0.05731426434
3.03,-0.0563859247,0.05955444283
3.04,-0.05373598341,0.06168046343
3.05,-0.05101137525,0.06368990171
3.06,-0.0482171324,0.06558054507
3.07,-0.04535831957,0.0673503904
3.08,-0.042440026,0.06899764137
3.09,-0.03946735768,0.07052070549
3.1,-0.03644543012,0.07191819102
3.11,-0.03337936147,0.07318890356
3.12,-0.03027426591,0.07433184261
3.13,-0.02713524763,0.07534619795
3.14,-0.02396739498,0.07623134596
3.15,-0.02077577515,0.07698684587
3.16,-0.01756542904,0.07761243599
3.17,-0.01434136664,0.07810802991
3.18,-0.01110856259,0.07847371279
3.19,-0.007871952105,0.07870973764
3.2,-0.004636427178,0.07881652167
3.21,-0.001406833042,0.07879464277
3.22,0.001812035138,0.07864483607
3.23,0.005015435344,0.07836799061
3.24,0.008198681602,0.07796514616
3.25,0.01135714671,0.07743749015
3.26,0.01448626481,0.07678635482
3.27,0.01758153387,0.07601321444
3.28,0.02063851805,0.07511968275
3.29,0.02365285002,0.0741075105
3.3,0.0266202332,0.07297858319
3.31,0.02953644407,0.07173491896
3.32,0.03239733435,0.07037866659
3.33,0.03519883334,0.06891210364
3.34,0.03793695022,0.06733763476
3.35,0.04060777649,0.06565779004
3.36,0.04320748843,0.0638752235
3.37,0.04573234968,0.06199271165
3.38,0.04817871403,0.0600131521
3.39,0.05054302818,0.05793956223
3.4,0.05282183482,0.05577507785
3.41,0.05501177571,0.05352295189
3.42,0.05710959503,0.05118655304
3.43,0.05911214287,0.04876936434
3.44,0.06101637884,0.04627498174
3.45,0.06281937595,0.0437071125
3.46,0.06451832453,0.04106957352
3.47,0.06611053643,0.03836628947
3.48,0.06759344933,0.03560129082
3.49,0.0689646312,0.0327787116
3.5,0.07022178486,0.02990278702
3.51,0.07136275277,0.02697785073
3.52,0.07238552184,0.02400833199
3.53,0.07328822833,0.02099875237
3.54,0.07406916288,0.01795372228
3.55,0.07472677559,0.01487793715
3.56,0.07525968102,0.01177617319
3.57,0.07566666337,0.008653282936
3.58,0.07594668146,0.005514190334
3.59,0.07609887381,0.002363885469
3.6,0.07612256353,-0.0007925810711
3.61,0.07601726315,-0.003950104231
3.62,0.07578267932,-0.007103530916
3.63,0.07541871731,-0.01024766682
3.64,0.07492548533,-0.01337728362
3.65,0.07430329859,-0.0164871266
3.66,0.07355268312,-0.01957192266
3.67,0.07267437927,-0.02262638861
3.68,0.07166934488,-0.02564523998
3.69,0.07053875809,-0.02862320001
3.7,0.06928401976,-0.03155500913
3.71,0.06790675545,-0.03443543466
3.72,0.06640881697,-0.0372592808
3.73,0.06479228343,-0.04002139895
3.74,0.06305946174,-0.04271669822
3.75,0.06121288671,-0.0453401562
3.76,0.05925532041,-0.04788682983
3.77,0.05718975111,-0.05035186655
3.78,0.05501939154,-0.05273051546
3.79,0.05274767655,-0.05501813861
3.8,0.05037826018,-0.05721022235
3.81,0.047915012,-0.05930238863
3.82,0.04536201293,-0.06129040634
3.83,0.04272355027,-0.06317020251
3.84,0.0400041122,-0.06493787345
3.85,0.03720838147,-0.06658969569
3.86,0.0343412286,-0.06812213674
3.87,0.03140770425,-0.06953186563
3.88,0.02841303109,-0.07081576307
3.89,0.02536259496,-0.07197093143
3.9,0.02226193539,-0.07299470423
3.91,0.01911673557,-0.07388465523
3.92,0.01593281166,-0.07463860713
3.93,0.01271610164,-0.07525463971
3.94,0.009472653481,-0.07573109749
3.95,0.006208612924,-0.07606659673
3.96,0.002930210703,-0.07626003197
3.97,-0.0003562506564,-0.07631058176
3.98,-0.003644410453,-0.07621771387
3.99,-0.006927863816,-0.07598118969
4,-0.01020017604,-0.07560106793
4.01,-0.0134548972,-0.07507770763
4.02,-0.01668557709,-0.07441177026
4.03,-0.01988578027,-0.07360422115
4.04,-0.02304910132,-0.07265633005
4.05,-0.02616918028,-0.07156967084
4.06,-0.029239718,-0.07034612044
4.07,-0.03225449165,-0.06898785685
4.08,-0.03520737013,-0.06749735635
4.09,-0.03809232938,-0.06587738982
4.1,-0.04090346758,-0.06413101826
4.11,-0.0436350202,-0.06226158738
4.12,-0.0462813747,-0.06027272145
4.13,-0.04883708505,-0.05816831621
4.14,-0.05129688586,-0.05595253106
4.15,-0.05365570612,-0.05362978044
4.16,-0.0559086825,-0.05120472435
4.17,-0.05805117223,-0.04868225823
4.18,-0.06007876531,-0.04606750206
4.19,-0.06198729632,-0.04336578874
4.2,-0.06377285546,-0.04058265191
4.21,-0.06543179907,-0.03772381299
4.22,-0.06696075932,-0.03479516779
4.23,-0.06835665329,-0.03180277247
4.24,-0.06961669123,-0.02875282899
4.25,-0.07073838405,-0.02565167021
4.26,-0.07171954995,-0.02250574441
4.27,-0.07255832027,-0.0193215996
4.28,-0.07325314446,-0.01610586741
4.29,-0.0738027941,-0.01286524674
4.3,-0.07420636612,-0.009606487216
4.31,-0.07446328506,-0.006336372481
4.32,-0.0745733044,-0.003061703342
4.33,-0.07453650701,0.0002107190943
4.34,-0.07435330463,0.003474110311
4.35,-0.07402443644,0.006721719207
4.36,-0.07355096676,0.009946844819
4.37,-0.07293428174,0.01314285288
4.38,-0.07217608525,0.01630319216
4.39,-0.07127839381,0.01942141055
4.4,-0.07024353075,0.02249117083
4.41,-0.06907411935,0.02550626604
4.42,-0.0677730754,0.02846063448
4.43,-0.06634359874,0.03134837423
4.44,-0.06478916415,0.03416375713
4.45,-0.06311351154,0.03690124229
4.46,-0.06132063531,0.03955548892
4.47,-0.05941477321,0.04212136857
4.48,-0.05740039441,0.04459397676
4.49,-0.05528218717,0.04696864382
4.5,-0.05306504583,0.04924094503
4.51,-0.05075405736,0.05140671006
4.52,-0.0483544875,0.05346203158
4.53,-0.04587176644,0.05540327306
4.54,-0.04331147418,0.05722707576
4.55,-0.04067932563,0.05893036494
4.56,-0.03798115538,0.06051035509
4.57,-0.03522290236,0.06196455446
4.58,-0.03241059428,0.06329076862
4.59,-0.02955033202,0.06448710318
4.6,-0.02664827398,0.06555196563
4.61,-0.02371062039,0.06648406639
4.62,-0.02074359772,0.06728241889
4.63,-0.01775344322,0.06794633887
4.64,-0.01474638952,0.06847544288
4.65,-0.01172864954,0.06886964586
4.66,-0.008706401572,0.06912915802
4.67,-0.005685774699,0.06925448088
4.68,-0.002672834524,0.06924640259
4.69,0.0003264307089,0.06910599248
4.7,0.003306123588,0.06883459493
4.71,0.006260450551,0.06843382263
4.72,0.009183734413,0.06790554905
4.73,0.01207042638,0.0672519005
4.74,0.01491511751,0.06647524745
4.75,0.01771254959,0.06557819542
4.76,0.02045762544,0.06456357537
4.77,0.02314541852,0.0634344336
4.78,0.02577118202,0.06219402127
4.79,0.02833035715,0.06084578355
4.8,0.03081858085,0.05939334844
4.81,0.03323169278,0.05784051533
4.82,0.03556574163,0.05619124325
4.83,0.03781699071,0.05444963905
4.84,0.03998192285,0.05261994529
4.85,0.04205724462,0.05070652813
4.86,0.04403988982,0.04871386509
4.87,0.04592702228,0.04664653282
4.88,0.047716038,0.04450919483
4.89,0.04940456658,0.04230658938
4.9,0.05099047202,0.04004351735
4.91,0.05247185285,0.0377248303
4.92,0.05384704166,0.03535541872
4.93,0.05511460394,0.03294020041
4.94,0.05627333647,0.03048410915
4.95,0.057322265,0.02799208363
4.96,0.05826064147,0.02546905666
4.97,0.05908794071,0.02291994472
4.98,0.05980385661,0.02034963779
4.99,0.06040829788,0.01776298967
5,0.06090138335,0.01516480857
5.01,0.06128343688,0.0125598482
5.02,0.06155498191,0.009952799187
5.03,0.06171673565,0.007348281037
5.04,0.06176960302,0.004750834467
5.05,0.06171467025,0.002164914225
5.06,0.06155319827,-0.0004051176256
5.07,0.06128661594,-0.002954997959
5.08,0.06091651304,-0.005480568361
5.09,0.06044463315,-0.007977780439
5.1,0.05987286644,-0.01044270065
5.11,0.05920324231,-0.01287151468
5.12,0.05843792208,-0.01526053135
5.13,0.05757919157,-0.01760618606
5.14,0.05662945375,-0.01990504383
5.15,0.05559122139,-0.02215380186
5.16,0.05446710978,-0.02434929172
5.17,0.05325982953,-0.02648848109
5.18,0.05197217946,-0.02856847516
5.19,0.0506070397,-0.0305865176
5.2,0.04916736477,-0.03253999126
5.21,0.047656177,-0.03442641848
5.22,0.04607656004,-0.03624346105
5.23,0.04443165255,-0.03798892001
5.24,0.04272464212,-0.03966073503
5.25,0.04095875944,-0.04125698366
5.26,0.03913727264,-0.04277588026
5.27,0.03726348187,-0.04421577481
5.28,0.03534071417,-0.04557515146
5.29,0.03337231847,-0.04685262702
5.3,0.03136166097,-0.04804694917
5.31,0.02931212066,-0.04915699471
5.32,0.02722708507,-0.05018176762
5.33,0.02510994637,-0.05112039704
5.34,0.02296409755,-0.05197213526
5.35,0.02079292893,-0.05273635565
5.36,0.01859982487,-0.05341255052
5.37,0.0163881606,-0.05400032903
5.38,0.0141612994,-0.05449941514
5.39,0.01192258978,-0.05490964551
5.4,0.009675363034,-0.05523096755
5.41,0.007422930751,-0.05546343737
5.42,0.005168582624,-0.05560721797
5.43,0.00291558431,-0.05566257741
5.44,0.0006671754283,-0.05562988702
5.45,-0.001573432348,-0.05550961982
5.46,-0.003803057115,-0.0553023489
5.47,-0.006018548493,-0.05500874603
5.48,-0.008216789334,-0.05462958023
5.49,-0.0103946974,-0.05416571655
5.5,-0.01254922699,-0.05361811486
5.51,-0.01467737063,-0.05298782881
5.52,-0.0167761607,-0.05227600481
5.53,-0.01884267111,-0.05148388113
5.54,-0.02087401907,-0.05061278707
5.55,-0.02286736681,-0.04966414221
5.56,-0.02481992346,-0.04863945565
5.57,-0.02672894693,-0.04754032541
5.58,-0.02859174595,-0.04636843776
5.59,-0.03040568211,-0.04512556664
5.6,-0.03216817209,-0.04381357306
5.61,-0.03387668993,-0.04243440449
5.62,-0.03552876948,-0.04099009427
5.63,-0.03712200687,-0.03948276093
5.64,-0.03865406321,-0.03791460752
5.65,-0.04012266731,-0.0362879208
5.66,-0.04152561859,-0.03460507046
5.67,-0.04286079004,-0.0328685081
5.68,-0.04412613136,-0.03108076623
5.69,-0.04531967217,-0.02924445703
5.7,-0.0464395253,-0.02736227109
5.71,-0.04748389022,-0.02543697586
5.72,-0.0484510565,-0.02347141399
5.73,-0.0493394074,-0.02146850151
5.74,-0.0501474235,-0.01943122575
5.75,-0.05087368631,-0.0173626431
5.76,-0.05151688202,-0.0152658765
5.77,-0.05207580521,-0.0131441127
5.78,-0.05254936255,-0.01100059935
5.79,-0.05293657649,-0.008838641735
5.8,-0.05323658897,-0.006661599328
5.81,-0.05344866498,-0.00447288204
5.82,-0.0535721961,-0.002275946232
5.83,-0.05360670397,-7.429044086E-05
5.84,-0.05355184359,0.002128549152
5.85,-0.05340740653,0.004329003527
5.86,-0.05317332393,0.006523475891
5.87,-0.05284966937,0.008708347003
5.88,-0.05243666155,0.01087998076
5.89,-0.05193466669,0.01303473001
5.9,-0.05134420073,0.01516894266
5.91,-0.0506659313,0.0172789679
5.92,-0.04990067932,0.01936116277
5.93,-0.04904942039,0.02141189884
5.94,-0.04811328584,0.02342756912
5.95,-0.04709356339,0.02540459511
5.96,-0.04599169757,0.027339434
5.97,-0.04480928962,0.02922858604
5.98,-0.04354809719,0.031068602
5.99,-0.04221003352,0.03285609066
6,-0.04079716623,0.03458772647
