"Freq [GHz]","re(S(Tx_p1,Tx_p1)) []","im(S(Tx_p1,Tx_p1)) []"
1,-0.04175744302,-0.2187988401
1.01,-0.04972351938,-0.2169597141
1.02,-0.05764344344,-0.2148122915
1.03,-0.06550310801,-0.2123567614
1.04,-0.07328841285,-0.2095940482
1.05,-0.08098530092,-0.2065258057
1.06,-0.08857979412,-0.2031544094
1.07,-0.09605802846,-0.1994829479
1.08,-0.1034062885,-0.1955152123
1.09,-0.1106110411,-0.1912556848
1.1,-0.1176589687,-0.1867095249
1.11,-0.1245370012,-0.1818825557
1.12,-0.1312323475,-0.1767812476
1.13,-0.137732526,-0.1714127015
1.14,-0.1440253941,-0.1657846304
1.15,-0.1500991764,-0.1599053397
1.16,-0.1559424924,-0.1537837067
1.17,-0.1615443827,-0.1474291591
1.18,-0.1668943341,-0.1408516513
1.19,-0.1719823036,-0.1340616417
1.2,-0.1767987409,-0.1270700666
1.21,-0.1813346103,-0.1198883157
1.22,-0.1855814102,-0.1125282047
1.23,-0.1895311923,-0.1050019481
1.24,-0.1931765789,-0.09732213161
1.25,-0.196510779,-0.08950168271
1.26,-0.1995276024,-0.08155384187
1.27,-0.2022214736,-0.07349213248
1.28,-0.2045874428,-0.06533033057
1.29,-0.2066211964,-0.05708243412
1.3,-0.2083190658,-0.04876263201
1.31,-0.2096780344,-0.04038527275
1.32,-0.2106957432,-0.03196483302
1.33,-0.2113704953,-0.02351588602
1.34,-0.2117012585,-0.01505306991
1.35,-0.2116876662,-0.006591056113
1.36,-0.2113300177,0.001855482179
1.37,-0.2106292756,0.01027190139
1.38,-0.2095870633,0.0186436187
1.39,-0.2082056597,0.02695614295
1.4,-0.2064879937,0.03519510508
1.41,-0.2044376358,0.04334628828
1.42,-0.2020587899,0.05139565751
1.43,-0.1993562827,0.05932938861
1.44,-0.1963355521,0.06713389673
1.45,-0.1930026343,0.07479586405
1.46,-0.1893641495,0.08230226689
1.47,-0.1854272869,0.08964040193
1.48,-0.1811997877,0.09679791168
1.49,-0.1766899278,0.103762809
1.5,-0.1719064989,0.1105235007
1.51,-0.1668587886,0.1170688102
1.52,-0.1615565598,0.1233879991
1.53,-0.1560100291,0.1294707879
1.54,-0.1502298438,0.1353073752
1.55,-0.1442270591,0.140888456
1.56,-0.1380131135,0.1462052392
1.57,-0.1315998042,0.151249463
1.58,-0.1249992615,0.15601341
1.59,-0.1182239226,0.1604899204
1.6,-0.1112865055,0.1646724044
1.61,-0.1041999813,0.1685548527
1.62,-0.09697754738,0.1721318465
1.63,-0.08963259912,0.1753985652
1.64,-0.08217870218,0.178350794
1.65,-0.07462956419,0.1809849287
1.66,-0.06699900632,0.1832979805
1.67,-0.05930093492,0.1852875785
1.68,-0.051549313,0.1869519714
1.69,-0.04375813187,0.1882900278
1.7,-0.03594138285,0.1893012348
1.71,-0.02811302917,0.1899856958
1.72,-0.02028697806,0.1903441267
1.73,-0.01247705328,0.1903778509
1.74,-0.00469696783,0.1900887928
1.75,0.003039702804,0.1894794707
1.76,0.01071954696,0.1885529877
1.77,0.01832934258,0.1873130221
1.78,0.02585608245,0.1857638161
1.79,0.03328699872,0.1839101638
1.8,0.04060958683,0.1817573976
1.81,0.04781162867,0.1793113746
1.82,0.0548812149,0.1765784605
1.83,0.06180676662,0.1735655138
1.84,0.06857705596,0.1702798685
1.85,0.07518122597,0.166729316
1.86,0.0816088094,0.1629220863
1.87,0.08784974668,0.1588668281
1.88,0.09389440274,0.1545725889
1.89,0.09973358292,0.1500487931
1.9,0.1053585477,0.1453052211
1.91,0.1107610266,0.1403519868
1.92,0.1159332304,0.1351995145
1.93,0.1208678633,0.1298585159
1.94,0.1255581324,0.1243399665
1.95,0.1299977577,0.1186550814
1.96,0.1341809798,0.1128152914
1.97,0.1381025666,0.1068322177
1.98,0.1417578195,0.1007176479
1.99,0.1451425774,0.09448351096
2,0.1482532204,0.08814185207
2.01,0.1510866719,0.08170480791
2.02,0.1536403995,0.07518458174
2.03,0.155912415,0.06859341859
2.04,0.1579012732,0.06194358064
2.05,0.1596060693,0.05524732277
2.06,0.1610264355,0.04851686841
2.07,0.1621625363,0.04176438566
2.08,0.1630150629,0.03500196379
2.09,0.1635852264,0.02824159016
2.1,0.1638747502,0.02149512753
2.11,0.163885861,0.01477429195
2.12,0.163621279,0.008090631173
2.13,0.1630842078,0.001455503587
2.14,0.1622783222,-0.005119942123
2.15,0.1612077561,-0.01162478672
2.16,0.1598770891,-0.01804835942
2.17,0.1582913328,-0.0243802562
2.18,0.1564559154,-0.03061035728
2.19,0.1543766667,-0.03672884386
2.2,0.1520598018,-0.042726214
2.21,0.1495119043,-0.04859329762
2.22,0.1467399087,-0.0543212707
2.23,0.143751083,-0.0599016685
2.24,0.1405530097,-0.06532639789
2.25,0.1371535676,-0.07058774877
2.26,0.133560912,-0.07567840448
2.27,0.1297834557,-0.08059145135
2.28,0.1258298487,-0.08532038711
2.29,0.1217089582,-0.08985912853
2.3,0.1174298485,-0.0942020179
2.31,0.1130017603,-0.09834382864
2.32,0.1084340903,-0.1022797698
2.33,0.1037363707,-0.1060054898
2.34,0.09891824819,-0.1095170789
2.35,0.0939894637,-0.1128110709
2.36,0.08895983187,-0.1158844438
2.37,0.08383922058,-0.1187346196
2.38,0.07863753088,-0.121359463
2.39,0.07336467691,-0.1237572794
2.4,0.06803056629,-0.1259268116
2.41,0.06264508065,-0.127867236
2.42,0.05721805656,-0.1295781582
2.43,0.05175926692,-0.1310596067
2.44,0.04627840259,-0.1323120269
2.45,0.04078505466,-0.1333362736
2.46,0.03528869707,-0.1341336034
2.47,0.02979866983,-0.1347056653
2.48,0.02432416275,-0.1350544921
2.49,0.01887419977,-0.1351824895
2.5,0.01345762388,-0.135092426
2.51,0.008083082713,-0.1347874211
2.52,0.002759014716,-0.1342709336
2.53,-0.002506363913,-0.1335467491
2.54,-0.007705071649,-0.1326189672
2.55,-0.01282937333,-0.1314919879
2.56,-0.01787179109,-0.1301704979
2.57,-0.02282511465,-0.1286594566
2.58,-0.02768241066,-0.126964081
2.59,-0.0324370315,-0.1250898316
2.6,-0.03708262314,-0.123042397
2.61,-0.04161313231,-0.1208276785
2.62,-0.04602281283,-0.1184517746
2.63,-0.05030623121,-0.1159209656
2.64,-0.05445827142,-0.1132416978
2.65,-0.05847413892,-0.1104205676
2.66,-0.06234936389,-0.107464306
2.67,-0.06607980368,-0.1043797621
2.68,-0.06966164449,-0.1011738883
2.69,-0.07309140238,-0.09785372399
2.7,-0.07636592342,-0.09442638013
2.71,-0.07948238318,-0.09089902406
2.72,-0.0824382855,-0.08727886414
2.73,-0.08523146056,-0.08357313488
2.74,-0.08786006227,-0.07978908223
2.75,-0.09032256498,-0.07593394914
2.76,-0.0926177596,-0.07201496148
2.77,-0.09474474906,-0.06803931431
2.78,-0.0967029432,-0.06401415848
2.79,-0.09849205308,-0.05994658766
2.8,-0.1001120847,-0.05584362578
2.81,-0.1015633325,-0.05171221494
2.82,-0.1028463716,-0.0475592037
2.83,-0.1039620507,-0.04339133599
2.84,-0.1049114837,-0.03921524038
2.85,-0.1056960411,-0.03503741999
2.86,-0.106317341,-0.03086424281
2.87,-0.1067772403,-0.02670193269
2.88,-0.1070778247,-0.02255656079
2.89,-0.1072213992,-0.01843403761
2.9,-0.1072104776,-0.01434010565
2.91,-0.1070477729,-0.01028033259
2.92,-0.1067361858,-0.006260105055
2.93,-0.1062787953,-0.00228462299
2.94,-0.1056788468,0.00164110539
2.95,-0.1049397419,0.005512268073
2.96,-0.1040650276,0.009324253134
2.97,-0.1030583847,0.01307265204
2.98,-0.1019236176,0.01675326238
2.99,-0.100664643,0.02036209004
3,-0.0992854789,0.02389535082
3.01,-0.09779023434,0.02734947147
3.02,-0.0961830983,0.03072109025
3.03,-0.09446832939,0.03400705689
3.04,-0.09265024541,0.03720443214
3.05,-0.09073321327,0.0403104867
3.06,-0.08872163897,0.0433226998
3.07,-0.08661995789,0.04623875721
3.08,-0.08443262538,0.04905654887
3.09,-0.08216410749,0.05177416606
3.1,-0.07981887212,0.05438989821
3.11,-0.07740138042,0.05690222927
3.12,-0.07491607855,0.05930983377
3.13,-0.07236738973,0.06161157248
3.14,-0.06975970668,0.06380648783
3.15,-0.06709738444,0.06589379893
3.16,-0.06438473354,0.06787289647
3.17,-0.06162601356,0.0697433372
3.18,-0.05882542711,0.07150483831
3.19,-0.05598711416,0.07315727156
3.2,-0.05311514684,0.07470065729
3.21,-0.05021352463,0.07613515819
3.22,-0.04728616989,0.077461073
3.23,-0.04433692395,0.07867883014
3.24,-0.04136954346,0.07978898123
3.25,-0.03838769724,0.0807921945
3.26,-0.03539496355,0.08168924832
3.27,-0.0323948277,0.08248102454
3.28,-0.0293906801,0.08316850203
3.29,-0.02638581468,0.08375275012
3.3,-0.02338342773,0.08423492217
3.31,-0.02038661711,0.08461624922
3.32,-0.01739838172,0.0848980337
3.33,-0.01442162153,0.08508164334
3.34,-0.01145913773,0.08516850513
3.35,-0.008513633348,0.08516009952
3.36,-0.005587714163,0.08505795472
3.37,-0.002683889856,0.08486364128
3.38,0.0001954244952,0.08457876679
3.39,0.00304790668,0.08420497085
3.4,0.005871325365,0.08374392026
3.41,0.008663537871,0.08319730448
3.42,0.01142248774,0.08256683127
3.43,0.0141462021,0.08185422271
3.44,0.01683278887,0.08106121139
3.45,0.01948043378,0.08018953692
3.46,0.02208739728,0.07924094276
3.47,0.02465201131,0.07821717325
3.48,0.02717267602,0.07711997108
3.49,0.02964785631,0.07595107486
3.5,0.03207607845,0.07471221719
3.51,0.03445592655,0.07340512289
3.52,0.03678603904,0.07203150757
3.53,0.03906510521,0.07059307649
3.54,0.04129186167,0.06909152374
3.55,0.04346508894,0.06752853166
3.56,0.04558360804,0.06590577054
3.57,0.04764627718,0.06422489867
3.58,0.04965198852,0.06248756254
3.59,0.0515996651,0.06069539735
3.6,0.05348825779,0.05885002783
3.61,0.05531674249,0.05695306917
3.62,0.05708411741,0.05500612826
3.63,0.05878940054,0.05301080515
3.64,0.06043162736,0.05096869462
3.65,0.06200984861,0.04888138804
3.66,0.06352312843,0.0467504753
3.67,0.06497054258,0.04457754701
3.68,0.06635117695,0.04236419673
3.69,0.06766412634,0.04011202337
3.7,0.06890849335,0.03782263369
3.71,0.07008338768,0.0354976449
3.72,0.07118792556,0.03313868733
3.73,0.07222122953,0.03074740709
3.74,0.07318242835,0.0283254689
3.75,0.07407065735,0.02587455877
3.76,0.07488505886,0.02339638682
3.77,0.07562478306,0.02089269002
3.78,0.07628898896,0.01836523485
3.79,0.07687684575,0.01581582002
3.8,0.07738753428,0.01324627899
3.81,0.07782024896,0.01065848251
3.82,0.07817419971,0.008054340963
3.83,0.0784486143,0.005435806625
3.84,0.07864274085,0.002804875801
3.85,0.07875585056,0.0001635907683
3.86,0.07878724065,-0.002485958432
3.87,0.07873623751,-0.005141632396
3.88,0.07860220005,-0.007801240959
3.89,0.07838452318,-0.01046254201
3.9,0.07808264151,-0.01312324053
3.91,0.07769603315,-0.01578098789
3.92,0.07722422368,-0.01843338137
3.93,0.07666679023,-0.02107796394
3.94,0.07602336567,-0.02371222436
3.95,0.07529364283,-0.02633359747
3.96,0.07447737889,-0.02893946487
3.97,0.07357439973,-0.03152715578
3.98,0.07258460438,-0.03409394831
3.99,0.07150796943,-0.03663707093
4,0.07034455345,-0.03915370432
4.01,0.06909450147,-0.0416409835
4.02,0.06775804927,-0.04409600021
4.03,0.06633552774,-0.04651580573
4.04,0.06482736707,-0.04889741389
4.05,0.06323410093,-0.0512378044
4.06,0.06155637045,-0.05353392655
4.07,0.05979492811,-0.05578270312
4.08,0.05795064145,-0.05798103465
4.09,0.05602449664,-0.06012580394
4.1,0.05401760182,-0.06221388086
4.11,0.05193119025,-0.0642421274
4.12,0.04976662323,-0.06620740303
4.13,0.0475253928,-0.06810657021
4.14,0.04520912411,-0.06993650027
4.15,0.04281957762,-0.07169407935
4.16,0.04035865091,-0.07337621468
4.17,0.03782838024,-0.074979841
4.18,0.03523094179,-0.07650192715
4.19,0.03256865255,-0.07793948283
4.2,0.02984397088,-0.07928956551
4.21,0.02705949671,-0.08054928747
4.22,0.02421797141,-0.08171582289
4.23,0.02132227721,-0.08278641515
4.24,0.01837543636,-0.08375838405
4.25,0.01538060977,-0.08462913319
4.26,0.01234109536,-0.08539615736
4.27,0.009260325986,-0.08605704983
4.28,0.006141866928,-0.08660950982
4.29,0.00298941303,-0.08705134972
4.3,-0.0001932145977,-0.08738050245
4.31,-0.003402072263,-0.08759502854
4.32,-0.006633097788,-0.08769312331
4.33,-0.009882115,-0.08767312376
4.34,-0.01314483862,-0.0875335154
4.35,-0.01641687952,-0.0872729389
4.36,-0.01969375044,-0.0868901965
4.37,-0.02297087197,-0.08638425831
4.38,-0.02624357898,-0.08575426825
4.39,-0.02950712741,-0.08499954984
4.4,-0.03275670137,-0.08411961164
4.41,-0.03598742058,-0.08311415248
4.42,-0.03919434818,-0.08198306624
4.43,-0.04237249883,-0.08072644648
4.44,-0.04551684703,-0.07934459054
4.45,-0.04862233587,-0.07783800339
4.46,-0.05168388589,-0.07620740104
4.47,-0.05469640428,-0.07445371357
4.48,-0.05765479427,-0.07257808773
4.49,-0.06055396472,-0.07058188913
4.5,-0.06338883993,-0.06846670393
4.51,-0.06615436955,-0.06623434019
4.52,-0.06884553872,-0.06388682861
4.53,-0.07145737822,-0.0614264229
4.54,-0.07398497483,-0.05885559962
4.55,-0.07642348164,-0.05617705753
4.56,-0.07876812856,-0.05339371647
4.57,-0.08101423268,-0.05050871567
4.58,-0.08315720875,-0.04752541163
4.59,-0.08519257961,-0.04444737542
4.6,-0.08711598654,-0.04127838955
4.61,-0.08892319951,-0.03802244422
4.62,-0.0906101274,-0.03468373314
4.63,-0.09217282806,-0.03126664883
4.64,-0.09360751814,-0.02777577737
4.65,-0.09491058285,-0.02421589272
4.66,-0.09607858546,-0.02059195047
4.67,-0.09710827652,-0.01690908116
4.68,-0.09799660294,-0.01317258312
4.69,-0.09874071669,-0.009387914813
4.7,-0.09933798318,-0.005560686726
4.71,-0.09978598944,-0.001696652864
4.72,-0.1000825518,0.002198298231
4.73,-0.1002257232,0.006118152859
4.74,-0.1002138003,0.01005678193
4.75,-0.1000453299,0.01400795111
4.76,-0.09971911516,0.01796533134
4.77,-0.09923422116,0.0219225097
4.78,-0.0985899801,0.02587300055
4.79,-0.09778599601,0.02981025701
4.8,-0.09682214888,0.03372768272
4.81,-0.09569859839,0.03761864382
4.82,-0.09441578692,0.04147648116
4.83,-0.09297444219,0.04529452276
4.84,-0.09137557919,0.04906609636
4.85,-0.08962050167,0.05278454224
4.86,-0.0877108029,0.056443226
4.87,-0.08564836599,0.06003555164
4.88,-0.08343536346,0.0635549745
4.89,-0.08107425637,0.06699501439
4.9,-0.07856779266,0.07034926868
4.91,-0.07591900506,0.07361142533
4.92,-0.07313120827,0.07677527596
4.93,-0.07020799554,0.07983472875
4.94,-0.0671532347,0.0827838213
4.95,-0.06397106356,0.08561673335
4.96,-0.06066588464,0.08832779929
4.97,-0.05724235942,0.09091152054
4.98,-0.05370540192,0.09336257762
4.99,-0.05006017172,0.09567584209
5,-0.04631206644,0.09784638809
5.01,-0.04246671361,0.09986950367
5.02,-0.03852996203,0.1017407017
5.03,-0.03450787263,0.1034557306
5.04,-0.03040670872,0.1050105842
5.05,-0.02623292587,0.1064015121
5.06,-0.02199316118,0.1076250284
5.07,-0.0176942222,0.1086779212
5.08,-0.01334307533,0.1095572606
5.09,-0.008946833877,0.1102604067
5.1,-0.004512745621,0.1107850171
5.11,-4.818010194E-05,0.1111290539
5.12,0.004439384491,0.1112907894
5.13,0.008942374739,0.1112688126
5.14,0.01345313571,0.1110620337
5.15,0.01796394495,0.1106696888
5.16,0.02246702668,0.1100913438
5.17,0.02695456626,0.1093268978
5.18,0.03141872479,0.1083765852
5.19,0.03585165387,0.1072409782
5.2,0.04024551052,0.1059209878
5.21,0.04459247211,0.1044178641
5.22,0.04888475144,0.102733197
5.23,0.05311461178,0.1008689145
5.24,0.05727438197,0.09882728195
5.25,0.06135647139,0.09661089958
5.26,0.06535338496,0.09422269973
5.27,0.06925773801,0.09166594338
5.28,0.07306227096,0.08894421595
5.29,0.07675986395,0.08606142242
5.3,0.08034355115,0.08302178181
5.31,0.08380653497,0.07982982101
5.32,0.08714219988,0.07649036794
5.33,0.09034412608,0.07300854404
5.34,0.09340610276,0.06938975621
5.35,0.09632214103,0.06563968808
5.36,0.09908648651,0.06176429069
5.37,0.1016936315,0.05776977262
5.38,0.1041383267,0.0536625895
5.39,0.1064155925,0.04944943306
5.4,0.1085207298,0.04513721958
5.41,0.1104493303,0.04073307788
5.42,0.1121972861,0.03624433681
5.43,0.1137607993,0.03167851231
5.44,0.1151363903,0.02704329404
5.45,0.116320906,0.02234653156
5.46,0.1173115272,0.0175962202
5.47,0.1181057754,0.01280048654
5.48,0.1187015189,0.007967573585
5.49,0.1190969785,0.00310582564
5.5,0.1192907323,-0.001776327067
5.51,0.1192817195,-0.006670383994
5.52,0.1190692444,-0.01156779009
5.53,0.1186529787,-0.01645995177
5.54,0.1180329636,-0.02133825302
5.55,0.1172096114,-0.0261940716
5.56,0.1161837056,-0.03101879536
5.57,0.1149564013,-0.03580383848
5.58,0.1135292238,-0.04054065784
5.59,0.1119040674,-0.04522076931
5.6,0.1100831927,-0.04983576393
5.61,0.1080692241,-0.05437732405
5.62,0.1058651451,-0.05883723933
5.63,0.1034742949,-0.06320742257
5.64,0.1009003622,-0.06747992529
5.65,0.09814737991,-0.07164695323
5.66,0.09521971838,-0.07570088139
5.67,0.09212207803,-0.07963426893
5.68,0.0888594815,-0.08343987373
5.69,0.08543726505,-0.08711066649
5.7,0.08186106933,-0.09063984458
5.71,0.07813682953,-0.09402084541
5.72,0.07427076496,-0.09724735937
5.73,0.07026936804,-0.1003133423
5.74,0.06613939272,-0.1032130275
5.75,0.06188784239,-0.1059409373
5.76,0.05752195728,-0.1084918937
5.77,0.05304920135,-0.110861029
5.78,0.04847724874,-0.1130437957
5.79,0.04381396981,-0.1150359752
5.8,0.03906741671,-0.1168336868
5.81,0.03424580867,-0.1184333956
5.82,0.02935751684,-0.1198319195
5.83,0.02441104889,-0.1210264358
5.84,0.01941503327,-0.1220144875
5.85,0.01437820329,-0.1227939881
5.86,0.009309380871,-0.123363226
5.87,0.004217460205,-0.1237208687
5.88,-0.0008886088134,-0.1238659655
5.89,-0.005999837242,-0.12379795
5.9,-0.01110721385,-0.1235166416
5.91,-0.01620172194,-0.123022246
5.92,-0.02127435619,-0.1223153558
5.93,-0.02631613949,-0.1213969497
5.94,-0.03131813973,-0.1202683908
5.95,-0.03627148653,-0.1189314246
5.96,-0.04116738782,-0.1173881763
5.97,-0.04599714637,-0.1156411468
5.98,-0.05075217601,-0.1136932088
5.99,-0.05542401777,-0.1115476012
6,-0.06000435571,-0.1092079239
