"Freq [GHz]","re(S(Tx_p1,Tx_p1)) []","im(S(Tx_p1,Tx_p1)) []"
1,-0.01988180581,-0.08782167773
1.01,-0.02294279232,-0.08704782721
1.02,-0.02598669151,-0.08616735572
1.03,-0.02900944682,-0.08518023314
1.04,-0.03200700313,-0.08408658995
1.05,-0.03497531071,-0.08288671446
1.06,-0.03791032885,-0.08158105031
1.07,-0.04080802927,-0.0801701941
1.08,-0.04366439941,-0.07865489335
1.09,-0.04647544543,-0.07703604471
1.1,-0.04923719529,-0.07531469237
1.11,-0.0519457016,-0.07349202675
1.12,-0.05459704456,-0.07156938345
1.13,-0.0571873348,-0.06954824238
1.14,-0.05971271639,-0.06743022716
1.15,-0.0621693698,-0.06521710474
1.16,-0.06455351503,-0.06291078513
1.17,-0.06686141492,-0.06051332138
1.18,-0.06908937851,-0.05802690967
1.19,-0.07123376472,-0.05545388954
1.2,-0.07329098617,-0.05279674418
1.21,-0.07525751327,-0.05005810082
1.22,-0.07712987856,-0.04724073113
1.23,-0.0789046813,-0.04434755166
1.24,-0.08057859241,-0.04138162418
1.25,-0.08214835959,-0.03834615597
1.26,-0.08361081289,-0.03524450007
1.27,-0.08496287042,-0.0320801553
1.28,-0.08620154453,-0.02885676613
1.29,-0.08732394809,-0.02557812235
1.3,-0.08832730126,-0.02224815845
1.31,-0.0892089384,-0.01887095273
1.32,-0.08996631529,-0.01545072608
1.33,-0.09059701657,-0.01199184037
1.34,-0.09109876349,-0.008498796463
1.35,-0.0914694217,-0.004976231802
1.36,-0.09170700938,-0.001428917507
1.37,-0.09180970538,0.002138245
1.38,-0.09177585758,0.005720227894
1.39,-0.09160399118,0.009311881395
1.4,-0.09129281718,0.01290793877
1.41,-0.09084124074,0.01650302192
1.42,-0.09024836952,0.0200916476
1.43,-0.08951352198,0.02366823416
1.44,-0.08863623542,0.02722710903
1.45,-0.08761627396,0.03076251673
1.46,-0.08645363619,0.03426862755
1.47,-0.08514856259,0.03773954686
1.48,-0.08370154261,0.04116932501
1.49,-0.08211332131,0.04455196788
1.5,-0.08038490566,0.04788144799
1.51,-0.07851757025,0.0511517162
1.52,-0.07651286257,0.054356714
1.53,-0.07437260767,0.05749038628
1.54,-0.07209891214,0.06054669464
1.55,-0.06969416752,0.06351963114
1.56,-0.06716105296,0.06640323255
1.57,-0.06450253709,0.06919159491
1.58,-0.06172187913,0.07187888849
1.59,-0.05882262922,0.07445937309
1.6,-0.05580862781,0.0769274135
1.61,-0.05268400425,0.07927749528
1.62,-0.04945317438,0.08150424059
1.63,-0.04612083726,0.0836024242
1.64,-0.04269197092,0.08556698947
1.65,-0.03917182714,0.08739306437
1.66,-0.03556592527,0.08907597731
1.67,-0.03188004506,0.09061127296
1.68,-0.02812021848,0.09199472774
1.69,-0.02429272062,0.09322236511
1.7,-0.02040405956,0.09429047041
1.71,-0.0164609653,0.09519560547
1.72,-0.01247037777,0.09593462254
1.73,-0.008439433849,0.09650467783
1.74,-0.004375453537,0.09690324439
1.75,-0.0002859252615,0.09712812435
1.76,0.003821509687,0.09717746039
1.77,0.007939073494,0.0970497465
1.78,0.01205886892,0.09674383785
1.79,0.01617289712,0.09625895975
1.8,0.02027307611,0.09559471577
1.81,0.0243512598,0.09475109476
1.82,0.02839925769,0.09372847685
1.83,0.03240885492,0.09252763846
1.84,0.03637183281,0.09114975612
1.85,0.04027998977,0.08959640915
1.86,0.04412516245,0.08786958117
1.87,0.04789924717,0.08597166049
1.88,0.05159422142,0.08390543914
1.89,0.05520216548,0.08167411078
1.9,0.05871528407,0.07928126733
1.91,0.0621259278,0.07673089436
1.92,0.0654266146,0.0740273652
1.93,0.06861005083,0.07117543383
1.94,0.07166915207,0.06818022657
1.95,0.07459706361,0.06504723249
1.96,0.07738718036,0.06178229264
1.97,0.0800331663,0.05839158812
1.98,0.08252897328,0.05488162701
1.99,0.08486885918,0.05125923013
2,0.08704740523,0.04753151584
2.01,0.0890595326,0.04370588367
2.02,0.09090051807,0.03978999709
2.03,0.09256600872,0.03579176529
2.04,0.09405203568,0.03171932411
2.05,0.09535502677,0.02758101613
2.06,0.09647181805,0.02338537003
2.07,0.09739966423,0.01914107929
2.08,0.09813624784,0.01485698024
2.09,0.09867968721,0.01054202957
2.1,0.09902854317,0.006205281388
2.11,0.09918182442,0.001855863907
2.12,0.09913899163,-0.002497044227
2.13,0.09889996017,-0.0068442378
2.14,0.0984651015,-0.01117650906
2.15,0.0978352432,-0.01548467183
2.16,0.0970116676,-0.01975958557
2.17,0.09599610916,-0.02399217937
2.18,0.09479075034,-0.0281734758
2.19,0.09339821626,-0.0322946144
2.2,0.091821568,-0.03634687497
2.21,0.09006429454,-0.04032170032
2.22,0.08813030355,-0.0442107186
2.23,0.08602391081,-0.04800576502
2.24,0.08374982855,-0.05169890298
2.25,0.08131315252,-0.05528244442
2.26,0.07871934806,-0.05874896944
2.27,0.07597423498,-0.06209134506
2.28,0.07308397157,-0.06530274309
2.29,0.07005503755,-0.068376657
2.3,0.06689421617,-0.0713069178
2.31,0.06360857553,-0.0740877089
2.32,0.06020544905,-0.07671357976
2.33,0.05669241532,-0.0791794585
2.34,0.05307727734,-0.08148066323
2.35,0.04936804114,-0.08361291223
2.36,0.04557289407,-0.08557233288
2.37,0.04170018253,-0.08735546927
2.38,0.03775838953,-0.08895928862
2.39,0.03375611197,-0.09038118632
2.4,0.02970203771,-0.09161898975
2.41,0.02560492266,-0.09267096072
2.42,0.02147356776,-0.09353579671
2.43,0.01731679619,-0.09421263074
2.44,0.01314343054,-0.09470103
2.45,0.008962270383,-0.09500099323
2.46,0.004782070067,-0.09511294686
2.47,0.0006115168739,-0.09503773997
2.48,-0.003540790343,-0.094776638
2.49,-0.00766636203,-0.09433131543
2.5,-0.01175683823,-0.09370384725
2.51,-0.01580400826,-0.0928966995
2.52,-0.01979982964,-0.09191271866
2.53,-0.02373644636,-0.0907551202
2.54,-0.02760620632,-0.08942747617
2.55,-0.03140167786,-0.08793370195
2.56,-0.03511566554,-0.08627804219
2.57,-0.03874122485,-0.08446505606
2.58,-0.04227167609,-0.0824996018
2.59,-0.04570061717,-0.08038682067
2.6,-0.04902193547,-0.0781321204
2.61,-0.05222981858,-0.07574115807
2.62,-0.0553187641,-0.07321982271
2.63,-0.05828358825,-0.07057421745
2.64,-0.06111943355,-0.06781064147
2.65,-0.06382177527,-0.06493557175
2.66,-0.06638642697,-0.06195564458
2.67,-0.06880954482,-0.05887763714
2.68,-0.07108763097,-0.05570844899
2.69,-0.07321753581,-0.05245508359
2.7,-0.07519645927,-0.04912463005
2.71,-0.077021951,-0.04572424492
2.72,-0.07869190971,-0.04226113431
2.73,-0.08020458143,-0.03874253629
2.74,-0.08155855693,-0.03517570357
2.75,-0.08275276819,-0.03156788667
2.76,-0.08378648408,-0.02792631744
2.77,-0.08465930519,-0.02425819313
2.78,-0.08537115789,-0.02057066093
2.79,-0.08592228766,-0.01687080315
2.8,-0.08631325178,-0.01316562291
2.81,-0.08654491136,-0.009462030527
2.82,-0.08661842276,-0.005766830516
2.83,-0.08653522853,-0.002086709288
2.84,-0.08629704781,0.001571776455
2.85,-0.0859058664,0.005202210617
2.86,-0.0853639263,0.008798327871
2.87,-0.08467371506,0.01235402309
2.88,-0.08383795476,0.01586336005
2.89,-0.08285959083,0.01932057936
2.9,-0.08174178066,0.02272010568
2.91,-0.08048788206,0.02605655418
2.92,-0.07910144169,0.02932473634
2.93,-0.07758618344,0.03251966489
2.94,-0.07594599679,0.03563655825
2.95,-0.07418492528,0.03867084409
2.96,-0.07230715502,0.04161816237
2.97,-0.07031700335,0.04447436766
2.98,-0.0682189077,0.04723553089
2.99,-0.06601741465,0.0498979405
3,-0.06371716913,0.05245810298
3.01,-0.06132290404,0.05491274299
3.02,-0.05883943003,0.05725880286
3.03,-0.05627162565,0.05949344172
3.04,-0.05362442785,0.06161403414
3.05,-0.05090282275,0.06361816841
3.06,-0.04811183686,0.06550364445
3.07,-0.04525652864,0.06726847137
3.08,-0.04234198044,0.0689108648
3.09,-0.03937329082,0.07042924389
3.1,-0.03635556727,0.07182222817
3.11,-0.03329391935,0.07308863415
3.12,-0.03019345219,0.07422747183
3.13,-0.02705926033,0.07523794107
3.14,-0.02389642204,0.07611942787
3.15,-0.02070999393,0.0768715006
3.16,-0.0175050059,0.07749390619
3.17,-0.01428645648,0.07798656638
3.18,-0.01105930847,0.07834957387
3.19,-0.007828484882,0.07858318868
3.2,-0.004598865154,0.07868783445
3.21,-0.001375281643,0.07866409491
3.22,0.001837483644,0.07851271036
3.23,0.005034702107,0.07823457445
3.24,0.008211701418,0.07783073086
3.25,0.01136386821,0.07730237032
3.26,0.01448665064,0.07665082769
3.27,0.01757556081,0.07587757918
3.28,0.02062617712,0.07498423979
3.29,0.02363414654,0.07397256085
3.3,0.02659518683,0.07284442778
3.31,0.02950508881,0.07160185791
3.32,0.03235971851,0.07024699853
3.33,0.03515501945,0.06878212506
3.34,0.03788701498,0.06720963927
3.35,0.04055181058,0.06553206772
3.36,0.04314559638,0.06375206023
3.37,0.04566464967,0.06187238844
3.38,0.04810533763,0.05989594443
3.39,0.05046412013,0.05782573941
3.4,0.0527375527,0.05566490238
3.41,0.05492228963,0.05341667885
3.42,0.05701508729,0.05108442948
3.43,0.05901280753,0.04867162872
3.44,0.06091242138,0.04618186333
3.45,0.06271101275,0.04361883086
3.46,0.06440578246,0.04098633795
3.47,0.06599405235,0.03828829854
3.48,0.06747326956,0.03552873187
3.49,0.06884101097,0.0327117603
3.5,0.07009498781,0.02984160691
3.51,0.07123305031,0.02692259288
3.52,0.07225319257,0.02395913458
3.53,0.07315355741,0.02095574036
3.54,0.07393244144,0.0179170071
3.55,0.07458830002,0.01484761642
3.56,0.07511975237,0.01175233048
3.57,0.07552558662,0.008635987523
3.58,0.07580476488,0.005503497035
3.59,0.07595642825,0.002359834483
3.6,0.07597990171,-0.0007899642802
3.61,0.07587469898,-0.003940809022
3.62,0.07564052717,-0.007087561521
3.63,0.07527729133,-0.01022504236
3.64,0.07478509871,-0.01334803809
3.65,0.07416426286,-0.01645130882
3.66,0.07341530744,-0.01952959618
3.67,0.07253896975,-0.02257763161
3.68,0.07153620385,-0.02559014508
3.69,0.07040818345,-0.02856187413
3.7,0.06915630427,-0.03148757326
3.71,0.0677821861,-0.03436202357
3.72,0.06628767429,-0.03718004281
3.73,0.06467484086,-0.03993649559
3.74,0.06294598502,-0.04262630388
3.75,0.06110363325,-0.04524445776
3.76,0.05915053874,-0.04778602628
3.77,0.05708968027,-0.05024616852
3.78,0.05492426054,-0.05262014481
3.79,0.05265770388,-0.05490332791
3.8,0.05029365326,-0.05709121438
3.81,0.04783596674,-0.05917943587
3.82,0.04528871326,-0.06116377038
3.83,0.04265616772,-0.06304015353
3.84,0.03994280549,-0.06480468956
3.85,0.03715329619,-0.06645366238
3.86,0.0342924968,-0.06798354622
3.87,0.0313654442,-0.06939101618
3.88,0.02837734696,-0.07067295841
3.89,0.0253335766,-0.07182648004
3.9,0.02223965809,-0.07284891865
3.91,0.0191012599,-0.07373785139
3.92,0.01592418333,-0.07449110366
3.93,0.01271435135,-0.07510675721
3.94,0.009477796883,-0.07558315784
3.95,0.006220650542,-0.0759189224
3.96,0.002949127932,-0.07611294524
3.97,-0.0003304835305,-0.07616440409
3.98,-0.003611838202,-0.07607276513
3.99,-0.006888546182,-0.07583778748
4,-0.01015418761,-0.07545952689
4.01,-0.01340232728,-0.0749383387
4.02,-0.01662652947,-0.07427488004
4.03,-0.01982037305,-0.07347011121
4.04,-0.02297746665,-0.07252529624
4.05,-0.02609146406,-0.07144200267
4.06,-0.0291560796,-0.07022210041
4.07,-0.03216510356,-0.06886775986
4.08,-0.03511241757,-0.06738144906
4.09,-0.03799200993,-0.06576593009
4.1,-0.04079799077,-0.06402425455
4.11,-0.043524607,-0.06215975823
4.12,-0.0461662571,-0.06017605493
4.13,-0.04871750555,-0.05807702941
4.14,-0.05117309694,-0.05586682966
4.15,-0.0535279697,-0.05354985819
4.16,-0.05577726938,-0.05113076267
4.17,-0.0579163615,-0.0486144258
4.18,-0.05994084375,-0.04600595447
4.19,-0.06184655779,-0.04331066811
4.2,-0.06362960027,-0.04053408658
4.21,-0.06528633331,-0.03768191726
4.22,-0.06681339422,-0.03476004162
4.23,-0.06820770455,-0.03177450127
4.24,-0.06946647834,-0.02873148345
4.25,-0.07058722958,-0.02563730609
4.26,-0.07156777889,-0.02249840245
4.27,-0.07240625931,-0.0193213054
4.28,-0.07310112127,-0.01611263137
4.29,-0.07365113666,-0.01287906402
4.3,-0.07405540199,-0.009627337745
4.31,-0.07431334067,-0.006364220977
4.32,-0.07442470437,-0.003096499385
4.33,-0.07438957342,0.0001690409711
4.34,-0.07420835634,0.00342563049
4.35,-0.07388178841,0.006666532828
4.36,-0.07341092935,0.009885061585
4.37,-0.07279716005,0.01307459683
4.38,-0.07204217846,0.01622860144
4.39,-0.07114799455,0.01934063709
4.4,-0.07011692441,0.02240438005
4.41,-0.06895158354,0.02541363651
4.42,-0.06765487928,0.02836235757
4.43,-0.06623000246,0.03124465366
4.44,-0.06468041831,0.03405480859
4.45,-0.06300985659,0.03678729297
4.46,-0.06122230108,0.03943677704
4.47,-0.05932197834,0.04199814291
4.48,-0.05731334596,0.04446649608
4.49,-0.05520108008,0.04683717636
4.5,-0.05299006253,0.04910576794
4.51,-0.05068536737,0.05126810882
4.52,-0.04829224703,0.05332029939
4.53,-0.04581611804,0.05525871022
4.54,-0.04326254646,0.05707998905
4.55,-0.04063723291,0.05878106695
4.56,-0.03794599748,0.06035916359
4.57,-0.03519476432,0.06181179172
4.58,-0.03238954619,0.0631367607
4.59,-0.02953642885,0.06433217926
4.6,-0.02664155543,0.06539645733
4.61,-0.02371111077,0.06632830702
4.62,-0.02075130593,0.06712674277
4.63,-0.01776836265,0.06779108061
4.64,-0.01476849806,0.06832093667
4.65,-0.01175790962,0.06871622474
4.66,-0.0087427602,0.06897715319
4.67,-0.005729163565,0.06910422097
4.68,-0.002723170113,0.06909821294
4.69,0.0002692469602,0.06896019448
4.7,0.003242205103,0.0686915053
4.71,0.006189925395,0.06829375272
4.72,0.009106745046,0.06776880421
4.73,0.01198712937,0.06711877936
4.74,0.01482568323,0.06634604131
4.75,0.01761716186,0.06545318761
4.76,0.02035648117,0.0644430406
4.77,0.02303872733,0.06331863739
4.78,0.02565916575,0.06208321933
4.79,0.02821324948,0.06074022124
4.8,0.03069662678,0.05929326023
4.81,0.03310514812,0.05774612423
4.82,0.03543487248,0.05610276038
4.83,0.03768207292,0.0543672631
4.84,0.03984324142,0.05254386211
4.85,0.04191509312,0.05063691028
4.86,0.04389456977,0.04865087147
4.87,0.04577884251,0.04659030825
4.88,0.04756531401,0.04445986978
4.89,0.04925161987,0.04226427962
4.9,0.05083562939,0.04000832366
4.91,0.05231544573,0.03769683826
4.92,0.05368940537,0.03533469846
4.93,0.05495607702,0.03292680645
4.94,0.05611425991,0.03047808024
4.95,0.05716298152,0.02799344264
4.96,0.05810149479,0.02547781051
4.97,0.0589292748,0.02293608429
4.98,0.05964601494,0.02037313795
4.99,0.06025162268,0.0177938093
5,0.06074621486,0.01520289059
5.01,0.0611301126,0.01260511968
5.02,0.06140383587,0.01000517148
5.03,0.06156809768,0.00740764993
5.04,0.061623798,0.004817080371
5.05,0.0615720174,0.002237902416
5.06,0.06141401047,-0.0003255367494
5.07,0.06115119898,-0.002868988576
5.08,0.060785165,-0.0053883089
5.09,0.06031764368,-0.007879463214
5.1,0.05975051612,-0.01033853147
5.11,0.05908580204,-0.01276171243
5.12,0.05832565244,-0.01514532751
5.13,0.05747234225,-0.01748582427
5.14,0.05652826297,-0.01977977933
5.15,0.05549591534,-0.02202390098
5.16,0.05437790212,-0.0242150313
5.17,0.05317692088,-0.02635014791
5.18,0.05189575697,-0.0284263653
5.19,0.05053727655,-0.03044093583
5.2,0.04910441981,-0.03239125038
5.21,0.04760019436,-0.03427483861
5.22,0.04602766876,-0.03608936899
5.23,0.04438996631,-0.03783264848
5.24,0.04269025894,-0.03950262199
5.25,0.04093176142,-0.04109737153
5.26,0.03911772578,-0.04261511519
5.27,0.03725143588,-0.04405420591
5.28,0.03533620232,-0.04541313004
5.29,0.03337535752,-0.04669050579
5.3,0.03137225108,-0.04788508149
5.31,0.02933024535,-0.04899573379
5.32,0.02725271129,-0.05002146571
5.33,0.02514302449,-0.0509614047
5.34,0.02300456146,-0.05181480052
5.35,0.02084069618,-0.05258102326
5.36,0.01865479681,-0.05325956115
5.37,0.01645022259,-0.05385001854
5.38,0.01423032103,-0.0543521138
5.39,0.01199842517,-0.05476567726
5.4,0.009757851099,-0.05509064924
5.41,0.00751189558,-0.05532707809
5.42,0.005263833836,-0.05547511833
5.43,0.003016917467,-0.05553502882
5.44,0.0007743724796,-0.05550717107
5.45,-0.001460602594,-0.05539200762
5.46,-0.003684838482,-0.05519010048
5.47,-0.005895196906,-0.0549021097
5.48,-0.008088572254,-0.05452879205
5.49,-0.01026189323,-0.05407099977
5.5,-0.01241212447,-0.05352967941
5.51,-0.01453626818,-0.05290587082
5.52,-0.01663136577,-0.05220070616
5.53,-0.01869449948,-0.05141540902
5.54,-0.02072279416,-0.05055129364
5.55,-0.02271341895,-0.04960976416
5.56,-0.02466358914,-0.04859231398
5.57,-0.02657056806,-0.04750052509
5.58,-0.02843166907,-0.04633606749
5.59,-0.03024425763,-0.04510069866
5.6,-0.0320057535,-0.04379626297
5.61,-0.03371363299,-0.04242469113
5.62,-0.03536543142,-0.0409879996
5.63,-0.0369587456,-0.03948829
5.64,-0.03849123649,-0.03792774845
5.65,-0.03996063194,-0.03630864482
5.66,-0.04136472962,-0.03463333191
5.67,-0.04270139997,-0.03290424462
5.68,-0.04396858933,-0.03112389883
5.69,-0.04516432316,-0.02929489033
5.7,-0.04628670936,-0.02741989347
5.71,-0.04733394172,-0.02550165978
5.72,-0.04830430336,-0.02354301624
5.73,-0.04919617034,-0.02154686355
5.74,-0.05000801533,-0.01951617409
5.75,-0.05073841123,-0.01745398967
5.76,-0.05138603492,-0.0153634191
5.77,-0.05194967102,-0.01324763546
5.78,-0.05242821559,-0.01110987322
5.79,-0.05282067988,-0.008953425029
5.8,-0.05312619401,-0.006781638258
5.81,-0.0533440106,-0.004597911309
5.82,-0.05347350835,-0.002405689642
5.83,-0.05351419551,-0.0002084615248
5.84,-0.05346571321,0.001990246475
5.85,-0.05332783871,0.004186874271
5.86,-0.05310048846,0.006377833306
5.87,-0.05278372098,0.008559511862
5.88,-0.05237773956,0.01072828062
5.89,-0.05188289472,0.01288049848
5.9,-0.05129968645,0.01501251862
5.91,-0.0506287662,0.01712069474
5.92,-0.04987093851,0.01920138762
5.93,-0.0490271625,0.02125097177
5.94,-0.04809855286,0.02326584235
5.95,-0.04708638064,0.0252424222
5.96,-0.04599207363,0.0271771691
5.97,-0.04481721637,0.02906658304
5.98,-0.04356354986,0.03090721375
5.99,-0.04223297073,0.03269566819
6,-0.04082753016,0.03442861822
