"Freq [GHz]","re(S(Tx_p1,Tx_p1)) []","im(S(Tx_p1,Tx_p1)) []"
1,-0.007465711311,-0.1619831996
1.01,-0.01263424063,-0.1613513553
1.02,-0.01778893987,-0.1605559235
1.03,-0.02292361085,-0.1595968454
1.04,-0.02803210859,-0.1584743529
1.05,-0.03310835283,-0.157188958
1.06,-0.03814633865,-0.1557414413
1.07,-0.04314014611,-0.1541328411
1.08,-0.04808394897,-0.1523644422
1.09,-0.05297202253,-0.1504377648
1.1,-0.05779875059,-0.1483545532
1.11,-0.06255863157,-0.1461167652
1.12,-0.06724628382,-0.1437265611
1.13,-0.07185645015,-0.1411862933
1.14,-0.0763840017,-0.1384984962
1.15,-0.08082394099,-0.1356658759
1.16,-0.08517140444,-0.1326913006
1.17,-0.08942166419,-0.1295777916
1.18,-0.09357012944,-0.1263285143
1.19,-0.09761234717,-0.1229467694
1.2,-0.1015440025,-0.1194359851
1.21,-0.1053609186,-0.1157997099
1.22,-0.109059056,-0.1120416045
1.23,-0.1126345119,-0.1081654362
1.24,-0.1160835194,-0.1041750719
1.25,-0.1194024454,-0.1000744732
1.26,-0.1225877899,-0.09586769062
1.27,-0.1256361837,-0.09155885912
1.28,-0.1285443871,-0.08715219408
1.29,-0.1313092879,-0.08265198742
1.3,-0.1339278999,-0.0780626044
1.31,-0.1363973608,-0.07338848088
1.32,-0.1387149307,-0.06863412086
1.33,-0.140877991,-0.06380409466
1.34,-0.1428840425,-0.05890303725
1.35,-0.1447307043,-0.05393564711
1.36,-0.1464157135,-0.04890668535
1.37,-0.1479369239,-0.04382097511
1.38,-0.149292306,-0.03868340128
1.39,-0.150479947,-0.03349891041
1.4,-0.1514980509,-0.02827251082
1.41,-0.1523449394,-0.02300927284
1.42,-0.1530190528,-0.0177143292
1.43,-0.1535189516,-0.0123928755
1.44,-0.153843318,-0.00705017062
1.45,-0.1539909585,-0.001691537214
1.46,-0.1539608063,0.003677637892
1.47,-0.1537519246,0.009051903414
1.48,-0.1533635093,0.01442574345
1.49,-0.1527948938,0.01979357749
1.5,-0.1520455524,0.02514976072
1.51,-0.151115105,0.03048858449
1.52,-0.150003322,0.03580427716
1.53,-0.1487101298,0.04109100529
1.54,-0.1472356154,0.04634287515
1.55,-0.145580033,0.05155393474
1.56,-0.1437438095,0.05671817613
1.57,-0.1417275506,0.06182953839
1.58,-0.1395320472,0.06688191097
1.59,-0.137158282,0.0718691376
1.6,-0.1346074355,0.07678502076
1.61,-0.1318808929,0.0816233267
1.62,-0.1289802506,0.08637779105
1.63,-0.1259073226,0.09104212506
1.64,-0.1226641467,0.09561002233
1.65,-0.1192529911,0.1000751663
1.66,-0.1156763598,0.1044312383
1.67,-0.1119369992,0.108671926
1.68,-0.108037903,0.1127909329
1.69,-0.1039823172,0.116781988
1.7,-0.09977374538,0.1206388563
1.71,-0.09541595268,0.1243553497
1.72,-0.09091296957,0.1279253386
1.73,-0.08626909522,0.1313427639
1.74,-0.08148890015,0.1346016493
1.75,-0.0765772283,0.137696115
1.76,-0.07153919841,0.1406203903
1.77,-0.06638020471,0.1433688278
1.78,-0.06110591683,0.1459359176
1.79,-0.05572227901,0.1483163019
1.8,-0.05023550839,0.1505047893
1.81,-0.04465209254,0.15249637
1.82,-0.03897878606,0.1542862311
1.83,-0.03322260636,0.1558697715
1.84,-0.02739082843,0.1572426173
1.85,-0.02149097876,0.158400637
1.86,-0.01553082833,0.1593399568
1.87,-0.009518384527,0.1600569758
1.88,-0.003461882272,0.1605483803
1.89,0.002630225929,0.1608111593
1.9,0.008749280835,0.1608426181
1.91,0.01488642828,0.1606403926
1.92,0.02103263189,0.1602024629
1.93,0.02717868679,0.1595271661
1.94,0.03331523409,0.1586132089
1.95,0.03943277636,0.1574596794
1.96,0.04552169389,0.1560660583
1.97,0.05157226178,0.1544322294
1.98,0.05757466778,0.1525584891
1.99,0.06351903093,0.1504455554
2,0.06939542079,0.1480945755
2.01,0.07519387746,0.1455071329
2.02,0.08090443206,0.1426852537
2.03,0.08651712781,0.1396314106
2.04,0.0920220416,0.1363485277
2.05,0.09740930599,0.1328399826
2.06,0.1026691315,0.1291096081
2.07,0.1077918293,0.1251616926
2.08,0.1127678342,0.1210009792
2.09,0.1175877273,0.1166326636
2.1,0.1222422595,0.1120623907
2.11,0.1267223746,0.1072962502
2.12,0.131019232,0.1023407703
2.13,0.1351242301,0.09720291115
2.14,0.1390290289,0.09189005567
2.15,0.1427255721,0.08641000032
2.16,0.1462061098,0.08077094392
2.17,0.1494632196,0.07498147539
2.18,0.1524898281,0.06905056026
2.19,0.1552792312,0.06298752596
2.2,0.1578251143,0.05680204588
2.21,0.1601215711,0.05050412236
2.22,0.1621631224,0.04410406846
2.23,0.163944733,0.03761248871
2.24,0.1654618289,0.03104025883
2.25,0.1667103126,0.02439850444
2.26,0.1676865775,0.01769857882
2.27,0.1683875213,0.01095203985
2.28,0.1688105587,0.004170626092
2.29,0.1689536317,-0.002633767858
2.3,0.1688152197,-0.009449116729
2.31,0.1683943481,-0.01626329052
2.32,0.1676905952,-0.023064081
2.33,0.1667040977,-0.02983922868
2.34,0.1654355555,-0.03657645016
2.35,0.1638862339,-0.04326346581
2.36,0.1620579657,-0.04988802765
2.37,0.1599531506,-0.05643794742
2.38,0.1575747538,-0.06290112464
2.39,0.1549263029,-0.06926557479
2.4,0.1520118836,-0.0755194572
2.41,0.1488361332,-0.08165110293
2.42,0.1454042334,-0.08764904225
2.43,0.1417219013,-0.09350203183
2.44,0.1377953788,-0.09919908149
2.45,0.1336314209,-0.1047294804
2.46,0.1292372821,-0.1100828226
2.47,0.1246207023,-0.1152490323
2.48,0.1197898904,-0.1202183874
2.49,0.1147535072,-0.1249815435
2.5,0.1095206471,-0.1295295561
2.51,0.104100818,-0.1338539017
2.52,0.09850392095,-0.137946499
2.53,0.09274022799,-0.1417997275
2.54,0.08682035944,-0.145406446
2.55,0.08075525994,-0.1487600097
2.56,0.07455617385,-0.1518542854
2.57,0.06823461968,-0.1546836665
2.58,0.06180236386,-0.1572430855
2.59,0.05527139389,-0.1595280258
2.6,0.04865389083,-0.1615345319
2.61,0.04196220137,-0.1632592181
2.62,0.03520880949,-0.1646992757
2.63,0.02840630772,-0.1658524788
2.64,0.02156736824,-0.1667171885
2.65,0.0147047138,-0.1672923553
2.66,0.007831088549,-0.1675775207
2.67,0.0009592289221,-0.1675728166
2.68,-0.00589816543,-0.1672789631
2.69,-0.01272846047,-0.1666972657
2.7,-0.01951911634,-0.1658296096
2.71,-0.02625771563,-0.1646784538
2.72,-0.03293199113,-0.1632468231
2.73,-0.03952985308,-0.1615382986
2.74,-0.04603941595,-0.1595570072
2.75,-0.05244902432,-0.1573076095
2.76,-0.05874727827,-0.1547952861
2.77,-0.06492305777,-0.1520257236
2.78,-0.0709655463,-0.149005098
2.79,-0.07686425347,-0.1457400582
2.8,-0.08260903667,-0.1422377076
2.81,-0.08819012164,-0.1385055851
2.82,-0.09359812197,-0.1345516449
2.83,-0.0988240574,-0.1303842353
2.84,-0.1038593709,-0.126012077
2.85,-0.1086959445,-0.1214442402
2.86,-0.1133261141,-0.1166901216
2.87,-0.1177426824,-0.11175942
2.88,-0.1219389311,-0.1066621122
2.89,-0.1259086314,-0.1014084277
2.9,-0.129646053,-0.09600882319
2.91,-0.1331459724,-0.09047395745
2.92,-0.1364036789,-0.08481466492
2.93,-0.1394149795,-0.07904192985
2.94,-0.1421762032,-0.07316686016
2.95,-0.1446842024,-0.06720066133
2.96,-0.1469363543,-0.06115461038
2.97,-0.1489305603,-0.05504003002
2.98,-0.150665244,-0.04886826304
2.99,-0.152139348,-0.04265064701
3,-0.1533523297,-0.03639848935
3.01,-0.1543041554,-0.0301230429
3.02,-0.1549952933,-0.02383548197
3.03,-0.1554267054,-0.017546879
3.04,-0.1555998384,-0.01126818181
3.05,-0.1555166132,-0.005010191652
3.06,-0.1551794136,0.001216458056
3.07,-0.1545910736,0.007401322172
3.08,-0.1537548647,0.0135341634
3.09,-0.1526744812,0.01960497095
3.1,-0.1513540252,0.0256039783
3.11,-0.1497979912,0.03152167993
3.12,-0.1480112495,0.03734884706
3.13,-0.145999029,0.04307654238
3.14,-0.1437668994,0.04869613368
3.15,-0.1413207539,0.05419930642
3.16,-0.1386667896,0.05957807519
3.17,-0.1358114892,0.06482479408
3.18,-0.1327616019,0.06993216593
3.19,-0.1295241237,0.07489325043
3.2,-0.1261062778,0.07970147116
3.21,-0.1225154951,0.08435062148
3.22,-0.1187593945,0.08883486935
3.23,-0.1148457633,0.09314876098
3.24,-0.1107825375,0.09728722355
3.25,-0.1065777825,0.1012455668
3.26,-0.1022396739,0.1050194834
3.27,-0.09777647871,0.1086050488
3.28,-0.09319653672,0.1119987199
3.29,-0.08850824228,0.115197332
3.3,-0.08372002663,0.1181980966
3.31,-0.07884034057,0.1209985965
3.32,-0.07387763774,0.1235967813
3.33,-0.06884035843,0.1259909616
3.34,-0.06373691394,0.1281798024
3.35,-0.05857567162,0.1301623165
3.36,-0.05336494058,0.1319378563
3.37,-0.04811295802,0.1335061057
3.38,-0.04282787631,0.1348670712
3.39,-0.03751775081,0.1360210728
3.4,-0.03219052838,0.1369687339
3.41,-0.02685403665,0.1377109714
3.42,-0.02151597415,0.1382489854
3.43,-0.01618390102,0.1385842483
3.44,-0.01086523067,0.1387184939
3.45,-0.00556722208,0.1386537064
3.46,-0.0002969729218,0.1383921091
3.47,0.004938586596,0.1379361535
3.48,0.01013269914,0.1372885075
3.49,0.01527878493,0.1364520445
3.5,0.02037044575,0.1354298323
3.51,0.02540146821,0.1342251219
3.52,0.03036582645,0.1328413366
3.53,0.03525768408,0.1312820615
3.54,0.04007139564,0.1295510329
3.55,0.0448015074,0.1276521284
3.56,0.04944275767,0.1255893566
3.57,0.05399007656,0.123366848
3.58,0.0584385853,0.1209888457
3.59,0.06278359512,0.1184596966
3.6,0.06702060573,0.115783843
3.61,0.07114530341,0.1129658145
3.62,0.07515355884,0.1100102208
3.63,0.07904142463,0.1069217445
3.64,0.08280513257,0.1037051344
3.65,0.08644109076,0.1003651992
3.66,0.0899458805,0.09690680208
3.67,0.09331625316,0.09333485542
3.68,0.09654912687,0.08965431577
3.69,0.09964158324,0.08587017969
3.7,0.1025908641,0.0819874798
3.71,0.105394368,0.07801128132
3.72,0.1080496476,0.07394667895
3.73,0.1105544058,0.06979879426
3.74,0.1129064933,0.06557277334
3.75,0.1151039058,0.06127378488
3.76,0.117144781,0.0569070185
3.77,0.1190273967,0.05247768352
3.78,0.1207501685,0.04799100781
3.79,0.1223116477,0.04345223707
3.8,0.12371052,0.03886663418
3.81,0.1249456039,0.03423947885
3.82,0.1260158502,0.0295760673
3.83,0.1269203407,0.02488171218
3.84,0.1276582883,0.02016174244
3.85,0.128229037,0.01542150338
3.86,0.1286320618,0.01066635657
3.87,0.12886697,0.005901679874
3.88,0.1289335015,0.001132867343
3.89,0.1288315306,-0.003634670992
3.9,0.1285610676,-0.008395509412
3.91,0.1281222604,-0.013144207
3.92,0.1275153972,-0.01787530829
3.93,0.1267409084,-0.02258334418
3.94,0.1257993701,-0.02726283306
3.95,0.1246915063,-0.03190828227
3.96,0.1234181927,-0.03651418978
3.97,0.1219804597,-0.0410750463
3.98,0.1203794961,-0.04558533768
3.99,0.1186166528,-0.05003954772
4,0.1166934462,-0.05443216135
4.01,0.1146115625,-0.0587576682
4.02,0.1123728612,-0.06301056667
4.03,0.1099793789,-0.06718536832
4.04,0.1074333333,-0.0712766028
4.05,0.1047371266,-0.07527882318
4.06,0.1018933493,-0.07918661168
4.07,0.09890478361,-0.08299458598
4.08,0.09577440649,-0.08669740581
4.09,0.09250539275,-0.09028978012
4.1,0.08910111774,-0.09376647457
4.11,0.08556515974,-0.09712231949
4.12,0.08190130199,-0.1003522183
4.13,0.07811353441,-0.1034511561
4.14,0.07420605482,-0.1064142089
4.15,0.07018326971,-0.109236553
4.16,0.06604979463,-0.1119134749
4.17,0.06181045393,-0.114440381
4.18,0.05747028003,-0.1168128083
4.19,0.05303451216,-0.1190264346
4.2,0.04850859438,-0.1210770896
4.21,0.04389817312,-0.1229607652
4.22,0.039209094,-0.124673627
4.23,0.034447398,-0.1262120253
4.24,0.02961931701,-0.1275725059
4.25,0.02473126864,-0.1287518214
4.26,0.01978985037,-0.1297469421
4.27,0.014801833,-0.1305550674
4.28,0.009774153368,-0.1311736358
4.29,0.004713906415,-0.1316003361
4.3,-0.0003716634899,-0.1318331176
4.31,-0.005475171907,-0.1318702002
4.32,-0.01058910436,-0.131710084
4.33,-0.01570582707,-0.1313515588
4.34,-0.02081759831,-0.130793713
4.35,-0.02591658043,-0.1300359424
4.36,-0.03099485249,-0.1290779574
4.37,-0.03604442352,-0.1279197912
4.38,-0.04105724626,-0.1265618062
4.39,-0.04602523157,-0.1250047004
4.4,-0.0509402632,-0.1232495125
4.41,-0.05579421318,-0.1212976272
4.42,-0.0605789575,-0.1191507788
4.43,-0.06528639228,-0.1168110547
4.44,-0.06990845028,-0.1142808977
4.45,-0.07443711764,-0.1115631078
4.46,-0.07886445097,-0.1086608426
4.47,-0.08318259457,-0.1055776175
4.48,-0.08738379791,-0.1023173043
4.49,-0.09146043308,-0.09888412944
4.5,-0.09540501243,-0.0952826711
4.51,-0.0992102061,-0.09151785512
4.52,-0.1028688596,-0.08759495036
4.53,-0.1063740111,-0.08351956281
4.54,-0.109718909,-0.07929762894
4.55,-0.1128970284,-0.07493540791
4.56,-0.1159020884,-0.07043947303
4.57,-0.1187280683,-0.06581670211
4.58,-0.1213692234,-0.06107426701
4.59,-0.1238201011,-0.0562196222
4.6,-0.1260755554,-0.05126049249
4.61,-0.128130762,-0.0462048599
4.62,-0.1299812316,-0.04106094966
4.63,-0.1316228238,-0.0358372154
4.64,-0.1330517594,-0.03054232365
4.65,-0.134264632,-0.0251851375
4.66,-0.1352584194,-0.01977469964
4.67,-0.1360304938,-0.01432021472
4.68,-0.1365786308,-0.008831031111
4.69,-0.1369010181,-0.003316622081
4.7,-0.1369962631,0.002213433501
4.71,-0.1368633989,0.007749470954
4.72,-0.1365018902,0.01328175997
4.73,-0.1359116378,0.01880052514
4.74,-0.1350929818,0.02429596681
4.75,-0.134046704,0.02975828212
4.76,-0.1327740291,0.03517768625
4.77,-0.1312766251,0.04054443384
4.78,-0.1295566022,0.04584884033
4.79,-0.1276165105,0.05108130343
4.8,-0.1254593373,0.05623232445
4.81,-0.1230885024,0.06129252956
4.82,-0.1205078529,0.06625269075
4.83,-0.1177216567,0.07110374667
4.84,-0.1147345949,0.0758368231
4.85,-0.1115517534,0.08044325302
4.86,-0.1081786126,0.08491459628
4.87,-0.1046210374,0.08924265881
4.88,-0.1008852652,0.09341951123
4.89,-0.09697789309,0.09743750689
4.9,-0.09290586462,0.1012892993
4.91,-0.088676455,0.1049678586
4.92,-0.08429725594,0.108466488
4.93,-0.07977615943,0.1117788382
4.94,-0.07512134085,0.1148989223
4.95,-0.07034124129,0.1178211288
4.96,-0.06544454927,0.1205402345
4.97,-0.06044018182,0.1230514155
4.98,-0.05533726492,0.1253502582
4.99,-0.05014511355,0.1274327686
5,-0.04487321117,0.1292953808
5.01,-0.0395311889,0.1309349646
5.02,-0.03412880428,0.1323488316
5.03,-0.02867591982,0.1335347405
5.04,-0.02318248125,0.1344909012
5.05,-0.01765849573,0.1352159779
5.06,-0.01211400984,0.135709091
5.07,-0.006559087656,0.1359698175
5.08,-0.001003788738,0.1359981911
5.09,0.004541853693,0.1357947004
5.1,0.01006785449,0.1353602862
5.11,0.01556429805,0.1346963381
5.12,0.02102135961,0.1338046893
5.13,0.02642932608,0.1326876114
5.14,0.03177861661,0.1313478065
5.15,0.03705980268,0.1297884002
5.16,0.04226362765,0.1280129324
5.17,0.04738102587,0.126025347
5.18,0.05240314109,0.1238299818
5.19,0.05732134429,0.1214315565
5.2,0.06212725087,0.11883516
5.21,0.06681273698,0.1160462374
5.22,0.07136995525,0.1130705759
5.23,0.07579134958,0.1099142897
5.24,0.08006966919,0.106583805
5.25,0.08419798176,0.1030858434
5.26,0.08816968568,0.09942740574
5.27,0.09197852139,0.09561575463
5.28,0.0956185818,0.09165839697
5.29,0.09908432171,0.08756306589
5.3,0.1023705663,0.08333770236
5.31,0.1054725185,0.07899043652
5.32,0.1083857657,0.07452956878
5.33,0.1111062852,0.06996355071
5.34,0.1136304484,0.06530096577
5.35,0.1159550247,0.06055051006
5.36,0.1180771836,0.05572097293
5.37,0.1199944967,0.05082121771
5.38,0.1217049378,0.04586016248
5.39,0.1232068827,0.04084676101
5.4,0.1244991075,0.03578998384
5.41,0.1255807868,0.03069879967
5.42,0.12645149,0.02558215696
5.43,0.1271111775,0.02044896589
5.44,0.1275601957,0.01530808072
5.45,0.127799271,0.01016828256
5.46,0.1278295033,0.005038262555
5.47,0.1276523588,-7.339438541E-05
5.48,0.1272696619,-0.005158225336
5.49,0.1266835863,-0.01020790455
5.5,0.1258966454,-0.01521425804
5.51,0.1249116827,-0.02016927756
5.52,0.123731861,-0.0250651339
5.53,0.1223606511,-0.02989418954
5.54,0.1208018203,-0.03464901058
5.55,0.1190594203,-0.03932237798
5.56,0.1171377747,-0.04390729809
5.57,0.1150414662,-0.04839701236
5.58,0.1127753236,-0.0527850064
5.59,0.110344408,-0.05706501824
5.6,0.1077539994,-0.0612310458
5.61,0.1050095829,-0.06527735366
5.62,0.1021168348,-0.06919847903
5.63,0.09908160838,-0.07298923698
5.64,0.09590991983,-0.07664472489
5.65,0.09260793432,-0.08016032621
5.66,0.08918195175,-0.08353171347
5.67,0.08563839284,-0.08675485054
5.68,0.08198378519,-0.08982599423
5.69,0.07822474959,-0.09274169518
5.7,0.07436798638,-0.09549879814
5.71,0.07042026216,-0.0980944415
5.72,0.06638839665,-0.1005260563
5.73,0.06227924981,-0.1027913647
5.74,0.0580997094,-0.1048883776
5.75,0.05385667865,-0.106815392
5.76,0.04955706449,-0.1085709878
5.77,0.04520776599,-0.110154024
5.78,0.04081566329,-0.1115636345
5.79,0.0363876069,-0.1127992237
5.8,0.03193040738,-0.1138604611
5.81,0.02745082556,-0.1147472761
5.82,0.02295556308,-0.1154598526
5.83,0.01845125346,-0.1159986225
5.84,0.01394445364,-0.1163642598
5.85,0.009441635881,-0.1165576739
5.86,0.00494918028,-0.1165800029
5.87,0.0004733676116,-0.1164326069
5.88,-0.003979627291,-0.1161170608
5.89,-0.008403741719,-0.1156351473
5.9,-0.01279303082,-0.1149888493
5.91,-0.01714167288,-0.1141803434
5.92,-0.02144397419,-0.1132119917
5.93,-0.02569437344,-0.112086335
5.94,-0.02988744578,-0.1108060856
5.95,-0.03401790639,-0.1093741195
5.96,-0.03808061376,-0.1077934698
5.97,-0.04207057252,-0.1060673194
5.98,-0.04598293598,-0.1041989938
5.99,-0.04981300831,-0.1021919543
6,-0.05355624641,-0.1000497915
