"Freq [GHz]","re(S(Tx_p1,Tx_p1)) []","im(S(Tx_p1,Tx_p1)) []"
1,-0.02252696065,-0.05152489224
1.01,-0.02445401444,-0.05063962729
1.02,-0.02635425813,-0.04968124979
1.03,-0.02822474039,-0.04865032753
1.04,-0.03006252283,-0.0475475441
1.05,-0.03186468244,-0.04637369795
1.06,-0.03362831403,-0.04512970166
1.07,-0.03535053278,-0.04381658142
1.08,-0.0370284767,-0.0424354767
1.09,-0.03865930925,-0.04098764007
1.1,-0.04024022206,-0.03947443716
1.11,-0.04176843771,-0.03789734684
1.12,-0.04324121281,-0.03625796138
1.13,-0.04465584109,-0.03455798681
1.14,-0.04600965682,-0.03279924332
1.15,-0.04730003836,-0.03098366563
1.16,-0.04852441204,-0.02911330346
1.17,-0.04968025614,-0.02719032191
1.18,-0.0507651053,-0.02521700181
1.19,-0.05177655502,-0.02319573994
1.2,-0.05271226657,-0.02112904923
1.21,-0.05356997202,-0.01901955865
1.22,-0.05434747965,-0.01687001304
1.23,-0.05504267951,-0.01468327263
1.24,-0.05565354933,-0.01246231235
1.25,-0.05617816051,-0.01021022081
1.26,-0.05661468447,-0.007930198985
1.27,-0.05696139909,-0.005625558502
1.28,-0.05721669532,-0.003299719595
1.29,-0.05737908399,-0.0009562086071
1.3,-0.05744720265,0.001401344936
1.31,-0.05741982259,0.00376921171
1.32,-0.05729585576,0.006143566467
1.33,-0.05707436186,0.0085204924
1.34,-0.05675455525,0.01089598604
1.35,-0.05633581194,0.01326596266
1.36,-0.05581767632,0.01562626225
1.37,-0.05519986783,0.01797265599
1.38,-0.05448228742,0.02030085331
1.39,-0.05366502375,0.02260650948
1.4,-0.05274835907,0.0248852337
1.41,-0.05173277486,0.02713259783
1.42,-0.050618957,0.02934414547
1.43,-0.04940780053,0.03151540171
1.44,-0.04810041404,0.03364188327
1.45,-0.04669812338,0.03571910908
1.46,-0.045202475,0.03774261136
1.47,-0.04361523855,0.03970794707
1.48,-0.04193840896,0.04161070971
1.49,-0.04017420778,0.04344654143
1.5,-0.03832508386,0.04521114553
1.51,-0.0363937133,0.04690029907
1.52,-0.03438299865,0.04850986578
1.53,-0.03229606727,0.05003580906
1.54,-0.03013626898,0.05147420513
1.55,-0.02790717285,0.05282125615
1.56,-0.0256125631,0.05407330344
1.57,-0.02325643427,0.05522684053
1.58,-0.02084298544,0.05627852613
1.59,-0.01837661365,0.05722519697
1.6,-0.01586190648,0.0580638803
1.61,-0.01330363374,0.05879180615
1.62,-0.0107067384,0.05940641925
1.63,-0.008076326614,0.05990539049
1.64,-0.005417657051,0.06028662793
1.65,-0.002736129374,0.06054828725
1.66,-3.727201747E-05,0.06068878166
1.67,0.002673270756,0.06070679111
1.68,0.005389752476,0.06060127088
1.69,0.008106338711,0.06037145932
1.7,0.01081712191,0.06001688493
1.71,0.0135161368,0.05953737245
1.72,0.01619737622,0.05893304825
1.73,0.01885480748,0.05820434465
1.74,0.02148238903,0.05735200335
1.75,0.02407408744,0.05637707792
1.76,0.02662389473,0.0552809352
1.77,0.0291258458,0.05406525577
1.78,0.031574036,0.05273203325
1.79,0.03396263885,0.05128357267
1.8,0.03628592359,0.04972248766
1.81,0.03853827285,0.04805169663
1.82,0.04071420001,0.04627441788
1.83,0.0428083664,0.04439416359
1.84,0.04481559828,0.0424147328
1.85,0.04673090332,0.04034020333
1.86,0.04854948684,0.03817492265
1.87,0.05026676735,0.03592349784
1.88,0.05187839176,0.03359078444
1.89,0.05338024975,0.03118187451
1.9,0.05476848764,0.02870208367
1.91,0.05603952139,0.02615693736
1.92,0.0571900489,0.02355215626
1.93,0.05821706139,0.02089364094
1.94,0.05911785391,0.01818745586
1.95,0.05989003493,0.0154398126
1.96,0.06053153488,0.01265705263
1.97,0.06104061372,0.009845629502
1.98,0.06141586746,0.007012090515
1.99,0.06165623352,0.004163058099
2,0.06176099505,0.001305210789
2.01,0.06172978406,-0.001554736021
2.02,0.06156258348,-0.004410049518
2.03,0.06125972796,-0.007253999013
2.04,0.06082190359,-0.01007987553
2.05,0.0602501464,-0.01288101133
2.06,0.05954583971,-0.01565079937
2.07,0.05871071039,-0.01838271254
2.08,0.05774682385,-0.02107032263
2.09,0.05665657807,-0.02370731903
2.1,0.05544269639,-0.02628752696
2.11,0.05410821936,-0.02880492527
2.12,0.05265649543,-0.03125366368
2.13,0.05109117077,-0.03362807951
2.14,0.04941617803,-0.03592271359
2.15,0.04763572426,-0.03813232562
2.16,0.04575427791,-0.04025190866
2.17,0.04377655508,-0.04227670283
2.18,0.04170750497,-0.04420220815
2.19,0.03955229464,-0.04602419642
2.2,0.03731629315,-0.04773872224
2.21,0.03500505515,-0.04934213292
2.22,0.03262430388,-0.0508310775
2.23,0.0301799138,-0.05220251462
2.24,0.02767789287,-0.05345371938
2.25,0.02512436443,-0.05458228912
2.26,0.02252554892,-0.05558614807
2.27,0.01988774543,-0.0564635509
2.28,0.01721731317,-0.05721308524
2.29,0.01452065282,-0.05783367296
2.3,0.01180418808,-0.05832457047
2.31,0.009074347209,-0.0586853679
2.32,0.006337544816,-0.05891598715
2.33,0.003600163861,-0.059016679
2.34,0.0008685379918,-0.05898801909
2.35,-0.001851065754,-0.05883090293
2.36,-0.004552463816,-0.05854654
2.37,-0.007229572481,-0.05813644684
2.38,-0.009876423721,-0.05760243926
2.39,-0.01248718042,-0.05694662379
2.4,-0.01505615099,-0.05617138816
2.41,-0.01757780323,-0.0552793912
2.42,-0.02004677758,-0.0542735519
2.43,-0.02245789948,-0.05315703791
2.44,-0.024806191,-0.05193325336
2.45,-0.02708688169,-0.0506058262
2.46,-0.02929541847,-0.04917859504
2.47,-0.03142747472,-0.04765559553
2.48,-0.03347895852,-0.04604104645
2.49,-0.03544601989,-0.04433933539
2.5,-0.03732505721,-0.04255500428
2.51,-0.03911272269,-0.04069273469
2.52,-0.04080592696,-0.03875733297
2.53,-0.04240184271,-0.03675371539
2.54,-0.04389790746,-0.03468689323
2.55,-0.04529182547,-0.03256195791
2.56,-0.04658156871,-0.03038406624
2.57,-0.04776537706,-0.02815842581
2.58,-0.04884175761,-0.0258902806
2.59,-0.04980948323,-0.02358489679
2.6,-0.05066759026,-0.02124754897
2.61,-0.05141537559,-0.01888350659
2.62,-0.05205239293,-0.01649802084
2.63,-0.05257844842,-0.01409631198
2.64,-0.05299359566,-0.01168355705
2.65,-0.05329813007,-0.009264878166
2.66,-0.05349258277,-0.00684533123
2.67,-0.05357771388,-0.004429895274
2.68,-0.05355450541,-0.002023462315
2.69,-0.05342415369,0.0003691721929
2.7,-0.05318806142,0.002743318303
2.71,-0.05284782943,0.005094399919
2.72,-0.05240524812,0.007417962515
2.73,-0.05186228866,0.009709680231
2.74,-0.05122109399,0.01196536235
2.75,-0.0504839697,0.01418095916
2.76,-0.04965337477,0.01635256714
2.77,-0.04873191224,0.01847643366
2.78,-0.04772231985,0.02054896093
2.79,-0.04662746078,0.02256670948
2.8,-0.04545031428,0.02452640099
2.81,-0.0441939665,0.02642492063
2.82,-0.04286160145,0.02825931885
2.83,-0.04145649202,0.03002681259
2.84,-0.03998199125,0.03172478613
2.85,-0.03844152377,0.03335079138
2.86,-0.03683857753,0.03490254777
2.87,-0.03517669565,0.03637794174
2.88,-0.03345946869,0.03777502588
2.89,-0.03169052711,0.03909201765
2.9,-0.02987353405,0.04032729788
2.91,-0.02801217842,0.0414794089
2.92,-0.02611016832,0.04254705251
2.93,-0.02417122474,0.04352908763
2.94,-0.02219907566,0.04442452784
2.95,-0.02019745036,0.04523253872
2.96,-0.01817007418,0.04595243507
2.97,-0.01612066349,0.04658367802
2.98,-0.01405292106,0.04712587208
2.99,-0.01197053162,0.04757876215
3,-0.009877157818,0.04794223046
3.01,-0.007776436421,0.04821629354
3.02,-0.005671974733,0.04840109923
3.03,-0.003567347314,0.04849692369
3.04,-0.001466092905,0.04850416849
3.05,0.0006282884374,0.04842335779
3.06,0.002712338012,0.04825513554
3.07,0.004782640976,0.04800026286
3.08,0.006835828701,0.04765961548
3.09,0.008868580995,0.0472341813
3.1,0.01087762823,0.04672505808
3.11,0.01285975338,0.04613345124
3.12,0.01481179398,0.04546067178
3.13,0.0167306441,0.04470813437
3.14,0.01861325618,0.04387735543
3.15,0.02045664306,0.04296995149
3.16,0.02225787978,0.04198763752
3.17,0.02401410565,0.04093222541
3.18,0.02572252621,0.0398056225
3.19,0.02738041537,0.03860983026
3.2,0.0289851175,0.03734694288
3.21,0.03053404978,0.03601914605
3.22,0.03202470454,0.03462871566
3.23,0.0334546517,0.03317801654
3.24,0.03482154147,0.03166950116
3.25,0.03612310697,0.03010570836
3.26,0.0373571672,0.02848926193
3.27,0.03852162994,0.02682286917
3.28,0.03961449492,0.02510931933
3.29,0.04063385704,0.02335148198
3.3,0.04157790976,0.02155230516
3.31,0.04244494852,0.01971481341
3.32,0.0432333744,0.01784210565
3.33,0.0439416977,0.0159373528
3.34,0.04456854174,0.01400379525
3.35,0.04511264667,0.01204474002
3.36,0.04557287328,0.01006355773
3.37,0.04594820692,0.008063679276
3.38,0.04623776136,0.006048592254
3.39,0.04644078268,0.004021837057
3.4,0.04655665306,0.001987002701
3.41,0.04658489459,-5.227766156E-05
3.42,0.0465251729,-0.002092331545
3.43,0.04637730076,-0.004129452245
3.44,0.04614124149,-0.006159904276
3.45,0.04581711219,-0.008179929119
3.46,0.0454051868,-0.01018575129
3.47,0.04490589896,-0.01217358469
3.48,0.04431984452,-0.01413963934
3.49,0.04364778393,-0.01608012826
3.5,0.04289064413,-0.01799127477
3.51,0.0420495203,-0.01986932
3.52,0.04112567708,-0.02171053062
3.53,0.04012054956,-0.02351120681
3.54,0.03903574374,-0.02526769049
3.55,0.03787303663,-0.02697637369
3.56,0.03663437586,-0.02863370704
3.57,0.03532187891,-0.03023620848
3.58,0.0339378317,-0.03178047202
3.59,0.03248468685,-0.03326317656
3.6,0.0309650613,-0.0346810948
3.61,0.02938173344,-0.03603110212
3.62,0.02773763979,-0.03731018544
3.63,0.02603587098,-0.03851545206
3.64,0.02427966733,-0.0396441383
3.65,0.02247241382,-0.04069361816
3.66,0.02061763454,-0.04166141165
3.67,0.01871898656,-0.04254519302
3.68,0.01678025333,-0.04334279875
3.69,0.0148053375,-0.04405223515
3.7,0.01279825329,-0.04467168576
3.71,0.01076311829,-0.04519951834
3.72,0.008704144841,-0.04563429147
3.73,0.006625630949,-0.04597476075
3.74,0.00453195073,-0.04621988453
3.75,0.002427544477,-0.04636882912
3.76,0.0003169083359,-0.04642097355
3.77,-0.001795416382,-0.04637591372
3.78,-0.0039048542,-0.04623346599
3.79,-0.006006806765,-0.04599367019
3.8,-0.008096664394,-0.045656792
3.81,-0.01016981784,-0.04522332467
3.82,-0.0122216702,-0.04469399009
3.83,-0.01424764904,-0.04406973921
3.84,-0.0162432185,-0.0433517517
3.85,-0.01820389156,-0.04254143502
3.86,-0.02012524225,-0.04164042268
3.87,-0.02200291781,-0.04065057185
3.88,-0.02383265088,-0.03957396023
3.89,-0.02561027141,-0.03841288226
3.9,-0.02733171851,-0.03716984454
3.91,-0.02899305205,-0.03584756065
3.92,-0.03059046402,-0.03444894521
3.93,-0.03212028955,-0.03297710729
3.94,-0.03357901763,-0.0314353432
3.95,-0.03496330141,-0.02982712858
3.96,-0.0362699681,-0.02815610993
3.97,-0.03749602838,-0.02642609552
3.98,-0.03863868534,-0.02464104575
3.99,-0.03969534282,-0.02280506297
4,-0.04066361326,-0.02092238085
4.01,-0.04154132489,-0.01899735315
4.02,-0.04232652828,-0.01703444227
4.03,-0.04301750229,-0.0150382072
4.04,-0.04361275924,-0.01301329129
4.05,-0.04411104947,-0.01096440958
4.06,-0.04451136513,-0.008896335997
4.07,-0.04481294318,-0.006813890201
4.08,-0.04501526776,-0.004721924369
4.09,-0.04511807164,-0.00262530979
4.1,-0.04512133704,-0.0005289234068
4.11,-0.04502529555,0.001562365683
4.12,-0.04483042739,0.003643709703
4.13,-0.04453745976,0.005710295613
4.14,-0.04414736458,0.007757358407
4.15,-0.0436613553,0.009780194257
4.16,-0.04308088308,0.01177417345
4.17,-0.04240763219,0.01373475306
4.18,-0.04164351468,0.01565748935
4.19,-0.04079066439,0.0175380498
4.2,-0.03985143021,0.01937222482
4.21,-0.03882836878,0.02115593891
4.22,-0.0377242365,0.02288526151
4.23,-0.03654198096,0.02455641728
4.24,-0.03528473186,0.02616579582
4.25,-0.03395579132,0.02770996088
4.26,-0.03255862376,0.02918565896
4.27,-0.03109684533,0.03058982728
4.28,-0.02957421289,0.03191960112
4.29,-0.02799461268,0.03317232044
4.3,-0.02636204859,0.03434553591
4.31,-0.02468063023,0.03543701415
4.32,-0.02295456069,0.0364447423
4.33,-0.02118812417,0.03736693182
4.34,-0.0193856734,0.03820202161
4.35,-0.01755161703,0.03894868035
4.36,-0.0156904069,0.03960580811
4.37,-0.01380652533,0.04017253724
4.38,-0.01190447246,0.04064823248
4.39,-0.009988753642,0.0410324904
4.4,-0.008063866992,0.04132513806
4.41,-0.006134291064,0.04152623103
4.42,-0.004204472768,0.04163605068
4.43,-0.002278815536,0.04165510078
4.44,-0.0003616677586,0.04158410352
4.45,0.001542688433,0.04142399485
4.46,0.003430048032,0.04117591922
4.47,0.005296293626,0.04084122376
4.48,0.007137405433,0.04042145191
4.49,0.008949470889,0.03991833655
4.5,0.01072869374,0.03933379264
4.51,0.01247140264,0.03866990937
4.52,0.01417405922,0.03792894202
4.53,0.01583326555,0.0371133033
4.54,0.01744577116,0.03622555442
4.55,0.01900847932,0.03526839593
4.56,0.02051845285,0.03424465817
4.57,0.02197291927,0.03315729157
4.58,0.02336927535,0.03200935683
4.59,0.02470509103,0.0308040148
4.6,0.02597811279,0.02954451643
4.61,0.02718626631,0.02823419256
4.62,0.02832765858,0.02687644368
4.63,0.02940057941,0.02547472979
4.64,0.03040350233,0.02403256022
4.65,0.03133508489,0.02255348357
4.66,0.03219416842,0.02104107779
4.67,0.03297977722,0.01949894042
4.68,0.03369111724,0.01793067894
4.69,0.03432757418,0.01633990146
4.7,0.03488871115,0.01473020756
4.71,0.03537426588,0.01310517946
4.72,0.03578414738,0.01146837343
4.73,0.03611843227,0.009823311591
4.74,0.0363773607,0.008173474022
4.75,0.03656133187,0.006522291212
4.76,0.03667089922,0.004873136929
4.77,0.03670676532,0.00322932145
4.78,0.03666977651,0.001594085219
4.79,0.0365609172,-2.940710039E-05
4.8,0.03638130408,-0.001638072136
4.81,0.03613218001,-0.003228912893
4.82,0.03581490785,-0.004799023414
4.83,0.03543096414,-0.006345592997
4.84,0.03498193262,-0.00786590999
4.85,0.03446949781,-0.009357365152
4.86,0.03389543839,-0.01081745459
4.87,0.03326162072,-0.01224378228
4.88,0.03256999229,-0.01363406219
4.89,0.03182257521,-0.01498611998
4.9,0.03102145981,-0.01629789433
4.91,0.03016879829,-0.01756743791
4.92,0.0292667985,-0.01879291799
4.93,0.02831771785,-0.01997261666
4.94,0.02732385736,-0.02110493079
4.95,0.02628755587,-0.02218837167
4.96,0.02521118447,-0.02322156434
4.97,0.02409714108,-0.02420324667
4.98,0.02294784524,-0.02513226817
4.99,0.02176573318,-0.02600758867
5,0.02055325302,-0.02682827664
5.01,0.01931286029,-0.02759350746
5.02,0.01804701362,-0.02830256151
5.03,0.0167581707,-0.02895482203
5.04,0.01544878451,-0.02954977302
5.05,0.01412129971,-0.03008699686
5.06,0.01277814938,-0.03056617203
5.07,0.01142175187,-0.03098707068
5.08,0.01005450796,-0.03134955612
5.09,0.008678798285,-0.03165358045
5.1,0.007296980815,-0.031899182
5.11,0.005911388721,-0.03208648295
5.12,0.004524328318,-0.03221568684
5.13,0.003138077247,-0.03228707625
5.14,0.001754882804,-0.03230101044
5.15,0.0003769604381,-0.03225792312
5.16,-0.0009935076032,-0.03215832025
5.17,-0.002354373507,-0.03200277799
5.18,-0.003703525008,-0.03179194066
5.19,-0.005038886399,-0.03152651888
5.2,-0.006358419458,-0.03120728776
5.21,-0.007660124312,-0.03083508524
5.22,-0.008942040233,-0.03041081045
5.23,-0.01020224641,-0.02993542232
5.24,-0.01143886269,-0.02940993814
5.25,-0.0126500503,-0.02883543235
5.26,-0.01383401261,-0.02821303532
5.27,-0.01498899583,-0.0275439323
5.28,-0.01611328988,-0.02682936245
5.29,-0.01720522915,-0.02607061785
5.3,-0.01826319337,-0.02526904272
5.31,-0.01928560864,-0.02442603257
5.32,-0.02027094834,-0.02354303351
5.33,-0.02121773428,-0.02262154145
5.34,-0.02212453789,-0.02166310149
5.35,-0.02298998143,-0.02066930716
5.36,-0.02381273943,-0.01964179975
5.37,-0.02459154006,-0.01858226762
5.38,-0.02532516678,-0.01749244539
5.39,-0.02601245992,-0.0163741132
5.4,-0.02665231847,-0.01522909579
5.41,-0.02724370189,-0.01405926161
5.42,-0.02778563207,-0.01286652174
5.43,-0.02827719531,-0.01165282878
5.44,-0.02871754442,-0.0104201756
5.45,-0.02910590086,-0.009170593913
5.46,-0.02944155694,-0.007906152778
5.47,-0.02972387807,-0.006628956905
5.48,-0.02995230504,-0.005341144807
5.49,-0.03012635632,-0.004044886776
5.5,-0.03024563035,-0.002742382683
5.51,-0.03030980786,-0.001435859583
5.52,-0.03031865412,-0.0001275691368
5.53,-0.03027202114,0.001180215177
5.54,-0.03016984989,0.002485201043
5.55,-0.03001217236,0.003785080493
5.56,-0.02979911352,0.005077533295
5.57,-0.02953089328,0.006360230546
5.58,-0.02920782816,0.007630838453
5.59,-0.02883033298,0.008887022318
5.6,-0.02839892219,0.01012645071
5.61,-0.02791421123,0.0113467998
5.62,-0.02737691751,0.0125457579
5.63,-0.02678786127,0.01372103013
5.64,-0.02614796617,0.01487034327
5.65,-0.02545825966,0.0159914507
5.66,-0.02471987305,0.01708213749
5.67,-0.02393404131,0.01814022561
5.68,-0.0231021026,0.01916357921
5.69,-0.02222549752,0.02015010995
5.7,-0.02130576795,0.02109778243
5.71,-0.0203445557,0.02200461959
5.72,-0.01934360073,0.02286870819
5.73,-0.01830473911,0.0236882042
5.74,-0.0172299006,0.02446133824
5.75,-0.01612110587,0.02518642085
5.76,-0.01498046348,0.02586184784
5.77,-0.0138101664,0.02648610535
5.78,-0.01261248827,0.02705777494
5.79,-0.01138977929,0.02757553842
5.8,-0.01014446182,0.02803818257
5.81,-0.008879025619,0.02844460364
5.82,-0.00759602281,0.02879381161
5.83,-0.006298062526,0.02908493422
5.84,-0.004987805278,0.02931722076
5.85,-0.003667957058,0.02949004553
5.86,-0.002341263175,0.02960291102
5.87,-0.001010501866,0.02965545072
5.88,0.000321522317,0.0296474317
5.89,0.001651985315,0.02957875666
5.9,0.002978050547,0.02944946575
5.91,0.004296876048,0.02925973793
5.92,0.005605621736,0.02900989191
5.93,0.006901456777,0.02870038675
5.94,0.008181567037,0.02833182195
5.95,0.009443162583,0.02790493718
5.96,0.0106834852,0.02742061154
5.97,0.01189981592,0.02687986234
5.98,0.01308948249,0.02628384355
5.99,0.01424986684,0.02563384367
6,0.01537841238,0.02493128327
