"Freq [GHz]","re(S(Tx_p1,Tx_p1)) []","im(S(Tx_p1,Tx_p1)) []"
1,-0.01064475583,-0.01250341996
1.01,-0.0111548567,-0.01200779544
1.02,-0.0116427921,-0.01148969306
1.03,-0.01210744156,-0.0109501535
1.04,-0.01254774163,-0.01039027669
1.05,-0.01296268876,-0.009811218318
1.06,-0.01335134199,-0.009214186173
1.07,-0.0137128254,-0.008600436373
1.08,-0.0140463304,-0.007971269526
1.09,-0.01435111772,-0.0073280268
1.1,-0.01462651923,-0.006672085909
1.11,-0.01487193951,-0.006004857056
1.12,-0.0150868572,-0.00532777882
1.13,-0.01527082611,-0.00464231401
1.14,-0.01542347608,-0.003949945494
1.15,-0.01554451372,-0.003252172021
1.16,-0.01563372275,-0.00255050404
1.17,-0.01569096426,-0.001846459529
1.18,-0.01571617668,-0.001141559855
1.19,-0.01570937555,-0.000437325663
1.2,-0.01567065307,0.0002647271885
1.21,-0.01560017742,0.0009630916326
1.22,-0.01549819195,0.001656273334
1.23,-0.01536501402,0.00234279455
1.24,-0.01520103383,0.003021197907
1.25,-0.01500671293,0.003690050075
1.26,-0.01478258255,0.004347945343
1.27,-0.01452924185,0.004993509075
1.28,-0.01424735593,0.005625401049
1.29,-0.01393765368,0.006242318658
1.3,-0.01360092548,0.006842999983
1.31,-0.01323802082,0.007426226716
1.32,-0.0128498457,0.007990826936
1.33,-0.01243735995,0.008535677729
1.34,-0.01200157444,0.009059707648
1.35,-0.01154354818,0.009561899004
1.36,-0.01106438529,0.01004129
1.37,-0.01056523193,0.01049697666
1.38,-0.01004727312,0.01092811465
1.39,-0.009511729544,0.01133392084
1.4,-0.008959854223,0.01171367474
1.41,-0.008392929197,0.01206671972
1.42,-0.007812262154,0.01239246412
1.43,-0.007219183028,0.01269038206
1.44,-0.006615040588,0.0129600142
1.45,-0.00600119901,0.01320096822
1.46,-0.00537903446,0.01341291914
1.47,-0.004749931682,0.01359560954
1.48,-0.004115280608,0.0137488495
1.49,-0.003476472999,0.01387251642
1.5,-0.002834899119,0.01396655469
1.51,-0.002191944461,0.01403097513
1.52,-0.00154898652,0.01406585437
1.53,-0.000907391634,0.01407133396
1.54,-0.000268511892,0.01404761939
1.55,0.0003663178846,0.013994979
1.56,0.0009957830738,0.01391374267
1.57,0.001618592098,0.01380430039
1.58,0.002233479171,0.01366710079
1.59,0.00283920695,0.0135026494
1.6,0.003434569074,0.01331150692
1.61,0.004018392597,0.01309428733
1.62,0.004589540304,0.01285165588
1.63,0.005146912909,0.01258432702
1.64,0.005689451127,0.01229306221
1.65,0.006216137626,0.01197866768
1.66,0.006725998846,0.01164199206
1.67,0.007218106688,0.01128392404
1.68,0.007691580071,0.01090538986
1.69,0.008145586354,0.01050735083
1.7,0.008579342627,0.01009080074
1.71,0.008992116858,0.009656763316
1.72,0.009383228909,0.009206289533
1.73,0.009752051418,0.008740455013
1.74,0.01009801054,0.00826035734
1.75,0.01042058655,0.007767113385
1.76,0.01071931434,0.007261856632
1.77,0.01099378372,0.006745734501
1.78,0.01124363967,0.006219905685
1.79,0.01146858241,0.005685537499
1.8,0.01166836735,0.005143803258
1.81,0.01184280491,0.004595879678
1.82,0.01199176028,0.004042944315
1.83,0.01211515298,0.003486173036
1.84,0.01221295633,0.002926737548
1.85,0.01228519688,0.002365802961
1.86,0.01233195358,0.001804525416
1.87,0.01235335705,0.001244049769
1.88,0.01234958858,0.0006855073331
1.89,0.01232087908,0.0001300136947
1.9,0.01226750804,-0.0004213334068
1.91,0.01218980224,-0.0009674561221
1.92,0.01208813453,-0.00150729846
1.93,0.01196292241,-0.002039828176
1.94,0.01181462664,-0.002564038578
1.95,0.01164374973,-0.003078950253
1.96,0.01145083437,-0.003583612698
1.97,0.01123646181,-0.004077105875
1.98,0.01100125019,-0.004558541669
1.99,0.01074585283,-0.005027065262
2,0.01047095647,-0.005481856405
2.01,0.01017727947,-0.005922130615
2.02,0.009865569934,-0.006347140266
2.03,0.009536603935,-0.006756175593
2.04,0.009191183556,-0.007148565605
2.05,0.00883013502,-0.007523678901
2.06,0.008454306757,-0.007880924405
2.07,0.008064567482,-0.008219751995
2.08,0.007661804249,-0.008539653056
2.09,0.007246920514,-0.008840160935
2.1,0.006820834192,-0.009120851311
2.11,0.006384475724,-0.009381342481
2.12,0.00593878615,-0.009621295556
2.13,0.00548471519,-0.009840414576
2.14,0.005023219345,-0.01003844655
2.15,0.00455526002,-0.01021518138
2.16,0.004081801653,-0.0103704518
2.17,0.00360380989,-0.01050413309
2.18,0.003122249768,-0.01061614287
2.19,0.002638083937,-0.01070644072
2.2,0.002152270914,-0.01077502778
2.21,0.001665763372,-0.01082194624
2.22,0.001179506456,-0.01084727883
2.23,0.0006944361543,-0.01085114817
2.24,0.0002114776944,-0.01083371613
2.25,-0.0002684560079,-0.01079518308
2.26,-0.0007444658616,-0.01073578714
2.27,-0.001215668065,-0.01065580327
2.28,-0.001681195525,-0.01055554248
2.29,-0.00214019923,-0.01043535081
2.3,-0.002591849566,-0.01029560841
2.31,-0.003035337597,-0.01013672847
2.32,-0.003469876277,-0.009959156194
2.33,-0.003894701624,-0.009763367673
2.34,-0.004309073836,-0.009549868752
2.35,-0.004712278354,-0.009319193862
2.36,-0.005103626869,-0.009071904812
2.37,-0.005482458281,-0.008808589556
2.38,-0.005848139598,-0.008529860935
2.39,-0.006200066786,-0.008236355394
2.4,-0.006537665554,-0.007928731667
2.41,-0.006860392097,-0.007607669456
2.42,-0.007167733773,-0.007273868082
2.43,-0.007459209731,-0.006928045122
2.44,-0.00773437148,-0.00657093503
2.45,-0.007992803407,-0.006203287745
2.46,-0.008234123235,-0.005825867296
2.47,-0.008457982429,-0.005439450383
2.48,-0.008664066546,-0.005044824966
2.49,-0.008852095534,-0.004642788837
2.5,-0.009021823969,-0.0042341482
2.51,-0.009173041245,-0.003819716234
2.52,-0.009305571708,-0.003400311671
2.53,-0.009419274732,-0.002976757366
2.54,-0.009514044752,-0.002549878875
2.55,-0.009589811232,-0.00212050303
2.56,-0.009646538587,-0.001689456532
2.57,-0.009684226056,-0.001257564545
2.58,-0.009702907514,-0.0008256492954
2.59,-0.009702651242,-0.000394528694
2.6,-0.00968355964,3.498504006E-05
2.61,-0.009645768891,0.0004620867356
2.62,-0.00958944858,0.000885979611
2.63,-0.009514801253,0.001305876599
2.64,-0.00942206194,0.001721001653
2.65,-0.00931149762,0.002130591029
2.66,-0.009183406645,0.002533894554
2.67,-0.00903811811,0.002930176861
2.68,-0.008875991185,0.003318718604
2.69,-0.008697414397,0.00369881765
2.7,-0.008502804867,0.004069790231
2.71,-0.008292607503,0.004430972082
2.72,-0.008067294155,0.004781719532
2.73,-0.007827362721,0.005121410576
2.74,-0.007573336218,0.0054494459
2.75,-0.007305761808,0.005765249881
2.76,-0.007025209788,0.006068271542
2.77,-0.006732272542,0.006357985471
2.78,-0.006427563459,0.006633892697
2.79,-0.006111715806,0.006895521532
2.8,-0.005785381583,0.007142428353
2.81,-0.00544923033,0.007374198361
2.82,-0.005103947912,0.007590446271
2.83,-0.004750235275,0.007790816973
2.84,-0.004388807167,0.00797498613
2.85,-0.004020390843,0.008142660735
2.86,-0.003645724737,0.008293579612
2.87,-0.003265557116,0.00842751386
2.88,-0.002880644716,0.008544267254
2.89,-0.002491751351,0.008643676577
2.9,-0.002099646517,0.008725611908
2.91,-0.001705103973,0.00878997684
2.92,-0.001308900314,0.008836708656
2.93,-0.0009118135341,0.008865778427
2.94,-0.0005146215828,0.008877191065
2.95,-0.0001181009142,0.008870985312
2.96,0.000276974963,0.008847233658
2.97,0.0006698369377,0.008806042214
2.98,0.001059721744,0.008747550509
2.99,0.001445873405,0.008671931234
3,0.001827544666,0.008579389917
3.01,0.00220399842,0.008470164543
3.02,0.002574509117,0.008344525103
3.03,0.002938364159,0.00820277309
3.04,0.003294865273,0.008045240927
3.05,0.003643329865,0.007872291336
3.06,0.003983092347,0.00768431665
3.07,0.004313505438,0.00748173806
3.08,0.004633941433,0.007265004804
3.09,0.004943793441,0.007034593304
3.1,0.005242476585,0.00679100624
3.11,0.005529429164,0.006534771572
3.12,0.005804113774,0.006266441506
3.13,0.006066018383,0.005986591415
3.14,0.006314657366,0.005695818697
3.15,0.006549572481,0.0053947416
3.16,0.006770333801,0.005083997986
3.17,0.006976540588,0.004764244064
3.18,0.007167822116,0.004436153068
3.19,0.007343838428,0.004100413911
3.2,0.007504281038,0.003757729786
3.21,0.007648873571,0.003408816743
3.22,0.007777372337,0.003054402237
3.23,0.007889566834,0.002695223634
3.24,0.007985280197,0.002332026708
3.25,0.008064369562,0.001965564104
3.26,0.008126726371,0.001596593785
3.27,0.0081722766,0.001225877469
3.28,0.00820098092,0.0008541790419
3.29,0.008212834776,0.0004822629717
3.3,0.008207868399,0.0001108927125
3.31,0.008186146745,-0.0002591708934
3.32,0.00814776935,-0.0006271712114
3.33,0.008092870123,-0.0009923574053
3.34,0.008021617051,-0.00135398602
3.35,0.007934211839,-0.001711322549
3.36,0.007830889473,-0.002063642993
3.37,0.007711917707,-0.00241023539
3.38,0.007577596481,-0.002750401326
3.39,0.007428257266,-0.003083457422
3.4,0.007264262333,-0.003408736786
3.41,0.007086003967,-0.003725590433
3.42,0.006893903594,-0.004033388666
3.43,0.006688410858,-0.004331522421
3.44,0.006470002624,-0.00461940456
3.45,0.006239181929,-0.004896471125
3.46,0.005996476858,-0.005162182536
3.47,0.00574243938,-0.005416024739
3.48,0.005477644114,-0.005657510293
3.49,0.005202687055,-0.005886179406
3.5,0.004918184243,-0.006101600899
3.51,0.004624770389,-0.006303373114
3.52,0.004323097455,-0.006491124754
3.53,0.004013833201,-0.006664515648
3.54,0.003697659686,-0.006823237457
3.55,0.003375271746,-0.006967014294
3.56,0.003047375434,-0.007095603279
3.57,0.002714686441,-0.007208795018
3.58,0.002377928493,-0.007306413997
3.59,0.002037831727,-0.007388318909
3.6,0.001695131057,-0.007454402894
3.61,0.001350564531,-0.007504593699
3.62,0.001004871674,-0.007538853766
3.63,0.0006587918415,-0.007557180231
3.64,0.0003130625611,-0.007559604844
3.65,-3.15821089E-05,-0.007546193815
3.66,-0.0003744132163,-0.007517047567
3.67,-0.0007147085365,-0.007472300429
3.68,-0.001051754176,-0.007412120227
3.69,-0.001384846153,-0.007336707817
3.7,-0.001713291955,-0.007246296531
3.71,-0.002036412062,-0.007141151549
3.72,-0.00235354144,-0.007021569203
3.73,-0.002664030997,-0.006887876198
3.74,-0.002967248996,-0.006740428777
3.75,-0.003262582427,-0.006579611809
3.76,-0.003549438327,-0.006405837811
3.77,-0.003827245054,-0.006219545915
3.78,-0.004095453505,-0.006021200767
3.79,-0.004353538275,-0.005811291374
3.8,-0.004600998762,-0.00559032989
3.81,-0.004837360203,-0.005358850362
3.82,-0.00506217465,-0.005117407413
3.83,-0.005275021879,-0.004866574897
3.84,-0.005475510224,-0.004606944498
3.85,-0.005663277349,-0.0043391243
3.86,-0.005837990941,-0.004063737323
3.87,-0.005999349326,-0.003781420025
3.88,-0.006147082022,-0.003492820782
3.89,-0.006280950198,-0.00319859834
3.9,-0.00640074707,-0.002899420258
3.91,-0.006506298208,-0.002595961327
3.92,-0.006597461772,-0.002288901985
3.93,-0.006674128665,-0.001978926724
3.94,-0.006736222603,-0.001666722491
3.95,-0.006783700117,-0.001352977101
3.96,-0.006816550461,-0.001038377643
3.97,-0.006834795455,-0.0007236089077
3.98,-0.006838489246,-0.0004093518183
3.99,-0.006827717987,-9.628188914E-05
4,-0.00680259945,0.0002149323014
4.01,-0.006763282559,0.0005236306092
4.02,-0.00670994685,0.000829162795
4.03,-0.006642801867,0.001130889962
4.04,-0.006562086482,0.001428185956
4.05,-0.006468068148,0.00172043873
4.06,-0.006361042099,0.002007051663
4.07,-0.006241330472,0.002287444829
4.08,-0.006109281381,0.002561056232
4.09,-0.005965267934,0.002827342969
4.1,-0.005809687188,0.003085782354
4.11,-0.005642959062,0.003335872982
4.12,-0.005465525199,0.003577135731
4.13,-0.005277847782,0.003809114703
4.14,-0.005080408315,0.004031378106
4.15,-0.004873706358,0.004243519064
4.16,-0.004658258236,0.004445156371
4.17,-0.004434595709,0.004635935167
4.18,-0.004203264626,0.004815527549
4.19,-0.003964823543,0.004983633112
4.2,-0.003719842334,0.005139979419
4.21,-0.003468900776,0.0052843224
4.22,-0.003212587129,0.005416446675
4.23,-0.002951496701,0.005536165811
4.24,-0.002686230417,0.005643322501
4.25,-0.002417393379,0.005737788674
4.26,-0.002145593432,0.005819465537
4.27,-0.001871439737,0.005888283532
4.28,-0.001595541355,0.005944202241
4.29,-0.001318505839,0.005987210208
4.3,-0.00104093785,0.0060173247
4.31,-0.0007634377919,0.006034591392
4.32,-0.000486600462,0.006039084001
4.33,-0.0002110137411,0.00603090384
4.34,6.274269623E-05,0.006010179318
4.35,0.0003340986338,0.005977065385
4.36,0.000602494532,0.005931742902
4.37,0.0008673827067,0.005874417974
4.38,0.001128228467,0.005805321217
4.39,0.001384511211,0.005724706974
4.4,0.001635725473,0.005632852494
4.41,0.001881381924,0.005530057045
4.42,0.002121008325,0.005416641007
4.43,0.002354150421,0.005292944902
4.44,0.002580372791,0.005159328405
4.45,0.002799259636,0.005016169309
4.46,0.003010415514,0.004863862461
4.47,0.003213466012,0.004702818675
4.48,0.00340805837,0.00453346361
4.49,0.003593862036,0.004356236637
4.5,0.003770569162,0.004171589677
4.51,0.003937895047,0.003979986032
4.52,0.004095578508,0.003781899193
4.53,0.004243382201,0.003577811653
4.54,0.004381092873,0.0033682137
4.55,0.004508521554,0.003153602213
4.56,0.004625503695,0.002934479462
4.57,0.004731899241,0.002711351902
4.58,0.004827592641,0.00248472898
4.59,0.004912492809,0.002255121952
4.6,0.004986533018,0.002023042702
4.61,0.005049670748,0.001789002591
4.62,0.005101887466,0.001553511308
4.63,0.005143188364,0.001317075752
4.64,0.005173602037,0.001080198933
4.65,0.005193180117,0.0008433788947
4.66,0.005201996849,0.0006071076712
4.67,0.00520014863,0.000371870267
4.68,0.005187753495,0.0001381436722
4.69,0.005164950565,-9.360409006E-05
4.7,0.00513189945,-0.0003229148804
4.71,0.005088779615,-0.000549341323
4.72,0.005035789711,-0.0007724476468
4.73,0.004973146869,-0.0009918104862
4.74,0.004901085963,-0.001207019641
4.75,0.004819858843,-0.001417678793
4.76,0.004729733541,-0.001623406179
4.77,0.004630993453,-0.001823835219
4.78,0.0045239365,-0.002018615102
4.79,0.004408874263,-0.00220741132
4.8,0.004286131112,-0.002389906162
4.81,0.004156043307,-0.002565799156
4.82,0.004018958096,-0.002734807465
4.83,0.003875232802,-0.002896666242
4.84,0.0037252339,-0.003051128928
4.85,0.003569336089,-0.003197967511
4.86,0.003407921364,-0.003336972733
4.87,0.003241378085,-0.003467954257
4.88,0.003070100053,-0.003590740779
4.89,0.002894485583,-0.003705180108
4.9,0.002714936586,-0.003811139188
4.91,0.002531857666,-0.003908504085
4.92,0.002345655218,-0.00399717993
4.93,0.002156736543,-0.004077090819
4.94,0.001965508977,-0.004148179676
4.95,0.001772379039,-0.004210408069
4.96,0.001577751589,-0.004263755999
4.97,0.001382029016,-0.004308221645
4.98,0.001185610435,-0.004343821075
4.99,0.0009888909193,-0.004370587926
5,0.0007922607455,-0.004388573047
5.01,0.0005961046701,-0.00439784412
5.02,0.0004008012299,-0.004398485243
5.03,0.0002067220691,-0.004390596487
5.04,1.423129623E-05,-0.004374293436
5.05,-0.0001763151319,-0.004349706693
5.06,-0.0003645699952,-0.004316981367
5.07,-0.0005501953657,-0.004276276543
5.08,-0.0007328631316,-0.004227764729
5.09,-0.0009122554907,-0.004171631287
5.1,-0.001088065411,-0.00410807385
5.11,-0.001259997063,-0.004037301722
5.12,-0.00142776621,-0.003959535273
5.13,-0.001591100584,-0.003875005318
5.14,-0.001749740208,-0.003783952486
5.15,-0.001903437704,-0.003686626587
5.16,-0.002051958561,-0.003583285975
5.17,-0.002195081368,-0.003474196896
5.18,-0.002332598026,-0.003359632851
5.19,-0.002464313921,-0.003239873941
5.2,-0.002590048065,-0.003115206224
5.21,-0.002709633216,-0.002985921072
5.22,-0.002822915962,-0.002852314526
5.23,-0.002929756774,-0.002714686664
5.24,-0.003030030039,-0.002573340965
5.25,-0.003123624057,-0.002428583691
5.26,-0.003210441018,-0.002280723267
5.27,-0.003290396951,-0.002130069678
5.28,-0.003363421646,-0.00197693387
5.29,-0.003429458554,-0.001821627167
5.3,-0.003488464662,-0.001664460695
5.31,-0.003540410352,-0.001505744825
5.32,-0.003585279229,-0.001345788623
5.33,-0.003623067934,-0.00118489932
5.34,-0.00365378594,-0.001023381788
5.35,-0.003677455324,-0.0008615380457
5.36,-0.003694110524,-0.0006996667621
5.37,-0.003703798082,-0.0005380627923
5.38,-0.003706576367,-0.0003770167202
5.39,-0.003702515286,-0.0002168144216
5.4,-0.003691695981,-5.773664419E-05
5.41,-0.003674210515,9.994139525E-05
5.42,-0.003650161541,0.000255950396
5.43,-0.003619661968,0.0004100273406
5.44,-0.003582834609,0.0005619158444
5.45,-0.003539811827,0.0007113664873
5.46,-0.003490735167,0.000858137127
5.47,-0.003435754985,0.001001993195
5.48,-0.003375030068,0.001142707976
5.49,-0.003308727249,0.001280062864
5.5,-0.003237021018,0.001413847611
5.51,-0.003160093125,0.001543860546
5.52,-0.003078132186,0.001669908788
5.53,-0.002991333277,0.001791808435
5.54,-0.002899897537,0.001909384735
5.55,-0.002804031758,0.002022472251
5.56,-0.002703947981,0.002130914993
5.57,-0.002599863088,0.002234566549
5.58,-0.002491998401,0.002333290193
5.59,-0.002380579269,0.002426958977
5.6,-0.002265834665,0.00251545581
5.61,-0.002147996787,0.002598673523
5.62,-0.00202730065,0.002676514914
5.63,-0.001903983688,0.002748892787
5.64,-0.001778285362,0.002815729966
5.65,-0.001650446757,0.002876959307
5.66,-0.001520710202,0.002932523689
5.67,-0.001389318872,0.002982375992
5.68,-0.001256516414,0.003026479065
5.69,-0.001122546563,0.003064805681
5.7,-0.0009876527686,0.003097338475
5.71,-0.0008520778262,0.003124069878
5.72,-0.0007160635113,0.003145002032
5.73,-0.0005798502206,0.003160146695
5.74,-0.0004436766175,0.003169525138
5.75,-0.0003077792842,0.003173168027
5.76,-0.0001723923789,0.003171115294
5.77,-3.774729978E-05,0.003163416004
5.78,9.59276454E-05,0.003150128198
5.79,0.0002284075625,0.003131318742
5.8,0.0003594712879,0.003107063153
5.81,0.0004889016982,0.003077445419
5.82,0.0006164860127,0.003042557817
5.83,0.000742016089,0.003002500706
5.84,0.0008652887104,0.002957382325
5.85,0.0009861058656,0.002907318576
5.86,0.001104275021,0.002852432796
5.87,0.001219609382,0.002792855522
5.88,0.001331928153,0.002728724254
5.89,0.001441056778,0.002660183195
5.9,0.001546827181,0.002587382999
5.91,0.001649077992,0.002510480499
5.92,0.001747654767,0.002429638434
5.93,0.001842410197,0.002345025165
5.94,0.001933204306,0.002256814387
5.95,0.002019904638,0.00216518483
5.96,0.002102386436,0.002070319957
5.97,0.002180532809,0.001972407651
5.98,0.002254234889,0.001871639905
5.99,0.002323391971,0.001768212491
6,0.002387911651,0.001662324639
