"Freq [GHz]","re(S(Tx_p1,Tx_p1)) []","im(S(Tx_p1,Tx_p1)) []"
1,-0.005457785933,-0.005197441172
1.01,-0.005650968834,-0.004967659951
1.02,-0.005835682929,-0.004731109207
1.03,-0.006011730025,-0.004488048485
1.04,-0.006178916922,-0.004238736703
1.05,-0.006337054352,-0.003983432416
1.06,-0.006485955983,-0.003722394237
1.07,-0.006625437496,-0.003455881392
1.08,-0.006755315774,-0.003184154401
1.09,-0.006875408176,-0.002907475882
1.1,-0.006985531952,-0.002626111449
1.11,-0.007085503773,-0.00234033071
1.12,-0.007175139403,-0.002050408337
1.13,-0.007254253517,-0.001756625198
1.14,-0.007322659668,-0.001459269538
1.15,-0.007380170418,-0.00115863819
1.16,-0.007426597616,-0.0008550377941
1.17,-0.007461752849,-0.0005487860262
1.18,-0.007485448048,-0.0002402127975
1.19,-0.007497496257,7.033857558E-05
1.2,-0.007497712555,0.0003825102554
1.21,-0.007485915141,0.000695928834
1.22,-0.007461926554,0.001010204367
1.23,-0.007425575043,0.001324929508
1.24,-0.007376696064,0.001639678753
1.25,-0.007315133901,0.001954007816
1.26,-0.007240743397,0.002267453137
1.27,-0.007153391783,0.002579531552
1.28,-0.007052960595,0.002889740115
1.29,-0.006939347659,0.0031975561
1.3,-0.006812469137,0.003502437177
1.31,-0.006672261604,0.003803821779
1.32,-0.00651868416,0.004101129663
1.33,-0.00635172054,0.004393762666
1.34,-0.006171381215,0.00468110566
1.35,-0.005977705469,0.004962527715
1.36,-0.005770763417,0.005237383452
1.37,-0.005550657975,0.005505014607
1.38,-0.005317526732,0.005764751785
1.39,-0.005071543729,0.0060159164
1.4,-0.00481292112,0.006257822813
1.41,-0.004541910694,0.006489780632
1.42,-0.004258805253,0.00671109719
1.43,-0.003963939814,0.006921080169
1.44,-0.003657692641,0.007119040383
1.45,-0.003340486069,0.007304294675
1.46,-0.003012787133,0.00747616894
1.47,-0.002675107971,0.007634001252
1.48,-0.002328005993,0.00777714506
1.49,-0.001972083824,0.007904972467
1.5,-0.00160798899,0.008016877546
1.51,-0.001236413354,0.008112279687
1.52,-0.0008580923026,0.008190626956
1.53,-0.0004738036592,0.008251399436
1.54,-8.436634992E-05,0.008294112546
1.55,0.0003093612005,0.008318320295
1.56,0.0007064829277,0.008323618475
1.57,0.001106067244,0.008309647755
1.58,0.001507149404,0.008276096657
1.59,0.001908734115,0.008222704404
1.6,0.002309798379,0.00814926361
1.61,0.002709294564,0.008055622803
1.62,0.003106153688,0.007941688743
1.63,0.003499288902,0.007807428552
1.64,0.003887599157,0.007652871598
1.65,0.004269973048,0.007478111151
1.66,0.004645292805,0.007283305781
1.67,0.005012438424,0.007068680487
1.68,0.005370291912,0.006834527545
1.69,0.005717741624,0.006581207073
1.7,0.006053686689,0.006309147284
1.71,0.006377041468,0.00601884445
1.72,0.006686740067,0.005710862542
1.73,0.00698174084,0.005385832561
1.74,0.007261030887,0.005044451551
1.75,0.007523630511,0.004687481291
1.76,0.007768597618,0.004315746679
1.77,0.007995032028,0.003930133793
1.78,0.008202079681,0.003531587655
1.79,0.008388936714,0.003121109683
1.8,0.008554853385,0.002699754855
1.81,0.008699137826,0.002268628594
1.82,0.008821159592,0.001828883373
1.83,0.008920353012,0.001381715071
1.84,0.008996220288,0.0009283590754
1.85,0.00904833436,0.0004700861665
1.86,0.009076341484,8.19818698E-06
1.87,0.009079963545,-0.0004559764792
1.88,0.009059000057,-0.0009210875982
1.89,0.009013329858,-0.001385767929
1.9,0.008942912488,-0.001848638195
1.91,0.008847789223,-0.002308312161
1.92,0.008728083784,-0.002763401793
1.93,0.008584002687,-0.003212522475
1.94,0.008415835256,-0.003654298267
1.95,0.00822395327,-0.004087367164
1.96,0.008008810271,-0.004510386346
1.97,0.007770940504,-0.004922037385
1.98,0.007510957521,-0.005321031391
1.99,0.00722955243,-0.005706114066
2,0.006927491812,-0.006076070644
2.01,0.006605615301,-0.006429730699
2.02,0.006264832851,-0.00676597279
2.03,0.005906121683,-0.007083728923
2.04,0.005530522944,-0.007381988809
2.05,0.00513913808,-0.007659803906
2.06,0.004733124945,-0.007916291205
2.07,0.004313693656,-0.008150636766
2.08,0.003882102225,-0.00836209897
2.09,0.003439651975,-0.008550011478
2.1,0.002987682769,-0.008713785887
2.11,0.002527568067,-0.008852914055
2.12,0.002060709844,-0.00896697011
2.13,0.001588533378,-0.009055612107
2.14,0.001112481947,-0.009118583341
2.15,0.0006340114423,-0.00915571331
2.16,0.0001545849456,-0.009166918315
2.17,-0.000324332733,-0.009152201704
2.18,-0.0008012805073,-0.009111653752
2.19,-0.001274806446,-0.009045451188
2.2,-0.001743473154,-0.008953856362
2.21,-0.002205863081,-0.008837216059
2.22,-0.002660583728,-0.008695959973
2.23,-0.003106272738,-0.00853059884
2.24,-0.003541602843,-0.00834172225
2.25,-0.003965286643,-0.008129996139
2.26,-0.004376081199,-0.007896159978
2.27,-0.004772792422,-0.007641023678
2.28,-0.005154279238,-0.007365464219
2.29,-0.005519457509,-0.007070422025
2.3,-0.005867303696,-0.006756897098
2.31,-0.006196858247,-0.006425944939
2.32,-0.006507228706,-0.006078672264
2.33,-0.006797592514,-0.005716232545
2.34,-0.007067199505,-0.005339821395
2.35,-0.007315374087,-0.00495067182
2.36,-0.007541517094,-0.004550049351
2.37,-0.007745107313,-0.0041392471
2.38,-0.007925702668,-0.003719580738
2.39,-0.008082941079,-0.003292383442
2.4,-0.008216540975,-0.002859000812
2.41,-0.008326301478,-0.002420785804
2.42,-0.008412102249,-0.001979093677
2.43,-0.008473903013,-0.001535277003
2.44,-0.008511742749,-0.001090680738
2.45,-0.008525738584,-0.000646637394
2.46,-0.008516084359,-0.0002044623191
2.47,-0.008483048922,0.0002345508831
2.48,-0.008426974121,0.0006691347846
2.49,-0.008348272531,0.001098052392
2.5,-0.008247424931,0.001520101215
2.51,-0.008124977529,0.001934117136
2.52,-0.00798153897,0.002338978055
2.53,-0.007817777137,0.002733607305
2.54,-0.007634415751,0.003116976825
2.55,-0.007432230818,0.003488110079
2.56,-0.007212046905,0.003846084701
2.57,-0.006974733301,0.004190034886
2.58,-0.006721200052,0.004519153486
2.59,-0.006452393914,0.004832693836
2.6,-0.00616929423,0.005129971288
2.61,-0.005872908755,0.005410364457
2.62,-0.005564269459,0.005673316182
2.63,-0.005244428309,0.005918334203
2.64,-0.004914453068,0.006144991547
2.65,-0.004575423124,0.006352926637
2.66,-0.004228425358,0.006541843136
2.67,-0.003874550095,0.006711509506
2.68,-0.003514887124,0.006861758325
2.69,-0.003150521829,0.006992485341
2.7,-0.002782531435,0.007103648296
2.71,-0.002411981386,0.007195265512
2.72,-0.002039921871,0.007267414272
2.73,-0.001667384511,0.007320228988
2.74,-0.001295379216,0.007353899187
2.75,-0.0009248912242,0.007368667321
2.76,-0.0005568783404,0.00736482642
2.77,-0.0001922683649,0.007342717598
2.78,0.0001680432623,0.007302727438
2.79,0.0005231956064,0.007245285268
2.8,0.0008723641648,0.007170860338
2.81,0.001214762572,0.007079958928
2.82,0.001549644083,0.006973121393
2.83,0.001876302833,0.006850919169
2.84,0.002194074869,0.006713951753
2.85,0.002502338972,0.006562843671
2.86,0.002800517251,0.006398241463
2.87,0.003088075528,0.006220810678
2.88,0.003364523514,0.006031232917
2.89,0.003629414784,0.005830202925
2.9,0.003882346562,0.005618425749
2.91,0.00412295931,0.005396613978
2.92,0.004350936157,0.005165485068
2.93,0.004566002144,0.00492575878
2.94,0.00476792333,0.004678154721
2.95,0.004956505745,0.004423390014
2.96,0.005131594213,0.004162177094
2.97,0.005293071061,0.003895221648
2.98,0.005440854712,0.003623220691
2.99,0.005574898199,0.0033468608
3,0.005695187586,0.003066816492
3.01,0.005801740331,0.002783748768
3.02,0.005894603595,0.002498303804
3.03,0.005973852512,0.002211111812
3.04,0.006039588432,0.001922786045
3.05,0.006091937153,0.001633921971
3.06,0.006131047153,0.001345096594
3.07,0.006157087835,0.001056867928
3.08,0.006170247795,0.0007697746093
3.09,0.006170733125,0.0004843356631
3.1,0.006158765768,0.0002010503897
3.11,0.006134581923,-7.960161372E-05
3.12,0.006098430519,-0.0003571603161
3.13,0.006050571761,-0.0006311850032
3.14,0.005991275765,-0.0009012539277
3.15,0.005920821273,-0.001166963867
3.16,0.005839494464,-0.001427929598
3.17,0.005747587875,-0.001683783303
3.18,0.005645399411,-0.001934173913
3.19,0.005533231471,-0.002178766399
3.2,0.005411390184,-0.002417241029
3.21,0.005280184747,-0.002649292589
3.22,0.005139926881,-0.0028746296
3.23,0.00499093039,-0.003092973512
3.24,0.004833510835,-0.003304057917
3.25,0.004667985306,-0.003507627768
3.26,0.004494672298,-0.003703438626
3.27,0.004313891682,-0.00389125594
3.28,0.004125964771,-0.004070854373
3.29,0.00393121447,-0.004242017175
3.3,0.003729965504,-0.004404535621
3.31,0.003522544715,-0.00455820851
3.32,0.003309281432,-0.004702841748
3.33,0.003090507883,-0.004838247994
3.34,0.002866559666,-0.004964246408
3.35,0.002637776245,-0.005080662474
3.36,0.002404501486,-0.005187327921
3.37,0.002167084199,-0.005284080732
3.38,0.001925878694,-0.005370765259
3.39,0.001681245333,-0.005447232421
3.4,0.001433551069,-0.005513340006
3.41,0.001183169964,-0.005568953063
3.42,0.000930483672,-0.005613944387
3.43,0.0006758818796,-0.005648195092
3.44,0.0004197627003,-0.005671595271
3.45,0.0001625330029,-0.005684044731
3.46,-9.539132649E-05,-0.005685453808
3.47,-0.0003535851993,-0.005675744244
3.48,-0.0006116142237,-0.005654850133
3.49,-0.000869034695,-0.005622718909
3.5,-0.001125393683,-0.005579312388
3.51,-0.00138022922,-0.005524607843
3.52,-0.0016330706,-0.005458599102
3.53,-0.001883438784,-0.005381297668
3.54,-0.002130846922,-0.005292733843
3.55,-0.002374800987,-0.005192957849
3.56,-0.002614800531,-0.005082040928
3.57,-0.002850339554,-0.00496007643
3.58,-0.003080907488,-0.004827180852
3.59,-0.003305990303,-0.004683494836
3.6,-0.003525071711,-0.004529184109
3.61,-0.003737634494,-0.004364440356
3.62,-0.003943161927,-0.00418948201
3.63,-0.004141139297,-0.004004554959
3.64,-0.004331055522,-0.003809933153
3.65,-0.00451240485,-0.003605919105
3.66,-0.00468468864,-0.003392844274
3.67,-0.004847417204,-0.003171069331
3.68,-0.005000111717,-0.002940984287
3.69,-0.005142306175,-0.002703008492
3.7,-0.005273549386,-0.002457590487
3.71,-0.005393407,-0.002205207709
3.72,-0.005501463547,-0.001946366047
3.73,-0.005597324485,-0.001681599241
3.74,-0.00568061824,-0.001411468129
3.75,-0.005750998226,-0.00113655973
3.76,-0.005808144836,-0.0008574861777
3.77,-0.005851767384,-0.0005748834887
3.78,-0.005881605995,-0.0002894101815
3.79,-0.005897433426,-1.745741086E-06
3.8,-0.005899056798,0.0002874110641
3.81,-0.005886319248,0.0005773440096
3.82,-0.005859101461,0.0008673213794
3.83,-0.005817323094,0.001156598062
3.84,-0.005760944076,0.00144441777
3.85,-0.005689965759,0.001730015373
3.86,-0.005604431931,0.002012619339
3.87,-0.005504429669,0.00229145427
3.88,-0.005390090032,0.00256574352
3.89,-0.005261588573,0.002834711889
3.9,-0.005119145682,0.00309758838
3.91,-0.004963026736,0.003353608994
3.92,-0.004793542073,0.003602019577
3.93,-0.004611046755,0.003842078672
3.94,-0.004415940156,0.004073060388
3.95,-0.004208665333,0.004294257261
3.96,-0.003989708218,0.004504983094
3.97,-0.003759596597,0.004704575758
3.98,-0.003518898905,0.004892399953
3.99,-0.003268222819,0.005067849895
4,-0.003008213672,0.00523035193
4.01,-0.00273955267,0.005379367057
4.02,-0.00246295494,0.005514393343
4.03,-0.002179167405,0.005634968223
4.04,-0.001888966487,0.005740670665
4.05,-0.001593155665,0.005831123191
4.06,-0.001292562881,0.005905993751
4.07,-0.0009880378147,0.005964997425
4.08,-0.0006804490289,0.006007897946
4.09,-0.0003706810097,0.006034509049
4.1,-5.963110382E-05,0.006044695621
4.11,0.0002517936283,0.006038374644
4.12,0.0005626796312,0.006015515949
4.13,0.0008721101306,0.005976142738
4.14,0.001179168451,0.005920331904
4.15,0.001482941363,0.005848214126
4.16,0.001782522436,0.005759973741
4.17,0.0020770154,0.005655848395
4.18,0.002365537472,0.005536128475
4.19,0.002647222662,0.005401156313
4.2,0.002921225021,0.005251325175
4.21,0.003186721823,0.005087078034
4.22,0.003442916676,0.004908906134
4.23,0.003689042524,0.004717347345
4.24,0.003924364553,0.004512984322
4.25,0.004148182965,0.004296442472
4.26,0.004359835621,0.004068387745
4.27,0.004558700536,0.003829524242
4.28,0.004744198208,0.003580591671
4.29,0.004915793786,0.003322362645
4.3,0.005072999045,0.003055639849
4.31,0.005215374183,0.00278125308
4.32,0.005342529408,0.002500056164
4.33,0.005454126329,0.002212923793
4.34,0.005549879129,0.001920748265
4.35,0.00562955552,0.001624436159
4.36,0.005692977485,0.00132490496
4.37,0.005740021785,0.001023079639
4.38,0.005770620246,0.0007198892148
4.39,0.005784759817,0.000416263311
4.4,0.005782482407,0.0001131287157
4.41,0.005763884484,-0.0001885940298
4.42,0.005729116469,-0.0004879940044
4.43,0.005678381896,-0.0007841732255
4.44,0.005611936363,-0.001076249898
4.45,0.005530086284,-0.001363361578
4.46,0.00543318742,-0.001644668241
4.47,0.005321643238,-0.001919355236
4.48,0.005195903069,-0.002186636121
4.49,0.005056460096,-0.00244575535
4.5,0.00490384918,-0.002695990832
4.51,0.004738644527,-0.002936656314
4.52,0.004561457213,-0.003167103606
4.53,0.004372932585,-0.003386724629
4.54,0.004173747534,-0.003594953275
4.55,0.003964607676,-0.003791267084
4.56,0.003746244436,-0.003975188715
4.57,0.00351941206,-0.004146287219
4.58,0.003284884558,-0.004304179111
4.59,0.003043452613,-0.004448529232
4.6,0.002795920447,-0.004579051392
4.61,0.002543102674,-0.004695508821
4.62,0.002285821151,-0.004797714392
4.63,0.002024901834,-0.004885530646
4.64,0.00176117167,-0.004958869612
4.65,0.001495455521,-0.005017692417
4.66,0.001228573143,-0.005062008705
4.67,0.0009613362321,-0.005091875862
4.68,0.0006945455482,-0.005107398052
4.69,0.0004289881333,-0.005108725078
4.7,0.0001654346279,-0.005096051069
4.71,-9.536329654E-05,-0.005069613006
4.72,-0.0003526753828,-0.005029689096
4.73,-0.0006057950995,-0.004976597002
4.74,-0.0008540418126,-0.004910691939
4.75,-0.001096762807,-0.004832364652
4.76,-0.001333335151,-0.004742039283
4.77,-0.001563167407,-0.00464017114
4.78,-0.00178570116,-0.004527244381
4.79,-0.002000412394,-0.004403769627
4.8,-0.002206812682,-0.00427028151
4.81,-0.002404450202,-0.004127336176
4.82,-0.002592910582,-0.003975508759
4.83,-0.00277181756,-0.00381539082
4.84,-0.002940833474,-0.003647587789
4.85,-0.00309965957,-0.003472716403
4.86,-0.003248036142,-0.003291402164
4.87,-0.003385742502,-0.003104276814
4.88,-0.003512596785,-0.002911975865
4.89,-0.003628455589,-0.00271513616
4.9,-0.003733213466,-0.002514393508
4.91,-0.00382680226,-0.002310380383
4.92,-0.003909190309,-0.002103723702
4.93,-0.003980381505,-0.001895042696
4.94,-0.004040414235,-0.001684946867
4.95,-0.004089360202,-0.001474034065
4.96,-0.004127323139,-0.001262888659
4.97,-0.00415443742,-0.001052079836
4.98,-0.00417086659,-0.0008421600159
4.99,-0.004176801811,-0.0006336633956
5,-0.004172460237,-0.0004271046212
5.01,-0.004158083337,-0.0002229775926
5.02,-0.004133935165,-2.175440412E-05
5.03,-0.004100300594,0.0001761155805
5.04,-0.004057483525,0.0003702065164
5.05,-0.004005805075,0.00056011673
5.06,-0.003945601761,0.0007454692369
5.07,-0.003877223686,0.0009259121269
5.08,-0.00380103274,0.001101118819
5.09,-0.003717400815,0.00127078819
5.1,-0.003626708062,0.001434644576
5.11,-0.003529341179,0.001592437664
5.12,-0.003425691748,0.001743942262
5.13,-0.003316154627,0.00188895796
5.14,-0.003201126401,0.002027308702
5.15,-0.003081003907,0.002158842247
5.16,-0.002956182825,0.002283429551
5.17,-0.00282705635,0.002400964065
5.18,-0.002694013951,0.002511360963
5.19,-0.002557440211,0.002614556298
5.2,-0.002417713761,0.002710506106
5.21,-0.002275206303,0.002799185458
5.22,-0.002130281734,0.002880587466
5.23,-0.001983295356,0.002954722269
5.24,-0.00183459319,0.003021615976
5.25,-0.001684511386,0.003081309605
5.26,-0.001533375718,0.003133858004
5.27,-0.001381501187,0.00317932878
5.28,-0.001229191705,0.003217801222
5.29,-0.001076739874,0.003249365247
5.3,-0.0009244268481,0.003274120359
5.31,-0.0007725222822,0.003292174636
5.32,-0.0006212843532,0.003303643755
5.33,-0.0004709598608,0.003308650044
5.34,-0.0003217843951,0.003307321588
5.35,-0.0001739825688,0.003299791378
5.36,-2.776830732E-05,0.003286196512
5.37,0.0001166548078,0.003266677455
5.38,0.0002590931489,0.003241377353
5.39,0.0003993626121,0.003210441416
5.4,0.0005372881525,0.003174016362
5.41,0.0006727032922,0.003132249923
5.42,0.0008054496065,0.003085290421
5.43,0.0009353761956,0.003033286413
5.44,0.001062339147,0.0029763864
5.45,0.001186200998,0.002914738602
5.46,0.001306830197,0.002848490795
5.47,0.001424100582,0.002777790224
5.48,0.001537890867,0.002702783559
5.49,0.001648084155,0.002623616922
5.5,0.001754567475,0.002540435968
5.51,0.00185723135,0.002453386013
5.52,0.001955969399,0.002362612212
5.53,0.002050677983,0.002268259785
5.54,0.002141255888,0.002170474275
5.55,0.002227604061,0.002069401847
5.56,0.002309625389,0.001965189613
5.57,0.002387224538,0.00185798598
5.58,0.002460307832,0.001747941021
5.59,0.002528783202,0.001635206855
5.6,0.002592560179,0.00151993804
5.61,0.002651549951,0.001402291959
5.62,0.002705665468,0.001282429214
5.63,0.002754821611,0.001160514004
5.64,0.002798935407,0.001036714488
5.65,0.002837926304,0.0009112031316
5.66,0.002871716488,0.0007841570272
5.67,0.002900231257,0.0006557581855
5.68,0.002923399436,0.0005261937902
5.69,0.002941153831,0.0003956564157
5.7,0.002953431726,0.0002643442011
5.71,0.002960175413,0.0001324609772
5.72,0.002961332751,2.163431361E-07
5.73,0.00295685775,-0.0001321743096
5.74,0.002946711178,-0.00026448983
5.75,0.002930861181,-0.0003965033986
5.76,0.002909283911,-0.0005279826777
5.77,0.002881964169,-0.0006586900235
5.78,0.00284889603,-0.0007883827608
5.79,0.002810083481,-0.0009168135195
5.8,0.00276554103,-0.001043730634
5.81,0.002715294312,-0.001168878605
5.82,0.00265938066,-0.00129199862
5.83,0.002597849656,-0.00141282914
5.84,0.002530763642,-0.001531106533
5.85,0.002458198197,-0.001646565772
5.86,0.002380242567,-0.001758941181
5.87,0.002297000049,-0.001867967232
5.88,0.002208588316,-0.001973379384
5.89,0.002115139691,-0.002074914971
5.9,0.002016801355,-0.002172314118
5.91,0.001913735494,-0.002265320695
5.92,0.001806119376,-0.002353683298
5.93,0.001694145353,-0.002437156252
5.94,0.001578020801,-0.00251550063
5.95,0.001457967968,-0.002588485284
5.96,0.001334223764,-0.002655887881
5.97,0.001207039458,-0.002717495941
5.98,0.001076680307,-0.002773107863
5.99,0.0009434250989,-0.002822533943
6,0.0008075656246,-0.002865597373
