"Freq [GHz]","re(S(Tx_p1,Tx_p1)) []","im(S(Tx_p1,Tx_p1)) []"
1,-0.003733113368,-0.156539973
1.01,-0.008671149719,-0.1560725486
1.02,-0.01360206597,-0.1554520873
1.03,-0.01852020467,-0.1546782527
1.04,-0.02341994774,-0.1537509696
1.05,-0.02829572652,-0.1526704143
1.06,-0.03314203088,-0.151437004
1.07,-0.03795341745,-0.1500513872
1.08,-0.04272451693,-0.1485144328
1.09,-0.04745004066,-0.1468272208
1.1,-0.05212478628,-0.1449910317
1.11,-0.05674364267,-0.1430073376
1.12,-0.06130159412,-0.1408777919
1.13,-0.06579372384,-0.1386042209
1.14,-0.07021521678,-0.1361886143
1.15,-0.07456136181,-0.1336331169
1.16,-0.07882755337,-0.1309400206
1.17,-0.08300929256,-0.128111756
1.18,-0.08710218777,-0.1251508861
1.19,-0.09110195483,-0.1220600982
1.2,-0.0950044168,-0.1188421983
1.21,-0.09880550343,-0.1155001049
1.22,-0.1025012503,-0.1120368433
1.23,-0.1060877978,-0.1084555408
1.24,-0.1095613896,-0.1047594222
1.25,-0.1129183717,-0.1009518059
1.26,-0.1161551904,-0.09703609998
1.27,-0.1192683911,-0.09301579983
1.28,-0.1222546164,-0.08889448512
1.29,-0.1251106051,-0.08467581791
1.3,-0.1278331901,-0.08036354104
1.31,-0.1304192976,-0.07596147694
1.32,-0.1328659458,-0.07147352682
1.33,-0.1351702442,-0.06690367032
1.34,-0.1373293922,-0.06225596542
1.35,-0.1393406798,-0.05753454873
1.36,-0.1412014866,-0.05274363607
1.37,-0.1429092825,-0.04788752326
1.38,-0.1444616281,-0.04297058717
1.39,-0.1458561759,-0.03799728692
1.4,-0.1470906718,-0.03297216521
1.41,-0.1481629564,-0.02789984978
1.42,-0.1490709678,-0.02278505487
1.43,-0.149812744,-0.01763258271
1.44,-0.1503864261,-0.01244732499
1.45,-0.1507902621,-0.007234264191
1.46,-0.1510226104,-0.001998474855
1.47,-0.1510819448,0.003254875383
1.48,-0.1509668591,0.008520524937
1.49,-0.1506760724,0.0137931177
1.5,-0.150208435,0.01906720275
1.51,-0.1495629341,0.02433723447
1.52,-0.1487387008,0.02959757294
1.53,-0.1477350161,0.0348424849
1.54,-0.1465513186,0.04006614501
1.55,-0.1451872116,0.04526263777
1.56,-0.1436424704,0.05042595987
1.57,-0.1419170506,0.05555002308
1.58,-0.1400110952,0.06062865783
1.59,-0.1379249435,0.06565561728
1.6,-0.1356591385,0.07062458209
1.61,-0.133214435,0.07552916584
1.62,-0.1305918081,0.08036292104
1.63,-0.1277924607,0.08511934593
1.64,-0.1248178318,0.0897918918
1.65,-0.1216696035,0.09437397118
1.66,-0.1183497089,0.09885896654
1.67,-0.1148603394,0.1032402398
1.68,-0.1112039507,0.1075111423
1.69,-0.1073832701,0.1116650258
1.7,-0.1034013017,0.1156952538
1.71,-0.09926133226,0.1195952135
1.72,-0.09496693611,0.1233583285
1.73,-0.09052197918,0.1269780722
1.74,-0.08593062283,0.1304479812
1.75,-0.08119732677,0.1337616697
1.76,-0.07632685129,0.1369128443
1.77,-0.07132425868,0.1398953193
1.78,-0.06619491388,0.1427030319
1.79,-0.06094448424,0.1453300582
1.8,-0.05557893842,0.1477706296
1.81,-0.05010454434,0.1500191487
1.82,-0.0445278662,0.1520702065
1.83,-0.03885576055,0.1539185986
1.84,-0.03309537133,0.1555593421
1.85,-0.02725412396,0.1569876926
1.86,-0.02133971834,0.1581991606
1.87,-0.01536012089,0.159189528
1.88,-0.009323555518,0.1599548649
1.89,-0.003238493586,0.1604915453
1.9,0.002886357184,0.1607962631
1.91,0.009042064795,0.1608660477
1.92,0.01521948607,0.1606982784
1.93,0.02140928076,0.1602906994
1.94,0.02760192655,0.1596414333
1.95,0.03378773512,0.1587489944
1.96,0.03995686898,0.1576123014
1.97,0.0460993593,0.1562306885
1.98,0.05220512451,0.154603917
1.99,0.0582639897,0.1527321849
2,0.06426570679,0.1506161357
2.01,0.07019997539,0.1482568669
2.02,0.07605646432,0.1456559368
2.03,0.08182483365,0.1428153702
2.04,0.08749475739,0.1397376635
2.05,0.0930559465,0.1364257877
2.06,0.09849817245,0.1328831914
2.07,0.1038112909,0.1291138016
2.08,0.1089852661,0.1251220232
2.09,0.1140101945,0.1209127382
2.1,0.1188763299,0.1164913022
2.11,0.1235741074,0.111863541
2.12,0.1280941677,0.1070357442
2.13,0.1324273816,0.1020146595
2.14,0.1365648739,0.09680748354
2.15,0.1404980472,0.09142185283
2.16,0.1442186053,0.08586583294
2.17,0.1477185762,0.08014790615
2.18,0.1509903344,0.07427695806
2.19,0.1540266231,0.06826226279
2.2,0.1568205749,0.06211346698
2.21,0.1593657328,0.05584057254
2.22,0.1616560694,0.04945391823
2.23,0.1636860059,0.04296416012
2.24,0.1654504295,0.0363822509
2.25,0.1669447108,0.02971941822
2.26,0.168164719,0.02298714198
2.27,0.1691068365,0.01619713074
2.28,0.1697679723,0.009361297209
2.29,0.1701455742,0.002491732972
2.3,0.1702376391,-0.004399317515
2.31,0.1700427231,-0.01129948361
2.32,0.1695599489,-0.01819629575
2.33,0.1687890129,-0.0250772132
2.34,0.1677301899,-0.03192965227
2.35,0.1663843372,-0.03874101487
2.36,0.1647528963,-0.04549871725
2.37,0.1628378938,-0.05219021908
2.38,0.1606419405,-0.05880305242
2.39,0.1581682289,-0.0653248509
2.4,0.1554205291,-0.07174337863
2.41,0.1524031834,-0.07804655909
2.42,0.1491210989,-0.08422250368
2.43,0.1455797394,-0.09025953994
2.44,0.141785115,-0.09614623938
2.45,0.1377437704,-0.1018714447
2.46,0.1334627719,-0.1074242967
2.47,0.1289496935,-0.1127942599
2.48,0.1242125999,-0.1179711481
2.49,0.1192600307,-0.1229451487
2.5,0.1141009808,-0.1277068465
2.51,0.1087448813,-0.1322472456
2.52,0.1032015785,-0.1365577913
2.53,0.0974813118,-0.1406303908
2.54,0.09159469068,-0.1444574314
2.55,0.0855526707,-0.1480317996
2.56,0.07936652846,-0.1513468969
2.57,0.07304783579,-0.1543966557
2.58,0.06660843317,-0.1571755527
2.59,0.06006040241,-0.159678622
2.6,0.05341603876,-0.1619014658
2.61,0.0466878225,-0.163840264
2.62,0.03988839002,-0.1654917825
2.63,0.03303050464,-0.1668533794
2.64,0.02612702706,-0.1679230102
2.65,0.01919088567,-0.168699231
2.66,0.01223504678,-0.1691812007
2.67,0.005272484823,-0.1693686808
2.68,-0.001683847397,-0.1692620343
2.69,-0.008621048237,-0.1688622231
2.7,-0.01552629652,-0.168170803
2.71,-0.02238688053,-0.1671899185
2.72,-0.02919022652,-0.1659222946
2.73,-0.03592392679,-0.1643712288
2.74,-0.04257576716,-0.1625405798
2.75,-0.04913375374,-0.1604347567
2.76,-0.05558613905,-0.1580587052
2.77,-0.06192144727,-0.1554178936
2.78,-0.06812849864,-0.1525182973
2.79,-0.07419643291,-0.1493663814
2.8,-0.08011473181,-0.1459690833
2.81,-0.08587324042,-0.1423337935
2.82,-0.09146218749,-0.1384683354
2.83,-0.09687220455,-0.1343809442
2.84,-0.1020943438,-0.1300802455
2.85,-0.1071200947,-0.125575232
2.86,-0.1119413996,-0.1208752404
2.87,-0.1165506675,-0.1159899273
2.88,-0.1209407867,-0.1109292448
2.89,-0.1251051365,-0.1057034146
2.9,-0.1290375969,-0.1003229033
2.91,-0.132732557,-0.09479839607
2.92,-0.1361849223,-0.08914077047
2.93,-0.1393901205,-0.0833610703
2.94,-0.1423441056,-0.07747047911
2.95,-0.1450433607,-0.07148029374
2.96,-0.1474848999,-0.06540189801
2.97,-0.1496662678,-0.05924673646
2.98,-0.1515855388,-0.05302628837
2.99,-0.1532413141,-0.04675204204
3,-0.1546327179,-0.04043546945
3.01,-0.1557593924,-0.03408800134
3.02,-0.1566214909,-0.02772100285
3.03,-0.1572196707,-0.02134574961
3.04,-0.1575550839,-0.01497340463
3.05,-0.1576293673,-0.008614995716
3.06,-0.1574446322,-0.002281393747
3.07,-0.1570034515,0.004016708312
3.08,-0.1563088473,0.01026881552
3.09,-0.1553642768,0.01646465019
3.1,-0.1541736176,0.02259417017
3.11,-0.1527411524,0.0286475862
3.12,-0.1510715527,0.03461537816
3.13,-0.1491698619,0.04048831043
3.14,-0.1470414779,0.04625744609
3.15,-0.1446921353,0.05191416004
3.16,-0.1421278869,0.05745015111
3.17,-0.1393550849,0.06285745296
3.18,-0.1363803618,0.06812844394
3.19,-0.1332106114,0.07325585581
3.2,-0.1298529688,0.07823278134
3.21,-0.126314791,0.08305268077
3.22,-0.1226036374,0.08770938723
3.23,-0.11872725,0.09219711104
3.24,-0.1146935338,0.09651044289
3.25,-0.1105105375,0.100644356
3.26,-0.1061864339,0.1045942074
3.27,-0.1017295015,0.1083557378
3.28,-0.09714810547,0.1119250709
3.29,-0.09245067942,0.1152987117
3.3,-0.08764570746,0.1184735435
3.31,-0.08274170685,0.1214468249
3.32,-0.077747211,0.1242161847
3.33,-0.07267075309,0.1267796172
3.34,-0.06752085027,0.1291354764
3.35,-0.06230598839,0.1312824688
3.36,-0.05703460749,0.1332196471
3.37,-0.05171508785,0.1349464013
3.38,-0.04635573678,0.1364624513
3.39,-0.04096477614,0.1377678375
3.4,-0.03555033052,0.1388629115
3.41,-0.03012041619,0.1397483268
3.42,-0.02468293082,0.1404250282
3.43,-0.01924564393,0.1408942422
3.44,-0.01381618806,0.141157466
3.45,-0.008402050737,0.1412164567
3.46,-0.003010567172,0.1410732211
3.47,0.002351086317,0.140730004
3.48,0.007675898149,0.140189278
3.49,0.01295702662,0.1394537319
3.5,0.01818780432,0.1385262605
3.51,0.02336174197,0.1374099533
3.52,0.02847253145,0.136108084
3.53,0.0335140484,0.1346241006
3.54,0.03848035402,0.1329616144
3.55,0.04336569652,0.1311243905
3.56,0.04816451183,0.1291163381
3.57,0.05287142396,0.1269415012
3.58,0.05748124482,0.1246040491
3.59,0.06198897365,0.1221082686
3.6,0.06638979601,0.1194585549
3.61,0.07067908248,0.1166594043
3.62,0.07485238699,0.1137154063
3.63,0.07890544493,0.1106312369
3.64,0.08283417095,0.1074116518
3.65,0.08663465667,0.1040614805
3.66,0.09030316811,0.10058562
3.67,0.09383614314,0.0969890303
3.68,0.09723018872,0.09327672874
3.69,0.1004820782,0.0894537861
3.7,0.1035887485,0.0855253224
3.71,0.1065472977,0.08149650324
3.72,0.1093549818,0.07737253666
3.73,0.1120092128,0.0731586702
3.74,0.1145075559,0.06886018844
3.75,0.1168477276,0.06448241082
3.76,0.1190275929,0.06003068971
3.77,0.1210451645,0.05551040887
3.78,0.1228986001,0.0509269821
3.79,0.1245862019,0.04628585206
3.8,0.1261064148,0.0415924894
3.81,0.127457826,0.03685239196
3.82,0.1286391643,0.03207108412
3.83,0.1296493,0.02725411626
3.84,0.1304872448,0.02240706424
3.85,0.1311521522,0.01753552899
3.86,0.1316433185,0.01264513596
3.87,0.1319601834,0.007741534664
3.88,0.1321023319,0.002830398048
3.89,0.1320694953,-0.002082578201
3.9,0.1318615536,-0.006991676513
3.91,0.1314785376,-0.01189115846
3.92,0.1309206313,-0.01677526599
3.93,0.1301881748,-0.0216382229
3.94,0.1292816671,-0.02647423657
3.95,0.1282017693,-0.0312775
3.96,0.1269493081,-0.03604219415
3.97,0.125525279,-0.04076249063
3.98,0.1239308503,-0.04543255476
3.99,0.1221673665,-0.05004654898
4,0.1202363524,-0.0545986367
4.01,0.1181395167,-0.05908298654
4.02,0.1158787557,-0.06349377699
4.03,0.1134561576,-0.06782520149
4.04,0.1108740054,-0.07207147401
4.05,0.1081347815,-0.07622683501
4.06,0.1052411701,-0.08028555785
4.07,0.1021960612,-0.0842419557
4.08,0.09900255344,-0.08809038878
4.09,0.09566395655,-0.09182527219
4.1,0.09218379421,-0.09544108397
4.11,0.08856580598,-0.09893237372
4.12,0.08481394907,-0.1022937715
4.13,0.08093239968,-0.1055199973
4.14,0.0769255539,-0.1086058705
4.15,0.0727980281,-0.11154632
4.16,0.06855465882,-0.1143363945
4.17,0.06420050217,-0.1169712729
4.18,0.05974083261,-0.1194462756
4.19,0.0551811411,-0.1217568747
4.2,0.05052713277,-0.1238987061
4.21,0.04578472375,-0.1258675799
4.22,0.04096003757,-0.1276594926
4.23,0.03605940068,-0.1292706379
4.24,0.03108933738,-0.1306974186
4.25,0.02605656409,-0.1319364578
4.26,0.0209679828,-0.1329846101
4.27,0.01583067389,-0.1338389733
4.28,0.01065188821,-0.1344968987
4.29,0.005439038462,-0.1349560027
4.3,0.0001996898115,-0.1352141766
4.31,-0.005058450124,-0.1352695974
4.32,-0.01032754203,-0.1351207373
4.33,-0.01559962633,-0.1347663733
4.34,-0.02086663524,-0.1342055961
4.35,-0.02612040552,-0.1334378186
4.36,-0.03135269184,-0.1324627841
4.37,-0.03655518067,-0.1312805731
4.38,-0.04171950485,-0.1298916107
4.39,-0.04683725858,-0.1282966718
4.4,-0.05190001301,-0.1264968874
4.41,-0.05689933221,-0.1244937483
4.42,-0.06182678961,-0.1222891097
4.43,-0.0666739848,-0.1198851933
4.44,-0.07143256071,-0.1172845903
4.45,-0.076094221,-0.114490262
4.46,-0.08065074776,-0.1115055406
4.47,-0.08509401935,-0.1083341286
4.48,-0.08941602846,-0.1049800969
4.49,-0.09360890015,-0.101447883
4.5,-0.09766491,-0.09774228704
4.51,-0.1015765022,-0.09386846781
4.52,-0.1053363076,-0.08983193718
4.53,-0.1089371616,-0.08563855384
4.54,-0.1123721218,-0.08129451598
4.55,-0.1156344854,-0.07680635301
4.56,-0.1187178065,-0.07218091629
4.57,-0.1216159126,-0.06742536893
4.58,-0.1243229214,-0.06254717461
4.59,-0.1268332562,-0.05755408558
4.6,-0.1291416615,-0.05245412963
4.61,-0.1312432176,-0.04725559626
4.62,-0.1331333549,-0.04196702203
4.63,-0.1348078673,-0.03659717501
4.64,-0.1362629248,-0.03115503856
4.65,-0.1374950854,-0.02564979428
4.66,-0.1385013065,-0.02009080434
4.67,-0.1392789545,-0.01448759305
4.68,-0.1398258149,-0.008849827967
4.69,-0.1401400999,-0.003187300317
4.7,-0.1402204565,0.002490095031
4.71,-0.1400659721,0.008172380052
4.72,-0.1396761807,0.01384951446
4.73,-0.1390510663,0.01951141694
4.74,-0.1381910667,0.02514798665
4.75,-0.1370970756,0.03074912501
4.76,-0.1357704428,0.03630475754
4.77,-0.1342129751,0.04180485592
4.78,-0.1324269342,0.04723946
4.79,-0.1304150345,0.05259869985
4.8,-0.1281804395,0.05787281768
4.81,-0.1257267572,0.06305218962
4.82,-0.123058034,0.0681273473
4.83,-0.120178748,0.07308899915
4.84,-0.1170938005,0.07792805134
4.85,-0.1138085073,0.08263562836
4.86,-0.1103285881,0.0872030931
4.87,-0.1066601553,0.09162206645
4.88,-0.1028097019,0.09588444632
4.89,-0.09878408797,0.09998242597
4.9,-0.09459052656,0.1039085117
4.91,-0.09023656851,0.1076555401
4.92,-0.0857300865,0.1112166935
4.93,-0.08107925818,0.1145855162
4.94,-0.07629254863,0.1177559284
4.95,-0.07137869202,0.1207222398
4.96,-0.06634667255,0.1234791623
4.97,-0.06120570491,0.1260218218
4.98,-0.05596521404,0.1283457682
4.99,-0.05063481443,0.1304469856
5,-0.04522428897,0.1323219003
5.01,-0.03974356739,0.1339673885
5.02,-0.03420270439,0.1353807821
5.03,-0.02861185749,0.1365598741
5.04,-0.02298126464,0.1375029228
5.05,-0.01732122175,0.1382086539
5.06,-0.01164206007,0.1386762629
5.07,-0.005954123615,0.1389054149
5.08,-0.000267746564,0.1388962447
5.09,0.005406769164,0.1386493542
5.1,0.01105917621,0.13816581
5.11,0.01667930385,0.137447139
5.12,0.02225707971,0.1364953235
5.13,0.02778255125,0.1353127944
5.14,0.03324590674,0.1339024246
5.15,0.0386374958,0.13226752
5.16,0.04394784946,0.1304118104
5.17,0.0491676996,0.128339439
5.18,0.05428799784,0.1260549512
5.19,0.05929993365,0.1235632823
5.2,0.06419495189,0.1208697446
5.21,0.06896476947,0.1179800132
5.22,0.07360139132,0.1149001117
5.23,0.07809712544,0.1116363967
5.24,0.08244459716,0.1081955415
5.25,0.08663676245,0.1045845198
5.26,0.09066692034,0.1008105884
5.27,0.09452872437,0.09688126892
5.28,0.09821619308,0.09280433032
5.29,0.1017237195,0.08858776974
5.3,0.1050460797,0.0842397937
5.31,0.1081784403,0.07976879876
5.32,0.1111163646,0.07518335205
5.33,0.1138558186,0.0704921715
5.34,0.1163931748,0.06570410604
5.35,0.1187252161,0.06082811573
5.36,0.1208491377,0.05587325179
5.37,0.1227625487,0.05084863678
5.38,0.1244634724,0.04576344481
5.39,0.1259503455,0.04062688192
5.4,0.1272220167,0.0354481667
5.41,0.1282777438,0.03023651107
5.42,0.1291171905,0.02500110147
5.43,0.1297404218,0.01975108033
5.44,0.1301478987,0.01449552796
5.45,0.130340472,0.009243444871
5.46,0.1303193756,0.004003734585
5.47,0.1300862184,-0.001214813055
5.48,0.129642976,-0.006403537996
5.49,0.1289919816,-0.01155392552
5.5,0.1281359157,-0.01665762114
5.51,0.1270777963,-0.0217064449
5.52,0.1258209671,-0.02669240493
5.53,0.1243690864,-0.03160771035
5.54,0.1227261147,-0.03644478343
5.55,0.1208963023,-0.04119627106
5.56,0.1188841762,-0.04585505538
5.57,0.1166945268,-0.05041426374
5.58,0.1143323943,-0.05486727781
5.59,0.1118030549,-0.05920774195
5.6,0.1091120061,-0.06342957079
5.61,0.1062649532,-0.06752695605
5.62,0.1032677942,-0.07149437246
5.63,0.1001266056,-0.0753265831
5.64,0.09684762769,-0.07901864374
5.65,0.09343724986,-0.08256590662
5.66,0.08990199629,-0.08596402333
5.67,0.0862485113,-0.08920894702
5.68,0.08248354504,-0.09229693388
5.69,0.07861393931,-0.0952245439
5.7,0.07464661351,-0.09798864098
5.71,0.07058855089,-0.1005863923
5.72,0.066446785,-0.1030152672
5.73,0.06222838646,-0.1052730351
5.74,0.05794044998,-0.1073577636
5.75,0.05359008185,-0.1092678148
5.76,0.04918438764,-0.1110018425
5.77,0.04473046041,-0.1125587876
5.78,0.04023536925,-0.113937874
5.79,0.03570614825,-0.1151386035
5.8,0.03114978598,-0.1161607507
5.81,0.02657321533,-0.117004357
5.82,0.02198330384,-0.1176697249
5.83,0.01738684454,-0.1181574112
5.84,0.01279054723,-0.1184682211
5.85,0.008201030211,-0.1186032005
5.86,0.003624812588,-0.1185636298
5.87,-0.0009316930312,-0.1183510157
5.88,-0.005462187319,-0.1179670849
5.89,-0.009960490534,-0.1174137757
5.9,-0.01442054837,-0.1166932307
5.91,-0.01883643733,-0.1158077894
5.92,-0.02320236965,-0.1147599802
5.93,-0.02751269779,-0.113552513
5.94,-0.0317619185,-0.1121882712
5.95,-0.03594467644,-0.1106703043
5.96,-0.04005576744,-0.1090018204
5.97,-0.04409014133,-0.1071861786
5.98,-0.04804290449,-0.1052268818
5.99,-0.05190932194,-0.1031275692
6,-0.05568481918,-0.1008920097
