"Freq [GHz]","re(S(Tx_p1,Tx_p1)) []","im(S(Tx_p1,Tx_p1)) []"
1,-0.002170283324,-0.07948205377
1.01,-0.004727973871,-0.07913117175
1.02,-0.007274634159,-0.07869534694
1.03,-0.009806669429,-0.07817474591
1.04,-0.01232051584,-0.07756972837
1.05,-0.01481265007,-0.07688084194
1.06,-0.01727959849,-0.07610881665
1.07,-0.0197179459,-0.07525455907
1.08,-0.02212434381,-0.07431914615
1.09,-0.02449551833,-0.07330381886
1.1,-0.02682827748,-0.07220997547
1.11,-0.02911951819,-0.07103916466
1.12,-0.03136623268,-0.06979307844
1.13,-0.03356551452,-0.06847354482
1.14,-0.03571456404,-0.06708252043
1.15,-0.03781069345,-0.06562208284
1.16,-0.03985133134,-0.06409442294
1.17,-0.04183402677,-0.06250183713
1.18,-0.04375645286,-0.06084671946
1.19,-0.04561640996,-0.05913155377
1.2,-0.04741182827,-0.05735890573
1.21,-0.04914077009,-0.05553141502
1.22,-0.05080143155,-0.05365178739
1.23,-0.05239214392,-0.0517227869
1.24,-0.05391137449,-0.04974722813
1.25,-0.05535772701,-0.04772796858
1.26,-0.05672994175,-0.04566790111
1.27,-0.05802689509,-0.04356994659
1.28,-0.05924759878,-0.04143704662
1.29,-0.06039119882,-0.0392721565
1.3,-0.06145697396,-0.03707823839
1.31,-0.06244433386,-0.0348582546
1.32,-0.06335281693,-0.0326151612
1.33,-0.06418208788,-0.03035190181
1.34,-0.06493193492,-0.02807140169
1.35,-0.06560226679,-0.02577656203
1.36,-0.06619310939,-0.0234702546
1.37,-0.06670460233,-0.02115531659
1.38,-0.06713699518,-0.01883454584
1.39,-0.06749064352,-0.01651069631
1.4,-0.06776600489,-0.01418647388
1.41,-0.06796363449,-0.01186453248
1.42,-0.06808418082,-0.00954747048
1.43,-0.06812838123,-0.007237827502
1.44,-0.06809705726,-0.004938081447
1.45,-0.06799111007,-0.002650645913
1.46,-0.06781151571,-0.0003778679109
1.47,-0.06755932038,0.001877974099
1.48,-0.06723563574,0.004114671853
1.49,-0.06684163416,0.006330088617
1.5,-0.06637854405,0.00852216022
1.51,-0.06584764518,0.01068889578
1.52,-0.06525026417,0.01282837816
1.53,-0.06458776995,0.01493876411
1.54,-0.06386156936,0.01701828413
1.55,-0.06307310292,0.01906524217
1.56,-0.06222384066,0.02107801492
1.57,-0.06131527811,0.02305505101
1.58,-0.06034893247,0.02499486985
1.59,-0.05932633895,0.02689606044
1.6,-0.05824904725,0.02875727974
1.61,-0.05711861827,0.03057725113
1.62,-0.05593662101,0.03235476244
1.63,-0.0547046297,0.03408866404
1.64,-0.05342422108,0.0357778667
1.65,-0.05209697197,0.0374213393
1.66,-0.05072445705,0.03901810654
1.67,-0.04930824684,0.04056724645
1.68,-0.04784990593,0.04206788797
1.69,-0.04635099148,0.0435192083
1.7,-0.04481305187,0.04492043043
1.71,-0.04323762569,0.04627082046
1.72,-0.04162624084,0.04756968503
1.73,-0.039980414,0.04881636878
1.74,-0.03830165018,0.05001025172
1.75,-0.0365914426,0.05115074683
1.76,-0.03485127274,0.05223729754
1.77,-0.03308261056,0.05326937546
1.78,-0.03128691501,0.05424647806
1.79,-0.02946563466,0.05516812652
1.8,-0.02762020852,0.05603386375
1.81,-0.02575206702,0.05684325244
1.82,-0.02386263323,0.05759587332
1.83,-0.0219533241,0.05829132357
1.84,-0.02002555193,0.05892921538
1.85,-0.01808072592,0.05950917469
1.86,-0.01612025387,0.0600308401
1.87,-0.01414554388,0.06049386198
1.88,-0.01215800624,0.06089790183
1.89,-0.01015905533,0.06124263168
1.9,-0.008150111557,0.06152773393
1.91,-0.006132603333,0.06175290116
1.92,-0.004107969107,0.06191783633
1.93,-0.002077659347,0.06202225309
1.94,-4.31385403E-05,0.06206587636
1.95,0.00199411285,0.06204844306
1.96,0.004032596471,0.06196970313
1.97,0.006070794222,0.06182942067
1.98,0.008107166486,0.06162737533
1.99,0.01014015044,0.06136336393
2,0.01216815848,0.06103720216
2.01,0.01418957675,0.06064872658
2.02,0.01620276386,0.06019779674
2.03,0.01820604967,0.05968429746
2.04,0.02019773429,0.05910814132
2.05,0.02217608725,0.05846927121
2.06,0.02413934684,0.05776766307
2.07,0.02608571965,0.0570033288
2.08,0.02801338032,0.05617631916
2.09,0.0299204715,0.05528672687
2.1,0.03180510403,0.05433468974
2.11,0.03366535736,0.05332039388
2.12,0.03549928019,0.05224407699
2.13,0.0373048914,0.05110603162
2.14,0.03908018113,0.04990660853
2.15,0.04082311224,0.04864621999
2.16,0.0425316219,0.0473253431
2.17,0.04420362351,0.04594452308
2.18,0.04583700887,0.04450437651
2.19,0.04742965057,0.04300559449
2.2,0.04897940464,0.04144894574
2.21,0.05048411349,0.03983527959
2.22,0.05194160906,0.03816552887
2.23,0.05334971619,0.03644071267
2.24,0.05470625631,0.0346619389
2.25,0.05600905122,0.03283040678
2.26,0.05725592727,0.03094740905
2.27,0.05844471954,0.02901433406
2.28,0.05957327645,0.02703266762
2.29,0.06063946435,0.0250039946
2.3,0.06164117242,0.02293000036
2.31,0.06257631769,0.02081247183
2.32,0.06344285023,0.01865329846
2.33,0.06423875843,0.01645447273
2.34,0.06496207449,0.0142180905
2.35,0.0656108799,0.01194635105
2.36,0.06618331111,0.009641556733
2.37,0.06667756523,0.007306112401
2.38,0.06709190576,0.004942524471
2.39,0.06742466844,0.002553399666
2.4,0.067674267,0.0001414434337
2.41,0.06783919901,-0.00229054198
2.42,0.06791805163,-0.004739659791
2.43,0.0679095074,-0.00720292128
2.44,0.06781234993,-0.009677248736
2.45,0.06762546943,-0.01215947874
2.46,0.06734786833,-0.0146463658
2.47,0.06697866656,-0.01713458628
2.48,0.06651710686,-0.01962074273
2.49,0.06596255986,-0.0221013685
2.5,0.06531452895,-0.02457293265
2.51,0.06457265499,-0.02703184523
2.52,0.06373672085,-0.02947446286
2.53,0.0628066556,-0.03189709451
2.54,0.06178253851,-0.03429600774
2.55,0.06066460281,-0.03666743503
2.56,0.0594532391,-0.03900758048
2.57,0.05814899845,-0.04131262675
2.58,0.05675259526,-0.04357874215
2.59,0.05526490967,-0.04580208808
2.6,0.05368698972,-0.04797882651
2.61,0.05202005309,-0.05010512777
2.62,0.05026548847,-0.05217717845
2.63,0.04842485655,-0.05419118942
2.64,0.04649989063,-0.05614340405
2.65,0.04449249678,-0.05803010641
2.66,0.04240475364,-0.05984762968
2.67,0.04023891173,-0.06159236456
2.68,0.03799739243,-0.06326076768
2.69,0.0356827864,-0.06484937012
2.7,0.03329785169,-0.06635478584
2.71,0.03084551132,-0.0677737201
2.72,0.02832885046,-0.06910297786
2.73,0.0257511132,-0.07033947207
2.74,0.0231156988,-0.07148023186
2.75,0.0204261576,-0.07252241062
2.76,0.01768618644,-0.07346329392
2.77,0.01489962365,-0.07430030729
2.78,0.01207044368,-0.07503102372
2.79,0.009202751275,-0.07565317108
2.8,0.006300775236,-0.07616463917
2.81,0.003368861834,-0.0765634866
2.82,0.0004114678196,-0.07684794731
2.83,-0.002566846931,-0.07701643687
2.84,-0.00556142712,-0.0770675584
2.85,-0.008567530063,-0.07700010815
2.86,-0.01158033406,-0.07681308073
2.87,-0.01459494704,-0.07650567397
2.88,-0.01760641553,-0.07607729337
2.89,-0.02060973388,-0.07552755612
2.9,-0.02359985367,-0.07485629471
2.91,-0.02657169347,-0.07406356013
2.92,-0.02952014865,-0.07314962451
2.93,-0.03244010153,-0.07211498341
2.94,-0.03532643154,-0.07096035757
2.95,-0.03817402559,-0.06968669416
2.96,-0.04097778858,-0.06829516757
2.97,-0.04373265391,-0.06678717966
2.98,-0.0464335941,-0.06516435951
2.99,-0.04907563143,-0.06342856269
3,-0.05165384862,-0.06158186994
3.01,-0.0541633994,-0.05962658538
3.02,-0.05659951916,-0.05756523422
3.03,-0.05895753542,-0.05540055983
3.04,-0.06123287826,-0.05313552048
3.05,-0.0634210906,-0.05077328538
3.06,-0.06551783836,-0.04831723033
3.07,-0.06751892036,-0.04577093281
3.08,-0.06942027816,-0.0431381666
3.09,-0.07121800551,-0.04042289588
3.1,-0.07290835768,-0.03762926891
3.11,-0.07448776043,-0.03476161119
3.12,-0.07595281869,-0.03182441816
3.13,-0.07730032495,-0.02882234753
3.14,-0.07852726728,-0.02576021114
3.15,-0.07963083695,-0.02264296639
3.16,-0.08060843575,-0.01947570732
3.17,-0.08145768274,-0.01626365535
3.18,-0.08217642079,-0.01301214954
3.19,-0.08276272245,-0.009726636718
3.2,-0.08321489548,-0.006412661098
3.21,-0.08353148793,-0.003075853765
3.22,-0.08371129257,0.0002780781823
3.23,-0.08375335098,0.003643362698
3.24,-0.08365695704,0.007014174074
3.25,-0.08342165986,0.01038464441
3.26,-0.08304726619,0.01374887525
3.27,-0.08253384236,0.01710094932
3.28,-0.0818817155,0.02043494245
3.29,-0.08109147434,0.02374493548
3.3,-0.08016396936,0.02702502625
3.31,-0.07910031241,0.0302693417
3.32,-0.07790187572,0.03347204978
3.33,-0.07657029038,0.03662737152
3.34,-0.07510744419,0.03972959293
3.35,-0.07351547901,0.04277307682
3.36,-0.0717967875,0.0457522745
3.37,-0.06995400928,0.0486617374
3.38,-0.06799002663,0.05149612843
3.39,-0.0659079595,0.05425023317
3.4,-0.06371116017,0.05691897087
3.41,-0.0614032072,0.05949740511
3.42,-0.058987899,0.06198075429
3.43,-0.05646924684,0.06436440175
3.44,-0.05385146744,0.06664390552
3.45,-0.05113897498,0.06881500784
3.46,-0.04833637281,0.07087364419
3.47,-0.04544844462,0.07281595198
3.48,-0.04248014522,0.07463827881
3.49,-0.03943659098,0.0763371903
3.5,-0.03632304985,0.07790947744
3.51,-0.03314493107,0.0793521635
3.52,-0.02990777451,0.08066251043
3.53,-0.02661723979,0.08183802476
3.54,-0.02327909505,0.08287646295
3.55,-0.01989920551,0.08377583629
3.56,-0.01648352184,0.08453441516
3.57,-0.01303806824,0.08515073279
3.58,-0.009568930476,0.08562358843
3.59,-0.006082243689,0.08595205003
3.6,-0.002584180117,0.08613545618
3.61,0.0009190632487,0.08617341765
3.62,0.004421277082,0.08606581823
3.63,0.007916252157,0.08581281504
3.64,0.01139779178,0.0854148382
3.65,0.0148597242,0.08487258998
3.66,0.01829591493,0.08418704333
3.67,0.02170027905,0.08335943982
3.68,0.02506679329,0.08239128708
3.69,0.02838950806,0.08128435553
3.7,0.03166255927,0.08004067474
3.71,0.03488017996,0.07866252907
3.72,0.0380367117,0.07715245288
3.73,0.04112661577,0.07551322517
3.74,0.04414448401,0.07374786372
3.75,0.04708504941,0.07185961873
3.76,0.04994319641,0.06985196597
3.77,0.05271397079,0.06772859949
3.78,0.05539258921,0.06549342383
3.79,0.05797444843,0.06315054587
3.8,0.06045513401,0.06070426621
3.81,0.0628304287,0.0581590702
3.82,0.06509632032,0.0555196186
3.83,0.06724900918,0.05279073785
3.84,0.06928491505,0.04997741011
3.85,0.07120068367,0.04708476291
3.86,0.07299319268,0.04411805856
3.87,0.07465955711,0.04108268337
3.88,0.0761971343,0.03798413652
3.89,0.07760352834,0.0348280189
3.9,0.07887659392,0.03162002161
3.91,0.08001443967,0.02836591444
3.92,0.0810154309,0.02507153421
3.93,0.08187819188,0.02174277294
3.94,0.08260160746,0.01838556609
3.95,0.0831848242,0.01500588065
3.96,0.08362725092,0.01160970328
3.97,0.08392855869,0.008203028443
3.98,0.08408868029,0.004791846629
3.99,0.0841078091,0.00138213258
4,0.08398639749,-0.002020166338
4.01,0.08372515458,-0.005409141649
4.02,0.08332504362,-0.008778935147
4.03,0.08278727871,-0.01212375008
4.04,0.08211332109,-0.01543786218
4.05,0.08130487497,-0.01871563039
4.06,0.08036388276,-0.02195150745
4.07,0.07929251995,-0.02514005018
4.08,0.07809318948,-0.02827592939
4.09,0.07676851569,-0.03135393966
4.1,0.07532133783,-0.03436900861
4.11,0.07375470323,-0.03731620597
4.12,0.07207185996,-0.04019075219
4.13,0.07027624929,-0.04298802675
4.14,0.06837149768,-0.045703576
4.15,0.06636140849,-0.04833312062
4.16,0.06424995341,-0.05087256274
4.17,0.06204126356,-0.05331799246
4.18,0.05973962039,-0.0556656941
4.19,0.0573494463,-0.05791215185
4.2,0.05487529506,-0.06005405507
4.21,0.05232184205,-0.06208830306
4.22,0.04969387434,-0.06401200937
4.23,0.04699628061,-0.0658225056
4.24,0.04423404096,-0.06751734476
4.25,0.04141221663,-0.06909430414
4.26,0.03853593968,-0.07055138763
4.27,0.03561040252,-0.07188682764
4.28,0.03264084759,-0.07309908644
4.29,0.02963255686,-0.07418685709
4.3,0.02659084148,-0.07514906385
4.31,0.02352103144,-0.07598486209
4.32,0.02042846527,-0.07669363781
4.33,0.01731847989,-0.07727500657
4.34,0.01419640051,-0.07772881208
4.35,0.01106753074,-0.07805512428
4.36,0.007937142776,-0.07825423697
4.37,0.004810467798,-0.07832666502
4.38,0.001692686593,-0.07827314122
4.39,-0.001411079661,-0.07809461263
4.4,-0.004495778353,-0.07779223659
4.41,-0.007556434156,-0.07736737636
4.42,-0.01058815748,-0.07682159635
4.43,-0.01358615264,-0.07615665706
4.44,-0.01654572574,-0.07537450966
4.45,-0.01946229225,-0.0744772902
4.46,-0.02233138425,-0.07346731366
4.47,-0.02514865737,-0.07234706755
4.48,-0.02790989733,-0.07111920538
4.49,-0.03061102625,-0.06978653982
4.5,-0.03324810842,-0.06835203565
4.51,-0.03581735589,-0.06681880251
4.52,-0.03831513356,-0.06519008743
4.53,-0.04073796392,-0.06346926726
4.54,-0.04308253145,-0.06165984087
4.55,-0.04534568659,-0.05976542128
4.56,-0.04752444929,-0.05778972768
4.57,-0.04961601228,-0.05573657728
4.58,-0.0516177438,-0.05360987722
4.59,-0.05352719008,-0.05141361633
4.6,-0.05534207731,-0.04915185686
4.61,-0.05706031333,-0.04682872628
4.62,-0.05867998884,-0.04444840899
4.63,-0.06019937827,-0.04201513812
4.64,-0.06161694031,-0.03953318732
4.65,-0.06293131802,-0.03700686264
4.66,-0.06414133858,-0.03444049448
4.67,-0.06524601271,-0.03183842966
4.68,-0.06624453374,-0.0292050235
4.69,-0.06713627632,-0.02654463216
4.7,-0.06792079481,-0.02386160502
4.71,-0.06859782136,-0.02116027721
4.72,-0.06916726369,-0.01844496241
4.73,-0.06962920254,-0.01571994567
4.74,-0.06998388886,-0.01298947656
4.75,-0.07023174073,-0.01025776243
4.76,-0.07037334002,-0.007528961922
4.77,-0.07040942878,-0.004807178709
4.78,-0.07034090542,-0.002096455429
4.79,-0.07016882067,0.0005992321111
4.8,-0.06989437331,0.003275980505
4.81,-0.06951890576,0.005929964053
4.82,-0.06904389944,0.008557439818
4.83,-0.06847097,0.01115475242
4.84,-0.06780186235,0.01371833854
4.85,-0.06703844567,0.01624473122
4.86,-0.06618270817,0.01873056378
4.87,-0.06523675182,0.0211725736
4.88,-0.06420278697,0.02356760547
4.89,-0.06308312694,0.02591261483
4.9,-0.06188018243,0.02820467058
4.91,-0.06059645604,0.03044095772
4.92,-0.0592345366,0.0326187797
4.93,-0.05779709362,0.03473556045
4.94,-0.05628687164,0.0367888462
4.95,-0.05470668459,0.038776307
4.96,-0.05305941022,0.04069573801
4.97,-0.05134798452,0.04254506052
4.98,-0.04957539618,0.04432232273
4.99,-0.0477446811,0.04602570028
5,-0.04585891701,0.04765349652
5.01,-0.04392121808,0.04920414265
5.02,-0.04193472967,0.05067619747
5.03,-0.03990262317,0.05206834712
5.04,-0.0378280909,0.05337940442
5.05,-0.03571434114,0.05460830815
5.06,-0.03356459329,0.05575412211
5.07,-0.03138207313,0.05681603392
5.08,-0.02917000821,0.05779335377
5.09,-0.02693162334,0.05868551294
5.1,-0.0246701363,0.05949206218
5.11,-0.02238875362,0.06021266994
5.12,-0.02009066651,0.06084712047
5.13,-0.01777904696,0.06139531186
5.14,-0.01545704399,0.06185725382
5.15,-0.01312778005,0.06223306551
5.16,-0.01079434757,0.06252297321
5.17,-0.008459805635,0.06272730788
5.18,-0.006127176896,0.06284650268
5.19,-0.003799444544,0.06288109042
5.2,-0.0014795495,0.06283170094
5.21,0.0008296122661,0.06269905845
5.22,0.003125192262,0.06248397883
5.23,0.005404391846,0.06218736688
5.24,0.007664464455,0.06181021356
5.25,0.009902717688,0.06135359325
5.26,0.01211651525,0.06081866089
5.27,0.01430327876,0.06020664925
5.28,0.01646048941,0.05951886611
5.29,0.01858568953,0.05875669149
5.3,0.02067648396,0.05792157489
5.31,0.02273054142,0.05701503254
5.32,0.02474559562,0.05603864468
5.33,0.02671944637,0.05499405288
5.34,0.02864996054,0.05388295738
5.35,0.03053507291,0.0527071145
5.36,0.03237278698,0.05146833401
5.37,0.03416117561,0.05016847666
5.38,0.03589838167,0.04880945167
5.39,0.03758261852,0.04739321427
5.4,0.0392121705,0.04592176337
5.41,0.04078539328,0.04439713918
5.42,0.04230071423,0.04282142094
5.43,0.04375663266,0.04119672469
5.44,0.04515172005,0.0395252011
5.45,0.04648462025,0.03780903332
5.46,0.04775404957,0.03605043494
5.47,0.04895879695,0.03425164792
5.48,0.05009772397,0.03241494063
5.49,0.05116976494,0.03054260594
5.5,0.0521739269,0.0286369593
5.51,0.05310928965,0.02670033691
5.52,0.05397500575,0.02473509389
5.53,0.05477030048,0.02274360256
5.54,0.05549447181,0.02072825065
5.55,0.05614689042,0.01869143963
5.56,0.05672699962,0.01663558302
5.57,0.05723431534,0.01456310473
5.58,0.05766842612,0.01247643742
5.59,0.05802899302,0.01037802092
5.6,0.05831574968,0.008270300563
5.61,0.05852850222,0.006155725634
5.62,0.05866712929,0.00403674776
5.63,0.05873158202,0.001915819319
5.64,0.05872188403,-0.0002046081506
5.65,0.05863813142,-0.002322085555
5.66,0.05848049278,-0.004434167854
5.67,0.05824920919,-0.006538415684
5.68,0.05794459421,-0.008632397004
5.69,0.05756703387,-0.01071368875
5.7,0.05711698672,-0.01277987854
5.71,0.05659498374,-0.01482856635
5.72,0.05600162837,-0.01685736628
5.73,0.05533759643,-0.01886390834
5.74,0.05460363614,-0.02084584022
5.75,0.05380056793,-0.02280082915
5.76,0.05292928447,-0.02472656379
5.77,0.05199075044,-0.02662075612
5.78,0.05098600243,-0.02848114342
5.79,0.04991614873,-0.03030549026
5.8,0.04878236909,-0.03209159053
5.81,0.04758591445,-0.03383726954
5.82,0.04632810659,-0.03554038613
5.83,0.04501033777,-0.03719883482
5.84,0.04363407027,-0.03881054803
5.85,0.04220083589,-0.04037349829
5.86,0.04071223537,-0.04188570054
5.87,0.03916993774,-0.04334521445
5.88,0.03757567959,-0.0447501467
5.89,0.03593126427,-0.04609865343
5.9,0.03423856102,-0.04738894257
5.91,0.03249950391,-0.04861927628
5.92,0.03071609085,-0.04978797341
5.93,0.02889038235,-0.05089341192
5.94,0.02702450025,-0.05193403134
5.95,0.02512062638,-0.05290833527
5.96,0.02318100098,-0.05381489381
5.97,0.02120792119,-0.05465234605
5.98,0.01920373927,-0.0554194025
5.99,0.01717086075,-0.05611484756
6,0.01511174255,-0.05673754188
