"Freq [GHz]","re(S(Tx_p1,Tx_p1)) []","im(S(Tx_p1,Tx_p1)) []"
1,-0.008297740816,-0.01294584913
1.01,-0.008804865882,-0.01255524024
1.02,-0.009294862397,-0.0121430656
1.03,-0.009766666132,-0.01171010977
1.04,-0.01021925639,-0.01125721458
1.05,-0.01065165889,-0.01078527638
1.06,-0.01106294854,-0.01029524309
1.07,-0.01145225193,-0.009788111112
1.08,-0.01181874974,-0.009264922225
1.09,-0.01216167893,-0.008726760303
1.1,-0.01248033469,-0.008174747981
1.11,-0.0127740723,-0.007610043233
1.12,-0.01304230868,-0.007033835888
1.13,-0.01328452384,-0.006447344082
1.14,-0.01350026206,-0.005851810669
1.15,-0.01368913292,-0.005248499591
1.16,-0.01385081206,-0.004638692222
1.17,-0.01398504186,-0.004023683701
1.18,-0.01409163175,-0.003404779257
1.19,-0.0141704585,-0.002783290533
1.2,-0.01422146616,-0.002160531942
1.21,-0.01424466588,-0.001537817028
1.22,-0.01424013557,-0.000916454884
1.23,-0.01420801926,-0.000297746599
1.24,-0.01414852637,0.0003170182282
1.25,-0.01406193076,0.0009265649149
1.26,-0.01394856962,0.001529637045
1.27,-0.01380884213,0.002124999734
1.28,-0.01364320805,0.002711442809
1.29,-0.01345218608,0.003287783874
1.3,-0.01323635205,0.003852871287
1.31,-0.01299633704,0.004405587001
1.32,-0.01273282528,0.004944849298
1.33,-0.01244655198,0.005469615386
1.34,-0.01213830096,0.005978883859
1.35,-0.01180890228,0.006471697021
1.36,-0.01145922963,0.006947143059
1.37,-0.01109019768,0.007404358065
1.38,-0.01070275941,0.007842527903
1.39,-0.01029790319,0.008260889918
1.4,-0.009876649991,0.008658734476
1.41,-0.009440050328,0.009035406346
1.42,-0.008989181322,0.009390305907
1.43,-0.008525143613,0.009722890189
1.44,-0.008049058277,0.01003267374
1.45,-0.007562063712,0.01031922934
1.46,-0.007065312509,0.01058218849
1.47,-0.00655996831,0.01082124181
1.48,-0.006047202681,0.01103613918
1.49,-0.005528191986,0.01122668981
1.5,-0.005004114292,0.01139276202
1.51,-0.004476146294,0.01153428297
1.52,-0.003945460291,0.01165123817
1.53,-0.0034132212,0.01174367083
1.54,-0.002880583629,0.01181168109
1.55,-0.002348689021,0.01185542506
1.56,-0.001818662857,0.01187511371
1.57,-0.001291611949,0.01187101169
1.58,-0.0007686218128,0.01184343591
1.59,-0.0002507541406,0.01179275408
1.6,0.0002609556338,0.01171938309
1.61,0.0007655006598,0.01162378724
1.62,0.001261904885,0.0115064764
1.63,0.001749225153,0.0113680041
1.64,0.00222655318,0.01120896543
1.65,0.002693017409,0.01102999491
1.66,0.003147784727,0.01083176429
1.67,0.003590062056,0.01061498025
1.68,0.004019097807,0.01038038202
1.69,0.004434183191,0.01012873898
1.7,0.004834653394,0.009860848182
1.71,0.005219888608,0.009577531852
1.72,0.005589314916,0.009279634831
1.73,0.00594240504,0.008968022011
1.74,0.006278678933,0.008643575748
1.75,0.00659770424,0.008307193267
1.76,0.006899096602,0.007959784062
1.77,0.007182519832,0.007602267305
1.78,0.007447685936,0.007235569272
1.79,0.007694355005,0.006860620786
1.8,0.007922334967,0.006478354694
1.81,0.008131481202,0.006089703378
1.82,0.008321696034,0.005695596316
1.83,0.00849292809,0.005296957682
1.84,0.008645171539,0.00489470402
1.85,0.008778465206,0.004489741964
1.86,0.008892891584,0.004082966046
1.87,0.008988575726,0.003675256565
1.88,0.009065684034,0.003267477544
1.89,0.009124422958,0.002860474773
1.9,0.009165037588,0.002455073943
1.91,0.009187810174,0.002052078874
1.92,0.009193058553,0.00165226984
1.93,0.009181134508,0.001256402005
1.94,0.009152422059,0.0008652039565
1.95,0.009107335685,0.0004793763546
1.96,0.009046318504,9.959068685E-05
1.97,0.00896984039,-0.0002735118583
1.98,0.008878396064,-0.0006393214051
1.99,0.008772503136,-0.0009972602874
2,0.008652700131,-0.001346783828
2.01,0.00851954449,-0.001687381001
2.02,0.008373610557,-0.002018574974
2.03,0.008215487557,-0.002339923535
2.04,0.008045777581,-0.002651019404
2.05,0.007865093571,-0.002951490424
2.06,0.007674057321,-0.003240999643
2.07,0.007473297495,-0.003519245281
2.08,0.007263447676,-0.003785960588
2.09,0.007045144441,-0.004040913595
2.1,0.006819025476,-0.004283906757
2.11,0.006585727735,-0.0045147765
2.12,0.006345885647,-0.004733392667
2.13,0.006100129375,-0.004939657871
2.14,0.005849083141,-0.005133506755
2.15,0.0055933636,-0.005314905173
2.16,0.005333578298,-0.005483849281
2.17,0.005070324192,-0.00564036456
2.18,0.004804186247,-0.005784504763
2.19,0.004535736113,-0.005916350796
2.2,0.004265530883,-0.00603600954
2.21,0.003994111936,-0.006143612614
2.22,0.00372200387,-0.006239315092
2.23,0.003449713515,-0.006323294176
2.24,0.00317772905,-0.006395747822
2.25,0.002906519199,-0.006456893349
2.26,0.002636532529,-0.006506966
2.27,0.00236819684,-0.006546217504
2.28,0.002101918643,-0.006574914605
2.29,0.001838082743,-0.00659333759
2.3,0.001577051903,-0.006601778814
2.31,0.001319166611,-0.006600541221
2.32,0.001064744936,-0.006589936875
2.33,0.0008140824663,-0.006570285508
2.34,0.0005674523512,-0.006541913079
2.35,0.0003251054162,-0.006505150361
2.36,8.727036863E-05,-0.006460331556
2.37,-0.0001458459157,-0.00640779294
2.38,-0.0003740580282,-0.00634787155
2.39,-0.000597201587,-0.006280903914
2.4,-0.0008151327238,-0.006207224817
2.41,-0.001027727503,-0.006127166134
2.42,-0.001234881276,-0.006041055705
2.43,-0.001436507973,-0.005949216272
2.44,-0.00163253934,-0.005851964474
2.45,-0.001822924123,-0.005749609913
2.46,-0.002007627206,-0.005642454278
2.47,-0.002186628703,-0.005530790542
2.48,-0.002359923013,-0.005414902229
2.49,-0.002527517842,-0.005295062757
2.5,-0.002689433198,-0.005171534846
2.51,-0.002845700358,-0.005044570014
2.52,-0.002996360821,-0.004914408135
2.53,-0.003141465246,-0.004781277084
2.54,-0.003281072379,-0.004645392454
2.55,-0.00341524798,-0.00450695735
2.56,-0.003544063748,-0.004366162258
2.57,-0.003667596258,-0.004223184993
2.58,-0.003785925903,-0.004078190715
2.59,-0.003899135852,-0.003931332021
2.6,-0.004007311034,-0.003782749111
2.61,-0.004110537144,-0.003632570019
2.62,-0.004208899673,-0.003480910912
2.63,-0.004302482981,-0.003327876452
2.64,-0.004391369398,-0.003173560228
2.65,-0.004475638376,-0.003018045233
2.66,-0.004555365673,-0.002861404411
2.67,-0.004630622601,-0.002703701247
2.68,-0.004701475308,-0.002544990411
2.69,-0.004767984131,-0.002385318444
2.7,-0.00483020299,-0.002224724486
2.71,-0.004888178854,-0.002063241047
2.72,-0.004941951263,-0.001900894799
2.73,-0.004991551909,-0.001737707412
2.74,-0.005037004294,-0.001573696399
2.75,-0.005078323437,-0.001408875995
2.76,-0.005115515665,-0.001243258043
2.77,-0.005148578463,-0.00107685289
2.78,-0.005177500389,-0.0009096703003
2.79,-0.005202261066,-0.0007417203542
2.8,-0.005222831239,-0.0005730143587
2.81,-0.005239172897,-0.000403565742
2.82,-0.005251239463,-0.0002333909395
2.83,-0.005258976055,-6.251026239E-05
2.84,-0.005262319804,0.0001090512541
2.85,-0.005261200242,0.0002812630277
2.86,-0.005255539749,0.0004540881348
2.87,-0.005245254053,0.0006274825507
2.88,-0.005230252803,0.0008013944252
2.89,-0.005210440175,0.0009757634008
2.9,-0.00518571555,0.001150519974
2.91,-0.005155974225,0.001325584907
2.92,-0.00512110818,0.001500868684
2.93,-0.005081006878,0.001676271031
2.94,-0.005035558111,0.001851680488
2.95,-0.004984648877,0.002026974033
2.96,-0.004928166284,0.002202016783
2.97,-0.004865998489,0.002376661744
2.98,-0.004798035651,0.002550749638
2.99,-0.004724170906,0.002724108785
3,-0.004644301355,0.002896555067
3.01,-0.004558329062,0.003067891947
3.02,-0.004466162055,0.003237910569
3.03,-0.004367715326,0.003406389922
3.04,-0.004262911831,0.003573097076
3.05,-0.004151683475,0.003737787487
3.06,-0.004033972089,0.003900205375
3.07,-0.003909730386,0.004060084166
3.08,-0.003778922892,0.004217147006
3.09,-0.003641526856,0.004371107337
3.1,-0.003497533122,0.004521669546
3.11,-0.003346946971,0.004668529668
3.12,-0.003189788917,0.004811376151
3.13,-0.003026095467,0.004949890691
3.14,-0.002855919827,0.005083749107
3.15,-0.002679332557,0.005212622279
3.16,-0.002496422176,0.005336177135
3.17,-0.002307295707,0.005454077681
3.18,-0.002112079154,0.005565986078
3.19,-0.001910917925,0.00567156376
3.2,-0.001703977182,0.005770472578
3.21,-0.001491442125,0.005862375991
3.22,-0.001273518199,0.00594694027
3.23,-0.001050431233,0.006023835732
3.24,-0.000822427503,0.006092737996
3.25,-0.0005897737161,0.006153329245
3.26,-0.0003527569181,0.006205299501
3.27,-0.0001116843226,0.006248347908
3.28,0.0001331169388,0.006282184011
3.29,0.0003813001471,0.00630652903
3.3,0.0006324994044,0.006321117126
3.31,0.0008863301228,0.006325696652
3.32,0.001142389591,0.006320031386
3.33,0.001400257621,0.006303901734
3.34,0.001659497265,0.006277105913
3.35,0.001919655618,0.006239461091
3.36,0.002180264684,0.006190804495
3.37,0.002440842319,0.006130994476
3.38,0.002700893238,0.00605991152
3.39,0.002959910101,0.005977459218
3.4,0.003217374643,0.005883565168
3.41,0.003472758883,0.005778181832
3.42,0.003725526383,0.005661287311
3.43,0.003975133558,0.005532886073
3.44,0.004221031041,0.005393009594
3.45,0.004462665095,0.005241716936
3.46,0.00469947906,0.005079095238
3.47,0.004930914846,0.004905260143
3.48,0.005156414458,0.004720356124
3.49,0.005375421543,0.004524556741
3.5,0.005587382968,0.004318064804
3.51,0.005791750417,0.004101112453
3.52,0.005987981994,0.003873961142
3.53,0.006175543848,0.00363690154
3.54,0.006353911789,0.003390253335
3.55,0.006522572911,0.003134364951
3.56,0.006681027205,0.002869613168
3.57,0.006828789159,0.002596402656
3.58,0.006965389344,0.00231516541
3.59,0.007090375977,0.002026360104
3.6,0.007203316453,0.001730471343
3.61,0.007303798846,0.001428008836
3.62,0.007391433375,0.001119506481
3.63,0.007465853821,0.0008055213561
3.64,0.007526718903,0.0004866326421
3.65,0.007573713594,0.0001634404501
3.66,0.007606550385,-0.0001634354192
3.67,0.007624970483,-0.0004933567946
3.68,0.007628744947,-0.0008256685251
3.69,0.007617675751,-0.001159699938
3.7,0.007591596772,-0.00149476636
3.71,0.007550374696,-0.001830170702
3.72,0.007493909854,-0.002165205099
3.73,0.007422136961,-0.002499152596
3.74,0.007335025767,-0.002831288893
3.75,0.007232581627,-0.003160884117
3.76,0.007114845967,-0.003487204648
3.77,0.006981896659,-0.003809514962
3.78,0.006833848295,-0.004127079513
3.79,0.006670852365,-0.004439164627
3.8,0.006493097328,-0.004745040423
3.81,0.006300808588,-0.005043982735
3.82,0.006094248363,-0.005335275041
3.83,0.005873715446,-0.0056182104
3.84,0.005639544873,-0.005892093371
3.85,0.005392107474,-0.006156241929
3.86,0.005131809334,-0.006409989356
3.87,0.004859091141,-0.006652686119
3.88,0.004574427438,-0.006883701708
3.89,0.004278325772,-0.007102426447
3.9,0.00397132575,-0.007308273262
3.91,0.00365399799,-0.007500679406
3.92,0.003326942987,-0.007679108129
3.93,0.002990789879,-0.007843050298
3.94,0.002646195133,-0.007992025952
3.95,0.002293841139,-0.008125585794
3.96,0.001934434723,-0.008243312608
3.97,0.001568705585,-0.008344822606
3.98,0.001197404662,-0.008429766696
3.99,0.0008213024127,-0.008497831659
4,0.0004411870513,-0.00854874125
4.01,5.786270604E-05,-0.008582257198
4.02,-0.0003278524707,-0.008598180119
4.03,-0.0007151282461,-0.008596350326
4.04,-0.001103124297,-0.008576648541
4.05,-0.001490992239,-0.008538996507
4.06,-0.001877877694,-0.008483357489
4.07,-0.002262922387,-0.008409736674
4.08,-0.00264526626,-0.008318181456
4.09,-0.00302404962,-0.008208781615
4.1,-0.003398415278,-0.008081669385
4.11,-0.003767510715,-0.007937019405
4.12,-0.004130490237,-0.007775048566
4.13,-0.004486517125,-0.007596015738
4.14,-0.004834765779,-0.007400221385
4.15,-0.005174423837,-0.007188007075
4.16,-0.005504694279,-0.006959754872
4.17,-0.005824797498,-0.006715886622
4.18,-0.006133973331,-0.006456863129
4.19,-0.006431483057,-0.006183183228
4.2,-0.006716611347,-0.005895382747
4.21,-0.006988668157,-0.005594033375
4.22,-0.007246990568,-0.005279741428
4.23,-0.007490944564,-0.004953146516
4.24,-0.007719926738,-0.004614920122
4.25,-0.00793336593,-0.004265764088
4.26,-0.008130724785,-0.003906409018
4.27,-0.008311501231,-0.003537612603
4.28,-0.008475229869,-0.003160157859
4.29,-0.008621483273,-0.002774851303
4.3,-0.0087498732,-0.002382521059
4.31,-0.008860051697,-0.001984014894
4.32,-0.008951712112,-0.001580198209
4.33,-0.009024589995,-0.001171951967
4.34,-0.009078463904,-0.0007601705808
4.35,-0.009113156091,-0.0003457597562
4.36,-0.00912853308,7.036569891E-05
4.37,-0.009124506138,0.0004872840945
4.38,-0.009101031626,0.0009040691028
4.39,-0.009058111235,0.00131979202
4.4,-0.00899579211,0.00173352404
4.41,-0.008914166853,0.002144338533
4.42,-0.00881337341,0.002551313323
4.43,-0.008693594848,0.002953532962
4.44,-0.008555059,0.003350090984
4.45,-0.008398038015,0.00374009215
4.46,-0.008222847776,0.004122654662
4.47,-0.008029847216,0.004496912345
4.48,-0.007819437516,0.004862016795
4.49,-0.007592061199,0.005217139489
4.5,-0.007348201116,0.005561473834
4.51,-0.007088379323,0.00589423718
4.52,-0.006813155861,0.006214672757
4.53,-0.006523127442,0.006522051559
4.54,-0.006218926029,0.006815674157
4.55,-0.005901217336,0.007094872434
4.56,-0.005570699232,0.007359011244
4.57,-0.005228100074,0.007607489992
4.58,-0.004874176948,0.007839744116
4.59,-0.004509713845,0.008055246491
4.6,-0.004135519765,0.008253508729
4.61,-0.00375242676,0.008434082386
4.62,-0.003361287917,0.008596560062
4.63,-0.002962975281,0.008740576405
4.64,-0.002558377745,0.008865808999
4.65,-0.002148398882,0.00897197915
4.66,-0.001733954753,0.009058852559
4.67,-0.001315971675,0.00912623988
4.68,-0.0008953839699,0.009173997167
4.69,-0.0004731316935,0.009202026205
4.7,-5.015835031E-05,0.009210274722
4.71,0.0003725913974,0.00919873649
4.72,0.0007941740215,0.009167451307
4.73,0.001213649415,0.009116504861
4.74,0.001630083167,0.009046028481
4.75,0.002042548821,0.008956198772
4.76,0.002450130113,0.008847237136
4.77,0.002851923172,0.008719409182
4.78,0.003247038698,0.008573024026
4.79,0.003634604091,0.008408433478
4.8,0.004013765536,0.008226031128
4.81,0.004383690041,0.008026251326
4.82,0.004743567411,0.007809568064
4.83,0.005092612171,0.007576493753
4.84,0.005430065413,0.00732757792
4.85,0.005755196578,0.007063405798
4.86,0.006067305163,0.00678459684
4.87,0.006365722342,0.006491803149
4.88,0.006649812513,0.006185707831
4.89,0.00691897475,0.005867023265
4.9,0.007172644167,0.005536489319
4.91,0.00741029319,0.00519487149
4.92,0.007631432727,0.004842958991
4.93,0.00783561324,0.004481562783
4.94,0.00802242572,0.004111513554
4.95,0.008191502549,0.003733659663
4.96,0.008342518257,0.003348865042
4.97,0.00847519018,0.002958007063
4.98,0.008589278997,0.002561974383
4.99,0.008684589161,0.002161664768
5,0.008760969223,0.001757982899
5.01,0.008818312039,0.001351838171
5.02,0.008856554865,0.0009441424896
5.03,0.008875679348,0.0005358080665
5.04,0.008875711398,0.0001277452248
5.05,0.008856720951,-0.0002791397816
5.06,0.008818821631,-0.0006839469304
5.07,0.008762170291,-0.001085784568
5.08,0.008686966462,-0.001483771518
5.09,0.008593451685,-0.00187703915
5.1,0.008481908753,-0.002264733416
5.11,0.008352660842,-0.002646016829
5.12,0.008206070557,-0.003020070406
5.13,0.008042538873,-0.00338609554
5.14,0.007862503995,-0.003743315823
5.15,0.007666440122,-0.004090978802
5.16,0.007454856137,-0.004428357664
5.17,0.007228294209,-0.004754752851
5.18,0.006987328322,-0.005069493597
5.19,0.006732562737,-0.005371939383
5.2,0.006464630378,-0.005661481318
5.21,0.006184191164,-0.005937543421
5.22,0.00589193028,-0.006199583821
5.23,0.005588556392,-0.006447095868
5.24,0.005274799816,-0.006679609139
5.25,0.00495141065,-0.006896690362
5.26,0.004619156854,-0.007097944228
5.27,0.004278822311,-0.007283014117
5.28,0.003931204853,-0.007451582711
5.29,0.003577114268,-0.007603372514
5.3,0.003217370283,-0.007738146264
5.31,0.002852800547,-0.00785570725
5.32,0.002484238596,-0.007955899513
5.33,0.002112521826,-0.008038607959
5.34,0.001738489461,-0.008103758358
5.35,0.001362980541,-0.008151317249
5.36,0.0009868319127,-0.008181291739
5.37,0.0006108762491,-0.008193729207
5.38,0.0002359400897,-0.008188716905
5.39,-0.0001371580905,-0.00816638147
5.4,-0.0005076097763,-0.00812688833
5.41,-0.0008746182694,-0.008070441034
5.42,-0.001237400502,-0.007997280473
5.43,-0.001595188805,-0.007907684035
5.44,-0.001947232619,-0.007801964658
5.45,-0.002292800154,-0.007680469811
5.46,-0.00263117999,-0.007543580395
5.47,-0.002961682609,-0.007391709573
5.48,-0.003283641866,-0.007225301521
5.49,-0.003596416386,-0.007044830124
5.5,-0.003899390891,-0.006850797595
5.51,-0.004191977445,-0.006643733049
5.52,-0.004473616628,-0.006424191014
5.53,-0.004743778628,-0.006192749889
5.54,-0.00500196424,-0.005950010368
5.55,-0.005247705795,-0.00569659381
5.56,-0.005480567992,-0.005433140578
5.57,-0.005700148647,-0.005160308344
5.58,-0.005906079346,-0.004878770371
5.59,-0.00609802602,-0.004589213763
5.6,-0.006275689418,-0.004292337705
5.61,-0.006438805495,-0.003988851687
5.62,-0.006587145704,-0.003679473717
5.63,-0.006720517207,-0.003364928534
5.64,-0.00683876298,-0.003045945819
5.65,-0.006941761842,-0.00272325841
5.66,-0.007029428387,-0.00239760053
5.67,-0.007101712827,-0.002069706031
5.68,-0.007158600755,-0.001740306648
5.69,-0.007200112815,-0.001410130286
5.7,-0.007226304291,-0.001079899332
5.71,-0.007237264616,-0.0007503289913
5.72,-0.007233116797,-0.0004221256696
5.73,-0.007214016769,-9.598538706E-05
5.74,-0.007180152665,0.0002274077613
5.75,-0.007131744023,0.0005473830998
5.76,-0.00706904092,0.0008632848165
5.77,-0.006992323034,0.001174473354
5.78,-0.006901898656,0.001480326743
5.79,-0.006798103626,0.00178024188
5.8,-0.006681300227,0.002073635743
5.81,-0.006551876016,0.002359946536
5.82,-0.006410242612,0.002638634778
5.83,-0.006256834433,0.002909184314
5.84,-0.006092107398,0.003171103266
5.85,-0.005916537582,0.003423924898
5.86,-0.005730619849,0.003667208422
5.87,-0.005534866443,0.00390053972
5.88,-0.005329805563,0.004123531994
5.89,-0.005115979905,0.00433582634
5.9,-0.004893945204,0.004537092243
5.91,-0.004664268741,0.004727027997
5.92,-0.004427527856,0.004905361045
5.93,-0.004184308451,0.005071848246
5.94,-0.003935203486,0.005226276061
5.95,-0.003680811489,0.005368460664
5.96,-0.003421735057,0.005498247975
5.97,-0.003158579384,0.005615513627
5.98,-0.002891950787,0.005720162844
5.99,-0.002622455262,0.005812130262
6,-0.002350697053,0.005891379668
