"Freq [GHz]","re(S(Tx_p1,Tx_p1)) []","im(S(Tx_p1,Tx_p1)) []"
1,-0.02294765317,-0.02753906537
1.01,-0.02403826456,-0.02650926425
1.02,-0.02508554624,-0.02543420191
1.03,-0.02608744805,-0.02431573463
1.04,-0.02704201214,-0.02315581199
1.05,-0.02794737622,-0.02195647165
1.06,-0.02880177647,-0.02071983408
1.07,-0.02960355025,-0.01944809733
1.08,-0.03035113853,-0.0181435318
1.09,-0.03104308808,-0.01680847506
1.1,-0.03167805347,-0.0154453267
1.11,-0.03225479881,-0.01405654321
1.12,-0.03277219935,-0.01264463289
1.13,-0.03322924278,-0.01121215082
1.14,-0.03362503049,-0.00976169389
1.15,-0.03395877854,-0.008295895828
1.16,-0.03422981853,-0.006817422332
1.17,-0.0344375983,-0.005328966205
1.18,-0.03458168247,-0.003833242559
1.19,-0.03466175284,-0.002332984042
1.2,-0.0346776087,-0.0008309361224
1.21,-0.03462916694,0.0006701476047
1.22,-0.03451646206,0.002167510068
1.23,-0.03433964609,0.003658395346
1.24,-0.03409898837,0.005140053266
1.25,-0.03379487515,0.006609743976
1.26,-0.03342780917,0.008064742502
1.27,-0.03299840905,0.009502343289
1.28,-0.0325074086,0.01091986472
1.29,-0.03195565596,0.01231465365
1.3,-0.03134411265,0.01368408988
1.31,-0.03067385249,0.01502559068
1.32,-0.02994606035,0.01633661527
1.33,-0.02916203079,0.01761466932
1.34,-0.02832316659,0.01885730939
1.35,-0.027430977,0.02006214746
1.36,-0.02648707603,0.02122685532
1.37,-0.02549318038,0.02234916907
1.38,-0.02445110732,0.02342689351
1.39,-0.02336277237,0.02445790656
1.4,-0.02223018679,0.02544016364
1.41,-0.02105545487,0.02637170198
1.42,-0.01984077107,0.02725064495
1.43,-0.01858841687,0.02807520625
1.44,-0.01730075753,0.02884369415
1.45,-0.01598023857,0.02955451553
1.46,-0.01462938205,0.03020617994
1.47,-0.01325078263,0.03079730352
1.48,-0.01184710343,0.03132661278
1.49,-0.01042107167,0.03179294831
1.5,-0.008975474054,0.03219526833
1.51,-0.007513151997,0.03253265207
1.52,-0.006036996574,0.032804303
1.53,-0.004549943298,0.03300955188
1.54,-0.003054966675,0.03314785959
1.55,-0.00155507455,0.03321881978
1.56,-5.330226684E-05,0.03322216123
1.57,0.001447293365,0.03315775002
1.58,0.002943640282,0.03302559142
1.59,0.004432657543,0.03282583149
1.6,0.005911261862,0.03255875839
1.61,0.007376374285,0.03222480339
1.62,0.008824926991,0.03182454155
1.63,0.0102538702,0.03135869209
1.64,0.01166017919,0.03082811839
1.65,0.01304086136,0.03023382763
1.66,0.01439296339,0.02957697006
1.67,0.01571357837,0.02885883797
1.68,0.01699985304,0.02808086414
1.69,0.01824899494,0.02724462002
1.7,0.01945827954,0.02635181348
1.71,0.02062505735,0.0254042861
1.72,0.02174676092,0.0244040102
1.73,0.02282091177,0.02335308532
1.74,0.02384512713,0.02225373441
1.75,0.02481712659,0.02110829956
1.76,0.02573473856,0.01991923741
1.77,0.02659590647,0.0186891141
1.78,0.02739869481,0.01742059992
1.79,0.02814129492,0.01611646352
1.8,0.02882203042,0.01477956587
1.81,0.02943936241,0.01341285377
1.82,0.02999189438,0.01201935313
1.83,0.03047837665,0.01060216188
1.84,0.03089771058,0.009164442659
1.85,0.03124895233,0.007709415176
1.86,0.03153131619,0.006240348361
1.87,0.03174417757,0.004760552284
1.88,0.03188707547,0.003273369887
1.89,0.03195971455,0.00178216853
1.9,0.03196196673,0.0002903314005
1.91,0.03189387228,-0.001198751195
1.92,0.03175564051,-0.002681690634
1.93,0.03154764986,-0.004155108835
1.94,0.03127044756,-0.005615647153
1.95,0.03092474882,-0.00705997527
1.96,0.03051143541,-0.008484800062
1.97,0.03003155386,-0.009886874399
1.98,0.02948631309,-0.01126300586
1.99,0.02887708155,-0.01261006533
2,0.02820538391,-0.01392499545
2.01,0.02747289722,-0.01520481883
2.02,0.02668144667,-0.01644664618
2.03,0.02583300079,-0.01764768407
2.04,0.02492966633,-0.01880524246
2.05,0.02397368262,-0.01991674202
2.06,0.02296741555,-0.02097972097
2.07,0.0219133512,-0.02199184175
2.08,0.02081408902,-0.02295089719
2.09,0.01967233475,-0.02385481637
2.1,0.01849089298,-0.02470167001
2.11,0.01727265939,-0.02548967548
2.12,0.01602061276,-0.02621720132
2.13,0.01473780674,-0.02688277135
2.14,0.01342736137,-0.02748506826
2.15,0.01209245445,-0.0280229367
2.16,0.01073631275,-0.02849538594
2.17,0.009362203083,-0.02890159194
2.18,0.007973423282,-0.029240899
2.19,0.00657329316,-0.02951282079
2.2,0.00516514539,-0.02971704093
2.21,0.003752316417,-0.02985341308
2.22,0.002338137389,-0.02992196042
2.23,0.0009259251636,-0.02992287468
2.24,-0.0004810265948,-0.02985651472
2.25,-0.001879456194,-0.02972340445
2.26,-0.003266142535,-0.02952423047
2.27,-0.004637913549,-0.02925983905
2.28,-0.005991654427,-0.02893123279
2.29,-0.007324315607,-0.02853956674
2.3,-0.008632920502,-0.02808614414
2.31,-0.009914572938,-0.02757241175
2.32,-0.01116646429,-0.02699995478
2.33,-0.01238588026,-0.02637049143
2.34,-0.01357020735,-0.02568586714
2.35,-0.01471693892,-0.02494804846
2.36,-0.0158236809,-0.02415911668
2.37,-0.01688815706,-0.02332126112
2.38,-0.01790821388,-0.02243677224
2.39,-0.01888182504,-0.0215080345
2.4,-0.01980709541,-0.02053751905
2.41,-0.02068226464,-0.01952777621
2.42,-0.02150571027,-0.01848142789
2.43,-0.02227595043,-0.0174011598
2.44,-0.02299164607,-0.01628971371
2.45,-0.02365160272,-0.01514987957
2.46,-0.02425477178,-0.01398448759
2.47,-0.02480025148,-0.01279640042
2.48,-0.02528728721,-0.01158850526
2.49,-0.02571527159,-0.0103637061
2.5,-0.02608374401,-0.009124915997
2.51,-0.02639238975,-0.007875049462
2.52,-0.02664103879,-0.006617015018
2.53,-0.0268296641,-0.005353707859
2.54,-0.02695837964,-0.00408800271
2.55,-0.02702743795,-0.002822746879
2.56,-0.02703722744,-0.001560753514
2.57,-0.02698826929,-0.0003047950975
2.58,-0.02688121408,0.0009424028166
2.59,-0.02671683809,0.002178167601
2.6,-0.0264960394,0.003399885282
2.61,-0.02621983365,0.004605005977
2.62,-0.02588934962,0.005791049037
2.63,-0.02550582456,0.00695560788
2.64,-0.02507059941,0.008096354517
2.65,-0.02458511374,0.009211043751
2.66,-0.02405090062,0.01029751706
2.67,-0.02346958136,0.01135370615
2.68,-0.0228428601,0.01237763618
2.69,-0.0221725184,0.01336742867
2.7,-0.02146040962,0.01432130404
2.71,-0.02070845345,0.0152375839
2.72,-0.01991863025,0.01611469295
2.73,-0.01909297549,0.01695116061
2.74,-0.01823357414,0.01774562231
2.75,-0.01734255513,0.01849682049
2.76,-0.01642208583,0.01920360533
2.77,-0.01547436662,0.01986493518
2.78,-0.01450162552,0.02047987665
2.79,-0.01350611288,0.02104760459
2.8,-0.01249009628,0.02156740167
2.81,-0.0114558554,0.02203865778
2.82,-0.0104056771,0.0224608692
2.83,-0.009341850653,0.0228336376
2.84,-0.00826666306,0.02315666872
2.85,-0.00718239455,0.02342977098
2.86,-0.006091314231,0.02365285386
2.87,-0.004995675896,0.02382592613
2.88,-0.003897714001,0.02394909391
2.89,-0.002799639805,0.02402255865
2.9,-0.00170363768,0.02404661491
2.91,-0.0006118615961,0.02402164809
2.92,0.0004735682313,0.02394813208
2.93,0.001550568517,0.0238266267
2.94,0.002617095918,0.02365777527
2.95,0.003671149879,0.02344230189
2.96,0.004710775318,0.02318100889
2.97,0.00573406515,0.02287477402
2.98,0.006739162658,0.02252454782
2.99,0.007724263715,0.02213135077
3,0.008687618865,0.02169627057
3.01,0.00962753526,0.02122045932
3.02,0.01054237847,0.02070513076
3.03,0.01143057415,0.02015155743
3.04,0.01229060965,0.01956106793
3.05,0.01312103537,0.01893504412
3.06,0.01392046622,0.01827491838
3.07,0.01468758275,0.01758217082
3.08,0.01542113235,0.01685832661
3.09,0.01611993032,0.01610495319
3.1,0.01678286079,0.01532365768
3.11,0.01740887767,0.0145160841
3.12,0.01799700542,0.01368391078
3.13,0.01854633985,0.01282884772
3.14,0.01905604879,0.01195263394
3.15,0.0195253727,0.01105703487
3.16,0.01995362528,0.01014383979
3.17,0.02034019399,0.00921485918
3.18,0.02068454048,0.008271922189
3.19,0.02098620104,0.007316874015
3.2,0.02124478695,0.006351573334
3.21,0.02145998482,0.005377889707
3.22,0.02163155683,0.004397700979
3.23,0.021759341,0.003412890675
3.24,0.0218432513,0.002425345371
3.25,0.02188327781,0.001436952054
3.26,0.02187948674,0.000449595464
3.27,0.0218320205,-0.0005348445963
3.28,0.02174109755,-0.001514495964
3.29,0.02160701234,-0.002487496855
3.3,0.0214301351,-0.003451998623
3.31,0.02121091156,-0.004406168551
3.32,0.02094986258,-0.00534819267
3.33,0.02064758374,-0.006276278608
3.34,0.02030474482,-0.00718865846
3.35,0.01992208915,-0.008083591687
3.36,0.0195004329,-0.008959368047
3.37,0.01904066422,-0.009814310525
3.38,0.01854374234,-0.01064677831
3.39,0.01801069648,-0.01145516974
3.4,0.01744262463,-0.01223792533
3.41,0.01684069227,-0.0129935307
3.42,0.0162061309,-0.01372051961
3.43,0.01554023645,-0.01441747688
3.44,0.01484436753,-0.01508304138
3.45,0.01411994353,-0.01571590892
3.46,0.01336844264,-0.01631483521
3.47,0.01259139958,-0.01687863862
3.48,0.01179040331,-0.01740620305
3.49,0.01096709452,-0.01789648063
3.5,0.01012316292,-0.01834849439
3.51,0.009260344495,-0.01876134086
3.52,0.008380418457,-0.0191341925
3.53,0.007485204157,-0.01946630018
3.54,0.006576557781,-0.01975699533
3.55,0.005656368914,-0.02000569218
3.56,0.004726556963,-0.0202118897
3.57,0.003789067427,-0.02037517349
3.58,0.002845868043,-0.02049521745
3.59,0.001898944797,-0.0205717853
3.6,0.0009502978182,-0.02060473196
3.61,1.937155636E-06,-0.02059400464
3.62,-0.0009441215425,-0.02053964387
3.63,-0.001885861446,-0.02044178417
3.64,-0.00282126904,-0.02030065459
3.65,-0.003748338697,-0.02011657906
3.66,-0.004665077298,-0.01988997636
3.67,-0.005569508913,-0.01962136005
3.68,-0.006459679497,-0.01931133794
3.69,-0.007333661616,-0.01896061153
3.7,-0.008189559171,-0.01856997497
3.71,-0.009025512112,-0.01814031398
3.72,-0.009839701118,-0.01767260432
3.73,-0.01063035224,-0.01716791016
3.74,-0.0113957415,-0.01662738206
3.75,-0.01213419935,-0.01605225477
3.76,-0.01284411517,-0.01544384476
3.77,-0.01352394148,-0.01480354746
3.78,-0.0141721982,-0.01413283431
3.79,-0.01478747666,-0.01343324947
3.8,-0.0153684435,-0.01270640645
3.81,-0.01591384439,-0.01195398433
3.82,-0.01642250754,-0.01117772388
3.83,-0.01689334709,-0.01037942343
3.84,-0.01732536618,-0.009560934543
3.85,-0.01771765985,-0.008724157494
3.86,-0.01806941772,-0.007871036578
3.87,-0.01837992638,-0.007003555257
3.88,-0.01864857151,-0.006123731153
3.89,-0.01887483978,-0.005233610916
3.9,-0.01905832043,-0.004335264966
3.91,-0.01919870654,-0.003430782144
3.92,-0.01929579608,-0.002522264271
3.93,-0.01934949256,-0.001611820646
3.94,-0.01935980545,-0.0007015624976
3.95,-0.01932685026,0.0002064025976
3.96,-0.0192508483,0.001109976303
3.97,-0.01913212614,0.002007075103
3.98,-0.01897111472,0.002895635858
3.99,-0.01876834823,0.003773621308
4,-0.0185244626,0.004639025517
4.01,-0.01824019367,0.005489879226
4.02,-0.01791637516,0.006324255107
4.03,-0.01755393625,0.007140272895
4.04,-0.0171538989,0.007936104378
4.05,-0.01671737491,0.008709978233
4.06,-0.01624556268,0.009460184687
4.07,-0.01573974371,0.01018507999
4.08,-0.01520127892,0.01088309067
4.09,-0.01463160462,0.01155271759
4.1,-0.01403222837,0.01219253977
4.11,-0.01340472456,0.0128012179
4.12,-0.01275072984,0.01337749772
4.13,-0.01207193833,0.01392021298
4.14,-0.01137009676,0.01442828825
4.15,-0.01064699935,0.01490074136
4.16,-0.009904482701,0.01533668557
4.17,-0.009144420437,0.01573533145
4.18,-0.008368717895,0.0160959884
4.19,-0.007579306669,0.01641806597
4.2,-0.006778139133,0.01670107471
4.21,-0.005967182938,0.01694462684
4.22,-0.005148415496,0.01714843653
4.23,-0.004323818474,0.01731231988
4.24,-0.003495372326,0.01743619462
4.25,-0.00266505087,0.01752007943
4.26,-0.001834815927,0.01756409301
4.27,-0.001006612059,0.01756845288
4.28,-0.0001823614018,0.01753347378
4.29,0.0006360413827,0.0174595659
4.3,0.00144673401,0.01734723278
4.31,0.002247891328,0.01719706894
4.32,0.003037729903,0.01700975727
4.33,0.003814512425,0.01678606624
4.34,0.004576551916,0.01652684672
4.35,0.005322215726,0.01623302878
4.36,0.006049929323,0.01590561816
4.37,0.006758179839,0.01554569258
4.38,0.007445519385,0.01515439795
4.39,0.008110568118,0.0147329443
4.4,0.008752017056,0.0142826017
4.41,0.009368630626,0.01380469598
4.42,0.009959248958,0.01330060438
4.43,0.0105227899,0.01277175111
4.44,0.01105825078,0.01221960282
4.45,0.01156470985,0.01164566406
4.46,0.01204132755,0.01105147264
4.47,0.01248734737,0.01043859506
4.48,0.01290209657,0.009808621885
4.49,0.01328498658,0.009163163101
4.5,0.01363551307,0.008503843593
4.51,0.01395325592,0.007832298595
4.52,0.01423787879,0.007150169236
4.53,0.0144891285,0.006459098156
4.54,0.01470683424,0.005760725205
4.55,0.01489090642,0.005056683259
4.56,0.01504133542,0.004348594137
4.57,0.01515819007,0.003638064657
4.58,0.01524161594,0.002926682824
4.59,0.0152918335,0.002216014165
4.6,0.015309136,0.001507598227
4.61,0.01529388727,0.0008029452306
4.62,0.01524651938,0.0001035329076
4.63,0.0151675301,-0.0005891964944
4.64,0.01505748027,-0.001273839017
4.65,0.01491699108,-0.00194903161
4.66,0.01474674124,-0.002613454562
4.67,0.01454746402,-0.003265833728
4.68,0.01431994431,-0.003904942576
4.69,0.01406501555,-0.004529604027
4.7,0.01378355666,-0.005138692104
4.71,0.01347648887,-0.005731133385
4.72,0.01314477267,-0.006305908267
4.73,0.01278940456,-0.006862052039
4.74,0.012411414,-0.007398655767
4.75,0.01201186024,-0.007914867007
4.76,0.01159182921,-0.008409890327
4.77,0.01115243051,-0.008882987673
4.78,0.01069479433,-0.009333478562
4.79,0.01022006854,-0.009760740121
4.8,0.009729415779,-0.01016420697
4.81,0.009224010606,-0.01054337099
4.82,0.008705036772,-0.01089778088
4.83,0.008173684543,-0.0112270417
4.84,0.007631148124,-0.0115308142
4.85,0.00707862317,-0.0118088141
4.86,0.006517304399,-0.01206081122
4.87,0.005948383298,-0.01228662856
4.88,0.005373045942,-0.01248614127
4.89,0.004792470906,-0.01265927558
4.9,0.004207827289,-0.01280600759
4.91,0.00362027284,-0.01292636211
4.92,0.003030952191,-0.01302041138
4.93,0.002440995194,-0.01308827372
4.94,0.001851515362,-0.01313011226
4.95,0.001263608405,-0.01314613353
4.96,0.0006783508717,-0.01313658606
4.97,9.679888228E-05,-0.01310175906
4.98,-0.0004800130472,-0.01304198091
4.99,-0.001051073091,-0.01295761788
5,-0.001615393116,-0.01284907261
5.01,-0.002172009608,-0.01271678283
5.02,-0.002719984516,-0.0125612199
5.03,-0.003258406036,-0.01238288752
5.04,-0.003786389322,-0.01218232036
5.05,-0.004303077143,-0.01196008273
5.06,-0.004807640479,-0.01171676734
5.07,-0.005299279074,-0.01145299399
5.08,-0.005777221941,-0.01116940838
5.09,-0.006240727829,-0.01086668086
5.1,-0.006689085651,-0.01054550528
5.11,-0.007121614889,-0.01020659781
5.12,-0.007537665967,-0.009850695858
5.13,-0.007936620609,-0.009478556917
5.14,-0.008317892171,-0.009090957518
5.15,-0.008680925965,-0.008688692162
5.16,-0.009025199572,-0.008272572279
5.17,-0.009350223144,-0.007843425206
5.18,-0.009655539703,-0.007402093168
5.19,-0.009940725433,-0.006949432281
5.2,-0.01020538998,-0.006486311549
5.21,-0.01044917671,-0.006013611873
5.22,-0.01067176307,-0.005532225049
5.23,-0.0108728608,-0.005043052766
5.24,-0.01105221626,-0.004547005599
5.25,-0.01120961074,-0.004045001982
5.26,-0.01134486068,-0.003537967171
5.27,-0.01145781804,-0.003026832182
5.28,-0.01154837049,-0.002512532718
5.29,-0.01161644177,-0.001996008059
5.3,-0.01166199185,-0.001478199926
5.31,-0.01168501724,-0.0009600513258
5.32,-0.01168555123,-0.0004425053468
5.33,-0.01166366401,7.34960656E-05
5.34,-0.01161946295,0.0005870133766
5.35,-0.01155309268,0.001097110763
5.36,-0.01146473525,0.001602857452
5.37,-0.01135461018,0.002103329099
5.38,-0.01122297452,0.002597609196
5.39,-0.01107012283,0.003084790526
5.4,-0.0108963871,0.00356397664
5.41,-0.01070213666,0.00403428338
5.42,-0.01048777799,0.00449484042
5.43,-0.01025375444,0.004944792847
5.44,-0.01000054597,0.005383302756
5.45,-0.009728668708,0.005809550875
5.46,-0.009438674493,0.0062227382
5.47,-0.009131150335,0.006622087653
5.48,-0.008806717761,0.007006845732
5.49,-0.00846603209,0.007376284184
5.5,-0.008109781613,0.007729701656
5.51,-0.007738686679,0.008066425347
5.52,-0.007353498689,0.008385812647
5.53,-0.006954998982,0.008687252748
5.54,-0.006543997638,0.00897016823
5.55,-0.00612133217,0.009234016613
5.56,-0.005687866123,0.009478291865
5.57,-0.00524448758,0.00970252586
5.58,-0.004792107559,0.009906289786
5.59,-0.004331658331,0.01008919548
5.6,-0.003864091629,0.01025089671
5.61,-0.003390376787,0.01039109033
5.62,-0.002911498773,0.01050951746
5.63,-0.002428456156,0.01060596441
5.64,-0.001942258985,0.01068026368
5.65,-0.001453926603,0.01073229472
5.66,-0.0009644853908,0.01076198468
5.67,-0.0004749664504,0.01076930896
5.68,1.35967661E-05,0.0107542917
5.69,0.0005001708725,0.01071700611
5.7,0.0009837250064,0.01065757472
5.71,0.001463233318,0.01057616939
5.72,0.001937677482,0.01047301134
5.73,0.002406049227,0.01034837088
5.74,0.002867352871,0.01020256711
5.75,0.003320607853,0.01003596742
5.76,0.003764851254,0.009848986865
5.77,0.0041991403,0.00964208741
5.78,0.004622554835,0.009415776985
5.79,0.005034199748,0.009170608441
5.8,0.005433207363,0.008907178335
5.81,0.005818739767,0.008626125595
5.82,0.006189991064,0.008328130028
5.83,0.006546189565,0.008013910711
5.84,0.006886599887,0.007684224241
5.85,0.00721052496,0.007339862863
5.86,0.007517307935,0.006981652482
5.87,0.007806333981,0.006610450551
5.88,0.008077031962,0.006227143867
5.89,0.008328876002,0.005832646248
5.9,0.008561386905,0.005427896134
5.91,0.008774133449,0.00501385409
5.92,0.008966733536,0.00459150024
5.93,0.009138855189,0.004161831632
5.94,0.009290217406,0.003725859537
5.95,0.009420590857,0.003284606713
5.96,0.009529798412,0.002839104611
5.97,0.009617715526,0.002390390568
5.98,0.009684270444,0.001939504972
5.99,0.009729444255,0.001487488416
6,0.009753270771,0.001035378855
