"Freq [GHz]","re(S(Tx_p1,Tx_p1)) []","im(S(Tx_p1,Tx_p1)) []"
1,0.008581277375,-0.1036447523
1.01,0.005472170521,-0.1036675714
1.02,0.002356545811,-0.103600679
1.03,-0.0007623762355,-0.1034434042
1.04,-0.003881382787,-0.1031952349
1.05,-0.006997275458,-0.1028558122
1.06,-0.01010687649,-0.1024249244
1.07,-0.01320703436,-0.1019025003
1.08,-0.01629462887,-0.1012886033
1.09,-0.01936657561,-0.1005834257
1.1,-0.02241983004,-0.09978728158
1.11,-0.02545139091,-0.09890060171
1.12,-0.02845830327,-0.09792392703
1.13,-0.03143766103,-0.09685790303
1.14,-0.03438660901,-0.09570327402
1.15,-0.03730234461,-0.09446087762
1.16,-0.040182119,-0.09313163944
1.17,-0.04302323805,-0.09171656799
1.18,-0.04582306277,-0.09021674978
1.19,-0.04857900952,-0.08863334473
1.2,-0.05128854987,-0.08696758178
1.21,-0.05394921015,-0.08522075482
1.22,-0.05655857085,-0.08339421896
1.23,-0.05911426569,-0.08148938696
1.24,-0.06161398057,-0.07950772612
1.25,-0.06405545235,-0.07745075544
1.26,-0.06643646746,-0.07532004305
1.27,-0.06875486043,-0.07311720401
1.28,-0.07100851236,-0.07084389846
1.29,-0.07319534934,-0.06850183004
1.3,-0.07531334085,-0.06609274468
1.31,-0.07736049813,-0.06361842965
1.32,-0.07933487269,-0.06108071294
1.33,-0.08123455478,-0.05848146301
1.34,-0.08305767202,-0.05582258866
1.35,-0.08480238814,-0.05310603938
1.36,-0.08646690182,-0.05033380577
1.37,-0.08804944577,-0.04750792035
1.38,-0.08954828588,-0.04463045849
1.39,-0.09096172072,-0.04170353962
1.4,-0.09228808114,-0.03872932857
1.41,-0.09352573018,-0.03571003713
1.42,-0.09467306321,-0.0326479257
1.43,-0.09572850834,-0.02954530508
1.44,-0.0966905271,-0.02640453836
1.45,-0.09755761546,-0.02322804287
1.46,-0.09832830507,-0.02001829214
1.47,-0.09900116488,-0.01677781796
1.48,-0.09957480298,-0.0135092123
1.49,-0.1000478688,-0.01021512933
1.5,-0.1004190558,-0.006898287223
1.51,-0.1006871039,-0.003561470017
1.52,-0.1008508028,-0.0002075292271
1.53,-0.1009089957,0.003160614619
1.54,-0.1008605823,0.006539970649
1.55,-0.1007045234,0.009927476513
1.56,-0.1004398447,0.01331999747
1.57,-0.1000656416,0.01671432573
1.58,-0.09958108369,0.02010718008
1.59,-0.09898541963,0.02349520579
1.6,-0.09827798248,0.02687497486
1.61,-0.09745819486,0.03024298656
1.62,-0.09652557437,0.03359566839
1.63,-0.09547973924,0.03692937738
1.64,-0.09432041392,0.04024040175
1.65,-0.09304743486,0.04352496303
1.66,-0.09166075631,0.04677921852
1.67,-0.09016045611,0.04999926429
1.68,-0.08854674149,0.05318113845
1.69,-0.08681995485,0.05632082502
1.7,-0.08498057944,0.05941425811
1.71,-0.08302924492,0.06245732661
1.72,-0.08096673286,0.06544587934
1.73,-0.07879398197,0.06837573056
1.74,-0.07651209325,0.07124266596
1.75,-0.07412233479,0.07404244914
1.76,-0.07162614644,0.07677082838
1.77,-0.06902514405,0.0794235439
1.78,-0.06632112352,0.08199633553
1.79,-0.06351606441,0.08448495069
1.8,-0.0606121332,0.08688515278
1.81,-0.05761168616,0.08919272989
1.82,-0.05451727178,0.09140350388
1.83,-0.0513316327,0.09351333966
1.84,-0.04805770724,0.09551815482
1.85,-0.04469863032,0.09741392953
1.86,-0.04125773395,0.09919671653
1.87,-0.03773854714,0.1008626515
1.88,-0.0341447952,0.1024079633
1.89,-0.03048039852,0.1038289847
1.9,-0.02674947077,0.1051221629
1.91,-0.02295631641,0.1062840703
1.92,-0.01910542768,0.1073114152
1.93,-0.01520148093,0.1082010522
1.94,-0.01124933229,0.1089499932
1.95,-0.007254012764,0.1095554179
1.96,-0.003220722689,0.1100146841
1.97,0.0008451744821,0.1103253378
1.98,0.004938158967,0.1104851237
1.99,0.009052562087,0.1104919943
2,0.0131825743,0.1103441201
2.01,0.01732225384,0.1100398984
2.02,0.02146553593,0.1095779622
2.03,0.02560624253,0.1089571887
2.04,0.02973809274,0.1081767071
2.05,0.03385471358,0.1072359064
2.06,0.03794965144,0.1061344423
2.07,0.04201638384,0.1048722438
2.08,0.0460483318,0.1034495188
2.09,0.05003887253,0.10186676
2.1,0.05398135256,0.1001247492
2.11,0.05786910123,0.09822456143
2.12,0.06169544447,0.09616756851
2.13,0.06545371895,0.09395544166
2.14,0.0691372864,0.09159015348
2.15,0.07273954817,0.08907397924
2.16,0.07625396,0.08640949735
2.17,0.07967404691,0.08359958912
2.18,0.08299341811,0.08064743772
2.19,0.08620578211,0.07755652635
2.2,0.08930496166,0.07433063562
2.21,0.09228490879,0.07097384014
2.22,0.09513971971,0.06749050428
2.23,0.09786364955,0.0638852772
2.24,0.100451127,0.06016308701
2.25,0.1028967688,0.05632913418
2.26,0.1051953935,0.05238888415
2.27,0.1073420358,0.04834805923
2.28,0.1093319596,0.04421262962
2.29,0.1111606713,0.03998880385
2.3,0.1128239324,0.03568301836
2.31,0.1143177716,0.03130192647
2.32,0.1156384966,0.02685238663
2.33,0.1167827052,0.02234145006
2.34,0.1177472954,0.0177763477
2.35,0.118529476,0.01316447665
2.36,0.1191267752,0.008513385995
2.37,0.1195370497,0.003830762146
2.38,0.1197584918,-0.0008755863569
2.39,0.1197896374,-0.005597744441
2.4,0.1196293712,-0.01032770654
2.41,0.1192769333,-0.01505739299
2.42,0.1187319229,-0.01977866675
2.43,0.117994303,-0.02448335041
2.44,0.1170644025,-0.02916324345
2.45,0.1159429191,-0.03381013968
2.46,0.11463092,-0.03841584478
2.47,0.1131298424,-0.04297219406
2.48,0.1114414931,-0.04747107013
2.49,0.1095680465,-0.05190442066
2.5,0.1075120429,-0.0562642761
2.51,0.1052763848,-0.06054276721
2.52,0.1028643327,-0.06473214261
2.53,0.1002795005,-0.06882478595
2.54,0.09752584897,-0.07281323302
2.55,0.0946076792,-0.07669018842
2.56,0.09152962504,-0.08044854204
2.57,0.08829664447,-0.08408138506
2.58,0.08491401035,-0.08758202557
2.59,0.08138730029,-0.09094400372
2.6,0.07772238578,-0.09416110637
2.61,0.07392542063,-0.09722738122
2.62,0.07000282859,-0.1001371503
2.63,0.06596129041,-0.1028850227
2.64,0.06180773017,-0.1054659072
2.65,0.05754930102,-0.1078750235
2.66,0.05319337041,-0.1101079131
2.67,0.04874750468,-0.1121604492
2.68,0.04421945323,-0.1140288465
2.69,0.03961713226,-0.1157096691
2.7,0.034948608,-0.1171998386
2.71,0.03022207968,-0.1184966405
2.72,0.02544586216,-0.1195977307
2.73,0.02062836821,-0.1205011399
2.74,0.01577809071,-0.1212052783
2.75,0.0109035845,-0.1217089387
2.76,0.006013448272,-0.1220112987
2.77,0.001116306245,-0.1221119224
2.78,-0.003779210122,-0.1220107609
2.79,-0.008664480415,-0.1217081518
2.8,-0.0135309135,-0.1212048179
2.81,-0.01836996564,-0.1205018651
2.82,-0.02317315844,-0.1196007794
2.83,-0.02793209661,-0.1185034226
2.84,-0.03263848547,-0.1172120278
2.85,-0.03728414816,-0.1157291935
2.86,-0.0418610425,-0.1140578771
2.87,-0.04636127749,-0.1122013874
2.88,-0.05077712936,-0.1101633768
2.89,-0.05510105719,-0.107947832
2.9,-0.05932571801,-0.1055590646
2.91,-0.06344398136,-0.1030017006
2.92,-0.06744894329,-0.1002806693
2.93,-0.07133393973,-0.09740119173
2.94,-0.07509255928,-0.09436876823
2.95,-0.07871865525,-0.09118916561
2.96,-0.0822063571,-0.08786840372
2.97,-0.08555008108,-0.0844127415
2.98,-0.08874454019,-0.08082866256
2.99,-0.09178475336,-0.07712286042
3,-0.09466605383,-0.0733022233
3.01,-0.09738409681,-0.06937381857
3.02,-0.0999348662,-0.06534487696
3.03,-0.1023146807,-0.06122277649
3.04,-0.1045201988,-0.05701502618
3.05,-0.1065484233,-0.05272924964
3.06,-0.1083967047,-0.04837316852
3.07,-0.110062744,-0.04395458588
3.08,-0.1115445941,-0.03948136953
3.09,-0.1128406614,-0.03496143543
3.1,-0.1139497058,-0.0304027311
3.11,-0.1148708396,-0.02581321915
3.12,-0.1156035269,-0.02120086093
3.13,-0.1161475806,-0.0165736004
3.14,-0.1165031598,-0.01193934821
3.15,-0.1166707661,-0.007305966021
3.16,-0.1166512388,-0.002681251137
3.17,-0.1164457501,0.001927078509
3.18,-0.1160557986,0.006511399029
3.19,-0.1154832036,0.01106419484
3.2,-0.114730097,0.01557807247
3.21,-0.1137989161,0.02004577396
3.22,-0.1126923948,0.02446018969
3.23,-0.1114135549,0.02881437076
3.24,-0.1099656964,0.03310154079
3.25,-0.1083523879,0.03731510716
3.26,-0.1065774556,0.04144867169
3.27,-0.1046449729,0.04549604067
3.28,-0.1025592489,0.04945123434
3.29,-0.1003248171,0.05330849565
3.3,-0.09794642305,0.05706229846
3.31,-0.09542901273,0.06070735501
3.32,-0.09277771969,0.06423862279
3.33,-0.08999785258,0.06765131073
3.34,-0.0870948824,0.07094088463
3.35,-0.08407442952,0.07410307209
3.36,-0.08094225071,0.07713386657
3.37,-0.07770422607,0.08002953095
3.38,-0.07436634592,0.08278660031
3.39,-0.07093469777,0.0854018841
3.4,-0.06741545326,0.08787246767
3.41,-0.06381485522,0.09019571309
3.42,-0.06013920488,0.09236925948
3.43,-0.05639484915,0.09439102253
3.44,-0.05258816813,0.09625919362
3.45,-0.0487255628,0.09797223823
3.46,-0.04481344299,0.09952889381
3.47,-0.04085821551,0.1009281671
3.48,-0.03686627269,0.1021693311
3.49,-0.03284398113,0.1032519212
3.5,-0.02879767081,0.1041757309
3.51,-0.02473362459,0.1049408076
3.52,-0.02065806801,0.1055474472
3.53,-0.01657715956,0.1059961889
3.54,-0.01249698124,0.1062878091
3.55,-0.008423529666,0.1064233154
3.56,-0.004362707496,0.1064039402
3.57,-0.000320315362,0.1062311334
3.58,0.003697955783,0.1059065562
3.59,0.007686531854,0.1054320731
3.6,0.01163996237,0.1048097443
3.61,0.0155529267,0.1040418189
3.62,0.01942023992,0.103130726
3.63,0.0232368581,0.1020790675
3.64,0.02699788319,0.1008896094
3.65,0.03069856748,0.09956527424
3.66,0.0343343175,0.0981091326
3.67,0.03790069761,0.09652439489
3.68,0.04139343298,0.09481440318
3.69,0.04480841233,0.09298262305
3.7,0.04814169008,0.09103263541
3.71,0.05138948817,0.08896812847
3.72,0.05454819751,0.08679288975
3.73,0.05761437896,0.08451079826
3.74,0.06058476399,0.08212581674
3.75,0.06345625503,0.07964198409
3.76,0.06622592537,0.07706340801
3.77,0.06889101885,0.07439425769
3.78,0.07144894919,0.07163875688
3.79,0.07389729903,0.06880117695
3.8,0.07623381876,0.06588583039
3.81,0.07845642503,0.06289706433
3.82,0.08056319907,0.05983925449
3.83,0.08255238484,0.05671679916
3.84,0.0844223869,0.05353411367
3.85,0.08617176823,0.05029562487
3.86,0.08779924776,0.04700576604
3.87,0.08930369794,0.04366897199
3.88,0.09068414204,0.0402896744
3.89,0.09193975147,0.03687229741
3.9,0.09306984298,0.03342125355
3.91,0.09407387582,0.02994093978
3.92,0.09495144885,0.02643573389
3.93,0.09570229765,0.02290999108
3.94,0.09632629163,0.01936804073
3.95,0.0968234311,0.01581418354
3.96,0.09719384447,0.01225268869
3.97,0.09743778537,0.008687791339
3.98,0.09755562989,0.005123690261
3.99,0.09754787391,0.00156454568
4,0.09741513041,-0.001985522741
4.01,0.09715812699,-0.00552243775
4.02,0.09677770334,-0.009042166214
4.03,0.09627480896,-0.0125407207
4.04,0.09565050087,-0.01601416092
4.05,0.09490594146,-0.01945859514
4.06,0.09404239651,-0.0228701814
4.07,0.09306123325,-0.02624512879
4.08,0.0919639186,-0.02957969855
4.09,0.0907520175,-0.03287020517
4.1,0.08942719134,-0.03611301754
4.11,0.08799119655,-0.03930455995
4.12,0.08644588329,-0.04244131318
4.13,0.08479319424,-0.04551981561
4.14,0.08303516346,-0.04853666428
4.15,0.08117391546,-0.05148851607
4.16,0.07921166421,-0.05437208891
4.17,0.07715071236,-0.057184163
4.18,0.07499345046,-0.05992158217
4.19,0.07274235627,-0.06258125531
4.2,0.07039999413,-0.06516015785
4.21,0.06796901437,-0.06765533338
4.22,0.0654521527,-0.07006389537
4.23,0.06285222971,-0.07238302898
4.24,0.06017215033,-0.07460999301
4.25,0.0574149032,-0.07674212199
4.26,0.05458356021,-0.07877682833
4.27,0.05168127581,-0.08071160466
4.28,0.04871128636,-0.08254402626
4.29,0.04567690943,-0.08427175366
4.3,0.04258154298,-0.08589253528
4.31,0.03942866448,-0.08740421033
4.32,0.03622182988,-0.08880471166
4.33,0.03296467249,-0.09009206888
4.34,0.02966090174,-0.09126441147
4.35,0.02631430176,-0.09231997209
4.36,0.0229287298,-0.0932570899
4.37,0.0195081145,-0.09407421399
4.38,0.01605645395,-0.09476990692
4.39,0.01257781358,-0.09534284829
4.4,0.009076323817,-0.09579183835
4.41,0.005556177523,-0.09611580165
4.42,0.002021627246,-0.09631379076
4.43,-0.001523017804,-0.09638498995
4.44,-0.005073395006,-0.09632871885
4.45,-0.008625091815,-0.09614443618
4.46,-0.01217364952,-0.09583174331
4.47,-0.01571456723,-0.09539038786
4.48,-0.01924330616,-0.09482026721
4.49,-0.02275529413,-0.0941214319
4.5,-0.02624593035,-0.09329408892
4.51,-0.02971059048,-0.09233860489
4.52,-0.0331446319,-0.0912555091
4.53,-0.03654339926,-0.09004549633
4.54,-0.03990223031,-0.0887094296
4.55,-0.04321646193,-0.08724834258
4.56,-0.04648143638,-0.08566344187
4.57,-0.04969250787,-0.08395610906
4.58,-0.05284504921,-0.08212790244
4.59,-0.05593445883,-0.08018055854
4.6,-0.05895616784,-0.07811599331
4.61,-0.06190564736,-0.07593630305
4.62,-0.06477841605,-0.07364376497
4.63,-0.06757004765,-0.07124083744
4.64,-0.07027617886,-0.0687301599
4.65,-0.07289251714,-0.06611455241
4.66,-0.07541484875,-0.06339701479
4.67,-0.07783904681,-0.06058072542
4.68,-0.08016107942,-0.05766903964
4.69,-0.08237701786,-0.05466548769
4.7,-0.08448304477,-0.05157377235
4.71,-0.08647546234,-0.04839776605
4.72,-0.08835070046,-0.04514150762
4.73,-0.09010532488,-0.04180919863
4.74,-0.0917360452,-0.03840519923
4.75,-0.09323972284,-0.03493402364
4.76,-0.09461337887,-0.03140033518
4.77,-0.09585420166,-0.02780894085
4.78,-0.09695955443,-0.02416478551
4.79,-0.09792698254,-0.02047294568
4.8,-0.09875422056,-0.01673862284
4.81,-0.09943919918,-0.0129671364
4.82,-0.09998005176,-0.009163916261
4.83,-0.1003751206,-0.005334494944
4.84,-0.100622963,-0.001484499419
4.85,-0.1007223568,0.002380357484
4.86,-0.1006723059,0.006254285978
4.87,-0.1004720446,0.01013142856
4.88,-0.1001210429,0.01400586957
4.89,-0.09961901013,0.01787164502
4.9,-0.09896589849,0.02172275274
4.91,-0.09816190657,0.0255531627
4.92,-0.09720748192,0.02935682767
4.93,-0.09610332329,0.03312769396
4.94,-0.09485038242,0.03685971246
4.95,-0.09344986521,0.04054684976
4.96,-0.09190323249,0.04418309945
4.97,-0.09021220013,0.04776249348
4.98,-0.08837873869,0.05127911361
4.99,-0.0864050725,0.05472710297
5,-0.08429367817,0.05810067755
5.01,-0.08204728253,0.06139413776
5.02,-0.07966886008,0.06460187987
5.03,-0.07716162977,0.06771840751
5.04,-0.07452905127,0.07073834293
5.05,-0.07177482072,0.07365643826
5.06,-0.06890286584,0.07646758654
5.07,-0.06591734056,0.0791668326
5.08,-0.06282261905,0.08174938369
5.09,-0.05962328926,0.08421061996
5.1,-0.05632414593,0.08654610454
5.11,-0.05293018303,0.08875159345
5.12,-0.0494465858,0.09082304509
5.13,-0.04587872222,0.09275662943
5.14,-0.04223213404,0.09454873683
5.15,-0.0385125274,0.09619598639
5.16,-0.03472576294,0.09769523397
5.17,-0.03087784559,0.0990435797
5.18,-0.02697491389,0.100238375
5.19,-0.02302322902,0.1012772292
5.2,-0.01902916342,0.1021580156
5.21,-0.01499918917,0.1028788768
5.22,-0.01093986601,0.1034382299
5.23,-0.00685782914,0.103834771
5.24,-0.002759776791,0.1040674786
5.25,0.001347542426,0.1041356172
5.26,0.005457342337,0.10403874
5.27,0.009562812163,0.1037766906
5.28,0.01365712959,0.1033496047
5.29,0.01773347394,0.1027579109
5.3,0.02178503935,0.1020023307
5.31,0.02580504799,0.101083878
5.32,0.02978676332,0.1000038584
5.33,0.03372350318,0.09876386694
5.34,0.03760865293,0.09736578625
5.35,0.0414356784,0.0958117832
5.36,0.04519813873,0.09410430549
5.37,0.04888969902,0.09224607738
5.38,0.0525041428,0.09024009492
5.39,0.05603538426,0.08808962053
5.4,0.05947748018,0.08579817702
5.41,0.06282464164,0.08336954103
5.42,0.06607124534,0.08080773598
5.43,0.06921184462,0.07811702439
5.44,0.07224118009,0.07530189977
5.45,0.07515418982,0.07236707794
5.46,0.07794601922,0.06931748799
5.47,0.08061203034,0.0661582626
5.48,0.08314781077,0.06289472816
5.49,0.08554918207,0.05953239429
5.5,0.08781220764,0.05607694306
5.51,0.08993320012,0.0525342179
5.52,0.09190872818,0.04891021209
5.53,0.0937356228,0.04521105703
5.54,0.095410983,0.04144301018
5.55,0.09693218092,0.03761244284
5.56,0.09829686634,0.03372582758
5.57,0.09950297067,0.02978972567
5.58,0.1005487102,0.02581077421
5.59,0.1014325887,0.02179567322
5.6,0.1021533999,0.01775117262
5.61,0.1027102283,0.01368405915
5.62,0.1031024508,0.009601143254
5.63,0.1033297362,0.005509246016
5.64,0.1033920451,0.00141518607
5.65,0.1032896293,-0.002674233381
5.66,0.1030230293,-0.006752237469
5.67,0.102593073,-0.01081209243
5.68,0.1020008723,-0.01484711822
5.69,0.10124782,-0.01885070096
5.7,0.1003355857,-0.02281630513
5.71,0.09926611151,-0.02673748559
5.72,0.09804160684,-0.03060789927
5.73,0.09666454288,-0.03442131663
5.74,0.09513764654,-0.03817163271
5.75,0.09346389395,-0.04185287801
5.76,0.09164650337,-0.04545922881
5.77,0.08968892775,-0.04898501727
5.78,0.08759484685,-0.05242474104
5.79,0.08536815892,-0.0557730725
5.8,0.08301297205,-0.05902486753
5.81,0.08053359511,-0.06217517384
5.82,0.07793452838,-0.06521923885
5.83,0.07522045391,-0.06815251705
5.84,0.07239622552,-0.07097067694
5.85,0.06946685862,-0.07366960739
5.86,0.06643751979,-0.07624542354
5.87,0.06331351607,-0.07869447213
5.88,0.06010028421,-0.08101333642
5.89,0.05680337967,-0.08319884042
5.9,0.05342846554,-0.08524805274
5.91,0.04998130138,-0.08715828979
5.92,0.04646773192,-0.08892711853
5.93,0.04289367581,-0.09055235864
5.94,0.03926511433,-0.0920320842
5.95,0.03558808004,-0.09336462477
5.96,0.03186864554,-0.09454856606
5.97,0.02811291232,-0.09558274998
5.98,0.02432699956,-0.09646627425
5.99,0.02051703322,-0.09719849151
6,0.0166891351,-0.09777900787
