"Freq [GHz]","re(S(Tx_p1,Tx_p1)) []","im(S(Tx_p1,Tx_p1)) []"
1,-0.0003445369806,-0.18728274
1.01,-0.006264445849,-0.1867495891
1.02,-0.01217355643,-0.1860282961
1.03,-0.01806440556,-0.1851185666
1.04,-0.02392957679,-0.1840204865
1.05,-0.02976171793,-0.1827345111
1.06,-0.03555355751,-0.1812614523
1.07,-0.04129792032,-0.1796024667
1.08,-0.04698774176,-0.1777590424
1.09,-0.05261608136,-0.1757329864
1.1,-0.05817613512,-0.1735264103
1.11,-0.06366124697,-0.1711417176
1.12,-0.06906491918,-0.1685815895
1.13,-0.07438082181,-0.1658489715
1.14,-0.07960280116,-0.1629470589
1.15,-0.0847248874,-0.1598792836
1.16,-0.08974130109,-0.1566492998
1.17,-0.09464645902,-0.1532609707
1.18,-0.099434979,-0.1497183548
1.19,-0.104101684,-0.1460256923
1.2,-0.1086416051,-0.1421873922
1.21,-0.1130499845,-0.1382080197
1.22,-0.1173222765,-0.1340922831
1.23,-0.1214541493,-0.1298450218
1.24,-0.1254414846,-0.1254711948
1.25,-0.1292803779,-0.1209758686
1.26,-0.1329671374,-0.1163642068
1.27,-0.1364982828,-0.1116414593
1.28,-0.1398705431,-0.106812952
1.29,-0.1430808546,-0.1018840778
1.3,-0.146126358,-0.09686028683
1.31,-0.1490043954,-0.09174707836
1.32,-0.151712507,-0.0865499926
1.33,-0.1542484268,-0.08127460322
1.34,-0.1566100798,-0.07592651039
1.35,-0.1587955769,-0.07051133433
1.36,-0.1608032112,-0.06503470945
1.37,-0.1626314536,-0.05950227894
1.38,-0.1642789485,-0.05391968997
1.39,-0.1657445091,-0.04829258928
1.4,-0.1670271135,-0.04262661939
1.41,-0.1681259003,-0.03692741517
1.42,-0.1690401642,-0.03120060094
1.43,-0.1697693522,-0.02545178796
1.44,-0.1703130596,-0.01968657237
1.45,-0.1706710265,-0.01391053347
1.46,-0.170843134,-0.008129232369
1.47,-0.1708294016,-0.002348210974
1.48,-0.1706299836,0.003427008734
1.49,-0.1702451669,0.009190925175
1.5,-0.1696753688,0.0149380574
1.51,-0.1689211346,0.02066294516
1.52,-0.1679831362,0.02636014876
1.53,-0.1668621709,0.03202424883
1.54,-0.1655591603,0.03764984606
1.55,-0.1640751497,0.04323156077
1.56,-0.1624113083,0.04876403257
1.57,-0.1605689285,0.05424192001
1.58,-0.1585494275,0.05965990027
1.59,-0.156354347,0.06501266903
1.6,-0.1539853555,0.07029494035
1.61,-0.1514442487,0.07550144683
1.62,-0.1487329523,0.08062693992
1.63,-0.1458535235,0.08566619043
1.64,-0.1428081534,0.09061398942
1.65,-0.1395991699,0.0954651492
1.66,-0.1362290403,0.1002145049
1.67,-0.1327003744,0.1048569159
1.68,-0.1290159277,0.1093872686
1.69,-0.1251786046,0.1138004783
1.7,-0.121191462,0.1180914922
1.71,-0.1170577126,0.1222552932
1.72,-0.1127807285,0.1262869033
1.73,-0.1083640447,0.1301813877
1.74,-0.1038113626,0.13393386
1.75,-0.09912655323,0.1375394868
1.76,-0.09431366068,0.1409934935
1.77,-0.08937690505,0.1442911703
1.78,-0.08432068541,0.1474278789
1.79,-0.07914958245,0.1503990592
1.8,-0.07386836083,0.1532002367
1.81,-0.06848197127,0.1558270307
1.82,-0.06299555222,0.1582751618
1.83,-0.05741443118,0.1605404614
1.84,-0.05174412559,0.1626188801
1.85,-0.04599034326,0.164506497
1.86,-0.04015898225,0.1661995301
1.87,-0.03425613032,0.1676943453
1.88,-0.02828806373,0.1689874673
1.89,-0.0222612455,0.17007559
1.9,-0.01618232306,0.1709555869
1.91,-0.01005812522,0.1716245221
1.92,-0.003895658556,0.1720796611
1.93,0.002297896955,0.1723184823
1.94,0.008515192944,0.1723386874
1.95,0.01474871839,0.1721382129
1.96,0.02099080608,0.1717152408
1.97,0.02723363975,0.1710682098
1.98,0.03346926203,0.1701958259
1.99,0.03968958306,0.169097073
2,0.04588638986,0.167771223
2.01,0.05205135642,0.1662178461
2.02,0.05817605453,0.1644368203
2.03,0.06425196525,0.1624283409
2.04,0.07027049119,0.1601929291
2.05,0.07622296931,0.1577314403
2.06,0.08210068455,0.1550450722
2.07,0.0878948839,0.1521353721
2.08,0.09359679128,0.1490042431
2.09,0.09919762278,0.1456539502
2.1,0.1046886026,0.1420871259
2.11,0.1100609795,0.1383067744
2.12,0.1153060436,0.134316275
2.13,0.1204151435,0.1301193856
2.14,0.1253797042,0.1257202443
2.15,0.1301912452,0.1211233708
2.16,0.1348413983,0.1163336662
2.17,0.1393219266,0.1113564127
2.18,0.1436247429,0.1061972717
2.19,0.1477419289,0.100862281
2.2,0.1516657538,0.09535785144
2.21,0.1553886932,0.08969076185
2.22,0.1589034483,0.08386815348
2.23,0.1622029646,0.0778975232
2.24,0.1652804504,0.07178671569
2.25,0.1681293952,0.0655439146
2.26,0.1707435883,0.05917763264
2.27,0.173117136,0.05269670071
2.28,0.1752444795,0.04611025595
2.29,0.1771204117,0.03942772883
2.3,0.1787400934,0.03265882925
2.31,0.1800990696,0.0258135317
2.32,0.1811932845,0.01890205941
2.33,0.1820190961,0.01193486769
2.34,0.1825732899,0.004922626354
2.35,0.1828530921,-0.002123798707
2.36,0.1828561814,-0.009193364714
2.37,0.1825807009,-0.01627487197
2.38,0.1820252678,-0.02335698454
2.39,0.181188983,-0.03042825156
2.4,0.1800714394,-0.03747712921
2.41,0.178672729,-0.04449200322
2.42,0.1769934492,-0.05146121183
2.43,0.175034708,-0.05837306928
2.44,0.172798127,-0.06521588965
2.45,0.170285845,-0.07197801096
2.46,0.1675005189,-0.07864781963
2.47,0.1644453239,-0.08521377506
2.48,0.1611239526,-0.09166443436
2.49,0.1575406126,-0.09798847713
2.5,0.1537000228,-0.1041747303
2.51,0.1496074086,-0.1102121926
2.52,0.1452684959,-0.1160900595
2.53,0.1406895035,-0.1217977472
2.54,0.1358771344,-0.1273249167
2.55,0.130838566,-0.1326614979
2.56,0.125581439,-0.1377977121
2.57,0.1201138447,-0.1427240955
2.58,0.114444312,-0.147431521
2.59,0.1085817921,-0.15191122
2.6,0.1025356429,-0.1561548031
2.61,0.09631561214,-0.1601542803
2.62,0.08993181923,-0.1639020806
2.63,0.08339473634,-0.16739107
2.64,0.07671516835,-0.1706145695
2.65,0.06990423192,-0.1735663712
2.66,0.06297333376,-0.1762407543
2.67,0.05593414797,-0.1786324993
2.68,0.04879859272,-0.1807369013
2.69,0.04157880614,-0.1825497824
2.7,0.03428712167,-0.1840675023
2.71,0.02693604273,-0.1852869685
2.72,0.01953821697,-0.1862056445
2.73,0.01210641002,-0.1868215569
2.74,0.004653478884,-0.1871333013
2.75,-0.002807654937,-0.1871400473
2.76,-0.01026403261,-0.1868415408
2.77,-0.01770268526,-0.1862381065
2.78,-0.02511066132,-0.185330648
2.79,-0.03247505399,-0.1841206471
2.8,-0.03978302848,-0.1826101611
2.81,-0.04702184929,-0.1808018195
2.82,-0.05417890718,-0.1786988187
2.83,-0.06124174586,-0.1763049156
2.84,-0.06819808837,-0.1736244198
2.85,-0.07503586306,-0.1706621851
2.86,-0.08174322897,-0.1674235981
2.87,-0.08830860083,-0.1639145675
2.88,-0.09472067324,-0.1601415111
2.89,-0.1009684443,-0.1561113411
2.9,-0.1070412385,-0.15183145
2.91,-0.1129287287,-0.1473096932
2.92,-0.1186209573,-0.1425543724
2.93,-0.1241083565,-0.137574217
2.94,-0.1293817675,-0.1323783645
2.95,-0.134432459,-0.1269763406
2.96,-0.1392521441,-0.1213780376
2.97,-0.1438329966,-0.1155936932
2.98,-0.1481676658,-0.1096338669
2.99,-0.1522492905,-0.1035094175
3,-0.1560715112,-0.09723147869
3.01,-0.1596284815,-0.09081143466
3.02,-0.1629148787,-0.08426089515
3.03,-0.1659259115,-0.07759167009
3.04,-0.1686573286,-0.07081574385
3.05,-0.1711054241,-0.06394524929
3.06,-0.1732670424,-0.05699244156
3.07,-0.1751395821,-0.04996967184
3.08,-0.1767209978,-0.04288936091
3.09,-0.1780098012,-0.03576397289
3.1,-0.1790050604,-0.02860598892
3.11,-0.1797063983,-0.02142788109
3.12,-0.1801139897,-0.01424208652
3.13,-0.1802285563,-0.007060981807
3.14,-0.1800513622,0.0001031422506
3.15,-0.1795842061,0.007238105457
3.16,-0.1788294138,0.01433186257
3.17,-0.177789829,0.02137252711
3.18,-0.176468803,0.02834839454
3.19,-0.1748701832,0.03524796486
3.2,-0.172998301,0.04205996439
3.21,-0.1708579579,0.04877336693
3.22,-0.1684544116,0.05537741396
3.23,-0.1657933604,0.06186163413
3.24,-0.1628809273,0.06821586175
3.25,-0.1597236429,0.07443025443
3.26,-0.1563284277,0.08049530968
3.27,-0.152702574,0.08640188059
3.28,-0.1488537263,0.09214119037
3.29,-0.1447898626,0.09770484597
3.3,-0.1405192735,0.1030848505
3.31,-0.136050542,0.1082736147
3.32,-0.1313925228,0.1132639672
3.33,-0.1265543204,0.1180491633
3.34,-0.1215452684,0.1226228938
3.35,-0.116374907,0.1269792911
3.36,-0.1110529617,0.1311129353
3.37,-0.105589321,0.1350188588
3.38,-0.09999401474,0.13869255
3.39,-0.09427719186,0.1421299552
3.4,-0.08844909878,0.1453274804
3.41,-0.08252005768,0.1482819911
3.42,-0.07650044502,0.1509908118
3.43,-0.0704006704,0.1534517238
3.44,-0.06423115567,0.1556629625
3.45,-0.05800231443,0.1576232132
3.46,-0.05172453199,0.1593316065
3.47,-0.04540814572,0.1607877125
3.48,-0.03906342599,0.1619915338
3.49,-0.03270055763,0.1629434983
3.5,-0.02632962194,0.1636444506
3.51,-0.01996057945,0.164095643
3.52,-0.01360325317,0.1642987256
3.53,-0.007267312715,0.1642557357
3.54,-0.0009622590037,0.1639690867
3.55,0.005302590199,0.1634415563
3.56,0.01151811401,0.162676274
3.57,0.01767540138,0.1616767085
3.58,0.02376576319,0.1604466544
3.59,0.02978074358,0.1589902183
3.6,0.03571213042,0.1573118052
3.61,0.04155196499,0.1554161039
3.62,0.04729255073,0.1533080723
3.63,0.05292646124,0.150992923
3.64,0.05844654743,0.1484761084
3.65,0.06384594376,0.1457633052
3.66,0.06911807374,0.1428603999
3.67,0.0742566546,0.1397734735
3.68,0.0792557011,0.1365087865
3.69,0.08410952859,0.1330727637
3.7,0.08881275534,0.1294719799
3.71,0.09336030405,0.1257131449
3.72,0.09774740266,0.1218030889
3.73,0.1019695845,0.1177487488
3.74,0.1060226876,0.1135571538
3.75,0.1099028536,0.1092354117
3.76,0.1136065259,0.1047906961
3.77,0.1171304472,0.1002302332
3.78,0.1204716564,0.09556128892
3.79,0.1236274853,0.09079115748
3.8,0.1265955545,0.08592714919
3.81,0.1293737689,0.08097657943
3.82,0.1319603129,0.07594675787
3.83,0.1343536451,0.07084497823
3.84,0.1365524929,0.06567850849
3.85,0.1385558462,0.0604545817
3.86,0.1403629516,0.05518038719
3.87,0.1419733058,0.04986306237
3.88,0.1433866492,0.04450968506
3.89,0.1446029589,0.03912726631
3.9,0.1456224418,0.03372274373
3.91,0.146445528,0.02830297535
3.92,0.1470728634,0.022874734
3.93,0.1475053026,0.01744470213
3.94,0.1477439022,0.01201946719
3.95,0.1477899136,0.006605517372
3.96,0.1476447761,0.001209237946
3.97,0.1473101098,-0.004163092111
3.98,0.1467877094,-0.009505302975
3.99,0.1460795371,-0.01481133648
4,0.1451877166,-0.02007524823
4.01,0.1441145266,-0.02529120938
4.02,0.1428623949,-0.03045350805
4.03,0.1414338927,-0.03555655052
4.04,0.1398317288,-0.04059486202
4.05,0.1380587446,-0.0455630874
4.06,0.1361179089,-0.0504559915
4.07,0.1340123131,-0.05526845936
4.08,0.1317451668,-0.05999549622
4.09,0.1293197936,-0.06463222744
4.1,0.1267396271,-0.06917389826
4.11,0.1240082072,-0.0736158735
4.12,0.121129177,-0.07795363721
4.13,0.1181062795,-0.08218279223
4.14,0.1149433545,-0.08629905987
4.15,0.1116443369,-0.09029827946
4.16,0.1082132534,-0.09417640804
4.17,0.104654221,-0.09792952013
4.18,0.1009714451,-0.1015538075
4.19,0.09716921792,-0.1050455792
4.2,0.09325191668,-0.1084012615
4.21,0.08922400279,-0.1116173983
4.22,0.08509002056,-0.1146906512
4.23,0.08085459626,-0.1176178006
4.24,0.07652243725,-0.1203957458
4.25,0.07209833126,-0.1230215067
4.26,0.06758714571,-0.1254922243
4.27,0.06299382704,-0.1278051625
4.28,0.05832340012,-0.1299577099
4.29,0.05358096762,-0.1319473812
4.3,0.04877170937,-0.1337718197
4.31,0.04390088166,-0.1354287996
4.32,0.03897381645,-0.1369162285
4.33,0.03399592047,-0.1382321503
4.34,0.02897267424,-0.1393747481
4.35,0.02390963088,-0.1403423477
4.36,0.01881241473,-0.141133421
4.37,0.01368671986,-0.1417465897
4.38,0.00853830823,-0.142180629
4.39,0.003373007724,-0.1424344718
4.4,-0.001803290182,-0.1425072128
4.41,-0.006984632977,-0.1423981131
4.42,-0.01216501,-0.142106604
4.43,-0.01733835565,-0.1416322923
4.44,-0.0224985529,-0.1409749642
4.45,-0.02763943722,-0.1401345906
4.46,-0.03275480082,-0.139111331
4.47,-0.03783839725,-0.137905539
4.48,-0.04288394643,-0.1365177662
4.49,-0.04788514007,-0.1349487672
4.5,-0.0528356474,-0.133199504
4.51,-0.05772912139,-0.1312711501
4.52,-0.06255920533,-0.1291650951
4.53,-0.0673195398,-0.1268829484
4.54,-0.07200377002,-0.1244265432
4.55,-0.07660555364,-0.12179794
4.56,-0.08111856882,-0.1189994301
4.57,-0.08553652277,-0.1160335382
4.58,-0.08985316059,-0.1129030254
4.59,-0.09406227445,-0.1096108918
4.6,-0.09815771315,-0.1061603776
4.61,-0.1021333919,-0.1025549657
4.62,-0.1059833026,-0.09879838172
4.63,-0.1097015239,-0.09489459562
4.64,-0.1132822321,-0.09084782118
4.65,-0.1167197121,-0.08666251591
4.66,-0.120008368,-0.08234338012
4.67,-0.1231427349,-0.07789535546
4.68,-0.1261174897,-0.07332362294
4.69,-0.1289274627,-0.06863360029
4.7,-0.1315676495,-0.06383093884
4.71,-0.1340332217,-0.05892151967
4.72,-0.1363195394,-0.05391144917
4.73,-0.1384221621,-0.04880705406
4.74,-0.1403368602,-0.04361487563
4.75,-0.1420596265,-0.03834166344
4.76,-0.1435866873,-0.03299436838
4.77,-0.1449145133,-0.02758013502
4.78,-0.1460398306,-0.02210629339
4.79,-0.1469596309,-0.01658035007
4.8,-0.1476711819,-0.01100997876
4.81,-0.1481720372,-0.005403010077
4.82,-0.1484600457,0.0002325791049
4.83,-0.1485333606,0.005888676979
4.84,-0.1483904483,0.01155704868
4.85,-0.1480300963,0.01722934871
4.86,-0.1474514208,0.0228971339
4.87,-0.146653874,0.02855187685
4.88,-0.1456372504,0.03418497991
4.89,-0.1444016928,0.03978778952
4.9,-0.1429476973,0.04535161108
4.91,-0.141276118,0.05086772411
4.92,-0.1393881709,0.05632739786
4.93,-0.137285437,0.06172190714
4.94,-0.1349698642,0.06704254852
4.95,-0.1324437698,0.07228065676
4.96,-0.1297098404,0.07742762139
4.97,-0.1267711323,0.08247490353
4.98,-0.1236310709,0.08741405279
4.99,-0.1202934486,0.09223672426
5,-0.1167624225,0.09693469552
5.01,-0.1130425111,0.1014998837
5.02,-0.10913859,0.1059243625
5.03,-0.105055887,0.1102003787
5.04,-0.1007999761,0.1143203696
5.05,-0.09637677068,0.1182769787
5.06,-0.09179251591,0.1220630728
5.07,-0.08705378049,0.1256717572
5.08,-0.0821674472,0.1290963921
5.09,-0.07714070293,0.1323306076
5.1,-0.07198102776,0.1353683185
5.11,-0.06669618334,0.138203739
5.12,-0.06129420049,0.1408313964
5.13,-0.05578336607,0.1432461445
5.14,-0.05017220913,0.1454431767
5.15,-0.04446948642,0.1474180377
5.16,-0.03868416721,0.1491666355
5.17,-0.03282541754,0.1506852518
5.18,-0.02690258383,0.1519705525
5.19,-0.020925176,0.1530195967
5.2,-0.01490285007,0.1538298453
5.21,-0.008845390307,0.1543991689
5.22,-0.002762690882,0.1547258545
5.23,0.00333526275,0.1548086114
5.24,0.009438412884,0.1546465768
5.25,0.01553664886,0.1542393193
5.26,0.0216198266,0.1535868425
5.27,0.02767778836,0.1526895876
5.28,0.0337003826,0.1515484343
5.29,0.03967748398,0.1501647015
5.3,0.04559901339,0.1485401466
5.31,0.05145495799,0.146676964
5.32,0.05723539119,0.1445777828
5.33,0.06293049255,0.1422456629
5.34,0.06853056746,0.1396840911
5.35,0.07402606676,0.1368969753
5.36,0.07940760594,0.1338886383
5.37,0.08466598418,0.1306638106
5.38,0.08979220299,0.127227622
5.39,0.09477748442,0.1235855929
5.4,0.09961328893,0.1197436237
5.41,0.1042913327,0.1157079848
5.42,0.1088036043,0.1114853041
5.43,0.1131423813,0.1070825551
5.44,0.1173002454,0.1025070434
5.45,0.1212700978,0.09776639298
5.46,0.1250451732,0.09286853107
5.47,0.1286190538,0.08782167317
5.48,0.1319856816,0.08263430685
5.49,0.1351393708,0.07731517523
5.5,0.1380748189,0.07187325979
5.51,0.140787117,0.06631776272
5.52,0.1432717597,0.06065808876
5.53,0.1455246531,0.05490382665
5.54,0.1475421233,0.04906473018
5.55,0.1493209225,0.04315069893
5.56,0.1508582354,0.0371717587
5.57,0.1521516837,0.0311380417
5.58,0.1531993306,0.02505976657
5.59,0.1539996833,0.01894721828
5.6,0.1545516953,0.01281072789
5.61,0.1548547674,0.006660652279
5.62,0.1549087479,0.0005073539357
5.63,0.1547139315,-0.005638819268
5.64,0.1542710579,-0.01176755416
5.65,0.1535813086,-0.01786859218
5.66,0.1526463035,-0.02393174917
5.67,0.151468096,-0.02994693481
5.68,0.1500491679,-0.03590417187
5.69,0.1483924225,-0.04179361503
5.7,0.1465011776,-0.0476055694
5.71,0.1443791572,-0.05333050861
5.72,0.1420304828,-0.05895909237
5.73,0.1394596634,-0.06448218361
5.74,0.1366715851,-0.06989086508
5.75,0.1336714998,-0.07517645531
5.76,0.1304650134,-0.08033052405
5.77,0.127058073,-0.08534490702
5.78,0.1234569539,-0.09021172003
5.79,0.1196682454,-0.09492337235
5.8,0.1156988368,-0.09947257945
5.81,0.1115559023,-0.1038523749
5.82,0.1072468856,-0.1080561217
5.83,0.102779484,-0.1120775223
5.84,0.09816163247,-0.1159106288
5.85,0.09340148685,-0.1195498512
5.86,0.08850740699,-0.1229899656
5.87,0.08348793962,-0.1262261214
5.88,0.07835180103,-0.1292538475
5.89,0.07310785944,-0.1320690578
5.9,0.06776511735,-0.1346680557
5.91,0.06233269375,-0.1370475379
5.92,0.05681980629,-0.1392045974
5.93,0.05123575339,-0.1411367254
5.94,0.04558989647,-0.1428418127
5.95,0.03989164217,-0.1443181499
5.96,0.03415042475,-0.145564427
5.97,0.02837568855,-0.1465797325
5.98,0.02257687077,-0.147363551
5.99,0.01676338435,-0.1479157603
6,0.01094460118,-0.1482366283
