"Freq [GHz]","re(S(Tx_p1,Tx_p1)) []","im(S(Tx_p1,Tx_p1)) []"
1,-0.007381925952,-0.08455171115
1.01,-0.01014341468,-0.08420709144
1.02,-0.01290208781,-0.08377423437
1.03,-0.01565478643,-0.08325269445
1.04,-0.0183983481,-0.08264215316
1.05,-0.0211296101,-0.08194241549
1.06,-0.02384541237,-0.08115340658
1.07,-0.02654260017,-0.08027516858
1.08,-0.02921802633,-0.07930785773
1.09,-0.03186855334,-0.07825174168
1.1,-0.03449105513,-0.077107197
1.11,-0.03708241867,-0.07587470701
1.12,-0.03963954544,-0.07455485975
1.13,-0.04215935267,-0.07314834637
1.14,-0.04463877459,-0.07165595961
1.15,-0.04707476351,-0.07007859267
1.16,-0.0494642909,-0.06841723829
1.17,-0.05180434848,-0.06667298807
1.18,-0.05409194931,-0.06484703206
1.19,-0.05632412891,-0.06294065858
1.2,-0.0584979465,-0.06095525426
1.21,-0.06061048634,-0.0588923043
1.22,-0.06265885919,-0.05675339292
1.23,-0.06464020395,-0.05454020398
1.24,-0.06655168943,-0.05225452174
1.25,-0.06839051642,-0.04989823182
1.26,-0.07015391987,-0.04747332215
1.27,-0.0718391714,-0.04498188415
1.28,-0.07344358201,-0.04242611383
1.29,-0.07496450506,-0.039808313
1.3,-0.07639933959,-0.03713089046
1.31,-0.07774553379,-0.03439636316
1.32,-0.07900058891,-0.03160735728
1.33,-0.08016206336,-0.02876660926
1.34,-0.08122757711,-0.02587696667
1.35,-0.08219481645,-0.02294138892
1.36,-0.08306153893,-0.01996294782
1.37,-0.08382557863,-0.01694482792
1.38,-0.08448485169,-0.01389032656
1.39,-0.0850373621,-0.0108028537
1.4,-0.08548120766,-0.007685931381
1.41,-0.08581458625,-0.00454319294
1.42,-0.08603580218,-0.001378381777
1.43,-0.08614327283,0.001804650206
1.44,-0.08613553536,0.005001944586
1.45,-0.08601125352,0.008209438838
1.46,-0.08576922464,0.01142296919
1.47,-0.08540838658,0.01463827393
1.48,-0.08492782474,0.01785099726
1.49,-0.0843267791,0.02105669351
1.5,-0.08360465114,0.02425083202
1.51,-0.08276101076,0.02742880238
1.52,-0.081795603,0.0305859203
1.53,-0.08070835467,0.03371743392
1.54,-0.07949938072,0.03681853066
1.55,-0.07816899048,0.03988434463
1.56,-0.07671769348,0.04290996443
1.57,-0.0751462051,0.0458904416
1.58,-0.07345545175,0.04882079941
1.59,-0.07164657574,0.05169604222
1.6,-0.06972093973,0.05451116524
1.61,-0.06768013063,0.05726116472
1.62,-0.06552596306,0.05994104859
1.63,-0.06326048232,0.06254584741
1.64,-0.06088596671,0.06507062577
1.65,-0.0584049293,0.06751049387
1.66,-0.05582011906,0.06986061954
1.67,-0.05313452139,0.07211624038
1.68,-0.05035135787,0.07427267619
1.69,-0.04747408541,0.07632534157
1.7,-0.04450639468,0.07826975857
1.71,-0.0414522077,0.08010156954
1.72,-0.03831567484,0.0818165499
1.73,-0.03510117092,0.08341062103
1.74,-0.03181329066,0.08487986301
1.75,-0.02845684327,0.08622052727
1.76,-0.02503684631,0.08742904917
1.77,-0.0215585188,0.08850206023
1.78,-0.01802727352,0.08943640031
1.79,-0.01444870858,0.09022912928
1.8,-0.01082859826,0.09087753852
1.81,-0.007172883049,0.09137916189
1.82,-0.003487659093,0.09173178637
1.83,0.0002208331684,0.09193346209
1.84,0.00394622096,0.09198251193
1.85,0.007682011788,0.09187754046
1.86,0.01142160666,0.09161744231
1.87,0.01515831388,0.09120140982
1.88,0.0188853634,0.09062894004
1.89,0.02259592162,0.08989984095
1.9,0.02628310669,0.08901423689
1.91,0.02994000423,0.08797257323
1.92,0.03355968335,0.08677562015
1.93,0.0371352131,0.08542447561
1.94,0.04065967903,0.08392056735
1.95,0.04412620014,0.08226565404
1.96,0.04752794588,0.08046182551
1.97,0.05085815326,0.07851150199
1.98,0.05411014406,0.07641743243
1.99,0.05727734202,0.07418269185
2,0.06035328994,0.07181067775
2.01,0.06333166671,0.06930510551
2.02,0.06620630408,0.06667000285
2.03,0.06897120331,0.06390970338
2.04,0.07162055145,0.06102883915
2.05,0.07414873726,0.0580323323
2.06,0.07655036678,0.05492538579
2.07,0.07882027845,0.05171347326
2.08,0.0809535576,0.048402328
2.09,0.08294555054,0.0449979311
2.1,0.08479187794,0.04150649884
2.11,0.08648844754,0.0379344692
2.12,0.08803146619,0.03428848777
2.13,0.08941745113,0.03057539286
2.14,0.09064324045,0.02680220004
2.15,0.09170600276,0.02297608604
2.16,0.09260324596,0.01910437211
2.17,0.0933328251,0.01519450687
2.18,0.09389294934,0.01125404871
2.19,0.09428218793,0.007290647785
2.2,0.09449947523,0.003312027724
2.21,0.09454411469,-0.0006740330318
2.22,0.09441578184,-0.004659720048
2.23,0.09411452628,-0.008637201908
2.24,0.09364077253,-0.01259864932
2.25,0.09299531999,-0.01653625429
2.26,0.09217934168,-0.02044224924
2.27,0.09119438208,-0.02430892608
2.28,0.09004235385,-0.02812865513
2.29,0.08872553357,-0.03189390389
2.3,0.08724655641,-0.03559725545
2.31,0.08560840983,-0.03923142669
2.32,0.08381442636,-0.04278928606
2.33,0.08186827527,-0.04626387094
2.34,0.0797739535,-0.0496484045
2.35,0.07753577557,-0.05293631209
2.36,0.07515836264,-0.05612123693
2.37,0.07264663076,-0.05919705531
2.38,0.07000577838,-0.06215789098
2.39,0.06724127298,-0.06499812892
2.4,0.06435883716,-0.06771242825
2.41,0.06136443394,-0.07029573446
2.42,0.0582642515,-0.07274329067
2.43,0.05506468741,-0.07505064814
2.44,0.05177233228,-0.07721367581
2.45,0.04839395297,-0.07922856895
2.46,0.04493647546,-0.08109185687
2.47,0.04140696732,-0.08280040965
2.48,0.03781261991,-0.08435144388
2.49,0.03416073038,-0.0857425275
2.5,0.03045868344,-0.08697158353
2.51,0.02671393312,-0.08803689285
2.52,0.02293398436,-0.08893709602
2.53,0.0191263747,-0.08967119402
2.54,0.01529865599,-0.09023854809
2.55,0.01145837619,-0.09063887849
2.56,0.007613061423,-0.09087226237
2.57,0.003770198197,-0.09093913065
2.58,-6.278409014E-05,-0.09084026399
2.59,-0.003878530281,-0.09057678781
2.6,-0.007669776231,-0.09015016646
2.61,-0.01142936514,-0.08956219656
2.62,-0.0151502634,-0.08881499941
2.63,-0.01882557594,-0.08791101271
2.64,-0.02244856101,-0.08685298153
2.65,-0.0260126443,-0.08564394845
2.66,-0.02951143255,-0.08428724313
2.67,-0.03293872636,-0.08278647124
2.68,-0.03628853237,-0.08114550272
2.69,-0.03955507469,-0.07936845957
2.7,-0.04273280558,-0.07745970311
2.71,-0.04581641537,-0.07542382079
2.72,-0.04880084155,-0.07326561262
2.73,-0.0516812771,-0.0709900772
2.74,-0.05445317793,-0.06860239752
2.75,-0.05711226959,-0.06610792639
2.76,-0.05965455302,-0.06351217182
2.77,-0.06207630959,-0.06082078211
2.78,-0.06437410519,-0.05803953093
2.79,-0.06654479356,-0.0551743023
2.8,-0.06858551874,-0.05223107555
2.81,-0.07049371676,-0.04921591039
2.82,-0.07226711646,-0.04613493201
2.83,-0.07390373955,-0.04299431632
2.84,-0.07540189989,-0.03980027541
2.85,-0.07676020202,-0.03655904318
2.86,-0.07797753893,-0.03327686124
2.87,-0.07905308918,-0.02995996519
2.88,-0.07998631327,-0.02661457108
2.89,-0.08077694941,-0.02324686241
2.9,-0.08142500862,-0.01986297742
2.91,-0.08193076929,-0.01646899686
2.92,-0.08229477117,-0.01307093222
2.93,-0.0825178088,-0.009674714441
2.94,-0.0826009245,-0.006286183152
2.95,-0.08254540088,-0.002911076401
2.96,-0.08235275301,0.0004449790185
2.97,-0.0820247201,0.003776476707
2.98,-0.08156325692,0.007078039213
2.99,-0.08097052497,0.010344426
3,-0.08024888328,0.01357054081
3.01,-0.07940087911,0.01675143848
3.02,-0.07842923838,0.01988233107
3.03,-0.07733685603,0.02295859345
3.04,-0.07612678625,0.02597576832
3.05,-0.07480223263,0.02892957056
3.06,-0.07336653834,0.03181589102
3.07,-0.07182317624,0.03463079983
3.08,-0.07017573912,0.03737054897
3.09,-0.06842792993,0.04003157448
3.1,-0.06658355215,0.04261049798
3.11,-0.06464650034,0.04510412781
3.12,-0.06262075077,0.04750945955
3.13,-0.0605103523,0.04982367619
3.14,-0.05831941745,0.05204414775
3.15,-0.05605211372,0.0541684305
3.16,-0.05371265514,0.05619426582
3.17,-0.05130529412,0.05811957864
3.18,-0.04883431357,0.0599424755
3.19,-0.04630401937,0.06166124237
3.2,-0.04371873309,0.06327434211
3.21,-0.04108278507,0.06478041167
3.22,-0.03840050789,0.06617825906
3.23,-0.03567623005,0.06746686011
3.24,-0.03291427014,0.06864535503
3.25,-0.03011893125,0.06971304482
3.26,-0.02729449579,0.07066938757
3.27,-0.0244452206,0.07151399462
3.28,-0.02157533245,0.07224662668
3.29,-0.01868902385,0.07286718986
3.3,-0.01579044919,0.07337573169
3.31,-0.01288372116,0.07377243718
3.32,-0.009972907568,0.07405762481
3.33,-0.007062028331,0.07423174262
3.34,-0.004155052838,0.07429536436
3.35,-0.001255897538,0.07424918567
3.36,0.001631576227,0.07409402042
3.37,0.004503564142,0.0738307971
3.38,0.007356320641,0.07346055535
3.39,0.01018616043,0.07298444264
3.4,0.01298945982,0.07240371106
3.41,0.01576265795,0.07171971431
3.42,0.01850225783,0.07093390481
3.43,0.02120482728,0.07004783095
3.44,0.02386699977,0.0690631346
3.45,0.02648547526,0.06798154868
3.46,0.02905702084,0.06680489494
3.47,0.03157847149,0.06553508195
3.48,0.03404673071,0.06417410316
3.49,0.03645877126,0.06272403519
3.5,0.03881163579,0.06118703626
3.51,0.04110243766,0.05956534468
3.52,0.04332836169,0.05786127759
3.53,0.04548666505,0.05607722975
3.54,0.04757467825,0.05421567242
3.55,0.04958980614,0.05227915239
3.56,0.05152952912,0.05027029104
3.57,0.05339140444,0.04819178349
3.58,0.05517306759,0.04604639779
3.59,0.05687223385,0.04383697411
3.6,0.05848670004,0.04156642401
3.61,0.06001434631,0.0392377296
3.62,0.06145313818,0.0368539428
3.63,0.06280112867,0.03441818444
3.64,0.0640564606,0.03193364337
3.65,0.06521736902,0.02940357545
3.66,0.06628218384,0.02683130246
3.67,0.06724933253,0.02422021089
3.68,0.06811734297,0.02157375057
3.69,0.06888484649,0.01889543315
3.7,0.06955058089,0.01618883046
3.71,0.07011339369,0.0134575726
3.72,0.0705722454,0.01070534587
3.73,0.07092621288,0.007935890505
3.74,0.07117449274,0.00515299811
3.75,0.07131640481,0.002360508927
3.76,0.07135139564,-0.0004376911985
3.77,0.07127904191,-0.003237674106
3.78,0.071099054,-0.006035472868
3.79,0.0708112793,-0.008827085632
3.8,0.07041570568,-0.01160847973
3.81,0.06991246472,-0.01437559609
3.82,0.06930183489,-0.01712435392
3.83,0.06858424464,-0.01985065569
3.84,0.06776027527,-0.0225503924
3.85,0.06683066369,-0.02521944914
3.86,0.06579630495,-0.02785371088
3.87,0.06465825453,-0.03044906861
3.88,0.06341773046,-0.03300142567
3.89,0.06207611509,-0.03550670437
3.9,0.06063495662,-0.03796085284
3.91,0.05909597035,-0.0403598521
3.92,0.0574610395,-0.04269972333
3.93,0.05573221582,-0.04497653539
3.94,0.05391171971,-0.04718641241
3.95,0.05200194005,-0.04932554162
3.96,0.05000543354,-0.0513901813
3.97,0.04792492374,-0.05337666881
3.98,0.04576329957,-0.0552814287
3.99,0.04352361341,-0.05710098092
4,0.04120907881,-0.05883194905
4.01,0.03882306764,-0.06047106851
4.02,0.03636910687,-0.06201519476
4.03,0.03385087477,-0.06346131149
4.04,0.03127219679,-0.06480653867
4.05,0.0286370408,-0.06604814053
4.06,0.02594951197,-0.06718353339
4.07,0.02321384715,-0.06821029334
4.08,0.02043440875,-0.06912616365
4.09,0.0176156782,-0.06992906208
4.1,0.01476224898,-0.0706170878
4.11,0.01187881912,-0.0711885281
4.12,0.008970183359,-0.07164186476
4.13,0.006041224858,-0.07197578007
4.14,0.003096906523,-0.07218916252
4.15,0.0001422619407,-0.07228111197
4.16,-0.002817614037,-0.07225094459
4.17,-0.005777575046,-0.07209819715
4.18,-0.008732433274,-0.07182263095
4.19,-0.01167696982,-0.07142423528
4.2,-0.01460594529,-0.07090323024
4.21,-0.01751411068,-0.07026006916
4.22,-0.02039621838,-0.06949544038
4.23,-0.02324703344,-0.06861026851
4.24,-0.02606134491,-0.06760571508
4.25,-0.0288339773,-0.06648317862
4.26,-0.03155980218,-0.06524429413
4.27,-0.03423374971,-0.06389093192
4.28,-0.03685082027,-0.06242519589
4.29,-0.03940609602,-0.06084942111
4.3,-0.04189475239,-0.05916617085
4.31,-0.04431206949,-0.05737823297
4.32,-0.04665344336,-0.05548861567
4.33,-0.0489143971,-0.05350054266
4.34,-0.05109059167,-0.0514174477
4.35,-0.05317783663,-0.04924296856
4.36,-0.05517210042,-0.04698094043
4.37,-0.05706952045,-0.04463538868
4.38,-0.0588664128,-0.04221052113
4.39,-0.0605592815,-0.0397107198
4.4,-0.06214482753,-0.03714053206
4.41,-0.06361995721,-0.03450466143
4.42,-0.06498179026,-0.03180795772
4.43,-0.06622766731,-0.02905540692
4.44,-0.06735515684,-0.02625212054
4.45,-0.0683620617,-0.02340332464
4.46,-0.06924642491,-0.02051434845
4.47,-0.07000653501,-0.0175906127
4.48,-0.07064093067,-0.01463761764
4.49,-0.07114840482,-0.01166093082
4.5,-0.07152800798,-0.008666174649
4.51,-0.07177905108,-0.005659013718
4.52,-0.0719011075,-0.002645142047
4.53,-0.07189401454,0.0003697298329
4.54,-0.07175787412,0.003379887849
4.55,-0.07149305288,0.006379627404
4.56,-0.07110018151,0.009363266379
4.57,-0.07058015347,0.01232515811
4.58,-0.069934123,0.01525970427
4.59,-0.06916350244,0.01816136766
4.6,-0.06826995891,0.02102468479
4.61,-0.0672554103,0.02384427834
4.62,-0.06612202065,0.02661486935
4.63,-0.06487219487,0.02933128915
4.64,-0.06350857285,0.03198849097
4.65,-0.06203402298,0.03458156129
4.66,-0.06045163507,0.03710573072
4.67,-0.05876471274,0.03955638456
4.68,-0.05697676527,0.04192907292
4.69,-0.05509149892,0.04421952035
4.7,-0.05311280781,0.046423635
4.71,-0.05104476431,0.04853751733
4.72,-0.04889160903,0.05055746816
4.73,-0.04665774043,0.05247999633
4.74,-0.04434770403,0.05430182561
4.75,-0.04196618134,0.0560199012
4.76,-0.0395179785,0.05763139547
4.77,-0.03700801461,0.05913371315
4.78,-0.0344413099,0.0605244959
4.79,-0.03182297373,0.06180162622
4.8,-0.02915819233,0.0629632307
4.81,-0.02645221661,0.06400768263
4.82,-0.02371034973,0.06493360396
4.83,-0.02093793473,0.06573986659
4.84,-0.01814034213,0.06642559302
4.85,-0.0153229576,0.06699015634
4.86,-0.01249116966,0.0674331796
4.87,-0.009650357515,0.06775453449
4.88,-0.006805879014,0.06795433945
4.89,-0.003963058836,0.06803295713
4.9,-0.001127176834,0.0679909913
4.91,0.001696543349,0.06782928311
4.92,0.004502945401,0.06754890681
4.93,0.007286951146,0.06715116497
4.94,0.01004357103,0.06663758312
4.95,0.01276791424,0.06600990387
4.96,0.01545519845,0.06527008064
4.97,0.01810075912,0.06442027088
4.98,0.02070005845,0.0634628288
4.99,0.02324869378,0.06240029788
5,0.02574240559,0.06123540279
5.01,0.02817708502,0.05997104116
5.02,0.03054878084,0.05861027493
5.03,0.03285370596,0.05715632144
5.04,0.03508824339,0.05561254433
5.05,0.03724895169,0.05398244409
5.06,0.03933256983,0.05226964863
5.07,0.0413360216,0.05047790348
5.08,0.04325641942,0.04861106203
5.09,0.04509106755,0.04667307559
5.1,0.04683746488,0.04466798344
5.11,0.04849330711,0.04259990286
5.12,0.05005648833,0.0404730191
5.13,0.05152510223,0.03829157547
5.14,0.05289744265,0.03605986344
5.15,0.05417200364,0.03378221284
5.16,0.05534747912,0.03146298219
5.17,0.05642276191,0.02910654918
5.18,0.0573969424,0.02671730133
5.19,0.05826930673,0.0242996268
5.2,0.05903933449,0.02185790547
5.21,0.05970669608,0.01939650026
5.22,0.06027124962,0.01691974864
5.23,0.06073303745,0.01443195456
5.24,0.06109228238,0.01193738049
5.25,0.06134938349,0.009440239963
5.26,0.06150491169,0.006944690296
5.27,0.06155960496,0.004454825736
5.28,0.06151436334,0.001974670918
5.29,0.06137024366,-0.0004918252998
5.3,0.06112845411,-0.002940795649
5.31,0.06079034851,-0.005368459878
5.32,0.06035742058,-0.007771129817
5.33,0.05983129787,-0.01014521405
5.34,0.05921373575,-0.01248722221
5.35,0.0585066112,-0.01479376892
5.36,0.05771191657,-0.0170615773
5.37,0.0568317533,-0.01928748216
5.38,0.05586832559,-0.0214684328
5.39,0.05482393409,-0.02360149544
5.4,0.05370096958,-0.02568385529
5.41,0.05250190678,-0.02771281832
5.42,0.05122929806,-0.02968581264
5.43,0.0498857674,-0.03160038958
5.44,0.04847400432,-0.03345422448
5.45,0.04699675796,-0.03524511712
5.46,0.04545683132,-0.03697099192
5.47,0.04385707561,-0.03862989789
5.48,0.04220038471,-0.04022000822
5.49,0.04048968987,-0.04173961977
5.5,0.03872795456,-0.04318715223
5.51,0.03691816946,-0.04456114711
5.52,0.03506334765,-0.04586026658
5.53,0.03316652009,-0.04708329209
5.54,0.03123073113,-0.04822912283
5.55,0.02925903439,-0.04929677411
5.56,0.02725448872,-0.05028537558
5.57,0.02522015442,-0.05119416934
5.58,0.02315908969,-0.05202250798
5.59,0.02107434723,-0.05276985259
5.6,0.01896897105,-0.05343577064
5.61,0.01684599349,-0.05401993387
5.62,0.01470843246,-0.05452211615
5.63,0.01255928879,-0.05494219134
5.64,0.01040154382,-0.05528013115
5.65,0.008238157136,-0.05553600296
5.66,0.006072064469,-0.05570996779
5.67,0.003906175738,-0.05580227821
5.68,0.001743373246,-0.05581327629
5.69,-0.0004134899995,-0.05574339172
5.7,-0.002561591851,-0.05559313985
5.71,-0.004698142473,-0.05536311991
5.72,-0.006820385701,-0.05505401326
5.73,-0.008925600323,-0.05466658172
5.74,-0.01101110128,-0.05420166603
5.75,-0.01307424082,-0.0536601843
5.76,-0.01511240959,-0.05304313066
5.77,-0.01712303774,-0.05235157393
5.78,-0.01910359594,-0.05158665641
5.79,-0.02105159642,-0.05074959268
5.8,-0.02296459404,-0.04984166861
5.81,-0.02484018735,-0.04886424035
5.82,-0.02667601965,-0.04781873338
5.83,-0.02846978013,-0.04670664172
5.84,-0.030219205,-0.04552952709
5.85,-0.03192207877,-0.04428901821
5.86,-0.03357623548,-0.04298681008
5.87,-0.03517956003,-0.0416246633
5.88,-0.03672998966,-0.04020440347
5.89,-0.0382255154,-0.03872792052
5.9,-0.03966418368,-0.03719716809
5.91,-0.04104409801,-0.03561416292
5.92,-0.0423634207,-0.03398098413
5.93,-0.04362037477,-0.03229977261
5.94,-0.04481324587,-0.03057273017
5.95,-0.04594038431,-0.02880211886
5.96,-0.0470002072,-0.02699026002
5.97,-0.04799120068,-0.02513953335
5.98,-0.04891192218,-0.0232523759
5.99,-0.04976100283,-0.02133128088
6,-0.0505371499,-0.01937879641
