"Freq [GHz]","re(S(Tx_p1,Tx_p1)) []","im(S(Tx_p1,Tx_p1)) []"
1,-0.002943906521,-0.002306848845
1.01,-0.003015231059,-0.00218040495
1.02,-0.003081652809,-0.002052551285
1.03,-0.003143221479,-0.00192346158
1.04,-0.003199992505,-0.001793298077
1.05,-0.003252025673,-0.001662211419
1.06,-0.003299383754,-0.001530340678
1.07,-0.003342131174,-0.001397813513
1.08,-0.00338033271,-0.001264746464
1.09,-0.003414052246,-0.001131245367
1.1,-0.003443351588,-0.0009974058928
1.11,-0.003468289347,-0.00086331419
1.12,-0.003488919903,-0.0007290476449
1.13,-0.003505292462,-0.0005946757293
1.14,-0.003517450207,-0.0004602609399
1.15,-0.003525429549,-0.0003258598153
1.16,-0.003529259501,-0.0001915240215
1.17,-0.003528961157,-5.730149484E-05
1.18,-0.003524547297,7.676236817E-05
1.19,-0.003516022114,0.0002106234857
1.2,-0.003503381073,0.0003442378417
1.21,-0.003486610892,0.0004775602242
1.22,-0.003465689656,0.0006105429641
1.23,-0.003440587059,0.0007431346846
1.24,-0.003411264779,0.0008752790741
1.25,-0.003377676964,0.001006913693
1.26,-0.003339770858,0.001137968827
1.27,-0.00329748753,0.001268366396
1.28,-0.003250762724,0.001398018933
1.29,-0.003199527809,0.001526828637
1.3,-0.003143710835,0.001654686513
1.31,-0.003083237678,0.001781471612
1.32,-0.003018033262,0.00190705037
1.33,-0.002948022868,0.002031276061
1.34,-0.002873133496,0.002153988366
1.35,-0.002793295288,0.002275013072
1.36,-0.002708442989,0.002394161893
1.37,-0.002618517449,0.00251123243
1.38,-0.002523467135,0.002626008263
1.39,-0.002423249659,0.002738259186
1.4,-0.002317833302,0.00284774158
1.41,-0.002207198524,0.002954198927
1.42,-0.002091339443,0.003057362461
1.43,-0.001970265281,0.003156951963
1.44,-0.001844001751,0.003252676687
1.45,-0.001712592394,0.003344236414
1.46,-0.001576099827,0.003431322644
1.47,-0.001434606922,0.003513619898
1.48,-0.001288217876,0.00359080714
1.49,-0.001137059185,0.003662559308
1.5,-0.000981280499,0.003728548942
1.51,-0.0008210553567,0.003788447901
1.52,-0.0006565817856,0.003841929168
1.53,-0.0004880827655,0.003888668717
1.54,-0.0003158065464,0.003928347447
1.55,-0.0001400268158,0.003960653158
1.56,3.895728988E-05,0.003985282568
1.57,0.0002208213324,0.004001943357
1.58,0.0004052158811,0.004010356212
1.59,0.0005917669861,0.004010256886
1.6,0.0007800768157,0.004001398228
1.61,0.0009697244583,0.003983552197
1.62,0.001160266887,0.00395651183
1.63,0.001351240087,0.003920093162
1.64,0.001542160334,0.003874137073
1.65,0.001732525636,0.003818511062
1.66,0.001921817313,0.003753110933
1.67,0.002109501725,0.003677862367
1.68,0.002295032129,0.003592722395
1.69,0.002477850669,0.003497680735
1.7,0.002657390476,0.003392760999
1.71,0.002833077879,0.003278021757
1.72,0.003004334715,0.00315355744
1.73,0.003170580724,0.003019499092
1.74,0.003331236015,0.002876014948
1.75,0.003485723596,0.002723310833
1.76,0.003633471958,0.002561630392
1.77,0.003773917683,0.002391255124
1.78,0.003906508087,0.002212504235
1.79,0.004030703862,0.002025734296
1.8,0.00414598172,0.001831338716
1.81,0.004251837005,0.001629747012
1.82,0.004347786285,0.001421423901
1.83,0.004433369887,0.001206868193
1.84,0.004508154369,0.0009866114998
1.85,0.00457173492,0.0007612167637
1.86,0.004623737666,0.0005312766064
1.87,0.004663821876,0.0002974115077
1.88,0.004691682052,6.026781945E-05
1.89,0.004707049885,-0.0001794843773
1.9,0.00470969608,-0.0004211535622
1.91,0.004699432022,-0.000664029203
1.92,0.004676111289,-0.0009073843116
1.93,0.004639630984,-0.001150478114
1.94,0.0045899329,-0.001392558826
1.95,0.004527004483,-0.00163286652
1.96,0.004450879616,-0.001870636068
1.97,0.004361639193,-0.002105100149
1.98,0.004259411491,-0.002335492311
1.99,0.00414437233,-0.002561050063
2,0.004016745031,-0.00278101799
2.01,0.003876800148,-0.002994650873
2.02,0.003724854994,-0.003201216803
2.03,0.003561272951,-0.003400000266
2.04,0.003386462568,-0.003590305188
2.05,0.003200876448,-0.003771457931
2.06,0.003005009934,-0.003942810216
2.07,0.002799399587,-0.004103741959
2.08,0.002584621476,-0.004253664013
2.09,0.002361289274,-0.004392020799
2.1,0.002130052177,-0.004518292807
2.11,0.001891592649,-0.004631998964
2.12,0.001646624007,-0.00473269885
2.13,0.001395887855,-0.004819994751
2.14,0.001140151372,-0.004893533547
2.15,0.0008802044785,-0.00495300841
2.16,0.0006168568872,-0.004998160318
2.17,0.0003509350449,-0.005028779372
2.18,8.327899295E-05,-0.0050447059
2.19,-0.0001852608495,-0.00504583136
2.2,-0.0004538269607,-0.00503209902
2.21,-0.0007215580365,-0.005003504423
2.22,-0.0009875923387,-0.004960095625
2.23,-0.001251071057,-0.004901973215
2.24,-0.001511141671,-0.004829290105
2.25,-0.001766961291,-0.004742251098
2.26,-0.002017699967,-0.004641112233
2.27,-0.002262543956,-0.004526179912
2.28,-0.002500698912,-0.004397809809
2.29,-0.002731393015,-0.004256405566
2.3,-0.002953879991,-0.004102417291
2.31,-0.003167442041,-0.00393633985
2.32,-0.003371392637,-0.003758710972
2.33,-0.003565079195,-0.003570109168
2.34,-0.0037478856,-0.003371151489
2.35,-0.003919234572,-0.003162491108
2.36,-0.004078589874,-0.00294481476
2.37,-0.004225458333,-0.002718840044
2.38,-0.004359391682,-0.002485312592
2.39,-0.004479988212,-0.002245003134
2.4,-0.004586894213,-0.001998704458
2.41,-0.00467980522,-0.001747228285
2.42,-0.00475846704,-0.001491402076
2.43,-0.004822676566,-0.001232065782
2.44,-0.004872282378,-0.0009700685553
2.45,-0.004907185111,-0.0007062654269
2.46,-0.004927337615,-0.0004415139848
2.47,-0.004932744891,-0.0001766710491
2.48,-0.0049234638,8.7410631E-05
2.49,-0.004899602567,0.0003498856453
2.5,-0.004861320061,0.0006099191419
2.51,-0.004808824872,0.0008666899823
2.52,-0.004742374187,0.00111939382
2.53,-0.004662272455,0.001367246087
2.54,-0.004568869884,0.001609484876
2.55,-0.004462560733,0.001845373707
2.56,-0.004343781448,0.002074204166
2.57,-0.004213008629,0.0022952984
2.58,-0.004070756844,0.002508011472
2.59,-0.003917576303,0.002711733544
2.6,-0.0037540504,0.002905891903
2.61,-0.003580793144,0.003089952805
2.62,-0.003398446479,0.00326342314
2.63,-0.003207677515,0.003425851903
2.64,-0.003009175684,0.003576831481
2.65,-0.002803649829,0.003715998733
2.66,-0.002591825242,0.003843035876
2.67,-0.002374440673,0.003957671163
2.68,-0.00215224531,0.004059679362
2.69,-0.001925995752,0.004148882033
2.7,-0.001696452997,0.004225147594
2.71,-0.001464379439,0.0042883912
2.72,-0.001230535908,0.004338574409
2.73,-0.0009956787505,0.004375704671
2.74,-0.0007605569774,0.004399834612
2.75,-0.0005259094777,0.004411061153
2.76,-0.0002924623212,0.004409524432
2.77,-6.092615656E-05,0.004395406577
2.78,0.0001680062845,0.004368930305
2.79,0.0003936625649,0.004330357373
2.8,0.0006153927936,0.004279986889
2.81,0.000832571742,0.004218153486
2.82,0.001044600817,0.004145225378
2.83,0.001250909881,0.0040616023
2.84,0.001450958924,0.003967713356
2.85,0.001644239559,0.003864014775
2.86,0.001830276368,0.003750987591
2.87,0.002008628063,0.00362913526
2.88,0.002178888485,0.003498981231
2.89,0.002340687421,0.003361066476
2.9,0.002493691254,0.003215946991
2.91,0.002637603429,0.003064191291
2.92,0.002772164751,0.002906377898
2.93,0.002897153507,0.002743092848
2.94,0.003012385425,0.002574927216
2.95,0.003117713457,0.002402474677
2.96,0.003213027407,0.002226329117
2.97,0.003298253406,0.002047082296
2.98,0.003373353226,0.001865321589
2.99,0.003438323462,0.00168162779
3,0.003493194567,0.001496573017
3.01,0.003538029766,0.001310718704
3.02,0.003572923846,0.001124613701
3.03,0.003598001836,0.0009387924818
3.04,0.003613417582,0.0007537734714
3.05,0.003619352234,0.000570057497
3.06,0.003616012648,0.0003881263652
3.07,0.003603629718,0.0002084415732
3.08,0.003582456643,3.144315594E-05
3.09,0.003552767146,-0.000142451329
3.1,0.003514853656,-0.0003128476754
3.11,0.003469025449,-0.0004793757613
3.12,0.00341560679,-0.0006416901411
3.13,0.003354935044,-0.0007994704955
3.14,0.00328735881,-0.0009524219438
3.15,0.003213236053,-0.001100275217
3.16,0.003132932268,-0.001242786699
3.17,0.003046818671,-0.001379738334
3.18,0.002955270431,-0.001510937413
3.19,0.002858664959,-0.00163621623
3.2,0.002757380246,-0.001755431635
3.21,0.002651793273,-0.001868464463
3.22,0.002542278495,-0.001975218876
3.23,0.002429206402,-0.002075621593
3.24,0.002312942169,-0.002169621044
3.25,0.002193844393,-0.00225718644
3.26,0.002072263933,-0.00233830677
3.27,0.001948542845,-0.002412989733
3.28,0.001823013421,-0.002481260622
3.29,0.001695997333,-0.002543161154
3.3,0.001567804893,-0.002598748271
3.31,0.001438734407,-0.002648092904
3.32,0.001309071655,-0.002691278731
3.33,0.001179089465,-0.002728400911
3.34,0.001049047405,-0.002759564831
3.35,0.0009191915797,-0.002784884846
3.36,0.0007897545247,-0.002804483049
3.37,0.0006609552108,-0.002818488057
3.38,0.0005329991387,-0.002827033829
3.39,0.0004060785304,-0.002830258528
3.4,0.0002803726073,-0.002828303425
3.41,0.0001560479517,-0.002821311856
3.42,3.32589466E-05,-0.002809428244
3.43,-8.785171463E-05,-0.002792797175
3.44,-0.0002071524529,-0.002771562552
3.45,-0.0003245221704,-0.00274586682
3.46,-0.0004398495673,-0.002715850266
3.47,-0.0005530324144,-0.002681650402
3.48,-0.0006639767904,-0.002643401434
3.49,-0.000772596291,-0.002601233808
3.5,-0.0008788112175,-0.00255527385
3.51,-0.0009825477529,-0.002505643486
3.52,-0.001083737133,-0.002452460056
3.53,-0.001182314821,-0.002395836209
3.54,-0.001278219692,-0.002335879881
3.55,-0.001371393232,-0.002272694359
3.56,-0.001461778771,-0.002206378426
3.57,-0.001549320737,-0.002137026579
3.58,-0.001633963953,-0.002064729319
3.59,-0.001715652981,-0.001989573519
3.6,-0.001794331514,-0.001911642843
3.61,-0.001869941819,-0.001831018237
3.62,-0.001942424247,-0.001747778462
3.63,-0.00201171681,-0.001662000684
3.64,-0.002077754812,-0.001573761097
3.65,-0.002140470572,-0.001483135589
3.66,-0.002199793207,-0.001390200431
3.67,-0.002255648494,-0.001295032985
3.68,-0.002307958819,-0.001197712432
3.69,-0.002356643193,-0.001098320502
3.7,-0.002401617357,-0.0009969422027
3.71,-0.002442793961,-0.0008936665477
3.72,-0.002480082825,-0.0007885872593
3.73,-0.002513391273,-0.000681803457
3.74,-0.002542624542,-0.0005734203136
3.75,-0.00256768627,-0.0004635496765
3.76,-0.00258847904,-0.0003523106464
3.77,-0.002604905004,-0.0002398301082
3.78,-0.002616866555,-0.0001262432068
3.79,-0.002624267061,-1.169376421E-05
3.8,-0.002627011652,0.0001036653691
3.81,-0.002625008044,0.0002196720318
3.82,-0.002618167414,0.0003361545427
3.83,-0.002606405294,0.0004529315693
3.84,-0.002589642506,0.0005698120767
3.85,-0.002567806102,0.0006865953589
3.86,-0.00254083033,0.0008030711557
3.87,-0.002508657592,0.0009190198554
3.88,-0.002471239412,0.001034212784
3.89,-0.002428537384,0.001148412585
3.9,-0.002380524112,0.00126137368
3.91,-0.002327184116,0.001372842821
3.92,-0.002268514716,0.001482559724
3.93,-0.002204526869,0.001590257786
3.94,-0.002135245967,0.001695664883
3.95,-0.002060712574,0.001798504235
3.96,-0.001980983115,0.00189849536
3.97,-0.001896130487,0.001995355075
3.98,-0.001806244608,0.00208879858
3.99,-0.001711432886,0.002178540582
4,-0.001611820608,0.002264296483
4.01,-0.001507551238,0.002345783607
4.02,-0.001398786629,0.002422722467
4.03,-0.001285707142,0.002494838065
4.04,-0.001168511663,0.002561861213
4.05,-0.001047417525,0.002623529876
4.06,-0.0009226603281,0.002679590522
4.07,-0.0007944936528,0.002729799471
4.08,-0.0006631886769,0.002773924243
4.09,-0.0005290336836,0.002811744887
4.1,-0.0003923334699,0.002843055288
4.11,-0.0002534086518,0.002867664449
4.12,-0.0001125948713,0.002885397727
4.13,2.97580953E-05,0.002896098029
4.14,0.0001732873219,0.002899626949
4.15,0.000317617809,0.002895865854
4.16,0.0004623636458,0.002884716887
4.17,0.0006071292538,0.002866103912
4.18,0.0007515107081,0.00283997336
4.19,0.0008950971279,0.002806295008
4.2,0.001037472133,0.002765062645
4.21,0.001178215356,0.002716294657
4.22,0.00131690401,0.002660034497
4.23,0.001453114495,0.002596351056
4.24,0.001586424041,0.002525338921
4.25,0.001716412382,0.002447118519
4.26,0.001842663449,0.00236183615
4.27,0.001964767071,0.002269663892
4.28,0.002082320682,0.002170799405
4.29,0.002194931023,0.002065465595
4.3,0.002302215829,0.001953910179
4.31,0.00240380549,0.001836405115
4.32,0.002499344687,0.001713245928
4.33,0.002588493981,0.001584750913
4.34,0.00267093136,0.00145126023
4.35,0.002746353728,0.001313134889
4.36,0.002814478325,0.00117075563
4.37,0.002875044083,0.001024521699
4.38,0.002927812899,0.000874849537
4.39,0.002972570822,0.0007221713672
4.4,0.003009129148,0.0005669337081
4.41,0.003037325419,0.0004095958028
4.42,0.003057024315,0.0002506279792
4.43,0.003068118436,9.050994714E-05
4.44,0.003070528977,-7.027096179E-05
4.45,0.003064206279,-0.0002312216012
4.46,0.003049130261,-0.0003918448576
4.47,0.003025310732,-0.0005516415287
4.48,0.002992787569,-0.0007101122252
4.49,0.002951630777,-0.0008667592859
4.5,0.002901940416,-0.001021088698
4.51,0.002843846397,-0.001172612012
4.52,0.002777508156,-0.00132084825
4.53,0.002703114198,-0.00146532578
4.54,0.00262088151,-0.001605584174
4.55,0.002531054863,-0.001741176015
4.56,0.002433905982,-0.001871668664
4.57,0.002329732604,-0.001996645967
4.58,0.002218857424,-0.002115709901
4.59,0.00210162693,-0.002228482143
4.6,0.001978410137,-0.002334605566
4.61,0.001849597227,-0.002433745647
4.62,0.001715598084,-0.002525591781
4.63,0.001576840764,-0.002609858497
4.64,0.001433769872,-0.002686286573
4.65,0.001286844874,-0.002754644036
4.66,0.001136538347,-0.002814727055
4.67,0.0009833341736,-0.002866360708
4.68,0.0008277256874,-0.002909399638
4.69,0.0006702137854,-0.002943728576
4.7,0.0005113050066,-0.002969262743
4.71,0.0003515095914,-0.002985948124
4.72,0.0001913395295,-0.002993761609
4.73,3.130660359E-05,-0.00299271101
4.74,-0.0001280795604,-0.002982834947
4.75,-0.000286313429,-0.002964202608
4.76,-0.0004428954738,-0.002936913377
4.77,-0.0005973340522,-0.002901096346
4.78,-0.0007491472483,-0.002856909699
4.79,-0.0008978646662,-0.002804539979
4.8,-0.001043029167,-0.002744201243
4.81,-0.00118419854,-0.002676134103
4.82,-0.001320947112,-0.002600604666
4.83,-0.001452867265,-0.00251790337
4.84,-0.001579570883,-0.002428343728
4.85,-0.001700690703,-0.002332260982
4.86,-0.001815881571,-0.002230010679
4.87,-0.0019248216,-0.002121967167
4.88,-0.002027213219,-0.00200852203
4.89,-0.00212278412,-0.001890082458
4.9,-0.002211288084,-0.001767069566
4.91,-0.002292505701,-0.00163991667
4.92,-0.002366244965,-0.001509067529
4.93,-0.002432341756,-0.001374974551
4.94,-0.002490660199,-0.001238096988
4.95,-0.002541092899,-0.001098899114
4.96,-0.002583561063,-0.0009578484051
4.97,-0.002618014495,-0.0008154137159
4.98,-0.002644431477,-0.0006720634785
4.99,-0.002662818525,-0.0005282639162
5,-0.002673210043,-0.0003844772891
5.01,-0.002675667851,-0.0002411601742
5.02,-0.002670280613,-9.876179091E-05
5.03,-0.002657163158,4.227762405E-05
5.04,-0.002636455697,0.0001815283832
5.05,-0.002608322946,0.0003185728514
5.06,-0.002572953161,0.0004530068793
5.07,-0.002530557082,0.0005844411606
5.08,-0.002481366802,0.0007125025089
5.09,-0.002425634555,0.0008368350493
5.1,-0.002363631449,0.0009571013201
5.11,-0.002295646125,0.001072983281
5.12,-0.00222198337,0.001184183224
5.13,-0.002142962687,0.001290424584
5.14,-0.002058916811,0.001391452654
5.15,-0.00197019021,0.001487035182
5.16,-0.001877137553,0.00157696288
5.17,-0.001780122154,0.001661049818
5.18,-0.001679514421,0.00173913371
5.19,-0.00157569029,0.001811076102
5.2,-0.001469029669,0.001876762452
5.21,-0.001359914888,0.001936102103
5.22,-0.001248729178,0.001989028163
5.23,-0.001135855164,0.002035497276
5.24,-0.001021673395,0.002075489302
5.25,-0.0009065609105,0.002109006905
5.26,-0.0007908898549,0.002136075049
5.27,-0.0006750261347,0.002156740407
5.28,-0.0005593281362,0.002171070689
5.29,-0.0004441455004,0.002179153899
5.3,-0.000329817964,0.002181097509
5.31,-0.0002166742677,0.002177027578
5.32,-0.0001050311386,0.002167087803
5.33,4.80765252E-06,0.002151438515
5.34,0.0001125521547,0.002130255629
5.35,0.0002179270185,0.002103729546
5.36,0.0003206721948,0.002072064023
5.37,0.0004205435483,0.002035475007
5.38,0.0005173133848,0.001994189444
5.39,0.0006107708916,0.001948444077
5.4,0.0007007224912,0.001898484221
5.41,0.0007869921073,0.001844562539
5.42,0.000869421346,0.001786937816
5.43,0.0009478695904,0.001725873739
5.44,0.001022214013,0.00166163769
5.45,0.001092349505,0.001594499554
5.46,0.001158188528,0.001524730553
5.47,0.001219660887,0.001452602107
5.48,0.001276713433,0.001378384728
5.49,0.001329309691,0.001302346954
5.5,0.001377429425,0.001224754322
5.51,0.001421068138,0.001145868395
5.52,0.001460236515,0.001065945829
5.53,0.00149495981,0.0009852375011
5.54,0.001525277189,0.000903987697
5.55,0.001551241019,0.0008224333503
5.56,0.001572916126,0.00074080335
5.57,0.001590379011,0.0006593179102
5.58,0.001603717045,0.0005781880057
5.59,0.001613027633,0.0004976148743
5.6,0.001618417357,0.000417789587
5.61,0.001620001114,0.0003388926857
5.62,0.001617901235,0.00026109389
5.63,0.001612246609,0.0001845518701
5.64,0.001603171801,0.0001094140884
5.65,0.00159081618,3.581670477E-05
5.66,0.00157532306,-3.611545169E-05
5.67,0.00155683885,-0.0001062688501
5.68,0.001535512231,-0.0001745411641
5.69,0.001511493351,-0.0002408411202
5.7,0.001484933054,-0.0003050882911
5.71,0.001455982134,-0.0003672128367
5.72,0.001424790632,-0.0004271551961
5.73,0.001391507165,-0.0004848657338
5.74,0.001356278298,-0.0005403043443
5.75,0.001319247959,-0.0005934400181
5.76,0.001280556907,-0.0006442503739
5.77,0.001240342235,-0.0006927211605
5.78,0.001198736931,-0.0007388457324
5.79,0.001155869494,-0.0007826245046
5.8,0.001111863585,-0.000824064389
5.81,0.001066837751,-0.0008631782182
5.82,0.001020905185,-0.0008999841605
5.83,0.0009741735428,-0.0009345051299
5.84,0.0009267448181,-0.0009667681963
5.85,0.0008787152584,-0.0009968039991
5.86,0.0008301753373,-0.001024646169
5.87,0.0007812097726,-0.001050330759
5.88,0.000731897592,-0.001073895697
5.89,0.0006823122434,-0.001095380248
5.9,0.0006325217472,-0.00111482451
5.91,0.0005825888896,-0.001132268922
5.92,0.0005325714527,-0.001147753811
5.93,0.0004825224794,-0.001161318968
5.94,0.0004324905695,-0.001173003253
5.95,0.0003825202046,-0.00118284424
5.96,0.0003326520972,-0.001190877896
5.97,0.0002829235621,-0.001197138302
5.98,0.0002333689046,-0.001201657416
5.99,0.0001840198239,-0.001204464868
6,0.0001349058266,-0.001205587812
