"Freq [GHz]","re(S(Tx_p1,Tx_p1)) []","im(S(Tx_p1,Tx_p1)) []"
1,-0.01278157976,-0.01010847103
1.01,-0.01317517018,-0.009501658398
1.02,-0.01354062911,-0.00887886878
1.03,-0.0138772556,-0.008241463339
1.04,-0.01418442226,-0.007590832538
1.05,-0.01446157592,-0.006928391828
1.06,-0.01470823806,-0.006255577397
1.07,-0.01492400495,-0.005573841969
1.08,-0.01510854761,-0.004884650696
1.09,-0.01526161157,-0.004189477123
1.1,-0.01538301641,-0.003489799259
1.11,-0.01547265508,-0.002787095742
1.12,-0.01553049305,-0.002082842126
1.13,-0.01555656736,-0.001378507278
1.14,-0.01555098539,-0.000675549901
1.15,-0.01551392358,2.45848112E-05
1.16,-0.01544562594,0.0007204683896
1.17,-0.0153464025,0.001410692167
1.18,-0.01521662758,0.002093870219
1.19,-0.01505673801,0.002768642158
1.2,-0.0148672312,0.003433675796
1.21,-0.01464866318,0.004087669652
1.22,-0.01440164654,0.004729355329
1.23,-0.01412684825,0.005357499743
1.24,-0.01382498756,0.005970907217
1.25,-0.01349683367,0.006568421432
1.26,-0.01314320356,0.007148927245
1.27,-0.01276495959,0.007711352381
1.28,-0.01236300722,0.008254668982
1.29,-0.01193829265,0.008777895043
1.3,-0.01149180043,0.00928009572
1.31,-0.01102455115,0.009760384519
1.32,-0.01053759899,0.01021792438
1.33,-0.01003202939,0.01065192862
1.34,-0.009508956687,0.01106166184
1.35,-0.008969521732,0.01144644065
1.36,-0.008414889571,0.01180563432
1.37,-0.007846247099,0.01213866542
1.38,-0.007264800753,0.01244501021
1.39,-0.006671774214,0.01272419911
1.4,-0.006068406136,0.01297581699
1.41,-0.005455947885,0.01319950343
1.42,-0.004835661309,0.01339495283
1.43,-0.004208816526,0.01356191459
1.44,-0.003576689729,0.01370019308
1.45,-0.002940561017,0.01380964762
1.46,-0.002301712243,0.01389019238
1.47,-0.001661424889,0.0139417962
1.48,-0.001020977946,0.01396448242
1.49,-0.0003816458294,0.01395832854
1.5,0.0002553037019,0.0139234659
1.51,0.0008886116001,0.01386007931
1.52,0.001517029571,0.01376840655
1.53,0.002139322101,0.01364873791
1.54,0.002754268465,0.01350141557
1.55,0.003360664725,0.01332683303
1.56,0.003957325709,0.01312543435
1.57,0.004543086977,0.01289771348
1.58,0.005116806769,0.0126442134
1.59,0.005677367942,0.01236552526
1.6,0.006223679886,0.01206228745
1.61,0.006754680423,0.0117351846
1.62,0.007269337685,0.0113849465
1.63,0.007766651971,0.01101234695
1.64,0.008245657585,0.01061820257
1.65,0.008705424639,0.01020337149
1.66,0.009145060831,0.009768752006
1.67,0.009563713198,0.009315281126
1.68,0.009960569815,0.008843933065
1.69,0.01033486148,0.008355717644
1.7,0.01068586331,0.007851678612
1.71,0.01101289638,0.007332891895
1.72,0.01131532918,0.006800463752
1.73,0.01159257913,0.006255528859
1.74,0.01184411395,0.005699248308
1.75,0.01206945303,0.005132807525
1.76,0.01226816868,0.004557414114
1.77,0.01243988732,0.003974295614
1.78,0.01258429056,0.003384697192
1.79,0.01270111623,0.002789879249
1.8,0.01279015928,0.002191114971
1.81,0.01285127261,0.001589687798
1.82,0.01288436777,0.0009868888399
1.83,0.01288941552,0.0003840142265
1.84,0.01286644636,-0.0002176375909
1.85,0.01281555083,-0.0008167685918
1.86,0.01273687977,-0.00141208398
1.87,0.01263064438,-0.002002295015
1.88,0.0124971162,-0.002586121875
1.89,0.01233662692,-0.00316229654
1.9,0.01214956802,-0.003729565698
1.91,0.01193639035,-0.004286693654
1.92,0.01169760343,-0.004832465239
1.93,0.01143377475,-0.00536568872
1.94,0.01114552876,-0.005885198682
1.95,0.01083354586,-0.006389858891
1.96,0.01049856109,-0.006878565123
1.97,0.01014136278,-0.007350247948
1.98,0.009762790975,-0.007803875461
1.99,0.00936373575,-0.008238455948
2,0.008945135347,-0.008653040486
2.01,0.008507974174,-0.009046725459
2.02,0.008053280663,-0.009418654979
2.03,0.007582124984,-0.009768023218
2.04,0.007095616618,-0.01009407662
2.05,0.006594901811,-0.01039611599
2.06,0.006081160892,-0.0106734985
2.07,0.005555605476,-0.01092563949
2.08,0.005019475557,-0.01115201417
2.09,0.0044740365,-0.0113521592
2.1,0.003920575926,-0.01152567403
2.11,0.003360400524,-0.01167222217
2.12,0.002794832775,-0.01179153222
2.13,0.002225207615,-0.01188339874
2.14,0.001652869031,-0.01194768301
2.15,0.001079166616,-0.01198431346
2.16,0.000505452089,-0.01199328608
2.17,-6.692422172E-05,-0.0119746645
2.18,-0.0006366168995,-0.01192857998
2.19,-0.00120228897,-0.01185523113
2.2,-0.00176261542,-0.01175488347
2.21,-0.002316286701,-0.01162786879
2.22,-0.002862012198,-0.01147458434
2.23,-0.003398523654,-0.01129549176
2.24,-0.003924578547,-0.01109111589
2.25,-0.004438963389,-0.01086204335
2.26,-0.00494049696,-0.01060892095
2.27,-0.005428033445,-0.0103324539
2.28,-0.005900465476,-0.01003340392
2.29,-0.006356727059,-0.009712587026
2.3,-0.006795796387,-0.009370871342
2.31,-0.007216698521,-0.009009174614
2.32,-0.007618507927,-0.00862846164
2.33,-0.008000350873,-0.008229741545
2.34,-0.008361407664,-0.007814064933
2.35,-0.008700914715,-0.007382520906
2.36,-0.009018166456,-0.006936233985
2.37,-0.009312517052,-0.006476360921
2.38,-0.009583381949,-0.00600408742
2.39,-0.009830239228,-0.005520624789
2.4,-0.01005263076,-0.005027206517
2.41,-0.01025016319,-0.004525084797
2.42,-0.01042250866,-0.004015527004
2.43,-0.01056940545,-0.003499812144
2.44,-0.01069065826,-0.002979227285
2.45,-0.01078613843,-0.002455063974
2.46,-0.01085578387,-0.001928614669
2.47,-0.01089959883,-0.001401169174
2.48,-0.01091765344,-0.0008740111206
2.49,-0.01091008312,-0.0003484144727
2.5,-0.01087708769,0.0001743599034
2.51,-0.01081893037,0.0006930676113
2.52,-0.0107359366,0.001206484021
2.53,-0.01062849262,0.001713407479
2.54,-0.01049704395,0.002212662425
2.55,-0.01034209359,0.002703102398
2.56,-0.01016420026,0.003183612934
2.57,-0.009963976232,0.003653114339
2.58,-0.009742085254,0.00411056432
2.59,-0.009499240185,0.004554960493
2.6,-0.009236200577,0.004985342733
2.61,-0.00895377012,0.005400795369
2.62,-0.008652793986,0.005800449232
2.63,-0.008334156078,0.006183483527
2.64,-0.007998776194,0.006549127542
2.65,-0.007647607119,0.006896662186
2.66,-0.007281631649,0.007225421349
2.67,-0.006901859575,0.007534793084
2.68,-0.006509324612,0.007824220616
2.69,-0.006105081307,0.008093203166
2.7,-0.005690201928,0.008341296595
2.71,-0.005265773342,0.008568113872
2.72,-0.004832893899,0.008773325363
2.73,-0.004392670327,0.008956658942
2.74,-0.003946214652,0.009117899935
2.75,-0.003494641154,0.009256890881
2.76,-0.003039063361,0.009373531143
2.77,-0.002580591104,0.009467776344
2.78,-0.002120327625,0.009539637656
2.79,-0.001659366766,0.009589180927
2.8,-0.001198790226,0.009616525674
2.81,-0.0007396649121,0.009621843928
2.82,-0.0002830403827,0.009605358954
2.83,0.0001700536118,0.009567343837
2.84,0.0006186094792,0.009508119964
2.85,0.001061644025,0.009428055381
2.86,0.001498200574,0.009327563063
2.87,0.001927350974,0.009207099077
2.88,0.002348197468,0.009067160674
2.89,0.002759874447,0.008908284296
2.9,0.003161550066,0.008731043518
2.91,0.003552427726,0.008536046929
2.92,0.00393174743,0.008323935968
2.93,0.004298786995,0.008095382715
2.94,0.004652863133,0.007851087649
2.95,0.004993332401,0.007591777384
2.96,0.00531959201,0.007318202385
2.97,0.005631080502,0.00703113468
2.98,0.005927278306,0.00673136557
2.99,0.006207708153,0.006419703344
3,0.00647193537,0.006096971014
3.01,0.006719568059,0.005764004069
3.02,0.006950257144,0.005421648253
3.03,0.007163696315,0.005070757387
3.04,0.007359621851,0.004712191221
3.05,0.007537812351,0.004346813343
3.06,0.007698088349,0.003975489127
3.07,0.007840311841,0.003599083749
3.08,0.007964385723,0.003218460254
3.09,0.008070253139,0.002834477687
3.1,0.008157896753,0.002447989303
3.11,0.008227337944,0.002059840827
3.12,0.008278635937,0.001670868806
3.13,0.008311886866,0.001281899022
3.14,0.008327222785,0.0008937449906
3.15,0.00832481063,0.0005072065257
3.16,0.008304851126,0.0001230683943
3.17,0.008267577665,-0.0002579009582
3.18,0.008213255144,-0.0006349506024
3.19,0.008142178772,-0.001007348241
3.2,0.008054672863,-0.001374381249
3.21,0.007951089596,-0.001735357635
3.22,0.007831807767,-0.002089606933
3.23,0.007697231538,-0.002436481017
3.24,0.007547789166,-0.002775354843
3.25,0.007383931738,-0.003105627131
3.26,0.00720613191,-0.003426720967
3.27,0.007014882644,-0.003738084354
3.28,0.006810695955,-0.004039190694
3.29,0.006594101673,-0.004329539213
3.3,0.00636564621,-0.004608655329
3.31,0.006125891347,-0.004876090972
3.32,0.005875413042,-0.00513142485
3.33,0.00561480024,-0.005374262666
3.34,0.005344653725,-0.005604237297
3.35,0.005065584972,-0.005821008932
3.36,0.004778215032,-0.006024265161
3.37,0.004483173432,-0.006213721044
3.38,0.004181097102,-0.00638911914
3.39,0.003872629317,-0.0065502295
3.4,0.003558418661,-0.006696849644
3.41,0.003239118019,-0.006828804505
3.42,0.002915383575,-0.006945946351
3.43,0.00258787384,-0.007048154685
3.44,0.002257248691,-0.007135336127
3.45,0.001924168431,-0.007207424277
3.46,0.00158929286,-0.007264379555
3.47,0.001253280362,-0.007306189037
3.48,0.0009167870043,-0.007332866261
3.49,0.0005804656486,-0.007344451028
3.5,0.0002449650698,-0.007341009187
3.51,-8.90709155E-05,-0.007322632399
3.52,-0.0004210043129,-0.007289437896
3.53,-0.0007502038094,-0.007241568217
3.54,-0.001076045628,-0.007179190931
3.55,-0.001397914376,-0.007102498346
3.56,-0.001715203897,-0.007011707196
3.57,-0.002027318113,-0.006907058317
3.58,-0.002333671869,-0.006788816295
3.59,-0.002633691781,-0.006657269098
3.6,-0.002926817074,-0.006512727687
3.61,-0.003212500428,-0.006355525598
3.62,-0.003490208819,-0.006186018507
3.63,-0.003759424359,-0.006004583756
3.64,-0.00401964514,-0.005811619863
3.65,-0.004270386062,-0.00560754599
3.66,-0.004511179677,-0.005392801391
3.67,-0.00474157701,-0.005167844811
3.68,-0.004961148385,-0.004933153866
3.69,-0.005169484238,-0.004689224372
3.7,-0.005366195924,-0.004436569646
3.71,-0.005550916509,-0.004175719758
3.72,-0.005723301545,-0.003907220755
3.73,-0.005883029837,-0.003631633826
3.74,-0.006029804183,-0.003349534443
3.75,-0.006163352091,-0.003061511441
3.76,-0.006283426477,-0.002768166071
3.77,-0.006389806329,-0.002470110999
3.78,-0.006482297341,-0.00216796926
3.79,-0.006560732513,-0.001862373181
3.8,-0.006624972712,-0.001553963244
3.81,-0.006674907189,-0.001243386927
3.82,-0.006710454054,-0.000931297486
3.83,-0.006731560701,-0.0006183527105
3.84,-0.006738204181,-0.0003052136376
3.85,-0.00673039152,7.456768861E-06
3.86,-0.006708159979,0.0003189949719
3.87,-0.006671577249,0.0006287382443
3.88,-0.006620741586,0.0009360260795
3.89,-0.006555781876,0.001240201625
3.9,-0.006476857628,0.00154061314
3.91,-0.0063841589,0.00183661546
3.92,-0.006277906142,0.00212757149
3.93,-0.006158349968,0.002412853691
3.94,-0.00602577085,0.002691845576
3.95,-0.005880478723,0.002963943213
3.96,-0.005722812522,0.003228556708
3.97,-0.005553139624,0.003485111691
3.98,-0.005371855218,0.003733050779
3.99,-0.00517938158,0.003971835024
4,-0.00497616728,0.004200945329
4.01,-0.004762686292,0.004419883842
4.02,-0.004539437035,0.004628175302
4.03,-0.004306941325,0.004825368359
4.04,-0.004065743253,0.00501103683
4.05,-0.003816407986,0.005184780918
4.06,-0.003559520493,0.005346228365
4.07,-0.003295684202,0.005495035548
4.08,-0.003025519585,0.005630888503
4.09,-0.00274966268,0.005753503883
4.1,-0.002468763558,0.005862629839
4.11,-0.00218348472,0.005958046813
4.12,-0.001894499457,0.006039568261
4.13,-0.001602490151,0.006107041274
4.14,-0.001308146539,0.006160347115
4.15,-0.00101216394,0.006199401661
4.16,-0.0007152414468,0.006224155745
4.17,-0.0004180800974,0.006234595397
4.18,-0.000121381022,0.006230741992
4.19,0.0001741564219,0.006212652281
4.2,0.0004678365213,0.006180418325
4.21,0.0007589690815,0.006134167324
4.22,0.001046871294,0.006074061338
4.23,0.001330869591,0.006000296896
4.24,0.001610301487,0.00591310451
4.25,0.001884517386,0.005812748075
4.26,0.002152882364,0.005699524169
4.27,0.002414777915,0.00557376125
4.28,0.002669603644,0.005435818752
4.29,0.002916778919,0.005286086086
4.3,0.003155744461,0.005124981544
4.31,0.003385963874,0.004952951115
4.32,0.003606925102,0.004770467207
4.33,0.00381814182,0.004578027295
4.34,0.004019154741,0.004376152481
4.35,0.004209532842,0.004165385989
4.36,0.0043888745,0.003946291582
4.37,0.004556808536,0.003719451924
4.38,0.004712995164,0.003485466878
4.39,0.004857126844,0.003244951756
4.4,0.004988929021,0.002998535522
4.41,0.005108160774,0.002746858956
4.42,0.005214615344,0.002490572787
4.43,0.005308120562,0.002230335796
4.44,0.005388539162,0.001966812906
4.45,0.005455768982,0.001700673252
4.46,0.005509743057,0.001432588255
4.47,0.005550429596,0.001163229688
4.48,0.005577831846,0.0008932677555
4.49,0.005591987856,0.000623369191
4.5,0.005592970114,0.0003541953694
4.51,0.005580885093,8.640045374E-05
4.52,0.005555872682,-0.0001793704254
4.53,0.00551810552,-0.0004424829478
4.54,0.005467788224,-0.0007023153347
4.55,0.005405156525,-0.0009582600255
4.56,0.005330476312,-0.001209725296
4.57,0.005244042588,-0.00145613681
4.58,0.005146178335,-0.001696939106
4.59,0.00503723331,-0.001931597002
4.6,0.004917582762,-0.002159596927
4.61,0.004787626078,-0.002380448168
4.62,0.004647785371,-0.002593684029
4.63,0.004498504008,-0.002798862902
4.64,0.004340245084,-0.002995569242
4.65,0.004173489859,-0.003183414449
4.66,0.003998736145,-0.003362037653
4.67,0.003816496666,-0.003531106394
4.68,0.003627297398,-0.003690317212
4.69,0.003431675873,-0.003839396121
4.7,0.003230179486,-0.003978098999
4.71,0.003023363784,-0.004106211856
4.72,0.002811790761,-0.004223551022
4.73,0.002596027153,-0.004329963215
4.74,0.00237664275,-0.004425325524
4.75,0.002154208721,-0.004509545289
4.76,0.001929295963,-0.004582559882
4.77,0.001702473489,-0.004644336403
4.78,0.00147430683,-0.004694871278
4.79,0.001245356502,-0.004734189776
4.8,0.001016176497,-0.004762345438
4.81,0.0007873128359,-0.004779419426
4.82,0.0005593021695,-0.0047855198
4.83,0.0003326704413,-0.004780780717
4.84,0.0001079316095,-0.004765361568
4.85,-0.0001144135646,-0.00473944605
4.86,-0.0003338786602,-0.004703241177
4.87,-0.0005499926688,-0.004656976246
4.88,-0.0007623009935,-0.004600901742
4.89,-0.0009703663723,-0.004535288218
4.9,-0.001173769724,-0.004460425118
4.91,-0.001372110915,-0.004376619583
4.92,-0.001565009451,-0.004284195223
4.93,-0.001752105082,-0.004183490869
4.94,-0.001933058333,-0.004074859307
4.95,-0.002107550952,-0.003958666005
4.96,-0.00227528628,-0.003835287829
4.97,-0.002435989541,-0.003705111761
4.98,-0.002589408057,-0.00356853362
4.99,-0.002735311386,-0.003425956795
5,-0.002873491386,-0.003277790983
5.01,-0.003003762206,-0.003124450953
5.02,-0.00312596021,-0.002966355329
5.03,-0.003239943832,-0.002803925396
5.04,-0.003345593369,-0.002637583941
5.05,-0.003442810708,-0.00246775412
5.06,-0.003531519001,-0.002294858369
5.07,-0.003611662285,-0.002119317344
5.08,-0.003683205044,-0.001941548914
5.09,-0.003746131731,-0.001761967192
5.1,-0.003800446245,-0.001580981607
5.11,-0.003846171362,-0.001398996037
5.12,-0.003883348141,-0.001216407979
5.13,-0.003912035289,-0.001033607776
5.14,-0.003932308497,-0.0008509778921
5.15,-0.003944259761,-0.0006688922445
5.16,-0.003947996671,-0.0004877155823
5.17,-0.003943641692,-0.0003078029205
5.18,-0.003931331428,-0.000129499026
5.19,-0.003911215875,4.686204512E-05
5.2,-0.003883457675,0.0002209573591
5.21,-0.003848231357,0.0003924754663
5.22,-0.003805722589,0.0005611167139
5.23,-0.003756127428,0.0007265935112
5.24,-0.003699651577,0.0008886305496
5.25,-0.003636509654,0.001046964978
5.26,-0.003566924472,0.001201346535
5.27,-0.00349112633,0.001351537644
5.28,-0.003409352327,0.001497313469
5.29,-0.003321845691,0.001638461931
5.3,-0.003228855123,0.001774783698
5.31,-0.003130634173,0.00190609214
5.32,-0.003027440631,0.002032213256
5.33,-0.002919535946,0.002152985576
5.34,-0.002807184664,0.002268260038
5.35,-0.002690653899,0.002377899851
5.36,-0.002570212826,0.002481780329
5.37,-0.002446132195,0.002579788718
5.38,-0.002318683883,0.002671824006
5.39,-0.002188140454,0.002757796724
5.4,-0.002054774764,0.002837628739
5.41,-0.001918859573,0.002911253033
5.42,-0.001780667191,0.00297861349
5.43,-0.001640469146,0.003039664672
5.44,-0.001498535865,0.003094371595
5.45,-0.00135513639,0.003142709509
5.46,-0.0012105381,0.003184663679
5.47,-0.001065006459,0.003220229168
5.48,-0.0009188047761,0.003249410631
5.49,-0.0007721939818,0.003272222105
5.5,-0.0006254324189,0.003288686817
5.51,-0.0004787756426,0.003298836993
5.52,-0.0003324762322,0.003302713673
5.53,-0.00018678361,0.003300366541
5.54,-4.194386766E-05,0.003291853761
5.55,0.0001018004029,0.003277241816
5.56,0.0002442102753,0.003256605364
5.57,0.000385050652,0.003230027097
5.58,0.0005240904281,0.003197597605
5.59,0.0006611026553,0.003159415254
5.6,0.0007958647085,0.003115586064
5.61,0.0009281584558,0.00306622359
5.62,0.001057770433,0.003011448819
5.63,0.001184492022,0.002951390055
5.64,0.001308119642,0.002886182812
5.65,0.001428454934,0.002815969714
5.66,0.001545304971,0.00274090038
5.67,0.001658482458,0.002661131321
5.68,0.001767805956,0.00257682582
5.69,0.0018731001,0.002488153819
5.7,0.001974195835,0.002395291787
5.71,0.002070930658,0.00229842259
5.72,0.002163148863,0.002197735348
5.73,0.002250701796,0.002093425274
5.74,0.002333448119,0.00198569351
5.75,0.002411254071,0.001874746945
5.76,0.002483993745,0.001760798015
5.77,0.002551549355,0.001644064493
5.78,0.002613811516,0.001524769253
5.79,0.002670679518,0.001403140025
5.8,0.002722061603,0.001279409121
5.81,0.002767875233,0.00115381315
5.82,0.002808047366,0.001026592707
5.83,0.002842514708,0.0008979920399
5.84,0.002871223975,0.0007682586987
5.85,0.002894132137,0.0006376431623
5.86,0.002911206646,0.0005063984421
5.87,0.002922425662,0.0003747796657
5.88,0.002927778252,0.0002430436395
5.89,0.002927264579,0.0001114483903
5.9,0.00292089607,-1.974731186E-05
5.91,0.002908695561,-0.0001502844503
5.92,0.002890697419,-0.0002799042761
5.93,0.002866947644,-0.0004083488384
5.94,0.002837503938,-0.0005353615309
5.95,0.002802435749,-0.0006606876514
5.96,0.002761824288,-0.0007840749732
5.97,0.00271576251,-0.0009052743274
5.98,0.002664355064,-0.001024040193
5.99,0.002607718213,-0.001140131295
6,0.002545979718,-0.001253311201
