"Freq [GHz]","re(S(Antenna1_1_1,Antenna1_1_1)) []","im(S(Antenna1_1_1,Antenna1_1_1)) []"
3,-0.195990875890988,-0.171664198480434
3.014,-0.203648969610747,-0.161027270725358
3.028,-0.211051790416388,-0.149881073188664
3.042,-0.218128752691436,-0.138075356037439
3.056,-0.22474044491027,-0.125483251499411
3.07,-0.230688307737712,-0.112026244364446
3.084,-0.235733198213208,-0.0976952246743507
3.098,-0.239621276650923,-0.082564352223334
3.112,-0.242114390087844,-0.0667951097742406
3.126,-0.243021153099139,-0.0506290753766518
3.14,-0.242224448554347,-0.0343694632492188
3.154,-0.239701220740555,-0.0183531459205428
3.168,-0.235531243690906,-0.00291641183765386
3.182,-0.229892937761773,0.0116411318186198
3.196,-0.223046092440514,0.0250895477058529
3.21,-0.215303270451221,0.0372936604194012
3.224,-0.206987205145461,0.048200229430461
3.238,-0.198433836399831,0.0578707244607824
3.252,-0.189911716276574,0.0665407275217694
3.266,-0.181564200993104,0.0744685528018589
3.28,-0.173420110077805,0.0819315125225899
3.294,-0.16539571345313,0.0891823367710662
3.308,-0.157312519653909,0.096409482710712
3.322,-0.148928243888654,0.103706852869419
3.336,-0.139976493204228,0.111057026450311
3.35,-0.130209554525919,0.118330118376718
3.364,-0.119438367963092,0.125298134036404
3.378,-0.107564332184812,0.131662531823692
3.392,-0.094598902163791,0.137090963250407
3.406,-0.0806687691245975,0.141258074860274
3.42,-0.0660064542462683,0.143884953807802
3.434,-0.050928082437704,0.14477227267156
3.448,-0.0357306610202896,0.143671649607272
3.462,-0.0209697733339594,0.140665805023271
3.476,-0.0070544024485457,0.135994547167553
3.49,0.00573370258421702,0.129952928778356
3.504,0.0172252716508384,0.122894679712251
3.518,0.0273737406578556,0.115190594083805
3.532,0.0362510223801852,0.107186822607097
3.546,0.0440299573272764,0.0991676943088069
3.56,0.0509558924179998,0.091326941531111
3.574,0.0573108003081923,0.0837501563527648
3.588,0.0633739434672823,0.0764100932052505
3.602,0.0693833126770261,0.0691751568721878
3.616,0.0755019523915648,0.0618301564701388
3.63,0.0817928475862814,0.054107226008196
3.644,0.0882053039999702,0.0457237692095701
3.658,0.0945747217489738,0.0364234503056184
3.672,0.100636372343678,0.0260157106646502
3.686,0.1060523072518,0.0144091427102708
3.7,0.110448967524226,0.00163438932656625
3.714,0.113461596323683,-0.012146884462554
3.728,0.114780385273058,-0.0266489897331146
3.742,0.11419262545005,-0.0414853780588817
3.756,0.111615163873514,-0.0562060803713926
3.77,0.107112286562443,-0.0703454715391631
3.784,0.100895742618288,-0.0834747019940251
3.798,0.0933058392452628,-0.0952520805661818
3.812,0.0847750971925509,-0.10546452318958
3.826,0.0757784914641344,-0.114054010707509
3.84,0.066776412909782,-0.121124777163861
3.854,0.0581578109747174,-0.126929464119539
3.868,0.050191262921938,-0.131835374713151
3.882,0.0432042867014101,-0.136330125260484
3.896,0.0370496245280742,-0.141056051861487
3.91,0.0311630437370696,-0.146337229952081
3.924,0.0251142819025686,-0.152318042719521
3.938,0.0184517744744362,-0.158964623657868
3.952,0.0107683056509602,-0.166071369955036
3.966,0.00175903641698746,-0.173290206868572
3.98,-0.00873552572595978,-0.180177980872888
3.994,-0.020706734372559,-0.186255116571528
4.008,-0.0339774066098186,-0.191067483085009
4.022,-0.0482229997235417,-0.194243382190373
4.036,-0.0630108014640873,-0.195538614478086
4.05,-0.077851481723451,-0.194864472022866
4.064,-0.0922561332794315,-0.192295918491816
4.078,-0.105791655165077,-0.188059786825136
4.092,-0.118127940853819,-0.182505211356511
4.106,-0.12907165457081,-0.176060447627709
4.12,-0.138583179254551,-0.169181547949212
4.134,-0.14677534731211,-0.162298983993704
4.148,-0.153894588153664,-0.155768256700817
4.162,-0.160286954787933,-0.149829888415679
4.176,-0.166352987144143,-0.14458306808436
4.19,-0.17249644064215,-0.139975746421468
4.204,-0.179072499633322,-0.13581228396724
4.218,-0.186341176658909,-0.131777967664841
4.232,-0.194431159060582,-0.127477959584488
4.246,-0.203318415287286,-0.122486659712347
4.26,-0.212822454692131,-0.116402197368606
4.274,-0.222621331485953,-0.108899958654325
4.288,-0.232284431941593,-0.0997788425152931
4.302,-0.241319976358989,-0.0889944096857852
4.316,-0.249161148723292,-0.0766129693003847
4.33,-0.255143842746773,-0.0629411950840981
4.344,-0.259193696203048,-0.0487157049913334
4.358,-0.261271051527928,-0.0344712180693935
4.372,-0.261514859323419,-0.0207216396275781
4.386,-0.260224589012468,-0.00789963565361241
4.4,-0.257822033281779,0.00369398933117361
4.414,-0.254797556094642,0.0139245239457646
4.428,-0.251647471280053,0.0228365702044784
4.442,-0.248810552658354,0.0306442868859363
4.456,-0.246611947160055,0.0376996933971796
4.47,-0.245221912357516,0.0444430114655164
4.484,-0.244634913902603,0.0513414809777862
4.498,-0.244671937970919,0.0588247030869671
4.512,-0.245005762789569,0.0672250909199067
4.526,-0.245205828962993,0.0767313540727424
4.54,-0.244796692024769,0.0873611882696978
4.554,-0.243322213765635,0.098956729876553
4.568,-0.240406912134079,0.111203237318571
4.582,-0.235806343378456,0.123668320292772
4.596,-0.22943995996399,0.135856299082487
4.61,-0.221402336523117,0.147270322858703
4.624,-0.21195162120407,0.157473968730889
4.638,-0.201477123227763,0.166144285724072
4.652,-0.190450658045666,0.17310957256742
4.666,-0.17936827481602,0.178367364243725
4.68,-0.168690037881143,0.182080812424979
4.694,-0.158785525114646,0.184554485294308
4.708,-0.149891697794819,0.186193189092543
4.722,-0.142087982295165,0.187449399313389
4.736,-0.135291075944788,0.188766059097596
4.75,-0.129269485902958,0.190521764256816
4.764,-0.123616561617416,0.193378188204829
4.778,-0.117724606197772,0.196980257187588
4.792,-0.111221732495316,0.201184977394882
4.806,-0.103813388810708,0.205732572144452
4.82,-0.0953138924749982,0.210280777822066
4.834,-0.0856646202420768,0.214446272848854
4.848,-0.0749377843389028,0.217848582306655
4.862,-0.0633261672922507,0.220151890591698
4.876,-0.0511204730533786,0.221100660592509
4.89,-0.0386770108175065,0.220545720625505
4.904,-0.0263792204172791,0.218458465900011
4.918,-0.0145970455742604,0.214931963498564
4.932,-0.00364833795279537,0.210168985529873
4.946,0.00623369381679721,0.20445825324335
4.96,0.0149235068080027,0.198141368760292
4.974,0.0224141239993005,0.191573935240032
4.988,0.0288145258494117,0.185085102766477
5.002,0.0343335881625323,0.178940111569117
5.016,0.0392521599609565,0.173310247063761
5.03,0.0438863362388434,0.168253933035589
5.044,0.0485461692305036,0.163711498715428
5.058,0.053494794078853,0.159514569133332
5.072,0.058913080383815,0.155409224613666
5.086,0.0648743937318983,0.151090285930008
5.1,0.0713328883610772,0.146242557066376
5.114,0.0781270790948303,0.140583828766465
5.128,0.0849984685728954,0.133904084340639
5.142,0.091623002453696,0.126095734832031
5.156,0.0976513749983582,0.117170815159295
5.17,0.102752967017041,0.107262758987122
5.184,0.106657654978879,0.0966124104309526
5.198,0.109189971963848,0.0855400410985787
5.212,0.110291101436123,0.0744070235809493
5.226,0.110025805934561,0.063572201334344
5.24,0.108573407393874,0.0533486956623401
5.254,0.106204061295763,0.0439668091454413
5.268,0.103243508189678,0.0355478398526819
5.282,0.100030978823891,0.0280921380488837
5.296,0.0968757770799389,0.0214828299796577
5.31,0.0940181660151865,0.0155045681837625
5.324,0.0915995404224478,0.00987472604813847
5.338,0.0896455891611481,0.00428289134716332
5.352,0.0880644197503636,-0.00156647501346312
5.366,0.0866596772190631,-0.00791365162121966
5.38,0.085156797872657,-0.0149105783521549
5.394,0.0832389374652545,-0.0225991019261783
5.408,0.0805879942992866,-0.0309030666775795
5.422,0.0769256311383301,-0.0396350161441395
5.436,0.0720493227270926,-0.0485164818385609
5.45,0.0658591729820975,-0.05720923290656
5.464,0.0583724420257643,-0.0653536278256513
5.478,0.0497242321732538,-0.0726094729903126
5.492,0.0401544125812011,-0.0786946116647269
5.506,0.0299824236071891,-0.0834168302099417
5.52,0.0195729259111708,-0.0866955064019988
5.534,0.00929621748321892,-0.0885706211682023
5.548,-0.000512145629050261,-0.0891981667342596
5.562,-0.00958805116014679,-0.0888324586568369
5.576,-0.0177678002589931,-0.0877972505439976
5.59,-0.0250061098995886,-0.0864487309423988
5.604,-0.0313810479725767,-0.0851343496510083
5.618,-0.0370851453792914,-0.0841519023714947
5.632,-0.0423757700661862,-0.0838304695732239
5.646,-0.0477152156641123,-0.0842782649430794
5.66,-0.0535288367142872,-0.085287544548015
5.674,-0.060119829203784,-0.0866283312119354
5.688,-0.0676939855490282,-0.0879733789527645
5.702,-0.0763316707681453,-0.0889365340149323
5.716,-0.0859742111291107,-0.0891186710700417
5.73,-0.0964266185923931,-0.0881559512311665
5.744,-0.107376686364653,-0.0857646940791643
5.758,-0.118428505663624,-0.0817773830063541
5.772,-0.129146623616451,-0.0761652481279939
5.786,-0.139105638925414,-0.0690444128292278
5.8,-0.147939227307245,-0.0606645731795537
5.814,-0.155382537952957,-0.0513813545717312
5.828,-0.161302637719259,-0.0416155676939311
5.842,-0.165713121341037,-0.0318042811529395
5.856,-0.168718013868235,-0.0224026979083902
5.87,-0.170686803310607,-0.0137168928972958
5.884,-0.172008897970414,-0.00591733601527759
5.898,-0.1730924542317,0.00096598010816441
5.912,-0.174322483583444,0.00704809582022307
5.926,-0.176012748071517,0.0125714931364363
5.94,-0.178366792319245,0.0178733526335531
5.954,-0.181452585315206,0.0233417655097471
5.968,-0.185193554304037,0.0293661993426307
5.982,-0.189376845462238,0.036288059100699
5.996,-0.193677672607475,0.0443570556230903
6.01,-0.197696829210586,0.0536983425015361
6.024,-0.201007016224533,0.0642941181314482
6.038,-0.203202705731848,0.0759817612866185
6.052,-0.203947893039763,0.0884687466633844
6.066,-0.202979122771254,0.101374895372144
6.08,-0.200124013465603,0.114209961941265
6.094,-0.195589091094886,0.12644105110521
6.108,-0.189630166359037,0.137671514862173
6.122,-0.182615123521792,0.147614145717659
6.136,-0.174979886775937,0.15612249929513
6.15,-0.167176216204903,0.163205388283084
6.164,-0.159617523798815,0.169022644746767
6.178,-0.152629258993684,0.173862467330675
6.192,-0.1464099853315,0.178102923118164
6.206,-0.141008069346572,0.182162180014879
6.22,-0.136317046974544,0.186443535904564
6.234,-0.132090435480136,0.191282069388897
6.248,-0.127974306365557,0.196899635724682
6.262,-0.123553649233768,0.203373956020733
6.276,-0.118406749624333,0.210625805282404
6.29,-0.112160729868393,0.218426014662875
6.304,-0.104541217598441,0.226421467122049
6.318,-0.0954098451653992,0.234176825217384
6.332,-0.0847848478529377,0.241226715735109
6.346,-0.0728422062151024,0.247131779274234
6.36,-0.0598972704030717,0.251531544814502
6.374,-0.0463692746924723,0.254187557543131
6.388,-0.0327332718369919,0.255011492940786
6.402,-0.0194655196104461,0.254074939400873
6.416,-0.00698905947395013,0.251599853586005
6.43,0.00437392332863869,0.247931076702341
6.444,0.0144373250729411,0.243494443144662
6.458,0.0231699094427148,0.238745659579396
6.472,0.0306956624943087,0.234116105473654
6.486,0.0372759206032879,0.229961922992445
6.5,0.0432755664265205,0.22652223950397
6.514,0.0491202060398087,0.22419435142112
6.528,0.0554337857632731,0.222577148947071
6.542,0.0625629730964233,0.221365303262378
6.556,0.0707212094322426,0.220150033317771
6.57,0.0799629464498657,0.218471355313072
6.584,0.090177024530717,0.215875243950799
6.598,0.101099462766438,0.211969105254037
6.612,0.112343794461305,0.206469336606065
6.626,0.123445214365329,0.199235766544557
6.64,0.133913378842403,0.190289297620902
6.654,0.14328784117321,0.179810953389157
6.668,0.151189881203947,0.168122565455817
6.682,0.157364913180868,0.155651328579604
6.696,0.161710683505064,0.142882209097293
6.71,0.164288003561199,0.130303541176185
6.724,0.165312657286186,0.118351947564783
6.738,0.165129196308181,0.107362883168442
6.752,0.16416938025001,0.0975325843322664
6.766,0.162899820219249,0.0888960424350571
6.78,0.161764735559829,0.0813239035243411
6.794,0.161130467032255,0.0745390882230395
6.808,0.161238388674297,0.068151644343888
6.822,0.162172085583446,0.0617081413245913
6.836,0.163843162916272,0.0547500535415891
6.85,0.165997960325156,0.0468743005667786
6.864,0.168244986787547,0.0377886050891737
6.878,0.170100345197655,0.0273546989589146
6.892,0.17104609811878,0.015613656636888
6.906,0.170594739856693,0.00278965115406604
6.92,0.168351940211581,-0.0107290077127227
6.934,0.164069677612224,-0.0244298833879255
6.948,0.157405674404894,-0.0376374913904872
6.962,0.14878725278658,-0.0496333690803496
6.976,0.13873925839634,-0.0599825475925785
6.99,0.127802623799707,-0.0684212729780476
7.004,0.116565551951481,-0.074883858279513
7.018,0.105592044384543,-0.0795050990852431
7.032,0.0953544673107084,-0.082597712728914
7.046,0.0861785926307708,-0.0846078989701442
7.06,0.0782078929635828,-0.0860548674186299
7.074,0.0713913554048729,-0.0874621511178978
7.088,0.0654960446689594,-0.0892894748710465
7.102,0.0601424932430928,-0.091873760775872
7.116,0.0548581358664728,-0.095386573099146
7.13,0.0491418026348249,-0.0998131154398495
7.144,0.0425310094305569,-0.104955095182374
7.158,0.0346635785076422,-0.110456736068395
7.172,0.02532598545742,-0.115850340965023
7.186,0.0144826233533286,-0.120615443660168
7.2,0.00228264902425208,-0.12424402230379
7.214,-0.0109560986412773,-0.126303649013029
7.228,-0.0247838020971557,-0.126490863456587
7.242,-0.0386712205042336,-0.124668399952876
7.256,-0.0520715037158881,-0.120881973943762
7.27,-0.0644836849016099,-0.115354871883741
7.284,-0.0755102117335617,-0.108461270607993
7.298,-0.0849017184189851,-0.100681718560592
7.312,-0.0925838582658632,-0.092546255850146
7.326,-0.0986631976686268,-0.0845720118569939
7.34,-0.10341165151546,-0.0772026640455053
7.354,-0.107231427937582,-0.0707568322349689
7.368,-0.110604669268257,-0.0653913769838617
7.382,-0.114152455974486,-0.0612146338940036
7.396,-0.118442816641832,-0.0578891580752374
7.41,-0.123667751360008,-0.0548427692410417
7.424,-0.129925505706413,-0.0516046370910381
7.438,-0.13714191702911,-0.0477011716339385
7.452,-0.145081284435511,-0.0427139164354455
7.466,-0.153375578476646,-0.0363299604063247
7.48,-0.16156834706943,-0.0283793918106189
7.494,-0.169168150394864,-0.0188558390453431
7.508,-0.175705407466708,-0.00791804913524825
7.522,-0.180786245734955,0.00412745158698695
7.536,-0.184137332766871,0.0168605046081987
7.55,-0.185636691828192,0.0297943332148653
7.564,-0.185327056456844,0.0424300736362214
7.578,-0.183410247287638,0.0543126326815697
7.592,-0.180223160918093,0.0650815021493213
7.606,-0.176198029476157,0.0745106732894734
7.62,-0.171811418338423,0.0825329607009684
7.634,-0.167527776777764,0.0892457566593337
7.648,-0.163744079413299,0.0948973222978253
7.662,-0.16074209287146,0.0998549633197463
7.676,-0.158654045219969,0.104558585128419
7.69,-0.157446022809955,0.109464925520282
7.704,-0.156921411642567,0.114988996964543
7.718,-0.156744353187515,0.121449765021653
7.732,-0.156480765909285,0.129026754285466
7.746,-0.155652284325594,0.137733114871206
7.76,-0.15379676699332,0.147408809406267
7.774,-0.150528053901736,0.157735197729466
7.788,-0.145587561658902,0.168269681566084
7.802,-0.138881135107551,0.178496546757145
7.816,-0.130449559973052,0.187836252508765
7.83,-0.120562409486274,0.195646447648163
7.844,-0.10986039251157,0.201744690363258
7.858,-0.0988640444027761,0.206017648819398
7.872,-0.0880952504073806,0.208531454717944
7.886,-0.0780159014208131,0.209519912700228
7.9,-0.0689747533284017,0.209352422969855
7.914,-0.0611689331330207,0.208485818846757
7.928,-0.0546246409068349,0.20740626669929
7.942,-0.0491991556680033,0.206568526899391
7.956,-0.0446035839807505,0.206340096557305
7.97,-0.0404432319695179,0.206957034528866
7.984,-0.0362703566949989,0.20849671440194
7.998,-0.031642618715804,0.210870573910404
8.012,-0.0261799789912761,0.213837416069196
8.026,-0.0196131118846419,0.21703528857056
8.04,-0.0118175781710131,0.220027738904758
8.054,-0.00282985033277596,0.222358579169351
8.068,0.00715643858538612,0.223608385491733
8.082,0.0178132331522536,0.22344589074708
8.096,0.0287167302707282,0.221668187796314
8.11,0.0393971043019013,0.21822512624615
8.124,0.0493931904578384,0.213225260175988
8.138,0.0583055799309265,0.206922936226276
8.152,0.0658419044866829,0.199688329688227
8.166,0.0718491256860188,0.191964183353404
8.18,0.0763292493401772,0.184214465374907
8.194,0.079436855842824,0.176870989637594
8.208,0.0814589366601731,0.17028416519433
8.222,0.0827795186936495,0.164683472077434
8.236,0.0838332274201865,0.160152086078666
8.25,0.0850531173449471,0.156618442490215
8.264,0.0870289849421113,0.153985952232272
8.278,0.0898857768653615,0.151647911928388
8.292,0.0936915637310604,0.149174250735757
8.306,0.0983594650447695,0.146139430133181
8.32,0.103659111733936,0.142174050262664
8.334,0.109244440488305,0.137009451616608
8.348,0.114694552129091,0.130510396082941
8.362,0.119562966672216,0.122692244523524
8.376,0.123429704099275,0.113720755169712
8.39,0.125950305756356,0.103894536829166
8.404,0.12689622457072,0.093612110491627
8.418,0.126181931062792,0.0833272637984342
8.432,0.12387552380513,0.0734977391063998
8.446,0.120191458088306,0.0645331219529105
8.46,0.115466029464188,0.0567479853711063
8.474,0.110118252025158,0.0503258525692353
8.488,0.104600528332685,0.0452983947527733
8.502,0.0993448064156551,0.0415425870336088
8.516,0.0947105880511247,0.0387964780331928
8.53,0.0909410852031447,0.0366920172111632
8.544,0.0881329943981012,0.0348012882617763
8.558,0.0862238410400243,0.0326907774118592
8.572,0.0849987956976433,0.0299771896205128
8.586,0.0841165169939482,0.0263779760882499
8.6,0.0831512139036797,0.0217502257398369
8.614,0.0816460424297891,0.0161128691575829
8.628,0.0791714309374688,0.00964910729459009
8.642,0.0753811759009164,0.00268837953456813
8.656,0.0700592830085389,-0.00433027036027596
8.67,0.0631515524676958,-0.0109092077185293
8.684,0.0547777101791563,-0.0165515013182583
8.698,0.0451189269909537,-0.0206205338840322
8.712,0.034832259204299,-0.0228761952362563
8.726,0.0244965889152561,-0.0233046595416307
8.74,0.0146210860194789,-0.0220174094306887
8.754,0.00564070858384219,-0.0192854018252297
8.768,-0.00213280296334977,-0.0155024271833792
8.782,-0.00854395256229521,-0.0111342783932962
8.796,-0.0136068031779268,-0.00666019552435497
8.81,-0.0174973250199039,-0.00251387049506414
8.824,-0.0205261008578929,0.000968794221013146
8.838,-0.0230950724212437,0.0035889427026301
8.852,-0.025643871175795,0.00530650609623921
8.866,-0.0285924241995445,0.00624210005480219
8.88,-0.0322868421731272,0.00665918719795222
8.894,-0.0369550671912492,0.00692897763173756
8.908,-0.0426774698212418,0.00748255705104201
8.922,-0.0493757109983933,0.00875617111762155
8.936,-0.0568209610820396,0.0111363040065035
8.95,-0.0646602638584515,0.014911105369301
8.964,-0.0724577164474721,0.0202338738173649
8.978,-0.07974544511955,0.0271028127977423
8.992,-0.0860782749171334,0.0353593218498002
9.006,-0.091085626891023,0.0447049039737503
9.02,-0.0945145574427191,0.0547346090640542
9.034,-0.0962589236804386,0.0649830350663766
9.048,-0.0963712871154904,0.074977480830025
9.062,-0.0950561676192124,0.0842920395200668
9.076,-0.0926454053796178,0.0925963219048822
9.09,-0.089558443206198,0.0996931107773877
9.104,-0.0862520790227646,0.1055405007935
9.118,-0.0831654682155919,0.110255833944488
9.132,-0.0808036795771893,0.114068358576311
9.146,-0.0794277475665853,0.11749212493224
9.16,-0.0789293860288468,0.121038921873405
9.174,-0.0791639486825925,0.125116800287015
9.188,-0.0798515254594442,0.130054978278141
9.202,-0.0806124463643775,0.136063049627468
9.216,-0.0810142312079956,0.143204680848
9.23,-0.0806244476551763,0.151388729302427
9.244,-0.0790632933638172,0.160378700772695
9.258,-0.0760497748131601,0.169819351279296
9.272,-0.0714361103599862,0.179277262432678
9.286,-0.0652263548977215,0.18829060552632
9.3,-0.0575770754983129,0.196422241515192
9.314,-0.0487799956227026,0.203309906763653
9.328,-0.0392286329257419,0.208707557967301
9.342,-0.0293728405323889,0.212512963001116
9.356,-0.0196666044950115,0.214778217107503
9.37,-0.0105152792281678,0.215701857890999
