"Freq [GHz]","re(S(Tx_p1,Tx_p1)) []","im(S(Tx_p1,Tx_p1)) []"
3,-0.00156297879,0.02318264236
3.014,0.002667308084,0.0230620585
3.028,0.006802039967,0.02217650781
3.042,0.01070415099,0.02055664121
3.056,0.01424452114,0.0182574372
3.07,0.0173062512,0.01535633699
3.084,0.01978852495,0.01195063637
3.098,0.02160993094,0.008154222308
3.112,0.02271113425,0.004093763573
3.126,0.02305681059,-9.551695327E-05
3.14,0.02263677959,-0.004274347306
3.154,0.02146630092,-0.00830403854
3.168,0.01958552481,-0.01205108982
3.182,0.01705811654,-0.0153916135
3.196,0.01396910207,-0.0182154334
3.21,0.01042200759,-0.02042972073
3.224,0.006535389285,-0.02196204743
3.238,0.00243886968,-0.02276275666
3.252,-0.001731186914,-0.02280657251
3.266,-0.005836215506,-0.02209339713
3.28,-0.009740056785,-0.02064826968
3.294,-0.01331347553,-0.0185204904
3.308,-0.01643844108,-0.01578193997
3.322,-0.01901202793,-0.01252465166
3.336,-0.02094980761,-0.00885771806
3.35,-0.02218861988,-0.004903636628
3.364,-0.02268863229,-0.0007942162372
3.378,-0.02243462091,0.003333818251
3.392,-0.02143643106,0.00734337684
3.406,-0.01972860416,0.01110155912
3.42,-0.01736918465,0.01448406143
3.434,-0.0144377481,0.01737929033
3.448,-0.0110327175,0.01969204603
3.462,-0.007268058204,0.02134665434
3.476,-0.003269462557,0.02228944379
3.49,0.0008298480272,0.02249048713
3.504,0.004893563286,0.02194455029
3.518,0.008786818573,0.02067121913
3.532,0.01238067267,0.018714201
3.546,0.01555638017,0.01613982612
3.56,0.01820931687,0.01303479996
3.574,0.02025242824,0.009503282853
3.588,0.02161908735,0.00566339515
3.602,0.02226526834,0.001643265294
3.616,0.0221709645,-0.002423247019
3.63,0.02134080532,-0.006401009726
3.644,0.01980385349,-0.01015811077
3.658,0.01761259037,-0.01357023452
3.672,0.01484112506,-0.01652477701
3.686,0.01158268833,-0.0189245637
3.7,0.007946495962,-0.0206910469
3.714,0.004054087303,-0.02176687769
3.728,3.526153421E-05,-0.02211776801
3.742,-0.003976252227,-0.02173358253
3.756,-0.007847246582,-0.02062862545
3.77,-0.01144946101,-0.01884111449
3.784,-0.01466383343,-0.01643186106
3.798,-0.01738443722,-0.01348220226
3.812,-0.01952197341,-0.01009125496
3.826,-0.02100670288,-0.006372584665
3.84,-0.02179072224,-0.002450401096
3.854,-0.02184950912,0.001544591911
3.868,-0.02118268702,0.005479553602
3.882,-0.01981398588,0.009223925226
3.896,-0.01779040155,0.01265376363
3.91,-0.01518058364,0.01565584566
3.924,-0.01207250706,0.01813140729
3.938,-0.008570506354,0.01999939412
3.952,-0.004791772533,0.02119911604
3.966,-0.0008624303564,0.02169221918
3.98,0.003086672821,0.02146391106
3.994,0.00692432586,0.02052339981
4.008,0.0105233151,0.01890353468
4.022,0.01376464302,0.01665966135
4.036,0.01654146438,0.01386773209
4.05,0.01876260957,0.01062173513
4.064,0.02035557889,0.007030530215
4.078,0.0212689095,0.003214197022
4.092,0.02147383759,-0.0006999811755
4.106,0.0209652023,-0.004581764114
4.12,0.01976156281,-0.008302289745
4.134,0.01790452672,-0.01173835366
4.148,0.01545731377,-0.01477649056
4.162,0.01250260437,-0.01731672254
4.176,0.009139746214,-0.01927585022
4.19,0.005481413382,-0.02059017852
4.204,0.001649830156,-0.02121758753
4.218,-0.002227313708,-0.02113888132
4.232,-0.006021119778,-0.0203583715
4.246,-0.009605767832,-0.01890367783
4.26,-0.01286269021,-0.01682475447
4.274,-0.01568449509,-0.01419217605
4.288,-0.01797850878,-0.01109474232
4.302,-0.01966982025,-0.007636482661
4.316,-0.0207037277,-0.003933161534
4.33,-0.02104750736,-0.0001084022368
4.344,-0.02069144733,0.003710441141
4.358,-0.01964911383,0.007396525731
4.372,-0.01795684287,0.01082773449
4.386,-0.01567247621,0.0138907233
4.4,-0.0128733854,0.01648466646
4.414,-0.009653851474,0.01852457659
4.428,-0.006121888983,0.0199440898
4.442,-0.002395621323,0.02069762469
4.456,0.001400670892,0.02076184496
4.47,0.005140696233,0.02013637883
4.484,0.00870035524,0.01884377305
4.498,0.01196185968,0.01692868509
4.512,0.01481763149,0.01445634228
4.526,0.01717385229,0.01151032098
4.54,0.01895354634,0.008189721333
4.554,0.02009909559,0.004605833201
4.568,0.02057410462,0.0008784054165
4.582,0.02036455514,-0.002868356561
4.596,0.01947921353,-0.006509930755
4.61,0.01794927968,-0.009925618511
4.624,0.01582729099,-0.01300254637
4.638,0.01318531971,-0.01563939726
4.652,0.01011252554,-0.01774974762
4.666,0.006712146643,-0.01926490052
4.68,0.003098030444,-0.02013612184
4.694,-0.0006091790048,-0.02033620677
4.708,-0.004286069477,-0.01986032628
4.722,-0.007810570259,-0.0187261274
4.736,-0.01106600617,-0.01697308582
4.75,-0.01394496124,-0.01466113451
4.764,-0.01635282404,-0.01186861589
4.778,-0.0182108977,-0.008689627349
4.792,-0.01945897213,-0.0052308503
4.806,-0.02005727472,-0.001607969378
4.82,-0.01998773598,0.002058197819
4.834,-0.01925453013,0.005645731019
4.848,-0.0178838746,0.009035663083
4.862,-0.0159230971,0.01211592636
4.876,-0.0134390034,0.01478505868
4.89,-0.010515602,0.0169555463
4.904,-0.007251263157,0.01855669377
4.918,-0.003755408423,0.01953692645
4.932,-0.0001448419699,0.01986545076
4.946,0.003460153123,0.01953321882
4.96,0.006939823198,0.01855316716
4.974,0.01017892332,0.01695972386
4.988,0.01307053531,0.01480760242
5.002,0.01551959791,0.0121699246
5.016,0.01744603261,0.009135736552
5.03,0.01878736218,0.005807002589
5.044,0.01950073646,0.002295178155
5.058,0.01956429947,-0.001282522887
5.072,0.01897785467,-0.004807041555
5.086,0.01776280785,-0.008161436966
5.1,0.01596139201,-0.01123476751
5.114,0.01363520193,-0.01392576111
5.128,0.01086308924,-0.01614615313
5.142,0.007738489902,-0.01782358191
5.156,0.004366274677,-0.01890394683
5.17,0.0008592287247,-0.01935315217
5.184,-0.002665721441,-0.01915818059
5.198,-0.006091407396,-0.0183274624
5.212,-0.00930431458,-0.01689053061
5.226,-0.01219834481,-0.01489697528
5.24,-0.01467832081,-0.01241473404
5.254,-0.01666311694,-0.009527777774
5.268,-0.01808831315,-0.006333270124
5.282,-0.01890828534,-0.002938297024
5.296,-0.01909766426,0.0005437237261
5.31,-0.01865211641,0.003996832395
5.324,-0.01758842305,0.007306390104
5.338,-0.01594385681,0.01036288575
5.352,-0.01377487884,0.01306556062
5.366,-0.01115520193,0.01532573064
5.38,-0.008173285983,0.01706969684
5.394,-0.004929350974,0.01824114826
5.408,-0.001532008163,0.01880297926
5.422,0.001905377084,0.01873846235
5.436,0.005268469098,0.01805173968
5.45,0.008445765997,0.01676761909
5.464,0.01133229745,0.01493068343
5.478,0.01383309345,0.01260374526
5.492,0.01586630951,0.009865700182
5.506,0.01736590527,0.00680885232
5.52,0.01828378905,0.003535802413
5.534,0.01859135854,0.0001560036013
5.548,0.01828038842,-0.003217899548
5.562,0.01736323754,-0.006473826265
5.576,0.01587237082,-0.00950398384
5.59,0.01385921415,-0.01220843714
5.604,0.01139238253,-0.01449840515
5.618,0.00855534229,-0.01629917577
5.632,0.005443587273,-0.01755254314
5.646,0.00216142426,-0.01821868809
5.66,-0.00118152399,-0.01827744079
5.674,-0.004473980883,-0.0177288859
5.688,-0.007606720941,-0.01659329207
5.702,-0.01047619417,-0.01491037047
5.716,-0.01298794955,-0.01273788927
5.73,-0.01505974445,-0.01014969223
5.744,-0.01662423758,-0.007233189423
5.758,-0.01763117726,-0.004086405244
5.772,-0.01804901403,-0.0008146834518
5.786,-0.01786588576,0.002472840011
5.8,-0.01708994474,0.005666878294
5.814,-0.01574901804,0.008661627491
5.828,-0.0138896147,0.01135827222
5.842,-0.01157531517,0.01366824673
5.856,-0.008884598417,0.01551614395
5.87,-0.005908181191,0.01684217688
5.884,-0.002745959488,0.01760411191
5.898,0.0004963446209,0.01777861181
5.912,0.003710718229,0.01736194548
5.926,0.00679045666,0.01637004332
5.94,0.009633706421,0.0148378984
5.954,0.01214683437,0.01281833594
5.968,0.01424751165,0.01038019395
5.982,0.01586741074,0.007605977859
5.996,0.01695442739,0.004589068875
6.01,0.01747435503,0.001430580607
6.024,0.01741195811,-0.001764030291
6.038,0.01677141058,-0.004888485794
6.052,0.01557608741,-0.007839222884
6.066,0.01386771817,-0.01051882693
6.08,0.01170493334,-0.0128392482
6.094,0.009161253776,-0.01472469538
6.108,0.006322592191,-0.0161141108
6.122,0.003284351661,-0.01696314683
6.136,0.0001482190298,-0.01724557921
6.15,-0.002981238935,-0.01695411255
6.164,-0.006000062715,-0.01610055335
6.178,-0.008808354206,-0.01471534711
6.192,-0.0113135831,-0.01284649719
6.206,-0.01343363602,-0.01055790383
6.22,-0.01509950791,-0.007927180518
6.234,-0.01625754752,-0.005043022487
6.248,-0.01687118387,-0.00200221636
6.262,-0.01692207818,0.00109360809
6.276,-0.01641066521,0.004141375124
6.29,-0.0153560681,0.007039995567
6.304,-0.01379539205,0.009693720348
6.318,-0.01178242256,0.01201530379
6.332,-0.009385773897,0.01392887215
6.346,-0.006686551315,0.01537240299
6.36,-0.003775606796,0.01629973458
6.374,-0.0007504810551,0.01668203998
6.388,0.002287865214,0.01650871907
6.402,0.005238421321,0.0157876809
6.416,0.008003485264,0.01454500935
6.43,0.01049189944,0.01282402563
6.444,0.01262205619,0.0106837811
6.458,0.01432457408,0.008197032708
6.472,0.01554455716,0.005447770497
6.486,0.0162433636,0.002528381105
6.5,0.0163998269,-0.0004634569229
6.514,0.01601089105,-0.003428041683
6.528,0.01509164078,-0.006266970931
6.542,0.01367472845,-0.008886408797
6.556,0.01180921884,-0.01120018775
6.57,0.0095588926,-0.01313264321
6.584,0.007000067008,-0.01462108766
6.598,0.004219008433,-0.01561784322
6.612,0.001309024157,-0.01609176692
6.626,-0.001632668343,-0.01602921996
6.64,-0.004508189631,-0.01543445082
6.654,-0.007222255525,-0.01432938193
6.668,-0.009685334865,-0.01275280931
6.682,-0.01181660319,-0.01075904424
6.696,-0.01354659485,-0.008416044356
6.71,-0.01481946657,-0.005803098446
6.724,-0.01559479867,-0.003008143737
6.738,-0.01584887598,-0.000124806512
6.752,-0.01557540784,0.002750734433
6.766,-0.01478566559,0.005522956359
6.78,-0.01350803538,0.008100166153
6.794,-0.01178700355,0.01039753343
6.808,-0.009681610588,0.01233988287
6.822,-0.007263427502,0.01386415376
6.836,-0.004614123728,0.01492144648
6.85,-0.001822709274,0.01547858932
6.864,0.001017455785,0.0155191757
6.878,0.003811784007,0.01504403931
6.892,0.006467611008,0.01407115389
6.906,0.008897268678,0.01263496319
6.92,0.01102097924,0.01078516602
6.934,0.01276947465,0.008584998885
6.948,0.01408625526,0.006109075689
6.962,0.01492941421,0.003440858086
6.976,0.01527296861,0.0006698423213
6.99,0.01510765538,-0.002111442661
7.004,0.01444116747,-0.004810525149
7.018,0.01329782508,-0.007338065429
7.032,0.01171769515,-0.009610813155
7.046,0.009755190889,-0.0115543494
7.06,0.007477200081,-0.0131055231
7.074,0.004960806575,-0.01421450209
7.088,0.002290682474,-0.01484637218
7.102,-0.0004437607456,-0.01498223307
7.116,-0.003151366333,-0.01461975672
7.13,-0.005742271319,-0.01377319198
7.144,-0.008130889211,-0.01247281783
7.158,-0.01023873731,-0.01076386569
7.172,-0.01199701522,-0.008704949091
7.186,-0.01334884997,-0.006366055158
7.2,-0.01425113425,-0.003826166569
7.214,-0.01467589869,-0.001170594853
7.228,-0.01461117439,0.001511884988
7.242,-0.01406131927,0.004132002296
7.256,-0.01304679988,0.006602961781
7.27,-0.0116034383,0.008843318882
7.284,-0.00978115148,0.0107796642
7.298,-0.007642227503,0.0123490285
7.312,-0.005259197959,0.01350092958
7.326,-0.002712379224,0.0141989944
7.34,-8.71658945E-05,0.01442210448
7.354,0.002528832406,0.0141650286
7.368,0.005048714855,0.01343852407
7.382,0.007389176309,0.01226890558
7.396,0.009473261328,0.01069709849
7.41,0.0112328943,0.008777210336
7.424,0.01261110249,0.006574670415
7.438,0.01356385942,0.004164001212
7.452,0.01406148904,0.001626297657
7.466,0.01408958588,-0.0009535006142
7.48,0.01364942292,-0.003489452224
7.494,0.01275783592,-0.005897477096
7.508,0.0114465905,-0.008098144202
7.522,0.009761255385,-0.01001929157
7.536,0.007759621835,-0.01159839214
7.55,0.005509723707,-0.01278458794
7.564,0.003087526146,-0.01354032637
7.578,0.00057436129,-0.01384254614
7.592,-0.001945802447,-0.01368337529
7.606,-0.004389165829,-0.01307032069
7.62,-0.006674885268,-0.01202594475
7.634,-0.008727747654,-0.0105870429
7.648,-0.01048064504,-0.008803351283
7.662,-0.01187676776,-0.006735830191
7.676,-0.01287144438,-0.004454582172
7.69,-0.01343356887,-0.002036476041
7.704,-0.01354656947,0.0004374428061
7.718,-0.01320888932,0.002884668512
7.732,-0.01243396508,0.005223986288
7.746,-0.01124970676,0.007378167607
7.76,-0.009697498518,0.009276519607
7.774,-0.007830755882,0.01085720456
7.788,-0.005713089799,0.01206925333
7.802,-0.003416140359,0.01287420723
7.816,-0.001017154027,0.01324733557
7.83,0.001403613747,0.01317839031
7.844,0.003765583195,0.01267187508
7.858,0.005990532396,0.01174682194
7.872,0.008005187642,0.01043608581
7.886,0.009743636251,0.008785182399
7.9,0.01114948236,0.006850710578
7.914,0.01217767525,0.004698413866
7.928,0.01279595092,0.002400947275
7.942,0.0129858409,3.542537716E-05
7.956,0.01274321688,-0.002319165684
7.97,0.01207835534,-0.004584605404
7.984,0.01101552245,-0.006686037295
7.998,0.009592095486,-0.008554442136
8.012,0.007857252424,-0.01012890437
8.026,0.005870275378,-0.01135859724
8.04,0.003698526491,-0.01220442204
8.054,0.00141516524,-0.01264024864
8.068,-0.0009033154805,-0.01265371797
8.082,-0.003179651551,-0.01224658209
8.096,-0.005338382281,-0.01143457287
8.11,-0.007308351728,-0.01024680595
8.124,-0.009025053789,-0.00872474244
8.138,-0.01043274378,-0.006920745048
8.152,-0.01148624741,-0.004896278853
8.166,-0.01215240849,-0.002719818524
8.18,-0.01241112905,-0.0004645331447
8.194,-0.01225596933,0.001794173084
8.208,-0.01169429005,0.003981181626
8.222,-0.01074693451,0.00602415762
8.236,-0.009447463578,0.007855942042
8.25,-0.007840971426,0.00941675894
8.264,-0.0059825236,0.0106561652
8.278,-0.003935271459,0.01153467929
8.292,-0.001768307494,0.01202503644
8.306,0.000445665683,0.01211303041
8.32,0.002632774067,0.01179791612
8.334,0.004720436903,0.01109236192
8.348,0.006639775045,0.01002195562
8.362,0.00832788311,0.008624283103
8.376,0.009729890502,0.006947612449
8.39,0.01080074379,0.005049229557
8.404,0.0115066526,0.002993482574
8.418,0.01182615268,0.000849601839
8.432,0.01175075276,-0.001310630861
8.446,0.01128514604,-0.003415285245
8.46,0.01044698151,-0.005394677294
8.474,0.009266205155,-0.007183676089
8.488,0.007783995416,-0.008723846382
8.502,0.006051330464,-0.009965356418
8.516,0.004127237123,-0.01086858878
8.53,0.002076781496,-0.01140540222
8.544,-3.113037561E-05,-0.01156000435
8.558,-0.002126067469,-0.01132940834
8.572,-0.004138426635,-0.01072346063
8.586,-0.006001744741,-0.009764441206
8.6,-0.007654893325,-0.008486252049
8.614,-0.009044083295,-0.006933223149
8.628,-0.01012461396,-0.005158577977
8.642,-0.01086230957,-0.003222611442
8.656,-0.01123459725,-0.001190642647
8.67,-0.0112311924,0.000869188085
8.684,-0.01085437108,0.002888203639
8.698,-0.01011882244,0.004799479439
8.712,-0.00905108863,0.00654006136
8.726,-0.007688613189,0.008053038757
8.74,-0.006078431763,0.009289404349
8.754,-0.004275550903,0.01020964022
8.768,-0.002341070678,0.01078497867
8.782,-0.0003401151703,0.01099829769
8.796,0.001660359121,0.01084462349
8.81,0.003593803225,0.01033122539
8.824,0.005396289084,0.00947730245
8.838,0.007008622772,0.008313274478
8.852,0.008378287715,0.006879703472
8.866,0.009461154143,0.005225883498
8.88,0.01022289918,0.003408147941
8.894,0.0106400919,0.001487952205
8.908,0.01070090922,-0.0004702029544
8.922,0.01040546084,-0.002400937311
8.936,0.00976571477,-0.004240173565
8.95,0.008805028254,-0.005927263425
8.964,0.007557302019,-0.007406986844
8.978,0.006065788315,-0.00863135854
8.992,0.004381594485,-0.009561182718
9.006,0.002561933759,-0.01016730568
9.02,0.0006681830758,-0.01043152636
9.034,-0.001236186178,-0.01034713648
9.048,-0.003087734785,-0.009919074548
9.062,-0.004825168442,-0.009163690807
9.076,-0.006391366279,-0.008108133439
9.09,-0.007735258054,-0.006789378609
9.104,-0.008813488353,-0.005252938933
9.118,-0.009591813594,-0.003551295322
9.132,-0.0100461869,-0.001742106164
9.146,-0.01016349653,0.0001137451078
9.16,-0.009941935441,0.001954197982
9.174,-0.009390991743,0.003718089517
9.188,-0.008531062885,0.005347186342
9.202,-0.007392708568,0.006788106504
9.216,-0.006015569596,0.00799406779
9.23,-0.004446990738,0.008926405263
9.244,-0.002740395344,0.009555808857
9.258,-0.0009534674501,0.009863241474
9.272,0.0008537968284,0.009840508963
9.286,0.002621102821,0.009490465108
9.3,0.004289868198,0.008826847072
9.314,0.005805164192,0.007873749083
9.328,0.007117522844,0.006664754154
9.342,0.008184550849,0.005241754957
9.356,0.008972297362,0.003653505091
9.37,0.009456331729,0.001953950784
9.384,0.009622496984,0.0002004000266
9.398,0.009467316047,-0.001548408754
9.412,0.008998039263,-0.00323427344
9.426,0.008232333959,-0.004801464552
9.44,0.007197628652,-0.00619856677
9.454,0.005930135974,-0.007380164824
9.468,0.004473588959,-0.008308318498
9.482,0.002877734675,-0.008953778893
9.496,0.001196637003,-0.009296907025
9.51,-0.000513153579,-0.009328266028
9.524,-0.002194501312,-0.00904886929
9.538,-0.003791593656,-0.008470078466
9.552,-0.005251793268,-0.007613157024
9.566,-0.006527372024,-0.00650849645
9.58,-0.007577069985,-0.005194543051
9.594,-0.00836742844,-0.003716463113
9.608,-0.008873853984,-0.002124592648
9.622,-0.00908137991,-0.0004727248818
9.636,-0.008985101451,0.00118370632
9.65,-0.008590272508,0.002789485775
9.664,-0.007912062841,0.004291456729
9.678,-0.006974986056,0.005640279745
9.692,-0.005812019663,0.006792052566
9.706,-0.004463448598,0.007709737799
9.72,-0.002975472636,0.008364352046
9.734,-0.001398625755,0.008735878359
9.748,0.0002139385454,0.008813873403
9.762,0.001808237831,0.00859775109
9.776,0.003331266954,0.008096735379
9.79,0.004732759486,0.007329486014
9.804,0.005966845874,0.006323411902
9.818,0.006993553638,0.005113697139
9.832,0.007780100585,0.003742074152
9.846,0.008301939258,0.0022553866
9.86,0.008543519422,0.0007039914759
9.874,0.008498745031,-0.0008599451791
9.888,0.008171112489,-0.002384201289
9.902,0.007573527754,-0.003818241621
9.916,0.006727810583,-0.005114892393
9.93,0.0056639046,-0.006231892135
9.944,0.004418821599,-0.007133267869
9.958,0.003035357137,-0.007790491819
9.972,0.001560621924,-0.008183381541
9.986,4.443930679E-05,-0.008300715149
10,-0.001462336688,-0.008140543066
