"Freq [GHz]","re(S(Tx_p1,Tx_p1)) []","im(S(Tx_p1,Tx_p1)) []"
1,0.1865157715,-0.1519930662
1.01,0.1839668245,-0.1539469709
1.02,0.1813828439,-0.1559392474
1.03,0.1787611137,-0.1579654276
1.04,0.1760991562,-0.1600211383
1.05,0.1733947192,-0.1621021
1.06,0.1706457653,-0.1642041257
1.07,0.1678504604,-0.1663231199
1.08,0.1650071641,-0.1684550772
1.09,0.1621144191,-0.1705960814
1.1,0.1591709426,-0.1727423039
1.11,0.1561756173,-0.1748900027
1.12,0.1531274832,-0.1770355209
1.13,0.1500257294,-0.1791752853
1.14,0.146869687,-0.181305805
1.15,0.1436588218,-0.18342367
1.16,0.1403927278,-0.1855255496
1.17,0.1370711208,-0.1876081911
1.18,0.1336938324,-0.1896684181
1.19,0.1302608046,-0.1917031287
1.2,0.126772084,-0.1937092946
1.21,0.1232278174,-0.1956839589
1.22,0.1196282468,-0.1976242346
1.23,0.1159737052,-0.1995273033
1.24,0.1122646122,-0.2013904136
1.25,0.1085014705,-0.2032108791
1.26,0.1046848619,-0.2049860774
1.27,0.1008154446,-0.2067134483
1.28,0.09689394946,-0.2083904921
1.29,0.09292117749,-0.2100147687
1.3,0.08889799716,-0.2115838958
1.31,0.08482534194,-0.2130955476
1.32,0.08070420806,-0.2145474535
1.33,0.0765356525,-0.215937397
1.34,0.0723207911,-0.2172632141
1.35,0.06806079692,-0.2185227928
1.36,0.06375689866,-0.2197140716
1.37,0.05941037935,-0.2208350386
1.38,0.05502257509,-0.221883731
1.39,0.05059487396,-0.2228582336
1.4,0.04612871506,-0.223756679
1.41,0.04162558767,-0.2245772462
1.42,0.03708703048,-0.2253181606
1.43,0.03251463093,-0.2259776933
1.44,0.02791002469,-0.2265541612
1.45,0.02327489509,-0.2270459262
1.46,0.01861097278,-0.2274513957
1.47,0.01392003531,-0.2277690224
1.48,0.009203906791,-0.2279973044
1.49,0.004464457664,-0.2281347853
1.5,-0.000296395603,-0.2281800549
1.51,-0.005076690733,-0.2281317495
1.52,-0.009874419877,-0.2279885521
1.53,-0.01468752984,-0.2277491937
1.54,-0.01951392231,-0.2274124537
1.55,-0.02435145414,-0.2269771605
1.56,-0.02919793757,-0.2264421933
1.57,-0.03405114059,-0.225806482
1.58,-0.03890878729,-0.2250690096
1.59,-0.04376855822,-0.2242288122
1.6,-0.04862809086,-0.2232849814
1.61,-0.05348498016,-0.2222366648
1.62,-0.05833677911,-0.2210830681
1.63,-0.0631809994,-0.2198234563
1.64,-0.06801511216,-0.2184571552
1.65,-0.07283654878,-0.2169835534
1.66,-0.07764270187,-0.2154021036
1.67,-0.08243092623,-0.2137123246
1.68,-0.08719853996,-0.2119138029
1.69,-0.09194282575,-0.2100061944
1.7,-0.09666103211,-0.2079892264
1.71,-0.1013503749,-0.2058626994
1.72,-0.1060080388,-0.2036264889
1.73,-0.110631179,-0.2012805468
1.74,-0.1152169229,-0.1988249038
1.75,-0.1197623724,-0.1962596711
1.76,-0.1242646053,-0.1935850417
1.77,-0.1287206778,-0.1908012924
1.78,-0.1331276266,-0.1879087856
1.79,-0.1374824716,-0.1849079708
1.8,-0.1417822179,-0.181799386
1.81,-0.1460238586,-0.1785836595
1.82,-0.1502043775,-0.1752615111
1.83,-0.1543207519,-0.1718337535
1.84,-0.1583699557,-0.1683012935
1.85,-0.1623489618,-0.1646651333
1.86,-0.166254746,-0.1609263715
1.87,-0.1700842896,-0.1570862039
1.88,-0.1738345829,-0.1531459245
1.89,-0.1775026286,-0.1491069261
1.9,-0.181085445,-0.1449707009
1.91,-0.1845800699,-0.140738841
1.92,-0.1879835638,-0.1364130388
1.93,-0.1912930137,-0.1319950867
1.94,-0.1945055366,-0.1274868779
1.95,-0.1976182835,-0.1228904054
1.96,-0.200628443,-0.1182077625
1.97,-0.203533245,-0.1134411417
1.98,-0.2063299643,-0.1085928347
1.99,-0.2090159252,-0.103665231
2,-0.2115885042,-0.09866081764
2.01,-0.2140451347,-0.09358217756
2.02,-0.2163833103,-0.08843198867
2.03,-0.2186005888,-0.08321302228
2.04,-0.2206945958,-0.07792814157
2.05,-0.2226630284,-0.07258029983
2.06,-0.224503659,-0.06717253849
2.07,-0.2262143387,-0.06170798514
2.08,-0.2277930009,-0.05618985118
2.09,-0.2292376648,-0.05062142949
2.1,-0.2305464389,-0.04500609185
2.11,-0.2317175241,-0.03934728622
2.12,-0.2327492167,-0.03364853392
2.13,-0.2336399121,-0.02791342658
2.14,-0.2343881072,-0.02214562303
2.15,-0.2349924038,-0.01634884599
2.16,-0.2354515107,-0.01052687871
2.17,-0.2357642469,-0.004683561381
2.18,-0.2359295439,0.001177212477
2.19,-0.2359464478,0.007051499804
2.2,-0.2358141219,0.01293531186
2.21,-0.2355318485,0.0188246182
2.22,-0.2350990307,0.02471535075
2.23,-0.2345151945,0.03060340791
2.24,-0.2337799898,0.03648465885
2.25,-0.2328931923,0.04235494774
2.26,-0.2318547045,0.04821009816
2.27,-0.2306645568,0.05404591745
2.28,-0.2293229082,0.05985820124
2.29,-0.2278300472,0.06564273789
2.3,-0.2261863922,0.07139531302
2.31,-0.2243924919,0.0771117141
2.32,-0.2224490253,0.08278773494
2.33,-0.2203568018,0.0884191803
2.34,-0.218116761,0.09400187043
2.35,-0.215729972,0.09953164561
2.36,-0.2131976333,0.1050043707
2.37,-0.2105210716,0.1104159396
2.38,-0.2077017412,0.1157622796
2.39,-0.2047412226,0.1210393563
2.4,-0.2016412214,0.126243177
2.41,-0.1984035667,0.1313697962
2.42,-0.1950302098,0.1364153187
2.43,-0.1915232218,0.1413759045
2.44,-0.1878847924,0.1462477728
2.45,-0.1841172272,0.1510272056
2.46,-0.1802229461,0.155710552
2.47,-0.17620448,0.1602942317
2.48,-0.1720644693,0.1647747388
2.49,-0.1678056604,0.1691486456
2.5,-0.1634309036,0.1734126056
2.51,-0.1589431496,0.1775633573
2.52,-0.1543454471,0.1815977271
2.53,-0.149640939,0.1855126324
2.54,-0.1448328598,0.1893050849
2.55,-0.139924532,0.1929721928
2.56,-0.1349193625,0.1965111641
2.57,-0.1298208397,0.1999193087
2.58,-0.1246325293,0.2031940409
2.59,-0.1193580711,0.2063328817
2.6,-0.1140011752,0.2093334608
2.61,-0.1085656181,0.2121935188
2.62,-0.1030552392,0.2149109084
2.63,-0.09747393683,0.2174835967
2.64,-0.09182566448,0.2199096664
2.65,-0.08611442679,0.2221873168
2.66,-0.08034427578,0.2243148657
2.67,-0.07451930687,0.2262907499
2.68,-0.06864365506,0.2281135262
2.69,-0.06272149093,0.2297818722
2.7,-0.0567570168,0.231294587
2.71,-0.05075446282,0.2326505914
2.72,-0.04471808312,0.2338489285
2.73,-0.03865215194,0.2348887636
2.74,-0.03256095986,0.2357693846
2.75,-0.02644880996,0.2364902015
2.76,-0.02032001418,0.2370507466
2.77,-0.0141788895,0.2374506739
2.78,-0.008029754436,0.2376897588
2.79,-0.001876925333,0.2377678973
2.8,0.004275287099,0.2376851058
2.81,0.01042258128,0.2374415198
2.82,0.01656066816,0.2370373932
2.83,0.02268527459,0.2364730976
2.84,0.02879214655,0.2357491207
2.85,0.03487705239,0.2348660655
2.86,0.04093578593,0.233824649
2.87,0.04696416954,0.232625701
2.88,0.0529580571,0.231270162
2.89,0.05891333689,0.2297590829
2.9,0.06482593442,0.2280936224
2.91,0.07069181517,0.2262750458
2.92,0.07650698727,0.2243047236
2.93,0.08226750402,0.2221841292
2.94,0.08796946644,0.2199148378
2.95,0.09360902568,0.2174985239
2.96,0.09918238533,0.2149369602
2.97,0.1046858037,0.212232015
2.98,0.1101155961,0.2093856507
2.99,0.1154681366,0.2063999219
3,0.1207398607,0.2032769729
3.01,0.1259272665,0.2000190366
3.02,0.1310269171,0.1966284315
3.03,0.1360354425,0.1931075604
3.04,0.1409495408,0.189458908
3.05,0.1457659805,0.1856850389
3.06,0.1504816016,0.1817885955
3.07,0.1550933176,0.1777722962
3.08,0.1595981164,0.1736389327
3.09,0.1639930624,0.1693913686
3.1,0.1682752975,0.165032537
3.11,0.1724420424,0.1605654381
3.12,0.1764905979,0.1559931378
3.13,0.1804183462,0.1513187649
3.14,0.1842227522,0.1465455096
3.15,0.1879013641,0.141676621
3.16,0.191451815,0.136715405
3.17,0.1948718239,0.1316652226
3.18,0.1981591963,0.1265294874
3.19,0.2013118256,0.1213116638
3.2,0.2043276936,0.1160152647
3.21,0.2072048719,0.1106438496
3.22,0.2099415222,0.1052010222
3.23,0.2125358977,0.09969042875
3.24,0.2149863433,0.09411575573
3.25,0.2172912968,0.0884807277
3.26,0.2194492894,0.08278910531
3.27,0.2214589465,0.07704468314
3.28,0.2233189883,0.07125128764
3.29,0.2250282307,0.06541277498
3.3,0.2265855854,0.05953302894
3.31,0.2279900609,0.05361595877
3.32,0.2292407632,0.04766549706
3.33,0.2303368959,0.04168559754
3.34,0.2312777609,0.03568023295
3.35,0.2320627588,0.02965339285
3.36,0.2326913898,0.02360908137
3.37,0.2331632534,0.01755131505
3.38,0.2334780494,0.01148412056
3.39,0.2336355776,0.005411532445
3.4,0.2336357391,-0.0006624091366
3.41,0.2334785355,-0.006733660729
3.42,0.2331640698,-0.0127981779
3.43,0.2326925466,-0.01885191757
3.44,0.232064272,-0.0248908404
3.45,0.2312796538,-0.03091091315
3.46,0.2303392015,-0.03690811115
3.47,0.2292435268,-0.04287842064
3.48,0.2279933429,-0.04881784131
3.49,0.2265894649,-0.05472238874
3.5,0.2250328094,-0.06058809689
3.51,0.2233243947,-0.06641102063
3.52,0.2214653399,-0.07218723831
3.53,0.2194568654,-0.07791285424
3.54,0.217300292,-0.08358400133
3.55,0.2149970404,-0.08919684364
3.56,0.2125486312,-0.09474757901
3.57,0.2099566839,-0.1002324417
3.58,0.2072229164,-0.1056477048
3.59,0.2043491444,-0.1109896832
3.6,0.2013372805,-0.1162547359
3.61,0.1981893333,-0.1214392691
3.62,0.1949074063,-0.1265397382
3.63,0.1914936976,-0.1315526508
3.64,0.1879504978,-0.1364745694
3.65,0.1842801895,-0.141302114
3.66,0.1804852458,-0.1460319644
3.67,0.1765682289,-0.150660863
3.68,0.172531789,-0.1551856175
3.69,0.1683786622,-0.1596031033
3.7,0.1641116692,-0.1639102659
3.71,0.1597337139,-0.1681041236
3.72,0.1552477809,-0.1721817698
3.73,0.1506569343,-0.1761403755
3.74,0.1459643155,-0.1799771917
3.75,0.1411731409,-0.1836895516
3.76,0.1362867002,-0.187274873
3.77,0.1313083539,-0.1907306603
3.78,0.1262415312,-0.194054507
3.79,0.1210897275,-0.1972440976
3.8,0.1158565018,-0.2002972097
3.81,0.1105454748,-0.2032117158
3.82,0.1051603253,-0.2059855854
3.83,0.09970478857,-0.2086168867
3.84,0.09418265281,-0.2111037885
3.85,0.0885977568,-0.2134445616
3.86,0.08295398686,-0.2156375805
3.87,0.07725527394,-0.2176813251
3.88,0.07150559065,-0.2195743816
3.89,0.06570894824,-0.2213154443
3.9,0.05986939343,-0.2229033163
3.91,0.05399100538,-0.2243369111
3.92,0.04807789244,-0.2256152532
3.93,0.04213418897,-0.2267374793
3.94,0.03616405208,-0.2277028387
3.95,0.03017165836,-0.2285106945
3.96,0.02416120056,-0.2291605235
3.97,0.01813688432,-0.2296519175
3.98,0.01210292478,-0.2299845827
3.99,0.006063543252,-0.2301583407
4,2.296386972E-05,-0.2301731284
4.01,-0.00601458977,-0.2300289977
4.02,-0.01204489796,-0.2297261158
4.03,-0.01806374825,-0.229264765
4.04,-0.02406693872,-0.228645342
4.05,-0.03005028139,-0.2278683577
4.06,-0.03600960543,-0.2269344369
4.07,-0.0419407605,-0.2258443171
4.08,-0.04783961993,-0.2245988483
4.09,-0.05370208398,-0.2231989917
4.1,-0.05952408301,-0.2216458191
4.11,-0.06530158055,-0.2199405116
4.12,-0.07103057645,-0.2180843584
4.13,-0.07670710989,-0.2160787558
4.14,-0.08232726234,-0.2139252056
4.15,-0.08788716052,-0.2116253138
4.16,-0.09338297921,-0.2091807889
4.17,-0.09881094413,-0.2065934406
4.18,-0.1041673346,-0.2038651777
4.19,-0.1094484862,-0.2009980065
4.2,-0.1146507934,-0.1979940291
4.21,-0.1197707123,-0.1948554412
4.22,-0.1248047624,-0.1915845305
4.23,-0.1297495299,-0.188183674
4.24,-0.1346016691,-0.1846553366
4.25,-0.1393579053,-0.1810020684
4.26,-0.1440150366,-0.1772265028
4.27,-0.1485699357,-0.1733313539
4.28,-0.1530195526,-0.1693194147
4.29,-0.1573609155,-0.165193554
4.3,-0.1615911336,-0.1609567148
4.31,-0.1657073979,-0.1566119112
4.32,-0.1697069835,-0.1521622264
4.33,-0.1735872506,-0.1476108098
4.34,-0.1773456463,-0.142960875
4.35,-0.180979706,-0.1382156968
4.36,-0.1844870543,-0.1333786089
4.37,-0.1878654065,-0.1284530012
4.38,-0.1911125699,-0.1234423176
4.39,-0.1942264443,-0.1183500527
4.4,-0.1972050234,-0.1131797501
4.41,-0.2000463954,-0.1079349991
4.42,-0.202748744,-0.1026194325
4.43,-0.2053103493,-0.097236724
4.44,-0.2077295877,-0.09179058558
4.45,-0.2100049336,-0.08628476492
4.46,-0.212134959,-0.08072304294
4.47,-0.2141183345,-0.07510923119
4.48,-0.2159538292,-0.06944716943
4.49,-0.2176403116,-0.06374072305
4.5,-0.2191767496,-0.05799378065
4.51,-0.2205622106,-0.05221025156
4.52,-0.2217958619,-0.0463940634
4.53,-0.2228769707,-0.04054915968
4.54,-0.2238049039,-0.03467949737
4.55,-0.2245791288,-0.02878904456
4.56,-0.2251992123,-0.02288177809
4.57,-0.2256648214,-0.01696168124
4.58,-0.2259757226,-0.01103274138
4.59,-0.2261317823,-0.005098947721
4.6,-0.226132966,0.0008357109677
4.61,-0.2259793387,0.006767248594
4.62,-0.2256710639,0.01269168398
4.63,-0.225208404,0.01860504304
4.64,-0.2245917197,0.024503361
4.65,-0.2238214693,0.03038268456
4.66,-0.222898209,0.03623907401
4.67,-0.2218225918,0.0420686054
4.68,-0.2205953676,0.04786737266
4.69,-0.2192173823,0.05363148968
4.7,-0.2176895777,0.05935709244
4.71,-0.2160129906,0.06504034107
4.72,-0.2141887524,0.07067742192
4.73,-0.2122180886,0.07626454964
4.74,-0.2101023182,0.08179796924
4.75,-0.2078428528,0.08727395811
4.76,-0.2054411965,0.09268882813
4.77,-0.2028989445,0.09803892763
4.78,-0.200217783,0.1033206435
4.79,-0.1973994881,0.1085304032
4.8,-0.1944459251,0.1136646768
4.81,-0.191359048,0.1187199789
4.82,-0.1881408981,0.1236928711
4.83,-0.1847936037,0.1285799633
4.84,-0.1813193788,0.1333779166
4.85,-0.1777205222,0.1380834444
4.86,-0.1739994169,0.1426933154
4.87,-0.1701585287,0.147204355
4.88,-0.1662004051,0.1516134475
4.89,-0.1621276744,0.1559175382
4.9,-0.1579430445,0.1601136356
4.91,-0.1536493018,0.1641988131
4.92,-0.1492493097,0.1681702113
4.93,-0.1447460073,0.1720250401
4.94,-0.1401424084,0.1757605803
4.95,-0.1354415997,0.1793741864
4.96,-0.1306467396,0.1828632878
4.97,-0.1257610564,0.1862253917
4.98,-0.1207878468,0.1894580841
4.99,-0.1157304746,0.1925590328
5,-0.1105923682,0.1955259888
5.01,-0.1053770196,0.1983567883
5.02,-0.1000879822,0.2010493549
5.03,-0.0947288686,0.2036017014
5.04,-0.08930334914,0.2060119316
5.05,-0.08381514941,0.2082782426
5.06,-0.0782680483,0.210398926
5.07,-0.07266587568,0.2123723701
5.08,-0.06701251018,0.2141970619
5.09,-0.06131187676,0.2158715882
5.1,-0.05556794429,0.2173946378
5.11,-0.04978472302,0.2187650032
5.12,-0.04396626201,0.2199815815
5.13,-0.03811664641,0.2210433767
5.14,-0.03223999478,0.2219495007
5.15,-0.02634045622,0.222699175
5.16,-0.02042220751,0.2232917316
5.17,-0.01448945017,0.2237266148
5.18,-0.008546407406,0.2240033819
5.19,-0.002597321046,0.2241217044
5.2,0.003353551624,0.2240813694
5.21,0.009301941062,0.2238822799
5.22,0.01524356875,0.2235244559
5.23,0.02117415051,0.2230080354
5.24,0.02708939988,0.2223332745
5.25,0.03298503156,0.2215005484
5.26,0.03885676485,0.2205103513
5.27,0.0447003272,0.2193632973
5.28,0.0505114577,0.2180601201
5.29,0.05628591074,0.2166016732
5.3,0.06201945953,0.21498893
5.31,0.0677078998,0.2132229835
5.32,0.07334705342,0.2113050459
5.33,0.07893277208,0.2092364483
5.34,0.08446094091,0.2070186403
5.35,0.08992748222,0.204653189
5.36,0.09532835915,0.2021417783
5.37,0.1006595793,0.1994862081
5.38,0.1059171984,0.196688393
5.39,0.1110973239,0.1937503611
5.4,0.1161961188,0.1906742531
5.41,0.1212098047,0.1874623201
5.42,0.126134666,0.1841169224
5.43,0.1309670528,0.180640528
5.44,0.1357033848,0.1770357101
5.45,0.1403401544,0.1733051456
5.46,0.1448739299,0.1694516127
5.47,0.1493013594,0.1654779889
5.48,0.1536191732,0.1613872484
5.49,0.1578241874,0.1571824596
5.5,0.1619133068,0.1528667827
5.51,0.1658835277,0.1484434666
5.52,0.169731941,0.1439158465
5.53,0.1734557347,0.1392873407
5.54,0.1770521969,0.1345614475
5.55,0.1805187177,0.1297417421
5.56,0.1838527923,0.1248318735
5.57,0.1870520229,0.119835561
5.58,0.1901141209,0.114756591
5.59,0.1930369092,0.109598813
5.6,0.195818324,0.1043661366
5.61,0.1984564163,0.0990625276
5.62,0.2009493541,0.09369200434
5.63,0.2032954235,0.08825863388
5.64,0.2054930303,0.08276652825
5.65,0.2075407012,0.07721984059
5.66,0.2094370849,0.07162276126
5.67,0.2111809529,0.06597951389
5.68,0.2127712007,0.06029435147
5.69,0.214206848,0.05457155232
5.7,0.2154870395,0.04881541619
5.71,0.2166110453,0.04303026021
5.72,0.2175782609,0.0372204149
5.73,0.2183882076,0.03139022023
5.74,0.2190405321,0.02554402162
5.75,0.2195350064,0.019686166
5.76,0.2198715276,0.01382099788
5.77,0.2200501174,0.00795285544
5.78,0.2200709211,0.002086066719
5.79,0.2199342072,-0.003775054244
5.8,0.2196403666,-0.009626211154
5.81,0.219189911,-0.01546312918
5.82,0.2185834725,-0.02128155859
5.83,0.2178218016,-0.02707727835
5.84,0.2169057664,-0.03284609967
5.85,0.2158363507,-0.03858386938
5.86,0.2146146524,-0.04428647335
5.87,0.2132418819,-0.04994983974
5.88,0.2117193604,-0.05556994224
5.89,0.2100485176,-0.06114280312
5.9,0.2082308898,-0.06666449626
5.91,0.2062681181,-0.07213115008
5.92,0.2041619456,-0.07753895036
5.93,0.2019142158,-0.08288414291
5.94,0.1995268698,-0.08816303622
5.95,0.1970019438,-0.09337200395
5.96,0.1943415673,-0.09850748731
5.97,0.1915479596,-0.1035659974
5.98,0.188623428,-0.1085441172
5.99,0.1855703649,-0.1134385041
6,0.1823912451,-0.1182458911
