"Freq [GHz]","re(S(Tx_p1,Tx_p1)) []","im(S(Tx_p1,Tx_p1)) []"
1,-0.01507901269,-0.01837563426
1.01,-0.01574798914,-0.01752012379
1.02,-0.01637379823,-0.0166370549
1.03,-0.01695499457,-0.01572863458
1.04,-0.0174902599,-0.01479715553
1.05,-0.01797840778,-0.01384498817
1.06,-0.01841838766,-0.01287457235
1.07,-0.01880928856,-0.01188840895
1.08,-0.0191503422,-0.01088905134
1.09,-0.01944092561,-0.009879096628
1.1,-0.01968056326,-0.008861176941
1.11,-0.01986892864,-0.00783795053
1.12,-0.02000584536,-0.006812092901
1.13,-0.02009128768,-0.005786287906
1.14,-0.02012538061,-0.004763218862
1.15,-0.02010839937,-0.003745559718
1.16,-0.02004076849,-0.002735966288
1.17,-0.0199230603,-0.00173706759
1.18,-0.01975599299,-0.000751457315
1.19,-0.01954042815,0.000218314557
1.2,-0.01927736785,0.00116974995
1.21,-0.01896795128,0.002100410687
1.22,-0.01861345093,0.003007926247
1.23,-0.01821526832,0.003890001276
1.24,-0.01777492936,0.004744422811
1.25,-0.01729407927,0.005569067211
1.26,-0.01677447716,0.006361906763
1.27,-0.01621799021,0.007121015955
1.28,-0.01562658755,0.00784457738
1.29,-0.01500233384,0.008530887274
1.3,-0.01434738248,0.009178360652
1.31,-0.01366396861,0.009785536048
1.32,-0.0129544019,0.01035107982
1.33,-0.01222105902,0.01087379005
1.34,-0.011466376,0.01135259995
1.35,-0.01069284041,0.01178658088
1.36,-0.009902983335,0.01217494486
1.37,-0.009099371318,0.01251704663
1.38,-0.008284598169,0.01281238526
1.39,-0.007461276716,0.01306060524
1.4,-0.006632030532,0.01326149714
1.41,-0.005799485651,0.01341499778
1.42,-0.0049662623,0.01352118991
1.43,-0.004134966681,0.01358030147
1.44,-0.003308182829,0.01359270432
1.45,-0.002488464565,0.01355891254
1.46,-0.001678327573,0.01347958032
1.47,-0.0008802416305,0.01335549933
1.48,-9.662301386E-05,0.0131875957
1.49,0.000670172903,0.0129769266
1.5,0.001417858823,0.01272467635
1.51,0.002144222462,0.01243215221
1.52,0.002847133213,0.01210077975
1.53,0.003524548533,0.01173209783
1.54,0.004174520018,0.01132775331
1.55,0.004795199165,0.0108894954
1.56,0.005384842778,0.01041916964
1.57,0.005941818039,0.009918711737
1.58,0.006464607186,0.009390140987
1.59,0.006951811827,0.008835553562
1.6,0.007402156844,0.008257115524
1.61,0.007814493897,0.007657055661
1.62,0.008187804505,0.007037658145
1.63,0.008521202712,0.006401255049
1.64,0.008813937311,0.005750218731
1.65,0.00906539364,0.005086954126
1.66,0.00927509493,0.004413890961
1.67,0.009442703215,0.003733475922
1.68,0.009568019799,0.0030481648
1.69,0.009650985274,0.002360414635
1.7,0.009691679098,0.001672675885
1.71,0.00969031874,0.0009873846557
1.72,0.009647258381,0.0003069549928
1.73,0.009562987196,-0.0003662287153
1.74,0.009438127209,-0.001029819216
1.75,0.009273430739,-0.001681513723
1.76,0.009069777445,-0.00231906108
1.77,0.008828170969,-0.002940268726
1.78,0.008549735217,-0.00354300946
1.79,0.008235710259,-0.00412522796
1.8,0.007887447886,-0.004684947057
1.81,0.007506406827,-0.005220273737
1.82,0.007094147647,-0.005729404852
1.83,0.006652327349,-0.006210632525
1.84,0.00618269368,-0.006662349236
1.85,0.005687079184,-0.007083052568
1.86,0.005167395004,-0.007471349607
1.87,0.004625624461,-0.007825960976
1.88,0.004063816431,-0.008145724498
1.89,0.003484078536,-0.008429598475
1.9,0.00288857018,-0.008676664577
1.91,0.002279495445,-0.008886130324
1.92,0.001659095876,-0.009057331174
1.93,0.001029643169,-0.00918973219
1.94,0.0003934317951,-0.009282929297
1.95,-0.0002472284179,-0.009336650124
1.96,-0.0008900197329,-0.009350754427
1.97,-0.001532623941,-0.009325234095
1.98,-0.002172729781,-0.009260212738
1.99,-0.002808040301,-0.009155944868
2,-0.003436280162,-0.009012814669
2.01,-0.004055202836,-0.008831334363
2.02,-0.004662597695,-0.008612142181
2.03,-0.005256296963,-0.008355999946
2.04,-0.005834182507,-0.008063790274
2.05,-0.00639419245,-0.007736513412
2.06,-0.006934327587,-0.007375283712
2.07,-0.007452657584,-0.006981325761
2.08,-0.007947326936,-0.00655597018
2.09,-0.008416560678,-0.006100649104
2.1,-0.008858669819,-0.005616891362
2.11,-0.009272056496,-0.005106317364
2.12,-0.00965521882,-0.004570633724
2.13,-0.01000675541,-0.004011627629
2.14,-0.01032536962,-0.003431160973
2.15,-0.01060987336,-0.002831164279
2.16,-0.01085919066,-0.002213630421
2.17,-0.0110723608,-0.001580608176
2.18,-0.01124854111,-0.0009341956176
2.19,-0.01138700938,-0.000276533378
2.2,-0.01148716588,0.0003902022043
2.21,-0.01154853501,0.001063806027
2.22,-0.01157076657,0.001742051233
2.23,-0.01155363658,0.002422696276
2.24,-0.01149704779,0.003103491997
2.25,-0.01140102971,0.003782188719
2.26,-0.01126573834,0.004456543316
2.27,-0.0110914554,0.005124326242
2.28,-0.01087858725,0.005783328505
2.29,-0.01062766343,0.006431368547
2.3,-0.01033933477,0.007066299036
2.31,-0.01001437119,0.007686013521
2.32,-0.009653659046,0.008288452953
2.33,-0.009258198267,0.008871612033
2.34,-0.008829099006,0.00943354539
2.35,-0.008367578044,0.009972373547
2.36,-0.007874954848,0.01048628868
2.37,-0.007352647321,0.01097356012
2.38,-0.006802167268,0.01143253965
2.39,-0.006225115578,0.01186166648
2.4,-0.005623177143,0.01225947197
2.41,-0.00499811554,0.01262458407
2.42,-0.00435176747,0.01295573143
2.43,-0.003686036998,0.01325174719
2.44,-0.003002889595,0.01351157247
2.45,-0.002304346002,0.01373425949
2.46,-0.001592475947,0.01391897435
2.47,-0.0008693917168,0.01406499949
2.48,-0.0001372416233,0.01417173571
2.49,0.000601796636,0.01423870392
2.5,0.001345522686,0.01426554643
2.51,0.002091720237,0.01425202796
2.52,0.002838163887,0.01419803615
2.53,0.003582625927,0.01410358185
2.54,0.004322883152,0.01396879889
2.55,0.005056723631,0.01379394354
2.56,0.005781953435,0.01357939365
2.57,0.0064964033,0.01332564731
2.58,0.007197935188,0.01303332121
2.59,0.007884448757,0.01270314868
2.6,0.008553887687,0.01233597729
2.61,0.009204245869,0.01193276619
2.62,0.009833573429,0.01149458307
2.63,0.01043998256,0.01102260081
2.64,0.01102165318,0.0105180938
2.65,0.01157683833,0.009982434041
2.66,0.01210386937,0.009417086817
2.67,0.01260116094,0.008823606228
2.68,0.01306721563,0.00820363039
2.69,0.01350062839,0.007558876408
2.7,0.01390009064,0.006891135128
2.71,0.01426439411,0.006202265667
2.72,0.01459243433,0.00549418975
2.73,0.01488321382,0.004768885877
2.74,0.015135845,0.004028383319
2.75,0.01534955264,0.003274755979
2.76,0.01552367609,0.002510116132
2.77,0.01565767111,0.001736608061
2.78,0.01575111135,0.0009564016011
2.79,0.01580368944,0.0001716856344
2.8,0.01581521782,-0.0006153384733
2.81,0.01578562907,-0.001402463453
2.82,0.015714976,-0.002187482722
2.83,0.01560343129,-0.002968196952
2.84,0.01545128686,-0.003742420615
2.85,0.01525895278,-0.00450798846
2.86,0.01502695594,-0.005262761926
2.87,0.01475593826,-0.006004635463
2.88,0.01444665465,-0.006731542736
2.89,0.01409997057,-0.007441462703
2.9,0.01371685933,-0.008132425546
2.91,0.01329839901,-0.008802518435
2.92,0.01284576912,-0.009449891114
2.93,0.01236024689,-0.01007276128
2.94,0.01184320341,-0.01066941977
2.95,0.01129609933,-0.01123823547
2.96,0.01072048044,-0.01177766006
2.97,0.01011797294,-0.01228623244
2.98,0.009490278467,-0.01276258286
2.99,0.008839168943,-0.0132054369
3,0.008166481209,-0.01361361899
3.01,0.007474111474,-0.01398605574
3.02,0.006764009594,-0.01432177895
3.03,0.006038173212,-0.01461992824
3.04,0.005298641761,-0.01487975338
3.05,0.004547490357,-0.01510061636
3.06,0.003786823594,-0.01528199299
3.07,0.003018769267,-0.01542347425
3.08,0.002245472039,-0.01552476728
3.09,0.001469087067,-0.01558569599
3.1,0.0006917736149,-0.01560620136
3.11,-8.431134012E-05,-0.01558634135
3.12,-0.0008570194746,-0.01552629048
3.13,-0.00162421745,-0.0154263391
3.14,-0.002383793188,-0.01528689224
3.15,-0.003133662065,-0.01510846817
3.16,-0.003871773014,-0.01489169665
3.17,-0.004596114519,-0.01463731677
3.18,-0.005304720469,-0.01434617454
3.19,-0.005995675874,-0.01401922014
3.2,-0.006667122408,-0.01365750487
3.21,-0.007317263782,-0.01326217779
3.22,-0.007944370911,-0.0128344821
3.23,-0.008546786871,-0.0123757512
3.24,-0.009122931641,-0.01188740459
3.25,-0.009671306586,-0.01137094335
3.26,-0.01019049871,-0.01082794561
3.27,-0.01067918462,-0.01026006157
3.28,-0.01113613425,-0.009669008486
3.29,-0.01156021424,-0.009056565383
3.3,-0.01195039109,-0.008424567616
3.31,-0.01230573395,-0.007774901271
3.32,-0.01262541714,-0.007109497432
3.33,-0.0129087223,-0.006430326312
3.34,-0.01315504027,-0.005739391297
3.35,-0.01336387262,-0.005038722886
3.36,-0.0135348328,-0.004330372573
3.37,-0.01366764704,-0.003616406676
3.38,-0.01376215484,-0.002898900134
3.39,-0.01381830912,-0.002179930289
3.4,-0.01383617608,-0.001461570678
3.41,-0.01381593469,-0.0007458848489
3.42,-0.01375787583,-3.492021145E-05
3.43,-0.0136624011,0.0006692980395
3.44,-0.01353002133,0.001364772929
3.45,-0.01336135475,0.002049541609
3.46,-0.01315712481,0.002721681144
3.47,-0.01291815771,0.00337931418
3.48,-0.01264537966,0.004020614443
3.49,-0.01233981379,0.004643812094
3.5,-0.01200257678,0.005247198889
3.51,-0.01163487528,0.005829133149
3.52,-0.01123800197,0.006388044515
3.53,-0.01081333144,0.006922438487
3.54,-0.01036231579,0.007430900712
3.55,-0.009886480042,0.007912101033
3.56,-0.009387417305,0.008364797268
3.57,-0.008866783757,0.008787838721
3.58,-0.008326293454,0.009180169404
3.59,-0.007767712964,0.009540830971
3.6,-0.007192855851,0.009868965344
3.61,-0.006603577037,0.01016381704
3.62,-0.00600176704,0.01042473517
3.63,-0.005389346119,0.01065117513
3.64,-0.004768258336,0.01084269995
3.65,-0.004140465566,0.01099898133
3.66,-0.003507941448,0.01111980034
3.67,-0.002872665331,0.01120504775
3.68,-0.002236616195,0.01125472411
3.69,-0.001601766597,0.01126893941
3.7,-0.0009700766424,0.01124791243
3.71,-0.0003434880029,0.01119196978
3.72,0.0002760819923,0.01110154462
3.73,0.0008867461869,0.01097717501
3.74,0.001486653322,0.01081950199
3.75,0.002073993643,0.01062926729
3.76,0.002647004367,0.01040731084
3.77,0.003203975002,0.01015456784
3.78,0.003743252492,0.009872065674
3.79,0.00426324618,0.009560920484
3.8,0.004762432571,0.00922233346
3.81,0.005239359882,0.008857586919
3.82,0.005692652362,0.008468040117
3.83,0.006121014375,0.008055124833
3.84,0.006523234223,0.00762034074
3.85,0.006898187717,0.007165250572
3.86,0.007244841458,0.006691475101
3.87,0.007562255845,0.006200687949
3.88,0.007849587785,0.005694610239
3.89,0.008106093096,0.005175005109
3.9,0.00833112861,0.004643672102
3.91,0.008524153957,0.004102441452
3.92,0.00868473302,0.003553168286
3.93,0.008812535083,0.002997726751
3.94,0.008907335633,0.002438004093
3.95,0.008969016842,0.001875894703
3.96,0.008997567714,0.001313294146
3.97,0.008993083901,0.0007520931991
3.98,0.008955767184,0.0001941719025
3.99,0.008885924636,-0.0003586063388
4,0.008783967439,-0.0009044006022
4.01,0.008650409401,-0.001441398214
4.02,0.008485865134,-0.001967820426
4.03,0.008291047936,-0.00248192797
4.04,0.008066767357,-0.002982026501
4.05,0.007813926473,-0.003466471875
4.06,0.007533518867,-0.003933675279
4.07,0.007226625332,-0.004382108175
4.08,0.006894410308,-0.004810307056
4.09,0.006538118051,-0.005216877994
4.1,0.006159068568,-0.005600500959
4.11,0.005758653306,-0.005959933912
4.12,0.005338330633,-0.006294016646
4.13,0.004899621103,-0.006601674369
4.14,0.004444102537,-0.006881921012
4.15,0.003973404922,-0.007133862263
4.16,0.003489205155,-0.007356698306
4.17,0.002993221641,-0.007549726263
4.18,0.002487208765,-0.007712342326
4.19,0.001972951254,-0.007844043587
4.2,0.001452258449,-0.007944429534
4.21,0.0009269585015,-0.008013203242
4.22,0.0003988925128,-0.008050172217
4.23,-0.0001300913602,-0.008055248932
4.24,-0.0006581438214,-0.008028451014
4.25,-0.001183420352,-0.007969901115
4.26,-0.001704087107,-0.007879826437
4.27,-0.002218326779,-0.007758557943
4.28,-0.002724344404,-0.00760652923
4.29,-0.003220373097,-0.007424275083
4.3,-0.003704679693,-0.007212429712
4.31,-0.004175570283,-0.006971724671
4.32,-0.004631395625,-0.006702986477
4.33,-0.005070556409,-0.006407133925
4.34,-0.005491508362,-0.006085175114
4.35,-0.005892767185,-0.005738204191
4.36,-0.006272913289,-0.005367397829
4.37,-0.006630596337,-0.004974011435
4.38,-0.006964539553,-0.004559375122
4.39,-0.00727354381,-0.004124889434
4.4,-0.007556491465,-0.00367202086
4.41,-0.007812349937,-0.003202297134
4.42,-0.008040175017,-0.002717302339
4.43,-0.008239113897,-0.002218671844
4.44,-0.008408407911,-0.001708087069
4.45,-0.008547394975,-0.001187270109
4.46,-0.008655511726,-0.0006579782285
4.47,-0.008732295346,-0.0001219982501
4.48,-0.008777385067,0.0004188591591
4.49,-0.008790523356,0.0009627652692
4.5,-0.008771556771,0.00150787913
4.51,-0.00872043649,0.002052353449
4.52,-0.00863721851,0.002594340497
4.53,-0.008522063507,0.003131998002
4.54,-0.008375236377,0.003663495042
4.55,-0.008197105437,0.00418701789
4.56,-0.007988141307,0.00470077581
4.57,-0.007748915458,0.005203006786
4.58,-0.007480098457,0.005691983145
4.59,-0.00718245788,0.006166017092
4.6,-0.006856855934,0.006623466106
4.61,-0.006504246769,0.007062738198
4.62,-0.006125673506,0.007482297009
4.63,-0.005722264979,0.007880666735
4.64,-0.00529523221,0.00825643686
4.65,-0.004845864617,0.008608266684
4.66,-0.004375525982,0.008934889629
4.67,-0.003885650179,0.009235117316
4.68,-0.003377736682,0.009507843394
4.69,-0.002853345861,0.009752047106
4.7,-0.002314094092,0.009966796597
4.71,-0.001761648684,0.01015125193
4.72,-0.001197722648,0.01030466782
4.73,-0.0006240693145,0.01042639605
4.74,-4.247683559E-05,0.01051588766
4.75,0.0005452374376,0.01057269467
4.76,0.001137232661,0.01059647165
4.77,0.001731650283,0.01058697688
4.78,0.002326619884,0.01054407317
4.79,0.002920265056,0.01046772843
4.8,0.003510709303,0.01035801581
4.81,0.004096081936,0.01021511357
4.82,0.004674523961,0.01003930466
4.83,0.005244193921,0.009830975825
4.84,0.005803273692,0.009590616569
4.85,0.006349974196,0.009318817645
4.86,0.006882541037,0.009016269308
4.87,0.007399260015,0.008683759234
4.88,0.007898462524,0.008322170126
4.89,0.008378530801,0.007932477036
4.9,0.008837903021,0.007515744383
4.91,0.009275078213,0.0070731227
4.92,0.009688620985,0.006605845109
4.93,0.01007716605,0.006115223534
4.94,0.01043942251,0.00560264467
4.95,0.01077417797,0.00506956572
4.96,0.01108030229,0.004517509904
4.97,0.01135675121,0.003948061771
4.98,0.01160256962,0.003362862311
4.99,0.01181689459,0.002763603898
5,0.01199895807,0.00215202507
5.01,0.01214808935,0.00152990516
5.02,0.01226371717,0.0008990588136
5.03,0.01234537156,0.0002613303822
5.04,0.01239268529,-0.0003814117639
5.05,0.01240539512,-0.001027281002
5.06,0.01238334257,-0.001674378278
5.07,0.01232647451,-0.002320797963
5.08,0.01223484333,-0.002964633729
5.09,0.01210860683,-0.003603984429
5.1,0.01194802771,-0.004236959951
5.11,0.01175347286,-0.004861687043
5.12,0.01152541216,-0.00547631508
5.13,0.01126441714,-0.006079021755
5.14,0.01097115915,-0.006668018685
5.15,0.01064640738,-0.007241556905
5.16,0.01029102643,-0.007797932239
5.17,0.0099059737,-0.008335490523
5.18,0.009492296446,-0.008852632681
5.19,0.009051128536,-0.009347819609
5.2,0.008583686983,-0.009819576892
5.21,0.008091268197,-0.01026649929
5.22,0.007575243997,-0.01068725504
5.23,0.007037057397,-0.01108058989
5.24,0.006478218167,-0.01144533091
5.25,0.005900298197,-0.01178039006
5.26,0.005304926669,-0.01208476744
5.27,0.004693785055,-0.01235755435
5.28,0.004068601958,-0.01259793596
5.29,0.003431147813,-0.01280519379
5.3,0.002783229463,-0.0129787078
5.31,0.002126684629,-0.01311795823
5.32,0.001463376283,-0.01322252713
5.33,0.0007951869616,-0.01329209949
5.34,0.0001240130147,-0.01332646418
5.35,-0.0005482411777,-0.01332551447
5.36,-0.001219669006,-0.01328924825
5.37,-0.001888367432,-0.01321776792
5.38,-0.002552442773,-0.01311128003
5.39,-0.003210016444,-0.01297009446
5.4,-0.003859230653,-0.01279462338
5.41,-0.004498254017,-0.01258537993
5.42,-0.005125287093,-0.01234297642
5.43,-0.005738567797,-0.01206812247
5.44,-0.006336376706,-0.01176162259
5.45,-0.006917042212,-0.01142437371
5.46,-0.007478945527,-0.01105736225
5.47,-0.008020525512,-0.01066166101
5.48,-0.008540283319,-0.01023842577
5.49,-0.009036786835,-0.009788891653
5.5,-0.009508674914,-0.009314369232
5.51,-0.009954661375,-0.008816240422
5.52,-0.01037353876,-0.008295954154
5.53,-0.01076418187,-0.007755021854
5.54,-0.01112555097,-0.007195012737
5.55,-0.01145669483,-0.006617548931
5.56,-0.01175675336,-0.006024300442
5.57,-0.01202496009,-0.005416979993
5.58,-0.01226064422,-0.004797337733
5.59,-0.01246323251,-0.00416715584
5.6,-0.01263225075,-0.003528243048
5.61,-0.01276732495,-0.002882429091
5.62,-0.01286818228,-0.002231559103
5.63,-0.0129346516,-0.001577487983
5.64,-0.01296666377,-0.0009220747374
5.65,-0.01296425153,-0.0002671768285
5.66,-0.01292754918,0.0003853554584
5.67,-0.0128567919,0.001033684615
5.68,-0.01275231471,0.001675991453
5.69,-0.01261455122,0.002310480579
5.7,-0.01244403201,0.002935385781
5.71,-0.0122413827,0.003548975307
5.72,-0.01200732183,0.004149557026
5.73,-0.01174265834,0.004735483455
5.74,-0.01144828886,0.005305156627
5.75,-0.01112519467,0.005857032796
5.76,-0.01077443849,0.006389626964
5.77,-0.01039716094,0.006901517205
5.78,-0.009994576829,0.007391348787
5.79,-0.009567971197,0.007857838076
5.8,-0.009118695163,0.008299776196
5.81,-0.008648161576,0.008716032465
5.82,-0.00815784049,0.009105557558
5.83,-0.007649254472,0.009467386423
5.84,-0.007123973769,0.009800640922
5.85,-0.006583611338,0.01010453219
5.86,-0.006029817758,0.01037836271
5.87,-0.005464276047,0.01062152811
5.88,-0.004888696391,0.01083351865
5.89,-0.004304810807,0.01101392041
5.9,-0.003714367761,0.0111624162
5.91,-0.003119126746,0.01127878613
5.92,-0.002520852848,0.01136290791
5.93,-0.001921311314,0.01141475681
5.94,-0.001322262141,0.01143440538
5.95,-0.0007254546907,0.01142202277
5.96,-0.0001326223683,0.01137787385
5.97,0.0004545226369,0.01130231799
5.98,0.001034294524,0.01119580752
5.99,0.001605038951,0.01105888601
6,0.002165137993,0.01089218612
