"Freq [GHz]","re(S(Tx_p1,Tx_p1)) []","im(S(Tx_p1,Tx_p1)) []"
1,-0.02901382043,-0.05682462187
1.01,-0.03100681568,-0.05476162647
1.02,-0.03289540363,-0.05261932053
1.03,-0.03467531223,-0.05040268641
1.04,-0.03634254613,-0.04811697507
1.05,-0.03789340176,-0.04576768829
1.06,-0.03932448135,-0.04336056006
1.07,-0.04063270586,-0.04090153747
1.08,-0.04181532669,-0.03839676094
1.09,-0.04286993632,-0.03585254402
1.1,-0.04379447771,-0.0332753527
1.11,-0.04458725251,-0.03067178431
1.12,-0.0452469281,-0.02804854617
1.13,-0.0457725433,-0.02541243388
1.14,-0.04616351296,-0.02277030946
1.15,-0.04641963125,-0.02012907937
1.16,-0.04654107367,-0.01749567239
1.17,-0.04652839791,-0.01487701756
1.18,-0.0463825434,-0.01228002213
1.19,-0.04610482964,-0.009711549659
1.2,-0.04569695335,-0.007178398252
1.21,-0.04516098436,-0.004687279106
1.22,-0.04449936036,-0.002244795322
1.23,-0.04371488045,0.0001425789024
1.24,-0.04281069757,0.00246851864
1.25,-0.04179030981,0.004726868118
1.26,-0.04065755063,0.006911660049
1.27,-0.03941657802,0.009017134359
1.28,-0.03807186271,0.01103775625
1.29,-0.03662817527,0.01296823358
1.3,-0.03509057245,0.01480353341
1.31,-0.03346438248,0.01653889783
1.32,-0.0317551896,0.01816985887
1.33,-0.02996881782,0.01969225257
1.34,-0.02811131387,0.02110223199
1.35,-0.02618892949,0.02239627943
1.36,-0.02420810314,0.02357121747
1.37,-0.02217544101,0.02462421908
1.38,-0.02009769767,0.02555281659
1.39,-0.01798175611,0.02635490964
1.4,-0.01583460748,0.02702877192
1.41,-0.01366333048,0.0275730569
1.42,-0.01147507043,0.02798680225
1.43,-0.009277018161,0.02826943328
1.44,-0.007076388786,0.02842076507
1.45,-0.004880400342,0.02844100347
1.46,-0.002696252439,0.02833074499
1.47,-0.0005311049483,0.02809097539
1.48,0.001607943194,0.02772306723
1.49,0.003713875016,0.02722877617
1.5,0.005779776306,0.0266102362
1.51,0.007798856098,0.02586995362
1.52,0.009764466817,0.02501080011
1.53,0.01167012399,0.02403600446
1.54,0.0135095255,0.02294914348
1.55,0.01527657027,0.02175413167
1.56,0.01696537643,0.02045521004
1.57,0.01857029876,0.01905693387
1.58,0.02008594548,0.01756415957
1.59,0.02150719434,0.01598203065
1.6,0.02282920783,0.01431596282
1.61,0.02404744763,0.01257162831
1.62,0.0251576882,0.01075493941
1.63,0.02615602935,0.008872031288
1.64,0.02703890801,0.006929244224
1.65,0.02780310887,0.00493310513
1.66,0.02844577414,0.002890308591
1.67,0.02896441215,0.0008076973932
1.68,0.02935690498,-0.001307757392
1.69,0.02962151492,-0.003448976701
1.7,0.02975688993,-0.005608794084
1.71,0.02976206784,-0.007779976584
1.72,0.02963647955,-0.009955245803
1.73,0.029379951,-0.01212729911
1.74,0.02899270404,-0.01428883091
1.75,0.02847535615,-0.01643255398
1.76,0.02782891898,-0.01855122067
1.77,0.0270547958,-0.02063764407
1.78,0.02615477778,-0.02268471897
1.79,0.02513103916,-0.02468544258
1.8,0.0239861313,-0.02663293502
1.81,0.02272297571,-0.02852045934
1.82,0.02134485589,-0.0303414413
1.83,0.01985540825,-0.03208948851
1.84,0.01825861192,-0.03375840916
1.85,0.01655877768,-0.03534223019
1.86,0.01476053578,-0.03683521473
1.87,0.01286882302,-0.03823187898
1.88,0.0108888688,-0.0395270083
1.89,0.00882618043,-0.04071567255
1.9,0.006686527602,-0.04179324064
1.91,0.004475926104,-0.04275539419
1.92,0.00220062085,-0.04359814032
1.93,-0.0001329317601,-0.04431782352
1.94,-0.002518082078,-0.04491113656
1.95,-0.004948006002,-0.0453751304
1.96,-0.007415724265,-0.04570722306
1.97,-0.009914122174,-0.04590520751
1.98,-0.01243596973,-0.04596725844
1.99,-0.01497394208,-0.04589193798
2,-0.01752064024,-0.04567820031
2.01,-0.02006861202,-0.04532539516
2.02,-0.02261037314,-0.04483327017
2.03,-0.02513842838,-0.04420197221
2.04,-0.0276452928,-0.04343204746
2.05,-0.03012351294,-0.04252444041
2.06,-0.03256568792,-0.04148049179
2.07,-0.03496449038,-0.04030193531
2.08,-0.03731268723,-0.0389908933
2.09,-0.03960316015,-0.03754987132
2.1,-0.04182892574,-0.03598175161
2.11,-0.04398315532,-0.03428978558
2.12,-0.04605919426,-0.03247758512
2.13,-0.04805058088,-0.03054911308
2.14,-0.04995106476,-0.02850867261
2.15,-0.05175462446,-0.02636089566
2.16,-0.05345548466,-0.02411073047
2.17,-0.05504813254,-0.02176342825
2.18,-0.05652733349,-0.01932452897
2.19,-0.05788814597,-0.01679984639
2.2,-0.05912593562,-0.01419545224
2.21,-0.06023638853,-0.01151765982
2.22,-0.0612155235,-0.008773006777
2.23,-0.06205970356,-0.005968237376
2.24,-0.06276564633,-0.003110284143
2.25,-0.06333043357,-0.0002062490007
2.26,-0.06375151963,0.002736616066
2.27,-0.06402673884,0.005710928754
2.28,-0.06415431199,0.008709196553
2.29,-0.06413285154,0.01172383715
2.3,-0.06396136594,0.01474719907
2.31,-0.06363926269,0.01777158254
2.32,-0.06316635045,0.02078926045
2.33,-0.06254283995,0.02379249939
2.34,-0.06176934378,0.0267735807
2.35,-0.06084687515,0.0297248215
2.36,-0.05977684553,0.03263859559
2.37,-0.05856106109,0.03550735418
2.38,-0.05720171826,0.03832364646
2.39,-0.05570139799,0.0410801398
2.4,-0.05406305916,0.04376963973
2.41,-0.05229003082,0.04638510944
2.42,-0.0503860035,0.0489196889
2.43,-0.04835501945,0.05136671347
2.44,-0.04620146203,0.05371973197
2.45,-0.04393004411,0.05597252417
2.46,-0.04154579553,0.05811911762
2.47,-0.03905404982,0.06015380382
2.48,-0.03646042998,0.06207115363
2.49,-0.03377083353,0.06386603198
2.5,-0.03099141687,0.06553361169
2.51,-0.02812857881,0.06706938648
2.52,-0.02518894358,0.06846918311
2.53,-0.02217934319,0.06972917262
2.54,-0.01910679921,0.07084588056
2.55,-0.01597850404,0.07181619633
2.56,-0.01280180183,0.07263738147
2.57,-0.009584168846,0.07330707699
2.58,-0.006333193629,0.07382330958
2.59,-0.003056556766,0.07418449687
2.6,0.000237989521,0.07438945155
2.61,0.003542641978,0.07443738446
2.62,0.006849567053,0.07432790656
2.63,0.01015092168,0.07406102985
2.64,0.01343887409,0.07363716721
2.65,0.01670562455,0.0730571311
2.66,0.01994342604,0.07232213123
2.67,0.02314460469,0.07143377116
2.68,0.0263015801,0.07039404379
2.69,0.02940688531,0.06920532584
2.7,0.03245318648,0.06787037133
2.71,0.03543330217,0.06639230395
2.72,0.03834022224,0.06477460853
2.73,0.04116712616,0.06302112148
2.74,0.04390740091,0.06113602036
2.75,0.04655465823,0.05912381248
2.76,0.04910275124,0.05698932261
2.77,0.05154579045,0.05473767994
2.78,0.05387815894,0.05237430411
2.79,0.05609452693,0.04990489059
2.8,0.05818986545,0.04733539522
2.81,0.06015945919,0.04467201817
2.82,0.06199891858,0.0419211872
2.83,0.06370419081,0.03908954032
2.84,0.0652715701,0.03618390797
2.85,0.06669770689,0.03321129463
2.86,0.06797961613,0.03017886001
2.87,0.0691146845,0.02709389988
2.88,0.07010067673,0.02396382652
2.89,0.07093574073,0.02079614891
2.9,0.07161841185,0.01759845266
2.91,0.07214761592,0.01437837979
2.92,0.07252267139,0.01114360839
2.93,0.07274329022,0.007901832177
2.94,0.0728095779,0.004660740086
2.95,0.07272203227,0.001427995895
2.96,0.07248154129,-0.001788782065
2.97,0.07208937984,-0.004982041023
2.98,0.07154720536,-0.008144313678
2.99,0.07085705258,-0.01126823784
3,0.07002132714,-0.01434657577
3.01,0.06904279823,-0.01737223309
3.02,0.06792459035,-0.02033827736
3.03,0.06667017396,-0.0232379561
3.04,0.06528335535,-0.02606471432
3.05,0.06376826552,-0.02881221152
3.06,0.06212934826,-0.03147433797
3.07,0.06037134737,-0.03404523047
3.08,0.05849929307,-0.03651928728
3.09,0.0565184877,-0.0388911824
3.1,0.05443449069,-0.041155879
3.11,0.05225310281,-0.0433086421
3.12,0.04998034987,-0.04534505033
3.13,0.04762246579,-0.04726100689
3.14,0.04518587512,-0.04905274953
3.15,0.04267717514,-0.05071685962
3.16,0.04010311744,-0.05225027027
3.17,0.03747058918,-0.05365027345
3.18,0.03478659398,-0.05491452612
3.19,0.03205823255,-0.05604105536
3.2,0.02929268309,-0.05702826245
3.21,0.0264971815,-0.05787492589
3.22,0.02367900149,-0.05858020345
3.23,0.02084543464,-0.0591436331
3.24,0.01800377044,-0.05956513289
3.25,0.01516127633,-0.05984499986
3.26,0.01232517795,-0.05998390781
3.27,0.00950263949,-0.05998290408
3.28,0.006700744187,-0.0598434053
3.29,0.00392647522,-0.05956719212
3.3,0.001186696829,-0.05915640294
3.31,-0.001511864163,-0.0586135267
3.32,-0.004162636407,-0.05794139461
3.33,-0.006759221615,-0.05714317106
3.34,-0.009295411628,-0.05622234356
3.35,-0.01176520492,-0.05518271185
3.36,-0.01416282246,-0.05402837606
3.37,-0.01648272301,-0.05276372417
3.38,-0.01871961756,-0.05139341866
3.39,-0.02086848322,-0.04992238239
3.4,-0.02292457616,-0.04835578377
3.41,-0.0248834439,-0.04669902138
3.42,-0.02674093661,-0.04495770781
3.43,-0.02849321762,-0.04313765311
3.44,-0.03013677303,-0.04124484755
3.45,-0.03166842033,-0.03928544408
3.46,-0.03308531616,-0.03726574018
3.47,-0.03438496296,-0.03519215954
3.48,-0.03556521481,-0.03307123325
3.49,-0.03662428207,-0.03090958084
3.5,-0.03756073515,-0.02871389103
3.51,-0.0383735072,-0.02649090241
3.52,-0.03906189572,-0.02424738389
3.53,-0.0396255632,-0.02199011527
3.54,-0.04006453672,-0.01972586765
3.55,-0.04037920641,-0.01746138403
3.56,-0.04057032303,-0.01520335993
3.57,-0.04063899442,-0.0129584243
3.58,-0.04058668095,-0.01073312053
3.59,-0.04041518999,-0.008533887795
3.6,-0.04012666944,-0.00636704278
3.61,-0.03972360015,-0.004238761709
3.62,-0.0392087876,-0.002155062853
3.63,-0.03858535249,-0.0001217895183
3.64,-0.03785672052,0.001855406442
3.65,-0.03702661132,0.003771080528
3.66,-0.03609902649,0.005620010874
3.67,-0.03507823692,0.007397212863
3.68,-0.03396876928,0.009097953028
3.69,-0.03277539185,0.01071776221
3.7,-0.03150309964,0.01225244793
3.71,-0.0301570989,0.01369810594
3.72,-0.028742791,0.01505113091
3.73,-0.0272657558,0.01630822626
3.74,-0.02573173451,0.01746641308
3.75,-0.02414661214,0.01852303804
3.76,-0.02251639946,0.01947578047
3.77,-0.02084721473,0.02032265835
3.78,-0.01914526507,0.02106203337
3.79,-0.0174168276,0.02169261495
3.8,-0.01566823041,0.02221346323
3.81,-0.01390583339,0.0226239911
3.82,-0.012136009,0.02292396508
3.83,-0.01036512301,0.02311350529
3.84,-0.008599515277,0.02319308427
3.85,-0.006845480607,0.02316352487
3.86,-0.005109249803,0.02302599699
3.87,-0.003396970865,0.02278201346
3.88,-0.001714690479,0.02243342475
3.89,-6.833580368E-05,0.02198241284
3.9,0.001536303373,0.02143148396
3.91,0.003093592066,0.02078346056
3.92,0.004598067065,0.02004147218
3.93,0.00604445338,0.01920894553
3.94,0.007427680133,0.01828959364
3.95,0.008742895846,0.0172874042
3.96,0.00998548306,0.0162066271
3.97,0.01115107228,0.01505176113
3.98,0.01223555515,0.01382754
3.99,0.01323509692,0.01253891771
4,0.014146148,0.01119105314
4.01,0.01496545478,0.009789294184
4.02,0.01569006948,0.008339161179
4.03,0.01631735915,0.006846329935
4.04,0.01684501374,0.005316614241
4.05,0.01727105315,0.003755947971
4.06,0.0175938334,0.002170366831
4.07,0.0178120517,0.0005659897946
4.08,0.01792475061,-0.001050999713
4.09,0.01793132108,-0.002674372834
4.1,0.01783150454,-0.004297874444
4.11,0.0176253939,-0.005915242397
4.12,0.01731343349,-0.007520226814
4.13,0.01689641802,-0.009106609344
4.14,0.01637549045,-0.01066822234
4.15,0.01575213883,-0.01219896793
4.16,0.0150281921,-0.01369283681
4.17,0.01420581491,-0.01514392693
4.18,0.01328750141,-0.01654646174
4.19,0.01227606804,-0.01789480817
4.2,0.01117464539,-0.01918349417
4.21,0.009986669088,-0.02040722579
4.22,0.008715869783,-0.02156090374
4.23,0.007366262245,-0.02263963945
4.24,0.005942133588,-0.02363877043
4.25,0.004448030688,-0.02455387504
4.26,0.002888746798,-0.02538078658
4.27,0.001269307419,-0.02611560658
4.28,-0.0004050445352,-0.02675471736
4.29,-0.002128864252,-0.02729479379
4.3,-0.003896521145,-0.0277328141
4.31,-0.005702215566,-0.02806606995
4.32,-0.007539996035,-0.02829217548
4.33,-0.009403776961,-0.02840907547
4.34,-0.01128735678,-0.02841505251
4.35,-0.01318443646,-0.02830873318
4.36,-0.01508863838,-0.02808909324
4.37,-0.01699352538,-0.0277554618
4.38,-0.01889262011,-0.02730752441
4.39,-0.02077942451,-0.02674532518
4.4,-0.02264743936,-0.02606926773
4.41,-0.0244901839,-0.02528011519
4.42,-0.02630121543,-0.0243789891
4.43,-0.02807414882,-0.02336736721
4.44,-0.02980267593,-0.02224708028
4.45,-0.03148058478,-0.0210203078
4.46,-0.03310177855,-0.01968957269
4.47,-0.03466029424,-0.01825773498
4.48,-0.03615032093,-0.01672798446
4.49,-0.03756621777,-0.01510383236
4.5,-0.03890253133,-0.01338910211
4.51,-0.04015401262,-0.01158791904
4.52,-0.04131563338,-0.00970469933
4.53,-0.04238260188,-0.007744137964
4.54,-0.04335037802,-0.005711195884
4.55,-0.0442146877,-0.003611086335
4.56,-0.04497153651,-0.001449260436
4.57,-0.04561722256,0.0007686079786
4.58,-0.04614834851,0.003036638201
4.59,-0.0465618328,0.005348759135
4.6,-0.04685491989,0.007698726375
4.61,-0.04702518961,0.01008013982
4.62,-0.04707056559,0.01248646182
4.63,-0.04698932264,0.01491103569
4.64,-0.04678009321,0.01734710469
4.65,-0.04644187272,0.01978783133
4.66,-0.04597402397,0.02222631688
4.67,-0.04537628037,0.02465562122
4.68,-0.0446487482,0.02706878273
4.69,-0.04379190774,0.02945883842
4.7,-0.04280661336,0.03181884399
4.71,-0.04169409246,0.03414189397
4.72,-0.04045594342,0.03642114174
4.73,-0.0390941324,0.03864981944
4.74,-0.03761098909,0.04082125774
4.75,-0.03600920144,0.04292890531
4.76,-0.03429180927,0.04496634798
4.77,-0.03246219693,0.04692732768
4.78,-0.03052408493,0.04880576079
4.79,-0.02848152051,0.05059575614
4.8,-0.02633886739,0.0522916325
4.81,-0.02410079445,0.05388793547
4.82,-0.02177226361,0.05537945372
4.83,-0.0193585168,0.05676123468
4.84,-0.01686506208,0.0580285994
4.85,-0.01429765904,0.05917715672
4.86,-0.01166230336,0.06020281665
4.87,-0.008965210761,0.0611018029
4.88,-0.006212800193,0.06187066451
4.89,-0.003411676497,0.06250628666
4.9,-0.0005686124546,0.0630059004
4.91,0.002309469661,0.0633670916
4.92,0.005215516993,0.06358780872
4.93,0.00814236542,0.06366636969
4.94,0.01108275922,0.06360146768
4.95,0.01402937105,0.06339217589
4.96,0.01697482212,0.06303795113
4.97,0.01991170258,0.06253863651
4.98,0.02283259206,0.06189446283
4.99,0.02573008019,0.06110604907
5,0.02859678718,0.0601744016
5.01,0.03142538435,0.05910091246
5.02,0.03420861452,0.05788735638
5.03,0.03693931225,0.05653588688
5.04,0.03961042381,0.05504903112
5.05,0.04221502692,0.05342968386
5.06,0.04474635009,0.05168110024
5.07,0.04719779158,0.04980688757
5.08,0.04956293793,0.04781099619
5.09,0.05183558192,0.04569770923
5.1,0.05400974004,0.0434716315
5.11,0.05607966929,0.04113767746
5.12,0.05803988335,0.03870105825
5.13,0.05988516805,0.03616726795
5.14,0.06161059603,0.03354206895
5.15,0.0632115407,0.03083147662
5.16,0.0646836893,0.02804174322
5.17,0.06602305509,0.02517934114
5.18,0.06722598865,0.0222509455
5.19,0.06828918825,0.01926341617
5.2,0.06920970922,0.0162237793
5.21,0.06998497236,0.01313920831
5.22,0.07061277127,0.01001700449
5.23,0.0710912787,0.006864577225
5.24,0.07141905182,0.003689423938
5.25,0.07159503639,0.0004991097216
5.26,0.07161856984,-0.002698753179
5.27,0.07148938333,-0.005896526038
5.28,0.07120760256,-0.009086564396
5.29,0.07077374764,-0.01226123883
5.3,0.07018873174,-0.01541295567
5.31,0.06945385867,-0.01853417764
5.32,0.06857081936,-0.02161744431
5.33,0.06754168731,-0.02465539234
5.34,0.06636891288,-0.02764077549
5.35,0.06505531658,-0.0305664842
5.36,0.06360408132,-0.03342556492
5.37,0.06201874366,-0.03621123884
5.38,0.060303184,-0.03891692027
5.39,0.05846161593,-0.04153623435
5.4,0.05649857454,-0.04406303427
5.41,0.05441890393,-0.04649141773
5.42,0.05222774375,-0.0488157428
5.43,0.04993051507,-0.05103064297
5.44,0.04753290531,-0.05313104147
5.45,0.04504085257,-0.05511216474
5.46,0.04246052919,-0.05696955505
5.47,0.0397983247,-0.05869908217
5.48,0.03706082817,-0.06029695422
5.49,0.03425481003,-0.06175972746
5.5,0.03138720337,-0.06308431513
5.51,0.02846508484,-0.06426799528
5.52,0.02549565517,-0.06530841757
5.53,0.02248621931,-0.06620360902
5.54,0.0194441664,-0.06695197867
5.55,0.01637694944,-0.06755232118
5.56,0.01329206484,-0.06800381933
5.57,0.01019703193,-0.06830604547
5.58,0.00709937233,-0.06845896178
5.59,0.004006589465,-0.06846291956
5.6,0.00092614807,-0.06831865728
5.61,-0.002134546108,-0.06802729769
5.62,-0.005168166426,-0.06759034371
5.63,-0.008167485197,-0.06700967342
5.64,-0.01112539323,-0.06628753382
5.65,-0.01403491898,-0.06542653373
5.66,-0.01688924733,-0.06442963555
5.67,-0.01968173779,-0.06330014614
5.68,-0.02240594228,-0.06204170668
5.69,-0.02505562226,-0.06065828162
5.7,-0.02762476525,-0.05915414679
5.71,-0.03010760067,-0.05753387656
5.72,-0.03249861497,-0.0558023303
5.73,-0.03479256599,-0.05396463797
5.74,-0.03698449652,-0.05202618499
5.75,-0.03906974704,-0.04999259652
5.76,-0.0410439675,-0.04786972095
5.77,-0.04290312835,-0.0456636129
5.78,-0.04464353046,-0.04338051564
5.79,-0.04626181418,-0.04102684307
5.8,-0.04775496739,-0.03860916116
5.81,-0.04912033255,-0.03613416908
5.82,-0.05035561267,-0.03360868004
5.83,-0.0514588763,-0.03103960174
5.84,-0.05242856143,-0.02843391671
5.85,-0.05326347833,-0.02579866245
5.86,-0.05396281131,-0.02314091146
5.87,-0.05452611945,-0.02046775127
5.88,-0.05495333619,-0.01778626441
5.89,-0.05524476792,-0.01510350855
5.9,-0.0554010914,-0.01242649669
5.91,-0.0554233503,-0.009762177589
5.92,-0.0553129505,-0.00711741641
5.93,-0.05507165451,-0.004498975671
5.94,-0.05470157483,-0.001913496563
5.95,-0.05420516632,0.0006325193409
5.96,-0.0535852176,0.003132727904
5.97,-0.05284484157,0.005580959743
5.98,-0.05198746497,0.007971236978
5.99,-0.05101681709,0.01029778938
6,-0.04993691763,0.01255506988
