"Freq [GHz]","re(S(Tx_p1,Tx_p1)) []","im(S(Tx_p1,Tx_p1)) []"
1,0.08591422226,-0.1425960373
1.01,0.08244914776,-0.1432591637
1.02,0.0789756138,-0.1438624102
1.03,0.07549579837,-0.1444038011
1.04,0.07201196639,-0.1448815939
1.05,0.06852645441,-0.1452942746
1.06,0.06504165602,-0.145640553
1.07,0.06156000779,-0.145919357
1.08,0.0580839759,-0.1461298272
1.09,0.05461604332,-0.1462713107
1.1,0.05115869767,-0.1463433547
1.11,0.04771441962,-0.1463456998
1.12,0.04428567192,-0.1462782732
1.13,0.04087488908,-0.1461411814
1.14,0.03748446762,-0.1459347022
1.15,0.03411675687,-0.1456592778
1.16,0.03077405051,-0.1453155063
1.17,0.02745857857,-0.1449041335
1.18,0.02417250011,-0.144426045
1.19,0.02091789649,-0.1438822575
1.2,0.01769676521,-0.1432739103
1.21,0.01451101433,-0.1426022566
1.22,0.01136245752,-0.1418686548
1.23,0.008252809648,-0.1410745599
1.24,0.005183682923,-0.1402215145
1.25,0.002156583655,-0.1393111401
1.26,-0.0008270904741,-0.1383451283
1.27,-0.003766052588,-0.1373252324
1.28,-0.006659128253,-0.1362532581
1.29,-0.009505256599,-0.1351310559
1.3,-0.01230349093,-0.1339605119
1.31,-0.01505299884,-0.1327435399
1.32,-0.01775306185,-0.1314820733
1.33,-0.02040307458,-0.1301780572
1.34,-0.02300254344,-0.1288334405
1.35,-0.02555108498,-0.1274501688
1.36,-0.0280484237,-0.1260301767
1.37,-0.03049438955,-0.1245753812
1.38,-0.03288891505,-0.1230876749
1.39,-0.035232032,-0.1215689194
1.4,-0.0375238679,-0.1200209397
1.41,-0.03976464206,-0.1184455179
1.42,-0.04195466138,-0.1168443879
1.43,-0.04409431588,-0.1152192307
1.44,-0.04618407397,-0.1135716691
1.45,-0.04822447751,-0.1119032638
1.46,-0.05021613669,-0.110215509
1.47,-0.05215972464,-0.1085098292
1.48,-0.05405597198,-0.1067875755
1.49,-0.05590566121,-0.1050500232
1.5,-0.05770962096,-0.103298369
1.51,-0.05946872017,-0.1015337294
1.52,-0.06118386225,-0.09975713824
1.53,-0.06285597911,-0.0979695463
1.54,-0.0644860253,-0.09617181981
1.55,-0.066074972,-0.0943647402
1.56,-0.0676238012,-0.09254900391
1.57,-0.06913349981,-0.09072522266
1.58,-0.07060505388,-0.08889392405
1.59,-0.07203944296,-0.08705555259
1.6,-0.07343763449,-0.08521047098
1.61,-0.07480057838,-0.08335896181
1.62,-0.07612920173,-0.08150122959
1.63,-0.07742440369,-0.07963740304
1.64,-0.07868705055,-0.07776753775
1.65,-0.07991797103,-0.07589161907
1.66,-0.08111795171,-0.07400956538
1.67,-0.08228773284,-0.07212123147
1.68,-0.08342800422,-0.07022641234
1.69,-0.0845394015,-0.06832484707
1.7,-0.08562250265,-0.06641622304
1.71,-0.08667782475,-0.06450018022
1.72,-0.08770582105,-0.06257631578
1.73,-0.08870687836,-0.0606441887
1.74,-0.08968131472,-0.05870332464
1.75,-0.09062937741,-0.05675322091
1.76,-0.09155124122,-0.05479335147
1.77,-0.09244700713,-0.05282317214
1.78,-0.09331670124,-0.05084212573
1.79,-0.09416027405,-0.0488496473
1.8,-0.0949776001,-0.04684516948
1.81,-0.09576847789,-0.04482812766
1.82,-0.09653263011,-0.04279796531
1.83,-0.09726970431,-0.04075413918
1.84,-0.09797927372,-0.03869612445
1.85,-0.09866083851,-0.03662341987
1.86,-0.09931382731,-0.03453555274
1.87,-0.09993759905,-0.03243208384
1.88,-0.100531445,-0.03031261217
1.89,-0.1010945915,-0.02817677963
1.9,-0.1016262019,-0.02602427548
1.91,-0.1021253805,-0.02385484067
1.92,-0.102591175,-0.02166827195
1.93,-0.1030225802,-0.01946442579
1.94,-0.1034185417,-0.01724322212
1.95,-0.1037779598,-0.01500464779
1.96,-0.1040996934,-0.01274875984
1.97,-0.1043825645,-0.01047568847
1.98,-0.1046253626,-0.008185639819
1.99,-0.1048268493,-0.005878898431
2,-0.1049857629,-0.003555829445
2.01,-0.1051008234,-0.001216880528
2.02,-0.1051707377,0.001137416492
2.03,-0.1051942041,0.00350644429
2.04,-0.1051699181,0.005889498996
2.05,-0.105096577,0.008285789454
2.06,-0.1049728857,0.01069443678
2.07,-0.1047975615,0.01311447421
2.08,-0.1045693396,0.01554484729
2.09,-0.1042869783,0.01798441431
2.1,-0.1039492643,0.02043194712
2.11,-0.1035550178,0.02288613213
2.12,-0.1031030974,0.02534557173
2.13,-0.1025924056,0.02780878589
2.14,-0.1020218934,0.03027421413
2.15,-0.1013905653,0.03274021772
2.16,-0.1006974838,0.03520508215
2.17,-0.09994177421,0.03766701988
2.18,-0.09912262872,0.04012417336
2.19,-0.098239311,0.04257461822
2.2,-0.09729116005,0.0450163668
2.21,-0.09627759407,0.04744737181
2.22,-0.09519811415,0.04986553027
2.23,-0.09405230768,0.05226868759
2.24,-0.09283985156,0.05465464189
2.25,-0.09156051518,0.05702114845
2.26,-0.09021416314,0.05936592433
2.27,-0.08880075769,0.06168665318
2.28,-0.08732036096,0.06398099012
2.29,-0.08577313694,0.06624656672
2.3,-0.08415935305,0.06848099621
2.31,-0.08247938164,0.0706818786
2.32,-0.08073370101,0.07284680599
2.33,-0.07892289629,0.07497336791
2.34,-0.07704765998,0.07705915668
2.35,-0.07510879215,0.07910177278
2.36,-0.07310720048,0.08109883026
2.37,-0.07104389989,0.08304796217
2.38,-0.06892001194,0.08494682584
2.39,-0.06673676397,0.08679310829
2.4,-0.06449548791,0.08858453145
2.41,-0.06219761887,0.09031885738
2.42,-0.05984469338,0.09199389339
2.43,-0.05743834747,0.09360749703
2.44,-0.0549803144,0.09515758105
2.45,-0.05247242219,0.09664211814
2.46,-0.0499165909,0.09805914557
2.47,-0.04731482965,0.09940676971
2.48,-0.04466923347,0.1006831704
2.49,-0.04198197986,0.1018866048
2.5,-0.03925532519,0.103015412
2.51,-0.03649160093,0.1040680161
2.52,-0.03369320961,0.1050429302
2.53,-0.03086262073,0.1059387596
2.54,-0.02800236639,0.1067542049
2.55,-0.02511503685,0.1074880651
2.56,-0.02220327594,0.10813924
2.57,-0.01926977633,0.1087067329
2.58,-0.01631727472,0.1091896525
2.59,-0.01334854692,0.1095872149
2.6,-0.01036640286,0.1098987457
2.61,-0.007373681499,0.1101236806
2.62,-0.004373245773,0.1102615672
2.63,-0.001367977389,0.1103120657
2.64,0.001639228318,0.1102749495
2.65,0.004645467571,0.1101501056
2.66,0.007647833334,0.1099375345
2.67,0.01064342046,0.1096373505
2.68,0.01362933082,0.1092497808
2.69,0.0166026784,0.1087751651
2.7,0.01956059428,0.1082139548
2.71,0.02250023163,0.1075667114
2.72,0.02541877055,0.1068341057
2.73,0.02831342284,0.1060169154
2.74,0.03118143668,0.1051160242
2.75,0.03402010114,0.1041324187
2.76,0.03682675063,0.103067187
2.77,0.03959876913,0.1019215156
2.78,0.04233359436,0.1006966868
2.79,0.04502872169,0.09939407624
2.8,0.04768170796,0.09801514926
2.81,0.05029017512,0.09656145804
2.82,0.0528518136,0.09503463814
2.83,0.05536438561,0.09343640492
2.84,0.05782572816,0.09176854994
2.85,0.0602337559,0.09003293715
2.86,0.06258646374,0.088231499
2.87,0.06488192932,0.08636623243
2.88,0.06711831516,0.08443919484
2.89,0.06929387067,0.08245249988
2.9,0.07140693392,0.08040831326
2.91,0.07345593317,0.07830884846
2.92,0.0754393882,0.07615636245
2.93,0.0773559114,0.07395315132
2.94,0.07920420863,0.07170154597
2.95,0.08098307991,0.06940390771
2.96,0.08269141979,0.06706262396
2.97,0.08432821761,0.06468010389
2.98,0.08589255746,0.06225877417
2.99,0.08738361799,0.05980107469
3,0.08880067197,0.05730945437
3.01,0.09014308568,0.05478636706
3.02,0.09141031806,0.05223426746
3.03,0.09260191971,0.04965560715
3.04,0.09371753171,0.04705283074
3.05,0.09475688418,0.04442837208
3.06,0.0957197948,0.04178465061
3.07,0.09660616706,0.03912406783
3.08,0.09741598837,0.03644900388
3.09,0.09814932808,0.03376181425
3.1,0.09880633532,0.03106482669
3.11,0.0993872367,0.02836033818
3.12,0.09989233389,0.02565061213
3.13,0.1003220012,0.02293787568
3.14,0.1006766827,0.02022431721
3.15,0.1009568899,0.01751208399
3.16,0.1011631987,0.01480327999
3.17,0.1012962466,0.01209996389
3.18,0.1013567296,0.009404147261
3.19,0.1013453998,0.006717792876
3.2,0.1012630615,0.004042813276
3.21,0.101110569,0.001381069445
3.22,0.100888823,-0.001265630306
3.23,0.1005987679,-0.003895531286
3.24,0.1002413884,-0.006506933196
3.25,0.09981770653,-0.009098190729
3.26,0.09932877888,-0.011667714
3.27,0.09877569323,-0.01421396881
3.28,0.09815956573,-0.01673547675
3.29,0.09748153797,-0.01923081512
3.3,0.09674277411,-0.02169861673
3.31,0.09594445805,-0.02413756956
3.32,0.0950877907,-0.02654641619
3.33,0.0941739873,-0.02892395319
3.34,0.0932042749,-0.03126903034
3.35,0.09217988981,-0.0335805497
3.36,0.09110207526,-0.03585746461
3.37,0.08997207912,-0.0380987785
3.38,0.08879115169,-0.04030354371
3.39,0.0875605437,-0.04247086008
3.4,0.08628150433,-0.04459987357
3.41,0.08495527943,-0.0466897747
3.42,0.0835831098,-0.048739797
3.43,0.08216622967,-0.05074921532
3.44,0.08070586524,-0.05271734414
3.45,0.0792032334,-0.05464353583
3.46,0.07765954057,-0.05652717879
3.47,0.0760759817,-0.05836769569
3.48,0.07445373934,-0.06016454157
3.49,0.07279398293,-0.06191720201
3.5,0.07109786816,-0.06362519121
3.51,0.06936653651,-0.06528805017
3.52,0.06760111489,-0.06690534481
3.53,0.06580271541,-0.06847666414
3.54,0.06397243533,-0.07000161843
3.55,0.06211135703,-0.07147983745
3.56,0.06022054824,-0.07291096874
3.57,0.05830106227,-0.07429467589
3.58,0.05635393841,-0.07563063696
3.59,0.05438020242,-0.0769185429
3.6,0.05238086712,-0.078158096
3.61,0.05035693314,-0.07934900856
3.62,0.04830938966,-0.08049100146
3.63,0.04623921528,-0.08158380296
3.64,0.04414737904,-0.08262714753
3.65,0.04203484139,-0.08362077475
3.66,0.03990255534,-0.08456442836
3.67,0.03775146758,-0.0854578554
3.68,0.03558251973,-0.08630080544
3.69,0.03339664957,-0.08709302993
3.7,0.03119479238,-0.08783428164
3.71,0.02897788221,-0.08852431426
3.72,0.02674685332,-0.08916288208
3.73,0.02450264149,-0.08974973976
3.74,0.02224618539,-0.0902846423
3.75,0.01997842803,-0.09076734501
3.76,0.01770031809,-0.09119760372
3.77,0.01541281127,-0.09157517498
3.78,0.01311687167,-0.09189981649
3.79,0.0108134731,-0.09217128755
3.8,0.008503600308,-0.09238934968
3.81,0.006188250285,-0.09255376728
3.82,0.003868433406,-0.09266430849
3.83,0.00154517458,-0.09272074605
3.84,-0.0007804856881,-0.09272285834
3.85,-0.003107490293,-0.09267043043
3.86,-0.005434764602,-0.09256325529
3.87,-0.007761215609,-0.09240113505
3.88,-0.01008573117,-0.09218388233
3.89,-0.01240717933,-0.09191132168
3.9,-0.01472440774,-0.091583291
3.91,-0.01703624319,-0.09119964318
3.92,-0.0193414912,-0.09076024757
3.93,-0.0216389358,-0.09026499175
3.94,-0.02392733929,-0.0897137831
3.95,-0.02620544227,-0.08910655061
3.96,-0.02847196363,-0.08844324657
3.97,-0.03072560076,-0.08772384834
3.98,-0.03296502987,-0.08694836018
3.99,-0.03518890632,-0.08611681496
4,-0.03739586524,-0.08522927602
4.01,-0.03958452213,-0.08428583889
4.02,-0.04175347362,-0.08328663309
4.03,-0.04390129838,-0.08223182387
4.04,-0.04602655811,-0.08112161387
4.05,-0.04812779867,-0.07995624487
4.06,-0.05020355127,-0.07873599937
4.07,-0.05225233385,-0.07746120218
4.08,-0.05427265254,-0.07613222193
4.09,-0.05626300316,-0.07474947258
4.1,-0.05822187292,-0.07331341473
4.11,-0.06014774215,-0.07182455701
4.12,-0.06203908619,-0.07028345726
4.13,-0.06389437726,-0.06869072369
4.14,-0.06571208652,-0.06704701593
4.15,-0.06749068619,-0.065353046
4.16,-0.06922865167,-0.0636095791
4.17,-0.07092446383,-0.06181743443
4.18,-0.0725766113,-0.05997748577
4.19,-0.0741835928,-0.05809066201
4.2,-0.07574391961,-0.05615794753
4.21,-0.07725611795,-0.05418038252
4.22,-0.07871873156,-0.05215906306
4.23,-0.08013032413,-0.05009514121
4.24,-0.08148948189,-0.04798982486
4.25,-0.08279481618,-0.04584437752
4.26,-0.08404496596,-0.04366011794
4.27,-0.08523860044,-0.04143841961
4.28,-0.08637442161,-0.03918071012
4.29,-0.08745116679,-0.03688847044
4.3,-0.08846761118,-0.03456323394
4.31,-0.08942257031,-0.03220658546
4.32,-0.09031490258,-0.02982016007
4.33,-0.09114351162,-0.02740564183
4.34,-0.09190734869,-0.02496476239
4.35,-0.09260541501,-0.02249929938
4.36,-0.09323676403,-0.02001107487
4.37,-0.09380050356,-0.01750195347
4.38,-0.09429579796,-0.01497384056
4.39,-0.09472187014,-0.01242868019
4.4,-0.0950780035,-0.009868453057
4.41,-0.0953635438,-0.007295174243
4.42,-0.09557790091,-0.004710890941
4.43,-0.0957205505,-0.002117680051
4.44,-0.09579103551,0.000482354298
4.45,-0.09578896768,0.003087083313
4.46,-0.09571402879,0.005694356169
4.47,-0.09556597193,0.008302002721
4.48,-0.09534462251,0.01090783627
4.49,-0.09504987925,0.01350965637
4.5,-0.09468171499,0.01610525176
4.51,-0.09424017738,0.01869240319
4.52,-0.09372538944,0.02126888646
4.53,-0.09313754994,0.02383247536
4.54,-0.09247693374,0.02638094469
4.55,-0.09174389189,0.02891207326
4.56,-0.09093885165,0.03142364697
4.57,-0.09006231636,0.03391346177
4.58,-0.08911486514,0.03637932674
4.59,-0.08809715252,0.0388190671
4.6,-0.08700990786,0.04123052715
4.61,-0.08585393469,0.04361157331
4.62,-0.08463010984,0.045960097
4.63,-0.08333938258,0.04827401756
4.64,-0.08198277346,0.05055128507
4.65,-0.08056137313,0.0527898832
4.66,-0.07907634103,0.05498783185
4.67,-0.07752890389,0.05714318993
4.68,-0.07592035424,0.05925405788
4.69,-0.07425204864,0.06131858021
4.7,-0.07252540594,0.06333494798
4.71,-0.07074190541,0.06530140109
4.72,-0.06890308469,0.06721623059
4.73,-0.06701053773,0.06907778085
4.74,-0.06506591263,0.07088445158
4.75,-0.06307090935,0.07263469985
4.76,-0.06102727739,0.0743270419
4.77,-0.0589368134,0.0759600549
4.78,-0.05680135864,0.07753237858
4.79,-0.05462279651,0.07904271673
4.8,-0.05240304993,0.08048983863
4.81,-0.0501440787,0.08187258025
4.82,-0.04784787681,0.08318984547
4.83,-0.04551646975,0.08444060708
4.84,-0.04315191174,0.08562390765
4.85,-0.04075628297,0.08673886035
4.86,-0.03833168683,0.08778464957
4.87,-0.03588024709,0.08876053144
4.88,-0.03340410511,0.08966583425
4.89,-0.03090541704,0.09049995869
4.9,-0.02838635106,0.09126237802
4.91,-0.02584908459,0.09195263809
4.92,-0.0232958015,0.09257035726
4.93,-0.02072868945,0.09311522614
4.94,-0.01814993716,0.09358700734
4.95,-0.01556173175,0.09398553494
4.96,-0.01296625616,0.094310714
4.97,-0.01036568654,0.09456251988
4.98,-0.007762189757,0.09474099747
4.99,-0.005157920952,0.09484626034
5,-0.00255502113,0.09487848975
5.01,4.438516548E-05,0.09483793362
5.02,0.002638192105,0.09472490541
5.03,0.005224314763,0.09453978282
5.04,0.007800691224,0.09428300657
5.05,0.01036528461,0.09395507896
5.06,0.01291608503,0.09355656246
5.07,0.01545111144,0.09308807815
5.08,0.0179684134,0.09255030419
5.09,0.02046607278,0.09194397419
5.1,0.02294220535,0.09126987548
5.11,0.02539496225,0.09052884743
5.12,0.02782253145,0.08972177971
5.13,0.03022313902,0.08884961042
5.14,0.03259505036,0.08791332435
5.15,0.03493657131,0.08691395106
5.16,0.03724604924,0.08585256307
5.17,0.0395218739,0.08473027393
5.18,0.04176247833,0.08354823638
5.19,0.04396633956,0.08230764042
5.2,0.04613197931,0.08100971145
5.21,0.04825796454,0.07965570836
5.22,0.05034290793,0.07824692167
5.23,0.0523854683,0.07678467168
5.24,0.05438435088,0.07527030661
5.25,0.05633830756,0.07370520079
5.26,0.05824613709,0.07209075289
5.27,0.06010668507,0.07042838414
5.28,0.06191884403,0.0687195366
5.29,0.06368155332,0.06696567148
5.3,0.06539379902,0.06516826753
5.31,0.06705461369,0.06332881936
5.32,0.06866307618,0.06144883594
5.33,0.07021831127,0.05952983908
5.34,0.07171948934,0.05757336195
5.35,0.07316582598,0.05558094767
5.36,0.07455658147,0.05355414799
5.37,0.07589106036,0.05149452195
5.38,0.0771686109,0.04940363463
5.39,0.07838862452,0.04728305601
5.4,0.07955053517,0.04513435977
5.41,0.08065381879,0.04295912226
5.42,0.08169799264,0.04075892147
5.43,0.08268261462,0.03853533607
5.44,0.08360728266,0.03628994449
5.45,0.08447163403,0.03402432409
5.46,0.08527534465,0.03174005033
5.47,0.08601812843,0.0294386961
5.48,0.08669973657,0.02712183094
5.49,0.08731995692,0.02479102049
5.5,0.08787861328,0.02244782583
5.51,0.0883755648,0.02009380298
5.52,0.08881070527,0.01773050242
5.53,0.08918396255,0.01535946859
5.54,0.08949529795,0.0129822395
5.55,0.08974470564,0.01060034638
5.56,0.08993221212,0.008215313318
5.57,0.09005787564,0.005828656956
5.58,0.09012178574,0.00344188623
5.59,0.09012406275,0.001056502117
5.6,0.09006485732,-0.001326002588
5.61,0.08994435005,-0.00370414347
5.62,0.08976275108,-0.006076444678
5.63,0.08952029974,-0.008441439091
5.64,0.08921726423,-0.01079766848
5.65,0.08885394133,-0.01314368363
5.66,0.08843065615,-0.01547804451
5.67,0.08794776193,-0.01779932041
5.68,0.08740563981,-0.02010609005
5.69,0.08680469871,-0.02239694173
5.7,0.08614537522,-0.02467047352
5.71,0.08542813345,-0.02692529334
5.72,0.08465346502,-0.02916001921
5.73,0.08382188898,-0.03137327936
5.74,0.08293395186,-0.03356371247
5.75,0.0819902276,-0.03572996788
5.76,0.08099131766,-0.03787070584
5.77,0.07993785105,-0.03998459776
5.78,0.07883048439,-0.0420703265
5.79,0.07766990202,-0.04412658668
5.8,0.07645681611,-0.04615208506
5.81,0.07519196674,-0.04814554088
5.82,0.07387612207,-0.05010568629
5.83,0.07251007846,-0.05203126679
5.84,0.07109466056,-0.0539210417
5.85,0.0696307215,-0.05577378468
5.86,0.068119143,-0.05758828427
5.87,0.06656083547,-0.05936334449
5.88,0.06495673817,-0.06109778542
5.89,0.06330781928,-0.0627904439
5.9,0.06161507601,-0.06444017421
5.91,0.05987953466,-0.06604584877
5.92,0.05810225068,-0.06760635893
5.93,0.05628430869,-0.06912061575
5.94,0.05442682249,-0.07058755085
5.95,0.05253093506,-0.07200611722
5.96,0.05059781844,-0.07337529018
5.97,0.0486286737,-0.07469406822
5.98,0.04662473077,-0.07596147402
5.99,0.0445872483,-0.07717655537
6,0.04251751344,-0.07833838619
