"Freq [GHz]","re(S(Tx_p1,Tx_p1)) []","im(S(Tx_p1,Tx_p1)) []"
1,0.174959207,-0.1768055645
1.01,0.1715750146,-0.1779234306
1.02,0.1681990404,-0.1790485376
1.03,0.1648301691,-0.1801785661
1.04,0.1614673983,-0.1813113914
1.05,0.1581098203,-0.1824450736
1.06,0.154756606,-0.1835778481
1.07,0.1514069897,-0.1847081154
1.08,0.1480602543,-0.1858344314
1.09,0.1447157188,-0.1869554965
1.1,0.1413727261,-0.1880701451
1.11,0.1380306317,-0.1891773354
1.12,0.134688794,-0.190276138
1.13,0.131346565,-0.1913657257
1.14,0.1280032826,-0.1924453619
1.15,0.1246582633,-0.1935143906
1.16,0.1213107959,-0.1945722248
1.17,0.1179601368,-0.1956183359
1.18,0.1146055048,-0.1966522435
1.19,0.1112460783,-0.197673504
1.2,0.1078809926,-0.198681701
1.21,0.1045093374,-0.1996764345
1.22,0.1011301566,-0.2006573113
1.23,0.09774244727,-0.2016239351
1.24,0.09434516062,-0.202575897
1.25,0.09093720282,-0.2035127665
1.26,0.08751743691,-0.2044340826
1.27,0.08408468528,-0.2053393456
1.28,0.08063773272,-0.2062280087
1.29,0.07717533008,-0.2070994709
1.3,0.07369619848,-0.2079530693
1.31,0.07019903404,-0.2087880729
1.32,0.06668251307,-0.2096036761
1.33,0.06314529771,-0.2103989933
1.34,0.05958604202,-0.2111730534
1.35,0.05600339838,-0.2119247954
1.36,0.05239602427,-0.2126530645
1.37,0.04876258936,-0.2133566081
1.38,0.04510178278,-0.2140340735
1.39,0.04141232073,-0.2146840052
1.4,0.03769295418,-0.2153048432
1.41,0.03394247673,-0.2158949221
1.42,0.03015973265,-0.2164524704
1.43,0.0263436249,-0.2169756106
1.44,0.02249312321,-0.2174623598
1.45,0.01860727217,-0.2179106314
1.46,0.01468519927,-0.2183182364
1.47,0.01072612283,-0.2186828861
1.48,0.006729359854,-0.2190021955
1.49,0.002694333689,-0.2192736864
1.5,-0.001379418468,-0.2194947918
1.51,-0.005492238311,-0.2196628606
1.52,-0.009644339415,-0.2197751629
1.53,-0.01383580051,-0.2198288954
1.54,-0.01806655909,-0.2198211883
1.55,-0.02233640532,-0.2197491114
1.56,-0.02664497643,-0.2196096812
1.57,-0.03099175135,-0.2193998691
1.58,-0.03537604594,-0.2191166086
1.59,-0.03979700856,-0.2187568041
1.6,-0.04425361614,-0.2183173394
1.61,-0.04874467081,-0.2177950865
1.62,-0.05326879691,-0.217186915
1.63,-0.05782443869,-0.2164897017
1.64,-0.06240985843,-0.2157003401
1.65,-0.06702313517,-0.2148157499
1.66,-0.07166216401,-0.2138328881
1.67,-0.07632465596,-0.2127487577
1.68,-0.08100813845,-0.2115604192
1.69,-0.08570995632,-0.210265
1.7,-0.09042727346,-0.208859705
1.71,-0.09515707509,-0.2073418266
1.72,-0.09989617054,-0.205708755
1.73,-0.1046411967,-0.2039579885
1.74,-0.1093886219,-0.2020871428
1.75,-0.1141347508,-0.2000939612
1.76,-0.1188757291,-0.1979763242
1.77,-0.1236075496,-0.1957322584
1.78,-0.128326058,-0.1933599459
1.79,-0.1330269604,-0.190857733
1.8,-0.1377058298,-0.1882241384
1.81,-0.1423581143,-0.1854578615
1.82,-0.1469791452,-0.1825577898
1.83,-0.1515641458,-0.1795230063
1.84,-0.1561082405,-0.1763527963
1.85,-0.160606464,-0.1730466537
1.86,-0.1650537718,-0.1696042868
1.87,-0.1694450497,-0.1660256237
1.88,-0.1737751251,-0.162310817
1.89,-0.1780387773,-0.158460248
1.9,-0.1822307489,-0.1544745307
1.91,-0.1863457568,-0.1503545144
1.92,-0.1903785042,-0.1461012866
1.93,-0.1943236917,-0.1417161747
1.94,-0.1981760298,-0.1372007473
1.95,-0.2019302502,-0.1325568151
1.96,-0.2055811178,-0.1277864303
1.97,-0.2091234432,-0.1228918869
1.98,-0.2125520939,-0.1178757186
1.99,-0.2158620071,-0.1127406975
2,-0.2190482005,-0.1074898316
2.01,-0.2221057851,-0.1021263613
2.02,-0.2250299758,-0.09665375618
2.03,-0.2278161033,-0.09107571023
2.04,-0.2304596255,-0.08539613726
2.05,-0.2329561376,-0.07961916529
2.06,-0.2353013836,-0.07374913044
2.07,-0.2374912659,-0.06779057037
2.08,-0.239521856,-0.06174821711
2.09,-0.2413894034,-0.05562698936
2.1,-0.2430903453,-0.04943198439
2.11,-0.2446213151,-0.04316846938
2.12,-0.2459791509,-0.0368418723
2.13,-0.2471609034,-0.03045777247
2.14,-0.2481638431,-0.02402189065
2.15,-0.2489854671,-0.01754007873
2.16,-0.2496235058,-0.01101830916
2.17,-0.2500759283,-0.004462664055
2.18,-0.2503409478,0.002120676063
2.19,-0.250417026,0.008725443655
2.2,-0.2503028773,0.01534529585
2.21,-0.2499974725,0.02197382629
2.22,-0.249500041,0.0286045771
2.23,-0.2488100734,0.03523105105
2.24,-0.247927323,0.04184672371
2.25,-0.2468518068,0.0484450557
2.26,-0.2455838058,0.055019505
2.27,-0.2441238646,0.06156353914
2.28,-0.2424727906,0.06807064744
2.29,-0.2406316524,0.07453435309
2.3,-0.2386017778,0.08094822518
2.31,-0.2363847509,0.08730589053
2.32,-0.2339824086,0.09360104537
2.33,-0.2313968373,0.09982746678
2.34,-0.2286303675,0.1059790239
2.35,-0.2256855696,0.112049689
2.36,-0.2225652479,0.1180335477
2.37,-0.2192724346,0.1239248101
2.38,-0.2158103832,0.1297178197
2.39,-0.2121825616,0.1354070639
2.4,-0.2083926443,0.1409871826
2.41,-0.2044445046,0.1464529772
2.42,-0.2003422065,0.1517994189
2.43,-0.1960899955,0.1570216565
2.44,-0.1916922898,0.1621150236
2.45,-0.1871536711,0.1670750457
2.46,-0.1824788744,0.1718974464
2.47,-0.1776727785,0.1765781534
2.48,-0.1727403957,0.1811133033
2.49,-0.1676868611,0.1854992469
2.5,-0.1625174225,0.1897325529
2.51,-0.1572374292,0.1938100115
2.52,-0.1518523217,0.197728638
2.53,-0.1463676203,0.2014856743
2.54,-0.1407889144,0.2050785915
2.55,-0.1351218515,0.2085050909
2.56,-0.1293721263,0.2117631048
2.57,-0.1235454695,0.2148507965
2.58,-0.1176476374,0.2177665599
2.59,-0.111684401,0.2205090188
2.6,-0.105661535,0.2230770251
2.61,-0.09958480822,0.2254696568
2.62,-0.09345997256,0.2276862153
2.63,-0.08729275347,0.2297262228
2.64,-0.08108884004,0.231589418
2.65,-0.07485387556,0.2332757527
2.66,-0.06859344828,0.2347853868
2.67,-0.06231308262,0.2361186837
2.68,-0.05601823064,0.2372762047
2.69,-0.04971426385,0.2382587033
2.7,-0.04340646551,0.2390671191
2.71,-0.03710002325,0.2397025713
2.72,-0.03080002212,0.2401663517
2.73,-0.0245114381,0.2404599181
2.74,-0.01823913209,0.2405848861
2.75,-0.01198784424,0.2405430225
2.76,-0.005762188908,0.2403362365
2.77,0.0004333500067,0.2399665723
2.78,0.006594423208,0.2394362007
2.79,0.01271681965,0.2387474106
2.8,0.0187964697,0.2379026011
2.81,0.0248294478,0.2369042724
2.82,0.03081197458,0.2357550177
2.83,0.03674041859,0.2344575147
2.84,0.0426112974,0.2330145165
2.85,0.04842127831,0.2314288439
2.86,0.05416717851,0.2297033764
2.87,0.05984596481,0.2278410442
2.88,0.06545475288,0.2258448198
2.89,0.07099080604,0.2237177103
2.9,0.07645153359,0.2214627492
2.91,0.08183448873,0.2190829888
2.92,0.0871373661,0.2165814931
2.93,0.09235799882,0.2139613303
2.94,0.09749435524,0.2112255661
2.95,0.1025445353,0.2083772568
2.96,0.1075067666,0.2054194434
2.97,0.1123794001,0.2023551453
2.98,0.1171609052,0.1991873551
2.99,0.1218498655,0.1959190328
3,0.1264449731,0.1925531012
3.01,0.1309450236,0.1890924415
3.02,0.1353489104,0.1855398891
3.03,0.139655619,0.1818982298
3.04,0.143864221,0.1781701967
3.05,0.1479738684,0.1743584672
3.06,0.1519837873,0.1704656607
3.07,0.1558932718,0.1664943366
3.08,0.1597016777,0.1624469926
3.09,0.1634084162,0.1583260636
3.1,0.1670129482,0.1541339211
3.11,0.1705147773,0.1498728728
3.12,0.1739134446,0.1455451628
3.13,0.1772085218,0.1411529723
3.14,0.1803996059,0.13669842
3.15,0.1834863132,0.1321835641
3.16,0.1864682737,0.1276104037
3.17,0.1893451257,0.1229808811
3.18,0.1921165104,0.1182968839
3.19,0.1947820675,0.1135602483
3.2,0.1973414295,0.1087727618
3.21,0.1997942182,0.1039361671
3.22,0.2021400399,0.09905216524
3.23,0.2043784817,0.09412242031
3.24,0.2065091079,0.08914856324
3.25,0.208531457,0.08413219647
3.26,0.2104450386,0.07907489867
3.27,0.2122493309,0.07397822958
3.28,0.2139437787,0.06884373515
3.29,0.2155277914,0.06367295269
3.3,0.2170007419,0.05846741621
3.31,0.2183619657,0.05322866183
3.32,0.2196107597,0.04795823323
3.33,0.2207463828,0.04265768721
3.34,0.2217680558,0.03732859918
3.35,0.2226749619,0.03197256869
3.36,0.223466248,0.02659122491
3.37,0.224141026,0.02118623205
3.38,0.2246983745,0.01575929468
3.39,0.2251373415,0.01031216297
3.4,0.2254569466,0.004846637735
3.41,0.225656184,-0.0006354246153
3.42,0.225734026,-0.006132107349
3.43,0.2256894269,-0.01164142889
3.44,0.2255213264,-0.0171613385
3.45,0.2252286547,-0.02268971226
3.46,0.2248103367,-0.02822434926
3.47,0.2242652974,-0.03376296812
3.48,0.2235924665,-0.03930320384
3.49,0.2227907846,-0.0448426049
3.5,0.2218592086,-0.05037863075
3.51,0.2207967176,-0.05590864972
3.52,0.2196023195,-0.06142993714
3.53,0.2182750566,-0.06693967403
3.54,0.2168140128,-0.07243494602
3.55,0.2152183198,-0.07791274281
3.56,0.213487164,-0.08336995795
3.57,0.2116197931,-0.08880338907
3.58,0.2096155232,-0.09420973854
3.59,0.2074737454,-0.09958561459
3.6,0.2051939328,-0.1049275328
3.61,0.2027756475,-0.110231918
3.62,0.2002185471,-0.1154951067
3.63,0.1975223915,-0.1207133502
3.64,0.1946870497,-0.1258828171
3.65,0.1917125061,-0.1309995977
3.66,0.1885988668,-0.1360597078
3.67,0.1853463659,-0.1410590932
3.68,0.1819553715,-0.1459936344
3.69,0.1784263911,-0.1508591522
3.7,0.1747600774,-0.1556514132
3.71,0.1709572334,-0.1603661359
3.72,0.1670188174,-0.1649989969
3.73,0.1629459473,-0.1695456376
3.74,0.1587399053,-0.1740016715
3.75,0.1544021413,-0.1783626912
3.76,0.149934277,-0.1826242761
3.77,0.1453381084,-0.1867820002
3.78,0.1406156094,-0.1908314402
3.79,0.1357689332,-0.1947681838
3.8,0.1308004148,-0.1985878382
3.81,0.1257125724,-0.2022860385
3.82,0.120508108,-0.2058584569
3.83,0.1151899084,-0.2093008114
3.84,0.1097610451,-0.2126088745
3.85,0.1042247739,-0.2157784828
3.86,0.09858453391,-0.2188055457
3.87,0.09284394629,-0.2216860545
3.88,0.08700681237,-0.2244160917
3.89,0.0810771113,-0.2269918399
3.9,0.07505899723,-0.229409591
3.91,0.06895679599,-0.2316657544
3.92,0.06277500132,-0.2337568669
3.93,0.05651827057,-0.2356796
3.94,0.05019142005,-0.2374307694
3.95,0.04379941981,-0.2390073426
3.96,0.03734738802,-0.2404064473
3.97,0.03084058493,-0.2416253788
3.98,0.0242844064,-0.2426616076
3.99,0.01768437703,-0.2435127867
4,0.01104614287,-0.2441767585
4.01,0.004375463788,-0.244651561
4.02,-0.002321794504,-0.2449354343
4.03,-0.009039668808,-0.2450268262
4.04,-0.01577210708,-0.2449243977
4.05,-0.02251297735,-0.2446270278
4.06,-0.02925607698,-0.2441338181
4.07,-0.03599514207,-0.2434440971
4.08,-0.04272385722,-0.2425574236
4.09,-0.04943586534,-0.2414735897
4.1,-0.05612477778,-0.2401926238
4.11,-0.06278418451,-0.2387147928
4.12,-0.0694076645,-0.2370406033
4.13,-0.07598879611,-0.2351708035
4.14,-0.08252116764,-0.233106383
4.15,-0.08899838789,-0.2308485738
4.16,-0.09541409669,-0.2283988493
4.17,-0.1017619755,-0.2257589237
4.18,-0.108035758,-0.2229307505
4.19,-0.1142292402,-0.2199165207
4.2,-0.1203362915,-0.2167186601
4.21,-0.1263508642,-0.2133398267
4.22,-0.132267004,-0.2097829069
4.23,-0.1380788598,-0.2060510119
4.24,-0.1437806937,-0.202147473
4.25,-0.14936689,-0.1980758371
4.26,-0.1548319651,-0.1938398608
4.27,-0.1601705758,-0.1894435051
4.28,-0.1653775287,-0.1848909292
4.29,-0.1704477881,-0.1801864833
4.3,-0.1753764842,-0.1753347023
4.31,-0.1801589208,-0.170340298
4.32,-0.1847905829,-0.1652081514
4.33,-0.1892671431,-0.1599433047
4.34,-0.1935844687,-0.1545509526
4.35,-0.1977386271,-0.149036434
4.36,-0.2017258924,-0.143405223
4.37,-0.2055427497,-0.1376629193
4.38,-0.2091859006,-0.131815239
4.39,-0.2126522668,-0.125868005
4.4,-0.2159389945,-0.1198271372
4.41,-0.2190434574,-0.1136986422
4.42,-0.2219632596,-0.1074886038
4.43,-0.2246962378,-0.1012031724
4.44,-0.2272404632,-0.09484855471
4.45,-0.2295942429,-0.08843100376
4.46,-0.2317561207,-0.08195680843
4.47,-0.2337248772,-0.07543228316
4.48,-0.2354995297,-0.0688637577
4.49,-0.2370793317,-0.06225756698
4.5,-0.2384637714,-0.05562004092
4.51,-0.2396525703,-0.04895749452
4.52,-0.240645681,-0.042276218
4.53,-0.2414432843,-0.0355824671
4.54,-0.2420457866,-0.0288824536
4.55,-0.2424538162,-0.02218233604
4.56,-0.2426682192,-0.0154882107
4.57,-0.2426900554,-0.008806102752
4.58,-0.2425205933,-0.002141957811
4.59,-0.2421613055,0.004498366333
4.6,-0.2416138624,0.0111091076
4.61,-0.240880127,0.01768460719
4.62,-0.2399621487,0.02421931683
4.63,-0.2388621563,0.03070780561
4.64,-0.237582552,0.0371447665
4.65,-0.2361259037,0.0435250224
4.66,-0.2344949384,0.04984353191
4.67,-0.2326925342,0.05609539451
4.68,-0.2307217129,0.06227585554
4.69,-0.228585632,0.06838031051
4.7,-0.2262875772,0.07440430922
4.71,-0.2238309536,0.08034355923
4.72,-0.2212192782,0.08619392903
4.73,-0.2184561711,0.09195145068
4.74,-0.2155453477,0.09761232209
4.75,-0.2124906098,0.1031729087
4.76,-0.209295838,0.1086297451
4.77,-0.2059649829,0.1139795354
4.78,-0.2025020568,0.1192191544
4.79,-0.1989111262,0.124345647
4.8,-0.1951963028,0.1293562283
4.81,-0.1913617365,0.1342482824
4.82,-0.187411607,0.1390193617
4.83,-0.1833501163,0.1436671849
4.84,-0.1791814814,0.1481896353
4.85,-0.1749099269,0.1525847583
4.86,-0.1705396781,0.156850759
4.87,-0.1660749543,0.160985999
4.88,-0.161519962,0.164988993
4.89,-0.1568788887,0.1688584056
4.9,-0.1521558975,0.1725930471
4.91,-0.1473551206,0.1761918692
4.92,-0.1424806545,0.1796539611
4.93,-0.137536555,0.1829785443
4.94,-0.1325268321,0.1861649684
4.95,-0.1274554461,0.1892127057
4.96,-0.1223263034,0.192121346
4.97,-0.117143253,0.1948905916
4.98,-0.1119100829,0.1975202517
4.99,-0.1066305177,0.200010237
5,-0.1013082156,0.2023605539
5.01,-0.09594676652,0.2045712994
5.02,-0.09054969012,0.2066426549
5.03,-0.08512043447,0.2085748809
5.04,-0.07966237494,0.2103683111
5.05,-0.07417881346,0.2120233472
5.06,-0.06867297817,0.213540453
5.07,-0.06314802341,0.2149201493
5.08,-0.05760703,0.2161630083
5.09,-0.05205300592,0.2172696483
5.1,-0.04648888725,0.2182407291
5.11,-0.04091753945,0.2190769466
5.12,-0.03534175892,0.2197790284
5.13,-0.02976427483,0.2203477288
5.14,-0.02418775127,0.2207838252
5.15,-0.01861478955,0.2210881131
5.16,-0.01304793085,0.2212614031
5.17,-0.00748965902,0.2213045166
5.18,-0.001942403593,0.2212182827
5.19,0.003591457016,0.2210035354
5.2,0.009109592135,0.2206611103
5.21,0.01460971533,0.2201918423
5.22,0.02008958076,0.2195965636
5.23,0.02554697944,0.2188761014
5.24,0.03097973542,0.2180312767
5.25,0.03638570185,0.2170629027
5.26,0.04176275708,0.2159717841
5.27,0.04710880069,0.2147587162
5.28,0.05242174949,0.2134244849
5.29,0.05769953359,0.2119698664
5.3,0.06294009246,0.2103956276
5.31,0.06814137112,0.2087025268
5.32,0.07330131629,0.2068913144
5.33,0.07841787273,0.2049627346
5.34,0.08348897969,0.2029175262
5.35,0.08851256744,0.2007564251
5.36,0.09348655397,0.1984801659
5.37,0.09840884193,0.1960894845
5.38,0.1032773156,0.1935851205
5.39,0.1080898384,0.1909678201
5.4,0.1128442499,0.1882383395
5.41,0.1175383641,0.1853974474
5.42,0.1221699671,0.1824459293
5.43,0.1267368151,0.1793845906
5.44,0.1312366335,0.1762142605
5.45,0.1356671151,0.1729357964
5.46,0.1400259195,0.1695500873
5.47,0.1443106722,0.1660580586
5.48,0.1485189645,0.162460676
5.49,0.1526483535,0.15875895
5.5,0.156696362,0.1549539406
5.51,0.1606604797,0.1510467612
5.52,0.1645381637,0.1470385836
5.53,0.1683268397,0.1429306421
5.54,0.1720239042,0.1387242382
5.55,0.1756267257,0.1344207447
5.56,0.1791326473,0.1300216105
5.57,0.1825389893,0.1255283641
5.58,0.185843052,0.1209426186
5.59,0.1890421185,0.1162660747
5.6,0.1921334591,0.1115005257
5.61,0.195114334,0.1066478599
5.62,0.1979819981,0.1017100654
5.63,0.2007337051,0.0966892323
5.64,0.2033667121,0.09158755638
5.65,0.2058782844,0.08640734175
5.66,0.2082657007,0.08115100345
5.67,0.2105262583,0.07582106974
5.68,0.2126572787,0.07042018415
5.69,0.2146561133,0.06495110719
5.7,0.2165201492,0.05941671779
5.71,0.2182468154,0.05382001435
5.72,0.2198335889,0.04816411556
5.73,0.2212780009,0.04245226079
5.74,0.2225776433,0.03668781017
5.75,0.2237301754,0.03087424428
5.76,0.2247333301,0.02501516355
5.77,0.2255849207,0.01911428719
5.78,0.2262828472,0.01317545183
5.79,0.2268251035,0.007202609738
5.8,0.2272097834,0.001199826659
5.81,0.2274350875,-0.004828720679
5.82,0.2274993293,-0.01087874748
5.83,0.2274009422,-0.01694586417
5.84,0.2271384849,-0.02302558002
5.85,0.2267106484,-0.02911330715
5.86,0.2261162615,-0.03520436494
5.87,0.2253542966,-0.04129398472
5.88,0.2244238755,-0.04737731485
5.89,0.2233242748,-0.05344942615
5.9,0.2220549308,-0.05950531757
5.91,0.2206154449,-0.06553992231
5.92,0.2190055877,-0.07154811408
5.93,0.2172253037,-0.07752471382
5.94,0.2152747154,-0.0834644965
5.95,0.2131541269,-0.08936219838
5.96,0.210864027,-0.09521252432
5.97,0.208405093,-0.1010101554
5.98,0.2057781927,-0.1067497569
5.99,0.202984387,-0.1124259861
6,0.2000249318,-0.1180335003
