"Freq [GHz]","re(S(Tx_p1,Tx_p1)) []","im(S(Tx_p1,Tx_p1)) []"
1,-0.01486390783,-0.00494969183
1.01,-0.01506619522,-0.004147144446
1.02,-0.01522592303,-0.003334402648
1.03,-0.01534245484,-0.002513788967
1.04,-0.01541528855,-0.001687666657
1.05,-0.01544405867,-0.0008584316113
1.06,-0.01542853809,-2.85041858E-05
1.07,-0.0153686394,0.0007996790663
1.08,-0.0152644157,0.001623673699
1.09,-0.01511606094,0.002441035706
1.1,-0.01492390973,0.003249329837
1.11,-0.01468843675,0.004046137895
1.12,-0.01441025558,0.004829066959
1.13,-0.01409011716,0.005595757526
1.14,-0.01372890763,0.006343891532
1.15,-0.0133276459,0.007071200242
1.16,-0.01288748058,0.00777547196
1.17,-0.01240968661,0.008454559556
1.18,-0.01189566137,0.00910638777
1.19,-0.01134692044,0.009728960276
1.2,-0.01076509287,0.01032036648
1.21,-0.01015191618,0.01087878806
1.22,-0.009509230902,0.0114025051
1.23,-0.008838974819,0.01188990206
1.24,-0.008143176848,0.01233947326
1.25,-0.007423950635,0.01274982801
1.26,-0.006683487857,0.01311969546
1.27,-0.005924051262,0.01344792897
1.28,-0.005147967463,0.01373351004
1.29,-0.004357619523,0.01397555192
1.3,-0.003555439348,0.01417330268
1.31,-0.002743899907,0.01432614792
1.32,-0.001925507328,0.01443361296
1.33,-0.001102792865,0.01449536462
1.34,-0.0002783047852,0.01451121248
1.35,0.0005453997986,0.01448110974
1.36,0.001365763136,0.01440515356
1.37,0.002180235048,0.01428358492
1.38,0.002986281114,0.01411678806
1.39,0.003781390811,0.0139052894
1.4,0.004563085579,0.01364975602
1.41,0.005328926778,0.0133509937
1.42,0.006076523528,0.01300994442
1.43,0.006803540383,0.01262768356
1.44,0.007507704834,0.01220541653
1.45,0.008186814609,0.01174447506
1.46,0.008838744743,0.01124631305
1.47,0.009461454398,0.01071250201
1.48,0.01005299342,0.01014472616
1.49,0.01061150858,0.00954477714
1.5,0.01113524955,0.008914548351
1.51,0.01162257448,0.008256029025
1.52,0.01207195528,0.007571297935
1.53,0.01248198252,0.006862516842
1.54,0.01285136993,0.006131923667
1.55,0.01317895854,0.005381825429
1.56,0.01346372037,0.00461459095
1.57,0.01370476171,0.003832643371
1.58,0.01390132601,0.003038452495
1.59,0.01405279627,0.002234526983
1.6,0.01415869703,0.001423406424
1.61,0.01421869586,0.0006076533114
1.62,0.01423260446,-0.0002101550491
1.63,0.01420037921,-0.001027434679
1.64,0.01412212137,-0.001841603085
1.65,0.01399807668,-0.002650087403
1.66,0.01382863467,-0.003450332517
1.67,0.01361432733,-0.004239809108
1.68,0.01335582748,-0.005016021627
1.69,0.0130539466,-0.005776516144
1.7,0.01270963226,-0.006518888074
1.71,0.01232396513,-0.007240789733
1.72,0.01189815551,-0.007939937709
1.73,0.01143353954,-0.008614120033
1.74,0.01093157494,-0.009261203109
1.75,0.01039383639,-0.009879138398
1.76,0.009822010569,-0.01046596883
1.77,0.009217890823,-0.0110198349
1.78,0.008583371478,-0.01153898051
1.79,0.007920441879,-0.01202175839
1.8,0.007231180112,-0.01246663527
1.81,0.006517746453,-0.0128721966
1.82,0.005782376564,-0.01323715096
1.83,0.005027374462,-0.01356033403
1.84,0.004255105274,-0.01384071222
1.85,0.003467987805,-0.01407738577
1.86,0.002668486947,-0.01426959158
1.87,0.001859105952,-0.01441670546
1.88,0.001042378582,-0.01451824407
1.89,0.0002208611827,-0.01457386631
1.9,-0.0006028753136,-0.01458337433
1.91,-0.001426253423,-0.01454671405
1.92,-0.002246697154,-0.01446397529
1.93,-0.003061640042,-0.01433539135
1.94,-0.003868533147,-0.01416133822
1.95,-0.004664852983,-0.01394233337
1.96,-0.005448109365,-0.01367903395
1.97,-0.006215853142,-0.01337223475
1.98,-0.006965683793,-0.0130228656
1.99,-0.007695256863,-0.01263198837
2,-0.008402291217,-0.01220079363
2.01,-0.00908457609,-0.0117305968
2.02,-0.009739977906,-0.01122283403
2.03,-0.01036644685,-0.01067905764
2.04,-0.01096202317,-0.01010093121
2.05,-0.01152484322,-0.009490224338
2.06,-0.01205314511,-0.008848807082
2.07,-0.01254527416,-0.008178644086
2.08,-0.01299968792,-0.007481788418
2.09,-0.01341496086,-0.006760375143
2.1,-0.01378978869,-0.00601661465
2.11,-0.01412299232,-0.005252785751
2.12,-0.01441352141,-0.004471228575
2.13,-0.0146604575,-0.003674337284
2.14,-0.01486301674,-0.002864552627
2.15,-0.01502055223,-0.002044354358
2.16,-0.01513255589,-0.001216253549
2.17,-0.01519865989,-0.0003827848017
2.18,-0.0152186377,0.0004535015852
2.19,-0.01519240466,0.001290047505
2.2,-0.01512001811,0.002124294934
2.21,-0.01500167709,0.002953693819
2.22,-0.01483772161,0.003775709931
2.23,-0.01462863146,0.004587832649
2.24,-0.01437502464,0.005387582678
2.25,-0.01407765528,0.006172519645
2.26,-0.01373741124,0.006940249573
2.27,-0.01335531123,0.007688432202
2.28,-0.01293250157,0.008414788129
2.29,-0.01247025251,0.009117105761
2.3,-0.01196995427,0.009793248036
2.31,-0.01143311259,0.01044115892
2.32,-0.01086134403,0.01105886963
2.33,-0.0102563709,0.01164450461
2.34,-0.009620015832,0.01219628715
2.35,-0.008954196144,0.01271254477
2.36,-0.00826091782,0.01319171424
2.37,-0.007542269288,0.01363234624
2.38,-0.006800414935,0.01403310966
2.39,-0.006037588393,0.01439279561
2.4,-0.005256085629,0.01471032094
2.41,-0.004458257848,0.01498473143
2.42,-0.003646504239,0.01521520458
2.43,-0.002823264581,0.01540105198
2.44,-0.001991011739,0.01554172122
2.45,-0.001152244065,0.01563679751
2.46,-0.0003094777324,0.0156860047
2.47,0.0005347609729,0.01568920602
2.48,0.00137794338,0.01564640433
2.49,0.002217546162,0.0155577419
2.5,0.003051059027,0.01542349987
2.51,0.003875992374,0.01524409718
2.52,0.004689884859,0.01502008916
2.53,0.005490310872,0.01475216562
2.54,0.006274887892,0.01444114861
2.55,0.007041283699,0.01408798976
2.56,0.007787223422,0.01369376716
2.57,0.008510496398,0.01325968196
2.58,0.009208962832,0.01278705453
2.59,0.009880560218,0.01227732027
2.6,0.01052330953,0.01173202511
2.61,0.01113532113,0.01115282063
2.62,0.0117148004,0.01054145887
2.63,0.01226005311,0.009899786886
2.64,0.01276949038,0.009229740995
2.65,0.01324163344,0.008533340726
2.66,0.01367511792,0.007812682573
2.67,0.01406869786,0.007069933496
2.68,0.01442124935,0.006307324225
2.69,0.01473177374,0.005527142374
2.7,0.01499940053,0.004731725397
2.71,0.0152233898,0.003923453396
2.72,0.01540313427,0.003104741817
2.73,0.01553816099,0.002278034043
2.74,0.0156281325,0.001445793915
2.75,0.01567284771,0.0006104982041
2.76,0.01567224225,-0.000225370948
2.77,0.01562638851,-0.001059333589
2.78,0.01553549515,-0.001888919502
2.79,0.01539990625,-0.002711675705
2.8,0.01522010009,-0.003525173889
2.81,0.0149966874,-0.004327017771
2.82,0.01473040937,-0.005114850329
2.83,0.0144221351,-0.005886360917
2.84,0.01407285878,-0.006639292215
2.85,0.01368369645,-0.007371447016
2.86,0.01325588236,-0.008080694809
2.87,0.01279076507,-0.008764978151
2.88,0.01228980307,-0.009422318806
2.89,0.0117545602,-0.01005082363
2.9,0.01118670069,-0.01064869019
2.91,0.01058798389,-0.01121421208
2.92,0.009960258756,-0.01174578398
2.93,0.009305458043,-0.01224190631
2.94,0.00862559227,-0.01270118966
2.95,0.007922743441,-0.01312235878
2.96,0.007199058566,-0.01350425631
2.97,0.006456742992,-0.013845846
2.98,0.005698053564,-0.01414621575
2.99,0.004925291644,-0.01440458006
3,0.004140796001,-0.01462028224
3.01,0.003346935602,-0.01479279615
3.02,0.002546102317,-0.01492172754
3.03,0.001740703576,-0.01500681503
3.04,0.0009331549782,-0.01504793058
3.05,0.0001258728977,-0.01504507969
3.06,-0.0006787329017,-0.01499840108
3.07,-0.001478266622,-0.01490816597
3.08,-0.002270353728,-0.01477477703
3.09,-0.003052648167,-0.01459876685
3.1,-0.003822839492,-0.01438079606
3.11,-0.004578659854,-0.01412165102
3.12,-0.005317890864,-0.01382224116
3.13,-0.006038370276,-0.01348359593
3.14,-0.006737998502,-0.01310686142
3.15,-0.007414744906,-0.01269329655
3.16,-0.00806665389,-0.01224426902
3.17,-0.008691850723,-0.01176125083
3.18,-0.009288547128,-0.01124581357
3.19,-0.009855046575,-0.01069962338
3.2,-0.01038974929,-0.0101244356
3.21,-0.01089115697,-0.009522089204
3.22,-0.01135787714,-0.00889450096
3.23,-0.01178862722,-0.00824365935
3.24,-0.01218223822,-0.007571618304
3.25,-0.01253765806,-0.006880490729
3.26,-0.01285395458,-0.00617244187
3.27,-0.01313031811,-0.005449682524
3.28,-0.01336606371,-0.004714462121
3.29,-0.01356063298,-0.003969061702
3.3,-0.01371359548,-0.003215786811
3.31,-0.01382464978,-0.002456960324
3.32,-0.01389362411,-0.001694915237
3.33,-0.01392047653,-0.0009319874391
3.34,-0.01390529483,-0.0001705084826
3.35,-0.01384829589,0.0005872016103
3.36,-0.01374982474,0.001338841499
3.37,-0.01361035317,0.002082135601
3.38,-0.013430478,0.002814841079
3.39,-0.0132109189,0.003534754707
3.4,-0.01295251587,0.004239719608
3.41,-0.01265622638,0.004927631828
3.42,-0.01232312207,0.005596446742
3.43,-0.01195438519,0.006244185251
3.44,-0.01155130464,0.006868939776
3.45,-0.0111152717,0.007468880011
3.46,-0.01064777548,0.008042258424
3.47,-0.01015039804,0.008587415496
3.48,-0.009624809221,0.00910278467
3.49,-0.009072761261,0.009586896999
3.5,-0.008496083119,0.01003838549
3.51,-0.007896674587,0.01045598912
3.52,-0.007276500192,0.01083855649
3.53,-0.006637582907,0.01118504916
3.54,-0.005981997692,0.01149454464
3.55,-0.00531186488,0.01176623895
3.56,-0.004629343444,0.01199944884
3.57,-0.003936624144,0.01219361366
3.58,-0.003235922598,0.0123482968
3.59,-0.002529472281,0.01246318673
3.6,-0.001819517489,0.0125380977
3.61,-0.001108306271,0.01257297
3.62,-0.0003980833792,0.01256786981
3.63,0.0003089167727,0.01252298874
3.64,0.001010477094,0.01243864284
3.65,0.001704404741,0.01231527139
3.66,0.002388537945,0.01215343514
3.67,0.003060752734,0.01195381429
3.68,0.003718969522,0.01171720604
3.69,0.004361159545,0.01144452181
3.7,0.004985351125,0.01113678407
3.71,0.005589635739,0.01079512285
3.72,0.006172173886,0.01042077191
3.73,0.006731200716,0.01001506463
3.74,0.007265031417,0.009579429517
3.75,0.007772066339,0.009115385472
3.76,0.008250795841,0.008624536788
3.77,0.00869980484,0.008108567862
3.78,0.00911777706,0.007569237678
3.79,0.009503498953,0.007008374061
3.8,0.009855863294,0.006427867727
3.81,0.01017387243,0.005829666147
3.82,0.01045664117,0.005215767239
3.83,0.01070339935,0.004588212917
3.84,0.01091349396,0.003949082514
3.85,0.01108639094,0.003300486093
3.86,0.01122167666,0.002644557683
3.87,0.01131905884,0.001983448444
3.88,0.01137836728,0.001319319798
3.89,0.01139955407,0.0006543365312
3.9,0.0113826935,-9.340087858E-06
3.91,0.01132798145,-0.0006695591774
3.92,0.01123573461,-0.001324187059
3.93,0.01110638907,-0.001971114009
3.94,0.01094049875,-0.002608260919
3.95,0.01073873331,-0.003233585847
3.96,0.01050187579,-0.003845090438
3.97,0.0102308198,-0.004440826197
3.98,0.009926566505,-0.005018900582
3.99,0.009590221114,-0.00557748292
4,0.009222989162,-0.006114810106
4.01,0.008826172426,-0.006629192076
4.02,0.008401164557,-0.007119017047
4.03,0.007949446431,-0.007582756482
4.04,0.007472581223,-0.008018969797
4.05,0.006972209233,-0.008426308768
4.06,0.006450042483,-0.008803521638
4.07,0.005907859081,-0.009149456913
4.08,0.005347497398,-0.009463066826
4.09,0.00477085006,-0.009743410464
4.1,0.004179857778,-0.009989656556
4.11,0.003576503038,-0.0102010859
4.12,0.002962803665,-0.01037709342
4.13,0.002340806298,-0.01051718987
4.14,0.001712579772,-0.01062100319
4.15,0.00108020845,-0.01068827937
4.16,0.0004457855185,-0.01071888314
4.17,-0.0001885937372,-0.01071279806
4.18,-0.0008208386478,-0.01067012637
4.19,-0.001448869848,-0.01059108844
4.2,-0.002070625917,-0.01047602181
4.21,-0.002684069946,-0.01032537987
4.22,-0.003287196019,-0.01013973017
4.23,-0.003878035582,-0.00991975242
4.24,-0.004454663672,-0.009666236039
4.25,-0.005015205012,-0.009380077445
4.26,-0.005557839916,-0.009062276965
4.27,-0.006080810023,-0.008713935429
4.28,-0.006582423812,-0.008336250448
4.29,-0.007061061897,-0.007930512399
4.3,-0.007515182083,-0.007498100103
4.31,-0.007943324167,-0.007040476251
4.32,-0.00834411446,-0.006559182549
4.33,-0.008716270033,-0.006055834639
4.34,-0.009058602663,-0.00553211678
4.35,-0.009370022464,-0.004989776326
4.36,-0.009649541202,-0.004430618012
4.37,-0.009896275278,-0.003856498066
4.38,-0.01010944837,-0.00326931817
4.39,-0.01028839373,-0.00267101929
4.4,-0.01043255611,-0.002063575381
4.41,-0.01054149338,-0.001448987014
4.42,-0.01061487768,-0.0008292749193
4.43,-0.01065249635,-0.0002064734805
4.44,-0.01065425235,0.0004173757997
4.45,-0.01062016437,0.001040230847
4.46,-0.0105503666,0.001660055552
4.47,-0.0104451081,0.002274826271
4.48,-0.01030475178,0.002882538284
4.49,-0.01012977305,0.003481212167
4.5,-0.009920758139,0.004068900081
4.51,-0.009678401988,0.004643691943
4.52,-0.009403505879,0.005203721468
4.53,-0.009096974681,0.005747172057
4.54,-0.008759813786,0.006272282515
4.55,-0.008393125733,0.006777352581
4.56,-0.007998106524,0.007260748257
4.57,-0.00757604165,0.007720906907
4.58,-0.007128301842,0.008156342127
4.59,-0.006656338558,0.008565648356
4.6,-0.006161679218,0.008947505225
4.61,-0.005645922214,0.009300681621
4.62,-0.005110731694,0.009624039466
4.63,-0.004557832159,0.009916537182
4.64,-0.003989002867,0.01017723285
4.65,-0.003406072082,0.01040528704
4.66,-0.002810911176,0.01059996532
4.67,-0.002205428605,0.0107606404
4.68,-0.001591563781,0.01088679398
4.69,-0.0009712808588,0.01097801818
4.7,-0.0003465624521,0.01103401666
4.71,0.0002805966881,0.01105460541
4.72,0.0009081960276,0.01103971308
4.73,0.001534235605,0.01098938111
4.74,0.002156722372,0.01090376331
4.75,0.0027736765,0.01078312525
4.76,0.003383137632,0.01062784321
4.77,0.003983171055,0.0104384028
4.78,0.004571873784,0.01021539724
4.79,0.005147380528,0.009959525313
4.8,0.005707869524,0.009671588934
4.81,0.006251568222,0.009352490482
4.82,0.006776758801,0.009003229756
4.83,0.0072817835,0.00862490065
4.84,0.007765049745,0.008218687539
4.85,0.00822503506,0.00778586138
4.86,0.008660291745,0.007327775555
4.87,0.009069451308,0.00684586146
4.88,0.009451228635,0.006341623852
4.89,0.009804425886,0.005816635984
4.9,0.01012793611,0.005272534528
4.91,0.01042074656,0.004711014312
4.92,0.0106819417,0.004133822883
4.93,0.01091070593,0.003542754922
4.94,0.01110632592,0.002939646518
4.95,0.0112681927,0.002326369326
4.96,0.01139580333,0.001704824627
4.97,0.01148876233,0.001076937311
4.98,0.01154678267,0.0004446497978
4.99,0.01156968649,-0.000190084082
5,0.01155740541,-0.0008253052279
5.01,0.01150998059,-0.00145905541
5.02,0.0114275623,-0.002089383394
5.03,0.01131040932,-0.002714351024
5.04,0.01115888785,-0.003332039258
5.05,0.01097347019,-0.003940554118
5.06,0.01075473302,-0.004538032552
5.07,0.01050335541,-0.005122648185
5.08,0.01022011646,-0.005692616933
5.09,0.009905892682,-0.006246202481
5.1,0.009561655075,-0.006781721584
5.11,0.009188465871,-0.007297549199
5.12,0.008787475049,-0.007792123411
5.13,0.008359916565,-0.00826395016
5.14,0.007907104329,-0.00871160773
5.15,0.007430427946,-0.009133751009
5.16,0.00693134823,-0.009529115494
5.17,0.006411392509,-0.00989652103
5.18,0.005872149735,-0.01023487528
5.19,0.005315265411,-0.01054317692
5.2,0.004742436364,-0.0108205185
5.21,0.004155405363,-0.01106608908
5.22,0.003555955618,-0.01127917645
5.23,0.002945905157,-0.01145916916
5.24,0.002327101128,-0.01160555813
5.25,0.001701414006,-0.01171793797
5.26,0.001070731763,-0.01179600799
5.27,0.0004369539866,-0.01183957288
5.28,-0.0001980140098,-0.01184854301
5.29,-0.0008322670844,-0.01182293447
5.3,-0.001463906142,-0.0117628687
5.31,-0.002091043972,-0.01166857193
5.32,-0.002711811038,-0.01154037411
5.33,-0.003324361183,-0.01137870767
5.34,-0.003926877257,-0.01118410592
5.35,-0.004517576629,-0.0109572011
5.36,-0.005094716576,-0.01069872219
5.37,-0.005656599533,-0.01040949241
5.38,-0.006201578185,-0.01009042639
5.39,-0.006728060386,-0.009742527147
5.4,-0.007234513895,-0.009366882707
5.41,-0.007719470905,-0.008964662564
5.42,-0.008181532364,-0.00853711383
5.43,-0.008619372064,-0.008085557189
5.44,-0.009031740493,-0.007611382632
5.45,-0.009417468438,-0.007116044985
5.46,-0.009775470326,-0.006601059263
5.47,-0.0101047473,-0.00606799584
5.48,-0.01040438999,-0.005518475478
5.49,-0.01067358107,-0.004954164206
5.5,-0.01091159742,-0.004376768084
5.51,-0.01111781207,-0.003788027855
5.52,-0.01129169579,-0.003189713518
5.53,-0.01143281844,-0.002583618821
5.54,-0.01154084991,-0.001971555701
5.55,-0.01161556085,-0.001355348694
5.56,-0.01165682302,-0.0007368293201
5.57,-0.01166460933,-0.0001178304675
5.58,-0.01163899362,0.0004998192047
5.59,-0.01158015008,0.001114300833
5.6,-0.01148835238,0.001723810862
5.61,-0.0113639725,0.002326566498
5.62,-0.01120747923,0.002920811066
5.63,-0.01101943646,0.003504819279
5.64,-0.0108005011,0.004076902384
5.65,-0.01055142072,0.004635413176
5.66,-0.01027303103,0.005178750874
5.67,-0.009966252935,0.005705365823
5.68,-0.009632089496,0.006213764035
5.69,-0.009271622534,0.006702511528
5.7,-0.008886009071,0.007170238478
5.71,-0.008476477532,0.007615643149
5.72,-0.00804432374,0.0080374956
5.73,-0.007590906728,0.00843464116
5.74,-0.007117644372,0.00880600366
5.75,-0.006626008851,0.009150588409
5.76,-0.006117521975,0.009467484905
5.77,-0.005593750364,0.009755869288
5.78,-0.005056300518,0.01001500651
5.79,-0.004506813782,0.01024425221
5.8,-0.003946961223,0.01044305437
5.81,-0.003378438436,0.01061095456
5.82,-0.002802960303,0.01074758901
5.83,-0.002222255701,0.01085268935
5.84,-0.001638062203,0.010926083
5.85,-0.001052120762,0.01096769337
5.86,-0.0004661704129,0.01097753966
5.87,0.0001180569975,0.01095573644
5.88,0.0006988420431,0.01090249291
5.89,0.001274482885,0.01081811189
5.9,0.001843300366,0.01070298849
5.91,0.002403643017,0.01055760858
5.92,0.002953891952,0.0103825469
5.93,0.003492465649,0.01017846495
5.94,0.004017824594,0.00994610865
5.95,0.004528475781,0.009686305705
5.96,0.005022977043,0.009399962749
5.97,0.005499941221,0.009088062265
5.98,0.005958040138,0.008751659286
5.99,0.006396008385,0.008391877881
6,0.006812646888,0.008009907455
