"Freq [GHz]","re(S(Tx_p1,Tx_p1)) []","im(S(Tx_p1,Tx_p1)) []"
1,0.07107702429,-0.1015450836
1.01,0.06883992944,-0.1011251625
1.02,0.06665583836,-0.1006844503
1.03,0.06452555729,-0.1002241874
1.04,0.06244981753,-0.09974579583
1.05,0.06042926199,-0.09925086669
1.06,0.05846443268,-0.09874114688
1.07,0.05655575937,-0.09821852581
1.08,0.0547035492,-0.09768502178
1.09,0.05290797739,-0.09714276808
1.1,0.05116907894,-0.09659399892
1.11,0.04948674143,-0.09604103526
1.12,0.04786069873,-0.09548627045
1.13,0.0462905258,-0.09493215587
1.14,0.04477563445,-0.09438118656
1.15,0.04331527012,-0.0938358868
1.16,0.04190850957,-0.09329879585
1.17,0.04055425959,-0.09277245373
1.18,0.03925125659,-0.0922593872
1.19,0.03799806715,-0.09176209591
1.2,0.03679308944,-0.09128303883
1.21,0.03563455551,-0.09082462088
1.22,0.03452053446,-0.09038918001
1.23,0.03344893639,-0.08997897451
1.24,0.03241751719,-0.08959617081
1.25,0.031423884,-0.08924283169
1.26,0.03046550156,-0.08892090496
1.27,0.02953969907,-0.08863221265
1.28,0.02864367787,-0.08837844077
1.29,0.02777451963,-0.0881611296
1.3,0.02692919522,-0.08798166461
1.31,0.02610457406,-0.087841268
1.32,0.02529743402,-0.0877409909
1.33,0.02450447174,-0.08768170626
1.34,0.02372231343,-0.08766410239
1.35,0.02294752604,-0.0876886773
1.36,0.02217662869,-0.08775573369
1.37,0.02140610449,-0.08786537473
1.38,0.02063241259,-0.08801750061
1.39,0.01985200034,-0.08821180584
1.4,0.01906131571,-0.08844777731
1.41,0.01825681976,-0.08872469316
1.42,0.01743499921,-0.08904162243
1.43,0.01659237895,-0.08939742544
1.44,0.01572553461,-0.08979075503
1.45,0.01483110502,-0.09022005849
1.46,0.01390580447,-0.0906835803
1.47,0.01294643496,-0.09117936561
1.48,0.01194989809,-0.09170526445
1.49,0.01091320681,-0.09225893667
1.5,0.009833496775,-0.09283785759
1.51,0.008708037478,-0.09343932432
1.52,0.007534242905,-0.09406046275
1.53,0.00630968185,-0.09469823521
1.54,0.005032087758,-0.09534944865
1.55,0.003699368085,-0.09601076353
1.56,0.002309613153,-0.09667870317
1.57,0.0008611044615,-0.09734966364
1.58,-0.0006476775856,-0.09801992419
1.59,-0.002218046538,-0.09868565805
1.6,-0.003851103392,-0.09934294373
1.61,-0.005547730725,-0.09998777665
1.62,-0.007308587504,-0.1006160811
1.63,-0.00913410457,-0.1012237227
1.64,-0.01102448084,-0.1018065206
1.65,-0.01297968019,-0.1023602605
1.66,-0.01499942914,-0.1028807078
1.67,-0.01708321517,-0.1033636203
1.68,-0.01923028585,-0.1038047614
1.69,-0.0214396487,-0.1041999136
1.7,-0.02371007181,-0.1045448919
1.71,-0.02604008514,-0.1048355562
1.72,-0.02842798267,-0.1050678254
1.73,-0.03087182519,-0.1052376899
1.74,-0.03336944385,-0.1053412243
1.75,-0.03591844446,-0.1053746007
1.76,-0.03851621246,-0.1053341004
1.77,-0.04115991856,-0.1052161265
1.78,-0.04384652514,-0.1050172155
1.79,-0.04657279316,-0.1047340488
1.8,-0.04933528984,-0.1043634637
1.81,-0.05213039689,-0.1039024643
1.82,-0.05495431929,-0.1033482314
1.83,-0.05780309468,-0.1026981321
1.84,-0.06067260324,-0.1019497292
1.85,-0.0635585781,-0.1011007898
1.86,-0.06645661616,-0.100149293
1.87,-0.0693621894,-0.09909343774
1.88,-0.07227065654,-0.0979316493
1.89,-0.07517727508,-0.09666258551
1.9,-0.07807721365,-0.09528514227
1.91,-0.08096556466,-0.09379845831
1.92,-0.08383735718,-0.09220191931
1.93,-0.08668757003,-0.09049516126
1.94,-0.08951114504,-0.08867807315
1.95,-0.09230300044,-0.0867507989
1.96,-0.09505804428,-0.08471373859
1.97,-0.09777118803,-0.08256754891
1.98,-0.10043736,-0.08031314294
1.99,-0.1030515189,-0.07795168912
2,-0.105608667,-0.07548460956
2.01,-0.1081038639,-0.0729135776
2.02,-0.1105322391,-0.07024051461
2.03,-0.1128890052,-0.0674675862
2.04,-0.1151694707,-0.0645971976
2.05,-0.1173690518,-0.0616319885
2.06,-0.1194832855,-0.05857482709
2.07,-0.1215078404,-0.05542880363
2.08,-0.1234385286,-0.05219722322
2.09,-0.1252713163,-0.04888359812
2.1,-0.1270023349,-0.04549163944
2.11,-0.1286278903,-0.04202524826
2.12,-0.1301444729,-0.03848850628
2.13,-0.1315487664,-0.03488566599
2.14,-0.1328376564,-0.0312211403
2.15,-0.1340082381,-0.02749949189
2.16,-0.1350578236,-0.02372542202
2.17,-0.1359839486,-0.01990375908
2.18,-0.1367843785,-0.01603944682
2.19,-0.1374571132,-0.0121375322
2.2,-0.1380003926,-0.008203153128
2.21,-0.1384127,-0.004241525904
2.22,-0.1386927656,-0.000257932502
2.23,-0.138839569,0.003742292256
2.24,-0.1388523414,0.007753773633
2.25,-0.1387305666,0.01177110997
2.26,-0.1384739815,0.01578888566
2.27,-0.138082576,0.01980168417
2.28,-0.137556592,0.02380410092
2.29,-0.136896522,0.02779075609
2.3,-0.1361031069,0.03175630735
2.31,-0.1351773325,0.03569546228
2.32,-0.1341204269,0.03960299073
2.33,-0.1329338552,0.04347373684
2.34,-0.1316193155,0.04730263077
2.35,-0.1301787331,0.05108470018
2.36,-0.1286142541,0.05481508132
2.37,-0.1269282394,0.05848902973
2.38,-0.1251232573,0.06210193058
2.39,-0.1232020755,0.0656493085
2.4,-0.1211676532,0.06912683704
2.41,-0.1190231327,0.07253034753
2.42,-0.1167718296,0.07585583753
2.43,-0.1144172242,0.07909947868
2.44,-0.1119629507,0.08225762403
2.45,-0.1094127879,0.08532681476
2.46,-0.106770648,0.08830378636
2.47,-0.1040405661,0.09118547417
2.48,-0.1012266892,0.0939690183
2.49,-0.098333265,0.09665176795
2.5,-0.09536463018,0.09923128509
2.51,-0.09232519927,0.1017053475
2.52,-0.08921945283,0.1040719511
2.53,-0.0860519258,0.1063293117
2.54,-0.08282719577,0.1084758663
2.55,-0.07954987135,0.1105102731
2.56,-0.07622458047,0.1124314118
2.57,-0.07285595884,0.1142383825
2.58,-0.06944863853,0.115930504
2.59,-0.06600723669,0.1175073124
2.6,-0.06253634447,0.1189685579
2.61,-0.0590405161,0.1203142014
2.62,-0.05552425835,0.1215444114
2.63,-0.05199202016,0.1226595587
2.64,-0.04844818264,0.123660212
2.65,-0.04489704939,0.1245471323
2.66,-0.04134283724,0.1253212671
2.67,-0.03778966731,0.1259837435
2.68,-0.03424155655,0.126535862
2.69,-0.03070240973,0.1269790885
2.7,-0.02717601184,0.1273150471
2.71,-0.02366602105,0.1275455119
2.72,-0.0201759621,0.1276723986
2.73,-0.01670922029,0.1276977557
2.74,-0.01326903593,0.1276237556
2.75,-0.009858499381,0.1274526854
2.76,-0.006480546678,0.1271869376
2.77,-0.003137955646,0.1268290002
2.78,0.0001666573371,0.1263814471
2.79,0.003430840036,0.1258469283
2.8,0.006652306454,0.1252281601
2.81,0.009828938354,0.1245279147
2.82,0.01295878619,0.1237490106
2.83,0.01604006946,0.1228943025
2.84,0.0190711765,0.1219666715
2.85,0.02205066364,0.120969015
2.86,0.02497725393,0.1199042376
2.87,0.02784983516,0.1187752409
2.88,0.03066745747,0.1175849146
2.89,0.03342933035,0.1163361275
2.9,0.03613481919,0.1150317182
2.91,0.03878344127,0.1136744866
2.92,0.04137486136,0.1122671859
2.93,0.0439088868,0.1108125146
2.94,0.04638546216,0.1093131083
2.95,0.04880466352,0.1077715335
2.96,0.05116669234,0.1061902796
2.97,0.05347186896,0.1045717534
2.98,0.05572062581,0.1029182728
2.99,0.05791350024,0.1012320611
3,0.06005112717,0.0995152421
3.01,0.06213423139,0.09776983573
3.02,0.06416361971,0.09599775361
3.03,0.06614017291,0.0942007957
3.04,0.06806483749,0.09238064724
3.05,0.06993861733,0.09053887616
3.06,0.0717625653,0.08867693117
3.07,0.07353777466,0.08679614021
3.08,0.07526537061,0.08489770958
3.09,0.0769465017,0.08298272351
3.1,0.07858233133,0.08105214431
3.11,0.08017402934,0.079106813
3.12,0.08172276361,0.07714745053
3.13,0.08322969185,0.07517465942
3.14,0.08469595355,0.073188926
3.15,0.08612266207,0.07119062304
3.16,0.08751089694,0.06918001296
3.17,0.08886169646,0.06715725145
3.18,0.09017605052,0.06512239151
3.19,0.09145489369,0.06307538799
3.2,0.09269909869,0.06101610248
3.21,0.09390947013,0.05894430865
3.22,0.0950867387,0.05685969791
3.23,0.09623155562,0.0547618854
3.24,0.09734448764,0.05265041641
3.25,0.09842601232,0.05052477297
3.26,0.09947651385,0.04838438077
3.27,0.1004962792,0.04622861633
3.28,0.1014854951,0.0440568144
3.29,0.1024442447,0.04186827547
3.3,0.1033725057,0.03966227354
3.31,0.1042701484,0.03743806396
3.32,0.1051369342,0.03519489139
3.33,0.1059725147,0.03293199781
3.34,0.1067764319,0.03064863058
3.35,0.1075481176,0.02834405054
3.36,0.1082868949,0.02601754003
3.37,0.1089919787,0.0236684109
3.38,0.1096624779,0.02129601243
3.39,0.1102973972,0.0188997391
3.4,0.1108956403,0.01647903831
3.41,0.1114560123,0.01403341781
3.42,0.1119772243,0.01156245303
3.43,0.1124578967,0.009065794126
3.44,0.1128965641,0.006543172791
3.45,0.1132916802,0.0039944088
3.46,0.1136416231,0.001419416224
3.47,0.1139447013,-0.001181790661
3.48,0.1141991594,-0.003809091837
3.49,0.114403185,-0.006462256356
3.5,0.1145549155,-0.009140937567
3.51,0.1146524448,-0.01184466874
3.52,0.1146938312,-0.01457285912
3.53,0.1146771045,-0.01732479044
3.54,0.1146002745,-0.02009961388
3.55,0.1144613386,-0.0228963475
3.56,0.1142582903,-0.02571387416
3.57,0.1139891272,-0.02855093995
3.58,0.1136518602,-0.03140615307
3.59,0.1132445213,-0.0342779833
3.6,0.1127651727,-0.0371647619
3.61,0.1122119156,-0.04006468208
3.62,0.1115828982,-0.04297579998
3.63,0.1108763252,-0.04589603614
3.64,0.1100904654,-0.0488231775
3.65,0.1092236611,-0.05175487993
3.66,0.1082743357,-0.05468867122
3.67,0.1072410022,-0.05762195462
3.68,0.1061222712,-0.06055201281
3.69,0.1049168587,-0.06347601241
3.7,0.1036235933,-0.06639100888
3.71,0.102241424,-0.06929395197
3.72,0.1007694269,-0.07218169146
3.73,0.09920681177,-0.07505098351
3.74,0.09755292848,-0.07789849721
3.75,0.09580727303,-0.08072082166
3.76,0.09396949305,-0.08351447333
3.77,0.09203939294,-0.08627590377
3.78,0.09001693864,-0.0890015077
3.79,0.08790226193,-0.09168763124
3.8,0.08569566425,-0.09433058056
3.81,0.08339762006,-0.09692663069
3.82,0.08100877972,-0.09947203454
3.83,0.07852997183,-0.1019630321
3.84,0.07596220514,-0.1043958599
3.85,0.07330666986,-0.1067667602
3.86,0.07056473845,-0.1090719912
3.87,0.06773796597,-0.1113078359
3.88,0.06482808976,-0.1134706123
3.89,0.06183702869,-0.1155566831
3.9,0.05876688181,-0.117562465
3.91,0.05561992652,-0.1194844389
3.92,0.05239861615,-0.1213191586
3.93,0.04910557705,-0.1230632609
3.94,0.04574360516,-0.1247134748
3.95,0.04231566205,-0.1262666301
3.96,0.03882487047,-0.1277196668
3.97,0.03527450941,-0.1290696435
3.98,0.03166800869,-0.1303137457
3.99,0.02800894305,-0.1314492944
4,0.02430102588,-0.1324737531
4.01,0.02054810243,-0.133384736
4.02,0.01675414265,-0.1341800148
4.03,0.01292323366,-0.1348575253
4.04,0.009059571822,-0.1354153739
4.05,0.005167454499,-0.1358518435
4.06,0.001251271453,-0.1361653989
4.07,-0.002684504012,-0.1363546916
4.08,-0.006635324192,-0.1364185647
4.09,-0.01059657637,-0.1363560568
4.1,-0.01456359242,-0.1361664052
4.11,-0.01853165858,-0.1358490494
4.12,-0.02249602541,-0.1354036333
4.13,-0.02645191784,-0.1348300074
4.14,-0.03039454539,-0.1341282297
4.15,-0.03431911235,-0.1332985672
4.16,-0.0382208281,-0.1323414961
4.17,-0.0420949174,-0.1312577011
4.18,-0.04593663064,-0.1300480754
4.19,-0.04974125406,-0.1287137187
4.2,-0.05350411989,-0.1272559358
4.21,-0.05722061639,-0.1256762342
4.22,-0.06088619771,-0.1239763208
4.23,-0.0644963936,-0.1221580992
4.24,-0.06804681895,-0.1202236649
4.25,-0.07153318307,-0.1181753016
4.26,-0.07495129875,-0.1160154759
4.27,-0.07829709096,-0.113746832
4.28,-0.0815666054,-0.1113721861
4.29,-0.08475601656,-0.1088945197
4.3,-0.0878616355,-0.1063169733
4.31,-0.09087991733,-0.1036428391
4.32,-0.09380746814,-0.1008755537
4.33,-0.09664105163,-0.09801869037
4.34,-0.0993775953,-0.09507595058
4.35,-0.1020141962,-0.092051156
4.36,-0.104548126,-0.08894823955
4.37,-0.106976836,-0.08577123656
4.38,-0.1092979614,-0.08252427555
4.39,-0.111509325,-0.07921156886
4.4,-0.1136089405,-0.0758374032
4.41,-0.1155950151,-0.07240612988
4.42,-0.1174659521,-0.06892215511
4.43,-0.1192203525,-0.06538993012
4.44,-0.1208570158,-0.06181394124
4.45,-0.1223749412,-0.0581987
4.46,-0.1237733275,-0.05454873321
4.47,-0.1250515724,-0.05086857308
4.48,-0.1262092721,-0.0471627474
4.49,-0.1272462195,-0.04343576986
4.5,-0.1281624022,-0.03969213043
4.51,-0.1289580005,-0.03593628594
4.52,-0.1296333837,-0.03217265083
4.53,-0.1301891073,-0.02840558812
4.54,-0.1306259088,-0.02463940054
4.55,-0.1309447035,-0.02087832207
4.56,-0.1311465795,-0.01712650955
4.57,-0.1312327928,-0.01338803484
4.58,-0.1312047613,-0.009666877079
4.59,-0.1310640591,-0.005966915443
4.6,-0.1308124104,-0.002291922216
4.61,-0.130451682,0.001354443747
4.62,-0.1299838773,0.004968643152
4.63,-0.1294111283,0.008547261981
4.64,-0.1287356883,0.01208701676
4.65,-0.1279599242,0.01558475941
4.66,-0.1270863086,0.0190374816
4.67,-0.1261174113,0.02244231865
4.68,-0.1250558912,0.02579655298
4.69,-0.1239044877,0.02909761704
4.7,-0.1226660124,0.03234309579
4.71,-0.1213433403,0.03553072861
4.72,-0.1199394008,0.03865841085
4.73,-0.1184571697,0.04172419475
4.74,-0.11689966,0.04472628996
4.75,-0.1152699133,0.04766306353
4.76,-0.1135709914,0.05053303942
4.77,-0.1118059678,0.05333489753
4.78,-0.109977919,0.0560674723
4.79,-0.108089917,0.05872975077
4.8,-0.1061450204,0.06132087027
4.81,-0.1041462672,0.06384011562
4.82,-0.1020966668,0.06628691595
4.83,-0.09999919303,0.06866084103
4.84,-0.09785677655,0.07096159733
4.85,-0.09567229844,0.07318902358
4.86,-0.09344858348,0.07534308607
4.87,-0.09118839408,0.07742387354
4.88,-0.08889442442,0.07943159181
4.89,-0.08656929496,0.08136655808
4.9,-0.08421554742,0.083229195
4.91,-0.08183564004,0.08502002441
4.92,-0.07943194332,0.08673966098
4.93,-0.07700673616,0.0883888055
4.94,-0.07456220239,0.08996823816
4.95,-0.07210042783,0.09147881156
4.96,-0.06962339766,0.09292144363
4.97,-0.06713299433,0.0942971105
4.98,-0.0646309959,0.09560683926
4.99,-0.06211907483,0.09685170066
5,-0.0595987972,0.09803280186
5.01,-0.05707162239,0.09915127915
5.02,-0.05453890327,0.1002082907
5.03,-0.05200188669,0.1012050095
5.04,-0.04946171456,0.102142616
5.05,-0.04691942529,0.1030222916
5.06,-0.04437595562,0.1038452115
5.07,-0.04183214292,0.104612538
5.08,-0.03928872788,0.1053254144
5.09,-0.03674635752,0.1059849586
5.1,-0.03420558866,0.106592257
5.11,-0.03166689168,0.1071483587
5.12,-0.02913065467,0.1076542704
5.13,-0.02659718785,0.1081109508
5.14,-0.02406672829,0.1085193063
5.15,-0.02153944497,0.1088801857
5.16,-0.01901544406,0.1091943768
5.17,-0.01649477441,0.1094626022
5.18,-0.0139774333,0.109685516
5.19,-0.01146337234,0.1098637006
5.2,-0.008952503595,0.1099976643
5.21,-0.006444705796,0.110087839
5.22,-0.00393983068,0.1101345782
5.23,-0.001437709436,0.1101381557
5.24,0.001061840791,0.1100987649
5.25,0.003559010361,0.1100165178
5.26,0.006053990582,0.1098914452
5.27,0.008546967166,0.1097234968
5.28,0.01103811373,0.1095125422
5.29,0.01352758534,0.1092583718
5.3,0.0160155122,0.1089606984
5.31,0.01850199338,0.1086191595
5.32,0.02098709074,0.1082333193
5.33,0.02347082299,0.1078026716
5.34,0.02595315998,0.107326643
5.35,0.02843401713,0.1068045967
5.36,0.03091325017,0.1062358357
5.37,0.03339065008,0.105619608
5.38,0.03586593833,0.1049551101
5.39,0.03833876239,0.1042414929
5.4,0.04080869163,0.1034778662
5.41,0.0432752134,0.1026633041
5.42,0.04573772964,0.1017968513
5.43,0.0481955537,0.1008775284
5.44,0.05064790761,0.09990433825
5.45,0.05309391973,0.09887627242
5.46,0.0555326228,0.09779231741
5.47,0.05796295233,0.09665146142
5.48,0.06038374553,0.09545270102
5.49,0.06279374056,0.09419504797
5.5,0.06519157624,0.09287753612
5.51,0.06757579219,0.0914992283
5.52,0.06994482942,0.09005922324
5.53,0.07229703131,0.08855666248
5.54,0.07463064507,0.08699073724
5.55,0.0769438236,0.08536069521
5.56,0.07923462779,0.08366584728
5.57,0.08150102921,0.08190557409
5.58,0.08374091326,0.08007933251
5.59,0.08595208271,0.07818666189
5.6,0.08813226156,0.07622719018
5.61,0.09027909944,0.07420063976
5.62,0.0923901762,0.07210683308
5.63,0.09446300702,0.06994569807
5.64,0.09649504772,0.06771727319
5.65,0.09848370048,0.06542171223
5.66,0.1004263199,0.06305928881
5.67,0.1023202191,0.06063040045
5.68,0.1041626767,0.05813557241
5.69,0.1059509431,0.05557546105
5.7,0.1076822478,0.05295085689
5.71,0.1093538068,0.05026268717
5.72,0.1109628295,0.04751201812
5.73,0.1125065269,0.04470005671
5.74,0.1139821189,0.04182815201
5.75,0.1153868422,0.03889779612
5.76,0.1167179581,0.0359106246
5.77,0.1179727607,0.03286841656
5.78,0.1191485846,0.02977309416
5.79,0.1202428133,0.02662672175
5.8,0.1212528865,0.02343150452
5.81,0.1221763086,0.02018978671
5.82,0.1230106562,0.01690404936
5.83,0.1237535859,0.01357690758
5.84,0.124402842,0.01021110745
5.85,0.124956264,0.006809522441
5.86,0.1254117935,0.003375149377
5.87,0.1257674817,-8.889593678E-05
5.88,0.126021496,-0.003579383556
5.89,0.1261721266,-0.007092974606
5.9,0.1262177931,-0.01062622687
5.91,0.12615705,-0.01417560074
5.92,0.125988593,-0.0177374655
5.93,0.125711264,-0.02130810599
5.94,0.1253240561,-0.02488372949
5.95,0.1248261187,-0.02846047296
5.96,0.1242167613,-0.03203441053
5.97,0.1234954576,-0.03560156123
5.98,0.122661849,-0.03915789696
5.99,0.1217157475,-0.04269935062
6,0.1206571385,-0.04622182448
