"Freq [GHz]","re(S(Tx_p1,Tx_p1)) []","im(S(Tx_p1,Tx_p1)) []"
1,0.004524675087,-0.05965317248
1.01,0.002823230514,-0.05861004027
1.02,0.001183221709,-0.057517868
1.03,-0.000392861009,-0.05637932955
1.04,-0.001902682319,-0.05519728497
1.05,-0.003344073077,-0.05397476832
1.06,-0.004715040682,-0.05271497503
1.07,-0.006013778607,-0.05142124886
1.08,-0.007238675099,-0.05009706849
1.09,-0.008388321013,-0.04874603386
1.1,-0.009461516793,-0.04737185219
1.11,-0.01045727859,-0.0459783237
1.12,-0.01137484347,-0.04456932726
1.13,-0.01221367384,-0.04314880581
1.14,-0.01297346084,-0.04172075167
1.15,-0.01365412702,-0.0402891918
1.16,-0.01425582803,-0.03885817308
1.17,-0.01477895348,-0.03743174751
1.18,-0.01522412694,-0.03601395759
1.19,-0.01559220507,-0.03460882174
1.2,-0.01588427592,-0.03322031989
1.21,-0.0161016564,-0.03185237926
1.22,-0.01624588888,-0.03050886039
1.23,-0.0163187371,-0.02919354344
1.24,-0.0163221812,-0.02791011483
1.25,-0.01625841205,-0.0266621542
1.26,-0.01612982484,-0.02545312179
1.27,-0.01593901192,-0.02428634627
1.28,-0.01568875501,-0.023165013
1.29,-0.01538201678,-0.02209215285
1.3,-0.01502193169,-0.02107063147
1.31,-0.01461179642,-0.02010313926
1.32,-0.01415505955,-0.01919218178
1.33,-0.01365531091,-0.0183400709
1.34,-0.01311627032,-0.01754891658
1.35,-0.01254177592,-0.01682061928
1.36,-0.01193577212,-0.01615686308
1.37,-0.01130229718,-0.01555910958
1.38,-0.0106454704,-0.01502859241
1.39,-0.009969479174,-0.01456631259
1.4,-0.00927856563,-0.01417303458
1.41,-0.008577013208,-0.01384928319
1.42,-0.007869133024,-0.01359534111
1.43,-0.007159250139,-0.01341124739
1.44,-0.006451689759,-0.0132967966
1.45,-0.00575076342,-0.01325153881
1.46,-0.00506075519,-0.01327478034
1.47,-0.00438590794,-0.01336558532
1.48,-0.003730409719,-0.01352277796
1.49,-0.003098380287,-0.0137449457
1.5,-0.002493857838,-0.01403044296
1.51,-0.001920785953,-0.01437739576
1.52,-0.001383000838,-0.01478370704
1.53,-0.0008842188684,-0.0152470626
1.54,-0.0004280244891,-0.01576493786
1.55,-1.785850357E-05,-0.01633460518
1.56,0.0003429932104,-0.01695314192
1.57,0.0006514105255,-0.01761743902
1.58,0.000904449396,-0.01832421021
1.59,0.001099351665,-0.01907000186
1.6,0.001233554317,-0.01985120323
1.61,0.001304698149,-0.02066405732
1.62,0.001310635831,-0.02150467211
1.63,0.001249439339,-0.02236903233
1.64,0.001119406726,-0.02325301155
1.65,0.0009190682249,-0.02415238464
1.66,0.0006471916553,-0.02506284056
1.67,0.0003027871196,-0.02597999547
1.68,-0.0001148890212,-0.02689940602
1.69,-0.0006063309079,-0.02781658287
1.7,-0.001171780688,-0.02872700441
1.71,-0.001811226769,-0.02962613052
1.72,-0.002524402836,-0.03050941653
1.73,-0.003310787615,-0.03137232704
1.74,-0.004169605411,-0.03221034997
1.75,-0.005099827392,-0.03301901032
1.76,-0.006100173636,-0.03379388408
1.77,-0.007169115914,-0.03453061179
1.78,-0.008304881225,-0.03522491213
1.79,-0.009505456049,-0.03587259517
1.8,-0.01076859132,-0.03646957543
1.81,-0.01209180812,-0.03701188468
1.82,-0.01347240398,-0.03749568433
1.83,-0.01490745998,-0.03791727756
1.84,-0.01639384835,-0.03827312102
1.85,-0.01792824081,-0.03855983609
1.86,-0.01950711743,-0.03877421969
1.87,-0.02112677609,-0.03891325461
1.88,-0.02278334247,-0.03897411931
1.89,-0.02447278063,-0.03895419719
1.9,-0.02619090392,-0.03885108522
1.91,-0.02793338653,-0.0386626021
1.92,-0.02969577528,-0.03838679564
1.93,-0.03147350194,-0.03802194963
1.94,-0.03326189582,-0.03756658994
1.95,-0.03505619667,-0.03701949005
1.96,-0.03685156792,-0.03637967576
1.97,-0.0386431101,-0.03564642931
1.98,-0.04042587446,-0.03481929269
1.99,-0.04219487681,-0.03389807028
2,-0.04394511141,-0.0328828307
2.01,-0.04567156497,-0.03177390796
2.02,-0.04736923074,-0.03057190187
2.03,-0.04903312253,-0.02927767766
2.04,-0.0506582887,-0.02789236489
2.05,-0.05223982617,-0.02641735565
2.06,-0.05377289416,-0.02485430191
2.07,-0.05525272795,-0.02320511231
2.08,-0.05667465228,-0.02147194807
2.09,-0.05803409463,-0.01965721834
2.1,-0.05932659822,-0.01776357473
2.11,-0.06054783468,-0.01579390523
2.12,-0.06169361637,-0.01375132749
2.13,-0.06275990838,-0.01163918143
2.14,-0.0637428401,-0.009461021194
2.15,-0.06463871633,-0.007220606593
2.16,-0.06544402797,-0.004921893912
2.17,-0.06615546216,-0.002569026197
2.18,-0.06676991195,-0.0001663230129
2.19,-0.06728448541,0.002281730276
2.2,-0.06769651412,0.004770493696
2.21,-0.06800356111,0.007295184281
2.22,-0.0682034282,0.009850888078
2.23,-0.06829416263,0.01243257253
2.24,-0.06827406309,0.01503509916
2.25,-0.06814168508,0.0176532366
2.26,-0.06789584559,0.0202816738
2.27,-0.06753562701,0.02291503357
2.28,-0.06706038046,0.02554788616
2.29,-0.0664697283,0.02817476313
2.3,-0.06576356594,0.03079017124
2.31,-0.06494206302,0.03338860647
2.32,-0.06400566369,0.03596456799
2.33,-0.06295508634,0.03851257224
2.34,-0.06179132247,0.04102716686
2.35,-0.06051563497,0.04350294461
2.36,-0.05912955553,0.04593455718
2.37,-0.05763488147,0.04831672876
2.38,-0.05603367185,0.05064426954
2.39,-0.05432824281,0.05291208887
2.4,-0.05252116239,0.05511520827
2.41,-0.05061524452,0.05724877403
2.42,-0.0486135425,0.0593080696
2.43,-0.04651934181,0.06128852752
2.44,-0.04433615233,0.063185741
2.45,-0.04206769995,0.06499547513
2.46,-0.03971791765,0.0667136775
2.47,-0.03729093608,0.06833648851
2.48,-0.03479107355,0.06986025104
2.49,-0.03222282563,0.07128151969
2.5,-0.02959085425,0.07259706939
2.51,-0.02689997638,0.07380390346
2.52,-0.02415515236,0.07489926113
2.53,-0.02136147382,0.07588062436
2.54,-0.0185241513,0.07674572406
2.55,-0.0156485016,0.07749254575
2.56,-0.01273993484,0.07811933437
2.57,-0.009803941301,0.07862459866
2.58,-0.006846078077,0.07900711464
2.59,-0.003871955605,0.07926592855
2.6,-0.0008872240332,0.07940035902
2.61,0.002102440463,0.07940999862
2.62,0.005091349421,0.07929471456
2.63,0.008073815841,0.0790546489
2.64,0.0110441679,0.07869021786
2.65,0.01399676262,0.07820211055
2.66,0.0169259994,0.077591287
2.67,0.01982633349,0.07685897546
2.68,0.02269228921,0.07600666907
2.69,0.02551847302,0.07503612182
2.7,0.02829958632,0.0739493439
2.71,0.03103043805,0.07274859641
2.72,0.03370595688,0.07143638537
2.73,0.0363212032,0.07001545527
2.74,0.03887138061,0.06848878186
2.75,0.04135184712,0.06685956451
2.76,0.04375812593,0.06513121796
2.77,0.04608591565,0.06330736353
2.78,0.04833110023,0.06139181991
2.79,0.05048975823,0.05938859336
2.8,0.05255817166,0.05730186757
2.81,0.05453283428,0.05513599306
2.82,0.05641045927,0.05289547615
2.83,0.05818798644,0.05058496762
2.84,0.05986258872,0.04820925105
2.85,0.06143167813,0.04577323078
2.86,0.06289291109,0.04328191971
2.87,0.06424419309,0.04074042676
2.88,0.06548368272,0.03815394423
2.89,0.06660979508,0.0355277349
2.9,0.06762120445,0.03286711904
2.91,0.06851684639,0.03017746133
2.92,0.06929591909,0.0274641577
2.93,0.06995788409,0.0247326221
2.94,0.07050246634,0.02198827335
2.95,0.07092965352,0.01923652196
2.96,0.07123969483,0.01648275704
2.97,0.07143309894,0.01373233336
2.98,0.07151063147,0.01099055844
2.99,0.0714733117,0.008262679926
3,0.07132240867,0.005553873092
3.01,0.07105943672,0.002869228619
3.02,0.07068615035,0.0002137406175
3.03,0.07020453854,-0.002407705052
3.04,0.06961681842,-0.004990342127
3.05,0.0689254285,-0.007529534941
3.06,0.06813302126,-0.01002078904
3.07,0.06724245523,-0.01245976139
3.08,0.06625678668,-0.01484227017
3.09,0.06517926068,-0.01716430405
3.1,0.06401330184,-0.01942203107
3.11,0.06276250459,-0.02161180699
3.12,0.06143062301,-0.02373018305
3.13,0.0600215604,-0.0257739133
3.14,0.05853935842,-0.0277399613
3.15,0.05698818597,-0.02962550627
3.16,0.05537232774,-0.03142794865
3.17,0.05369617261,-0.03314491505
3.18,0.05196420173,-0.03477426263
3.19,0.05018097645,-0.03631408278
3.2,0.04835112614,-0.03776270426
3.21,0.04647933579,-0.03911869563
3.22,0.04457033368,-0.04038086713
3.23,0.0426288788,-0.0415482718
3.24,0.04065974844,-0.04262020604
3.25,0.03866772562,-0.04359620955
3.26,0.03665758672,-0.04447606452
3.27,0.03463408906,-0.04525979429
3.28,0.03260195867,-0.04594766135
3.29,0.03056587816,-0.04654016467
3.3,0.0285304748,-0.04703803648
3.31,0.02650030875,-0.0474422384
3.32,0.02447986159,-0.04775395701
3.33,0.02247352506,-0.0479745988
3.34,0.02048559013,-0.04810578462
3.35,0.01852023637,-0.04814934349
3.36,0.01658152168,-0.04810730599
3.37,0.0146733724,-0.04798189703
3.38,0.0127995738,-0.04777552825
3.39,0.01096376103,-0.0474907898
3.4,0.009169410498,-0.04713044184
3.41,0.007419831715,-0.04669740548
3.42,0.005718159633,-0.04619475343
3.43,0.004067347509,-0.04562570019
3.44,0.002470160279,-0.04499359198
3.45,0.0009291684896,-0.0443018963
3.46,-0.0005532572164,-0.04355419122
3.47,-0.00197495104,-0.04275415441
3.48,-0.003333956378,-0.04190555198
3.49,-0.004628529582,-0.04101222706
3.5,-0.005857143109,-0.04007808827
3.51,-0.007018488062,-0.03910709803
3.52,-0.008111476114,-0.03810326081
3.53,-0.009135240806,-0.03707061123
3.54,-0.01008913823,-0.03601320221
3.55,-0.01097274706,-0.0349350931
3.56,-0.01178586802,-0.03384033778
3.57,-0.01252852266,-0.03273297288
3.58,-0.01320095155,-0.03161700609
3.59,-0.01380361186,-0.0304964046
3.6,-0.01433717436,-0.02937508361
3.61,-0.01480251979,-0.02825689519
3.62,-0.01520073465,-0.0271456172
3.63,-0.01553310644,-0.02604494255
3.64,-0.01580111836,-0.02495846874
3.65,-0.01600644339,-0.02388968763
3.66,-0.01615093797,-0.02284197563
3.67,-0.01623663504,-0.02181858422
3.68,-0.0162657367,-0.02082263082
3.69,-0.01624060634,-0.01985709015
3.7,-0.01616376037,-0.01892478594
3.71,-0.0160378595,-0.01802838316
3.72,-0.01586569965,-0.01717038069
3.73,-0.01565020244,-0.01635310453
3.74,-0.01539440544,-0.01557870148
3.75,-0.01510145196,-0.01484913339
3.76,-0.01477458071,-0.01416617194
3.77,-0.01441711507,-0.013531394
3.78,-0.01403245221,-0.01294617755
3.79,-0.013624052,-0.01241169822
3.8,-0.01319542573,-0.01192892639
3.81,-0.01275012472,-0.01149862491
3.82,-0.01229172882,-0.01112134745
3.83,-0.01182383483,-0.01079743745
3.84,-0.01135004492,-0.01052702769
3.85,-0.01087395499,-0.01031004049
3.86,-0.0103991431,-0.01014618851
3.87,-0.009929157939,-0.01003497621
3.88,-0.009467507405,-0.009975701902
3.89,-0.009017647304,-0.009967460376
3.9,-0.008582970195,-0.0100091462
3.91,-0.008166794438,-0.01009945755
3.92,-0.00777235346,-0.01023690066
3.93,-0.007402785267,-0.01041979485
3.94,-0.007061122242,-0.01064627806
3.95,-0.00675028125,-0.01091431298
3.96,-0.006473054086,-0.01122169367
3.97,-0.006232098281,-0.01156605274
3.98,-0.006029928312,-0.01194486892
3.99,-0.005868907218,-0.0123554752
4,-0.005751238666,-0.01279506737
4.01,-0.005678959482,-0.01326071293
4.02,-0.00565393267,-0.0137493605
4.03,-0.005677840934,-0.01425784953
4.04,-0.005752180732,-0.01478292034
4.05,-0.005878256879,-0.01532122452
4.06,-0.006057177704,-0.0158693356
4.07,-0.00628985079,-0.01642375996
4.08,-0.006576979299,-0.01698094795
4.09,-0.006919058903,-0.0175373053
4.1,-0.007316375327,-0.01808920452
4.11,-0.007769002504,-0.01863299661
4.12,-0.008276801371,-0.01916502274
4.13,-0.008839419282,-0.01968162605
4.14,-0.009456290065,-0.02017916344
4.15,-0.01012663471,-0.02065401741
4.16,-0.0108494627,-0.02110260782
4.17,-0.01162357397,-0.02152140359
4.18,-0.01244756149,-0.02190693427
4.19,-0.01331981449,-0.02225580153
4.2,-0.01423852227,-0.0225646904
4.21,-0.01520167868,-0.0228303804
4.22,-0.01620708709,-0.02304975629
4.23,-0.01725236608,-0.02321981875
4.24,-0.01833495556,-0.02333769455
4.25,-0.01945212357,-0.02340064654
4.26,-0.02060097352,-0.02340608322
4.27,-0.02177845199,-0.02335156791
4.28,-0.02298135702,-0.02323482754
4.29,-0.02420634691,-0.02305376101
4.3,-0.02544994937,-0.02280644696
4.31,-0.02670857121,-0.02249115127
4.32,-0.02797850839,-0.02210633379
4.33,-0.02925595638,-0.02165065477
4.34,-0.03053702098,-0.02112298054
4.35,-0.03181772934,-0.02052238877
4.36,-0.03309404136,-0.01984817302
4.37,-0.03436186128,-0.01909984677
4.38,-0.03561704951,-0.01827714676
4.39,-0.03685543466,-0.01738003576
4.4,-0.03807282569,-0.01640870469
4.41,-0.03926502425,-0.01536357401
4.42,-0.04042783701,-0.01424529456
4.43,-0.0415570881,-0.01305474771
4.44,-0.04264863159,-0.01179304478
4.45,-0.04369836388,-0.01046152586
4.46,-0.04470223608,-0.009061757982
4.47,-0.0456562663,-0.007595532542
4.48,-0.04655655178,-0.006064862167
4.49,-0.04739928094,-0.004471976858
4.5,-0.0481807451,-0.002819319525
4.51,-0.04889735012,-0.001109540882
4.52,-0.04954562766,0.0006545062832
4.53,-0.05012224621,0.00246977344
4.54,-0.05062402179,0.004333023238
4.55,-0.05104792822,0.006240837004
4.56,-0.05139110709,0.008189622795
4.57,-0.05165087726,0.01017562399
4.58,-0.05182474394,0.01219492836
4.59,-0.05191040723,0.01424347772
4.6,-0.05190577024,0.0163170779
4.61,-0.05180894662,0.01841140929
4.62,-0.05161826761,0.0205220377
4.63,-0.05133228841,0.02264442567
4.64,-0.05094979406,0.02477394405
4.65,-0.05046980466,0.02690588398
4.66,-0.04989157996,0.02903546913
4.67,-0.04921462332,0.03115786812
4.68,-0.048438685,0.03326820727
4.69,-0.04756376482,0.03536158349
4.7,-0.04659011405,0.03743307727
4.71,-0.04551823673,0.03947776585
4.72,-0.04434889018,0.04149073642
4.73,-0.04308308493,0.04346709941
4.74,-0.04172208383,0.0454020017
4.75,-0.04026740056,0.04729063988
4.76,-0.03872079738,0.04912827339
4.77,-0.03708428221,0.05091023755
4.78,-0.03536010503,0.05263195646
4.79,-0.03355075354,0.05428895569
4.8,-0.03165894826,0.05587687481
4.81,-0.02968763683,0.05739147958
4.82,-0.02763998779,0.05882867394
4.83,-0.02551938366,0.06018451157
4.84,-0.02332941338,0.0614552072
4.85,-0.02107386426,0.06263714745
4.86,-0.01875671324,0.06372690129
4.87,-0.01638211765,0.06472123002
4.88,-0.01395440547,0.06561709682
4.89,-0.01147806502,0.06641167568
4.9,-0.00895773421,0.06710235991
4.91,-0.006398189381,0.06768677005
4.92,-0.003804333646,0.06816276114
4.93,-0.001181184909,0.06852842944
4.94,0.001466136493,0.06878211855
4.95,0.004132420469,0.06892242476
4.96,0.006812380133,0.06894820187
4.97,0.009500665018,0.06885856525
4.98,0.0121918745,0.06865289526
4.99,0.01488057142,0.06833083988
5,0.0175612958,0.06789231672
5.01,0.02022857872,0.06733751429
5.02,0.02287695622,0.06666689247
5.03,0.02550098323,0.06588118237
5.04,0.02809524751,0.06498138532
5.05,0.03065438352,0.06396877129
5.06,0.03317308619,0.06284487643
5.07,0.0356461246,0.06161149998
5.08,0.03806835544,0.06027070046
5.09,0.04043473631,0.0588247911
5.1,0.04274033875,0.05727633466
5.11,0.04498036101,0.05562813748
5.12,0.04715014048,0.05388324291
5.13,0.0492451658,0.05204492411
5.14,0.05126108853,0.05011667619
5.15,0.05319373452,0.04810220772
5.16,0.05503911466,0.04600543172
5.17,0.05679343529,0.04383045602
5.18,0.05845310806,0.04158157312
5.19,0.06001475918,0.03926324955
5.2,0.06147523825,0.03688011471
5.21,0.06283162631,0.03443694929
5.22,0.06408124348,0.03193867328
5.23,0.06522165579,0.02939033357
5.24,0.06625068146,0.0267970912
5.25,0.06716639648,0.02416420833
5.26,0.06796713946,0.02149703488
5.27,0.06865151582,0.018800995
5.28,0.06921840129,0.01608157323
5.29,0.06966694458,0.01334430058
5.3,0.06999656942,0.01059474046
5.31,0.0702069758,0.007838474519
5.32,0.07029814051,0.005081088425
5.33,0.07027031686,0.002328157646
5.34,0.07012403372,-0.0004147667371
5.35,0.06986009382,-0.003142172147
5.36,0.06947957124,-0.005848598519
5.37,0.06898380822,-0.008528652161
5.38,0.06837441126,-0.01117701942
5.39,0.06765324648,-0.01378848012
5.4,0.06682243425,-0.01635792074
5.41,0.06588434319,-0.01888034732
5.42,0.06484158351,-0.02135089795
5.43,0.0636969996,-0.02376485495
5.44,0.06245366213,-0.02611765665
5.45,0.06111485943,-0.02840490868
5.46,0.05968408837,-0.03062239482
5.47,0.05816504461,-0.03276608734
5.48,0.0565616124,-0.03483215681
5.49,0.05487785381,-0.03681698138
5.5,0.05311799754,-0.03871715536
5.51,0.05128642729,-0.04052949739
5.52,0.04938766968,-0.04225105776
5.53,0.04742638189,-0.04387912525
5.54,0.04540733886,-0.04541123319
5.55,0.04333542029,-0.04684516491
5.56,0.04121559734,-0.04817895841
5.57,0.03905291906,-0.04941091039
5.58,0.03685249876,-0.05053957951
5.59,0.03461950012,-0.0515637889
5.6,0.03235912324,-0.052482628
5.61,0.03007659066,-0.05329545358
5.62,0.0277771333,-0.05400189004
5.63,0.02546597645,-0.05460182899
5.64,0.02314832582,-0.05509542805
5.65,0.02082935366,-0.05548310892
5.66,0.01851418507,-0.05576555471
5.67,0.01620788441,-0.05594370658
5.68,0.01391544198,-0.05601875961
5.69,0.01164176097,-0.05599215804
5.7,0.009391644611,-0.05586558975
5.71,0.007169783764,-0.05564098009
5.72,0.004980744788,-0.05532048514
5.73,0.002828957845,-0.05490648421
5.74,0.0007187056158,-0.05440157185
5.75,-0.001345887511,-0.05380854918
5.76,-0.003360865767,-0.05313041475
5.77,-0.005322451803,-0.05237035484
5.78,-0.007227055951,-0.05153173322
5.79,-0.009071284902,-0.05061808049
5.8,-0.01085194979,-0.049633083
5.81,-0.01256607367,-0.04858057131
5.82,-0.01421089831,-0.0474645083
5.83,-0.01578389039,-0.046288977
5.84,-0.01728274698,-0.04505816805
5.85,-0.01870540031,-0.04377636692
5.86,-0.02005002192,-0.04244794097
5.87,-0.02131502601,-0.04107732624
5.88,-0.02249907208,-0.03966901412
5.89,-0.02360106693,-0.03822753798
5.9,-0.02462016579,-0.03675745967
5.91,-0.02555577284,-0.03526335598
5.92,-0.02640754092,-0.03374980518
5.93,-0.02717537056,-0.0322213736
5.94,-0.02785940824,-0.03068260223
5.95,-0.02846004395,-0.02913799359
5.96,-0.02897790807,-0.02759199863
5.97,-0.0294138675,-0.02604900392
5.98,-0.02976902113,-0.02451331913
5.99,-0.03004469468,-0.02298916466
6,-0.03024243477,-0.02148065973
