"Freq [GHz]","re(S(Tx_p1,Tx_p1)) []","im(S(Tx_p1,Tx_p1)) []"
1,0.2011558615,-0.1349809366
1.01,0.199347325,-0.1371072761
1.02,0.1975033576,-0.1393077499
1.03,0.1956196043,-0.1415778187
1.04,0.193691957,-0.1439129702
1.05,0.1917165456,-0.1463087188
1.06,0.1896897291,-0.1487606046
1.07,0.1876080875,-0.1512641936
1.08,0.1854684141,-0.1538150765
1.09,0.1832677083,-0.1564088688
1.1,0.1810031692,-0.1590412104
1.11,0.1786721892,-0.1617077659
1.12,0.1762723481,-0.1644042237
1.13,0.173801408,-0.1671262968
1.14,0.1712573078,-0.1698697223
1.15,0.1686381589,-0.1726302618
1.16,0.1659422404,-0.1754037016
1.17,0.1631679952,-0.1781858531
1.18,0.1603140259,-0.1809725527
1.19,0.1573790915,-0.1837596629
1.2,0.1543621037,-0.1865430721
1.21,0.1512621238,-0.1893186956
1.22,0.14807836,-0.1920824764
1.23,0.1448101642,-0.1948303853
1.24,0.1414570299,-0.1975584223
1.25,0.1380185893,-0.200262617
1.26,0.1344946112,-0.2029390298
1.27,0.1308849991,-0.205583753
1.28,0.1271897887,-0.2081929116
1.29,0.1234091464,-0.2107626644
1.3,0.1195433673,-0.2132892058
1.31,0.1155928736,-0.2157687666
1.32,0.1115582129,-0.2181976153
1.33,0.1074400566,-0.2205720601
1.34,0.1032391987,-0.22288845
1.35,0.09895655392,-0.2251431766
1.36,0.09459315661,-0.2273326757
1.37,0.09015015938,-0.2294534292
1.38,0.08562883165,-0.2315019669
1.39,0.08103055844,-0.2334748682
1.4,0.07635683902,-0.2353687647
1.41,0.0716092856,-0.2371803414
1.42,0.06678962204,-0.2389063396
1.43,0.0618996825,-0.2405435586
1.44,0.0569414101,-0.2420888582
1.45,0.05191685554,-0.2435391611
1.46,0.0468281757,-0.2448914548
1.47,0.04167763209,-0.2461427948
1.48,0.03646758945,-0.2472903063
1.49,0.03120051408,-0.2483311872
1.5,0.02587897223,-0.2492627106
1.51,0.02050562842,-0.2500822274
1.52,0.01508324357,-0.2507871687
1.53,0.009614673223,-0.2513750488
1.54,0.004102865522,-0.2518434678
1.55,-0.001449140814,-0.2521901143
1.56,-0.00703821864,-0.2524127678
1.57,-0.01266115463,-0.2525093021
1.58,-0.01831465163,-0.2524776874
1.59,-0.0239953311,-0.2523159933
1.6,-0.02969973571,-0.2520223914
1.61,-0.03542433197,-0.2515951582
1.62,-0.04116551307,-0.2510326773
1.63,-0.04691960179,-0.2503334425
1.64,-0.05268285347,-0.2494960603
1.65,-0.05845145922,-0.2485192519
1.66,-0.06422154915,-0.2474018564
1.67,-0.06998919577,-0.2461428327
1.68,-0.07575041747,-0.2447412621
1.69,-0.08150118217,-0.2431963503
1.7,-0.08723741103,-0.2415074297
1.71,-0.0929549823,-0.2396739618
1.72,-0.09864973531,-0.2376955384
1.73,-0.1043174745,-0.2355718841
1.74,-0.1099539736,-0.2333028579
1.75,-0.1155549801,-0.2308884546
1.76,-0.1211162192,-0.2283288066
1.77,-0.1266333986,-0.225624185
1.78,-0.1321022132,-0.2227750009
1.79,-0.1375183494,-0.2197818064
1.8,-0.14287749,-0.2166452958
1.81,-0.148175319,-0.2133663058
1.82,-0.1534075264,-0.2099458165
1.83,-0.1585698131,-0.2063849517
1.84,-0.1636578962,-0.2026849791
1.85,-0.1686675135,-0.1988473101
1.86,-0.1735944289,-0.1948735002
1.87,-0.1784344376,-0.1907652481
1.88,-0.1831833706,-0.1865243957
1.89,-0.1878371007,-0.1821529268
1.9,-0.1923915468,-0.1776529666
1.91,-0.1968426795,-0.1730267804
1.92,-0.2011865263,-0.1682767726
1.93,-0.2054191761,-0.1634054845
1.94,-0.2095367849,-0.1584155932
1.95,-0.2135355803,-0.1533099095
1.96,-0.2174118669,-0.1480913755
1.97,-0.2211620307,-0.1427630626
1.98,-0.2247825445,-0.1373281688
1.99,-0.2282699719,-0.1317900161
2,-0.2316209729,-0.1261520473
2.01,-0.2348323074,-0.1204178231
2.02,-0.2379008406,-0.1145910186
2.03,-0.2408235466,-0.1086754201
2.04,-0.2435975131,-0.1026749211
2.05,-0.246219945,-0.09659351869
2.06,-0.2486881687,-0.09043530922
2.07,-0.2509996359,-0.08420448438
2.08,-0.2531519267,-0.07790532675
2.09,-0.2551427536,-0.07154220526
2.1,-0.2569699644,-0.06511957057
2.11,-0.2586315456,-0.05864195027
2.12,-0.2601256249,-0.052113944
2.13,-0.261450474,-0.04554021833
2.14,-0.2626045114,-0.03892550171
2.15,-0.2635863044,-0.03227457914
2.16,-0.2643945711,-0.02559228687
2.17,-0.2650281824,-0.01888350692
2.18,-0.2654861636,-0.01215316166
2.19,-0.2657676959,-0.005406208151
2.2,-0.2658721173,0.001352367411
2.21,-0.2657989239,0.008117555385
2.22,-0.2655477703,0.01488432837
2.23,-0.2651184703,0.02164764693
2.24,-0.264510997,0.02840246531
2.25,-0.263725483,0.03514373717
2.26,-0.2627622198,0.04186642128
2.27,-0.261621658,0.04856548724
2.28,-0.2603044058,0.05523592114
2.29,-0.2588112288,0.06187273113
2.3,-0.2571430484,0.06847095302
2.31,-0.2553009406,0.07502565577
2.32,-0.2532861343,0.08153194689
2.33,-0.2511000097,0.08798497781
2.34,-0.2487440962,0.09437994906
2.35,-0.2462200699,0.1007121155
2.36,-0.2435297517,0.1069767911
2.37,-0.2406751041,0.1131693542
2.38,-0.2376582288,0.119285252
2.39,-0.2344813636,0.1253200053
2.4,-0.2311468791,0.1312692127
2.41,-0.2276572756,0.1371285555
2.42,-0.2240151794,0.1428938011
2.43,-0.2202233393,0.1485608077
2.44,-0.2162846226,0.1541255275
2.45,-0.2122020116,0.1595840108
2.46,-0.2079785992,0.164932409
2.47,-0.2036175849,0.1701669782
2.48,-0.1991222706,0.1752840822
2.49,-0.1944960562,0.1802801949
2.5,-0.1897424353,0.1851519037
2.51,-0.1848649903,0.1898959111
2.52,-0.1798673887,0.1945090378
2.53,-0.1747533775,0.198988224
2.54,-0.1695267795,0.2033305315
2.55,-0.1641914879,0.2075331452
2.56,-0.1587514621,0.211593375
2.57,-0.153210723,0.215508656
2.58,-0.1475733479,0.2192765505
2.59,-0.1418434663,0.2228947482
2.6,-0.1360252552,0.2263610668
2.61,-0.1301229344,0.2296734527
2.62,-0.1241407618,0.2328299807
2.63,-0.1180830291,0.2358288545
2.64,-0.1119540574,0.2386684064
2.65,-0.1057581929,0.2413470965
2.66,-0.09949980198,0.2438635127
2.67,-0.09318326796,0.2462163698
2.68,-0.08681298628,0.2484045085
2.69,-0.08039336077,0.2504268946
2.7,-0.07392879971,0.2522826178
2.71,-0.06742371206,0.2539708901
2.72,-0.06088250376,0.255491045
2.73,-0.05430957425,0.2568425351
2.74,-0.04770931302,0.2580249312
2.75,-0.04108609638,0.2590379201
2.76,-0.03444428427,0.259881303
2.77,-0.02778821734,0.2605549932
2.78,-0.02112221404,0.2610590143
2.79,-0.01445056797,0.2613934981
2.8,-0.007777545281,0.2615586826
2.81,-0.001107382304,0.2615549094
2.82,0.005555716735,0.2613826216
2.83,0.01220758181,0.2610423618
2.84,0.01884407908,0.2605347695
2.85,0.02546111267,0.2598605789
2.86,0.03205462641,0.2590206165
2.87,0.0386206053,0.2580157989
2.88,0.04515507696,0.2568471306
2.89,0.0516541129,0.2555157015
2.9,0.0581138296,0.2540226847
2.91,0.06453038959,0.2523693343
2.92,0.07090000229,0.2505569835
2.93,0.07721892481,0.2485870422
2.94,0.08348346262,0.2464609948
2.95,0.08968997009,0.2441803989
2.96,0.095834851,0.2417468824
2.97,0.1019145589,0.2391621426
2.98,0.1079255973,0.2364279438
2.99,0.1138645203,0.2335461158
3,0.119727932,0.2305185526
3.01,0.1255124874,0.2273472103
3.02,0.1312148919,0.2240341063
3.03,0.1368319017,0.2205813175
3.04,0.1423603233,0.2169909794
3.05,0.1477970139,0.2132652849
3.06,0.1531388811,0.2094064833
3.07,0.1583828827,0.205416879
3.08,0.1635260271,0.2012988314
3.09,0.1685653727,0.1970547536
3.1,0.1734980278,0.1926871117
3.11,0.1783211513,0.1881984247
3.12,0.1830319517,0.1835912638
3.13,0.187627688,0.1788682519
3.14,0.1921056691,0.1740320635
3.15,0.1964632544,0.1690854244
3.16,0.2006978537,0.1640311114
3.17,0.2048069278,0.1588719525
3.18,0.2087879883,0.1536108266
3.19,0.2126385984,0.148250664
3.2,0.2163563734,0.1427944455
3.21,0.2199389811,0.1372452038
3.22,0.2233841423,0.1316060224
3.23,0.2266896322,0.1258800368
3.24,0.2298532805,0.1200704338
3.25,0.2328729728,0.1141804525
3.26,0.2357466516,0.1082133838
3.27,0.2384723174,0.1021725711
3.28,0.2410480299,0.09606141008
3.29,0.2434719096,0.08988334906
3.3,0.2457421391,0.08364188906
3.31,0.2478569646,0.0773405838
3.32,0.249814698,0.07098303976
3.33,0.2516137181,0.06457291611
3.34,0.253252473,0.05811392456
3.35,0.2547294817,0.05160982916
3.36,0.2560433366,0.04506444603
3.37,0.2571927051,0.03848164294
3.38,0.2581763324,0.03186533881
3.39,0.2589930434,0.02521950314
3.4,0.2596417454,0.01854815525
3.41,0.2601214301,0.01185536346
3.42,0.2604311767,0.005145244062
3.43,0.2605701542,-0.001578039742
3.44,0.2605376236,-0.008310279159
3.45,0.2603329413,-0.01504722119
3.46,0.259955561,-0.02178457022
3.47,0.259405037,-0.02851798971
3.48,0.2586810264,-0.03524310416
3.49,0.257783292,-0.04195550109
3.5,0.2567117048,-0.04865073331
3.51,0.255466247,-0.05532432129
3.52,0.2540470141,-0.06197175578
3.53,0.2524542177,-0.06858850048
3.54,0.250688188,-0.07516999501
3.55,0.2487493762,-0.08171165796
3.56,0.2466383568,-0.08820889017
3.57,0.2443558298,-0.09465707814
3.58,0.241902623,-0.1010515976
3.59,0.239279694,-0.1073878174
3.6,0.2364881321,-0.1136611032
3.61,0.2335291599,-0.1198668216
3.62,0.2304041353,-0.1260003446
3.63,0.2271145527,-0.1320570536
3.64,0.2236620446,-0.1380323441
3.65,0.2200483822,-0.1439216305
3.66,0.2162754772,-0.1497203502
3.67,0.212345382,-0.1554239693
3.68,0.2082602902,-0.161027987
3.69,0.2040225375,-0.1665279409
3.7,0.1996346014,-0.171919412
3.71,0.1950991014,-0.17719803
3.72,0.1904187986,-0.1823594787
3.73,0.1855965953,-0.1873995011
3.74,0.1806355341,-0.1923139049
3.75,0.175538797,-0.197098568
3.76,0.1703097042,-0.2017494439
3.77,0.1649517124,-0.2062625668
3.78,0.1594684135,-0.2106340576
3.79,0.1538635322,-0.2148601287
3.8,0.1481409239,-0.21893709
3.81,0.1423045723,-0.2228613536
3.82,0.1363585865,-0.2266294394
3.83,0.1303071981,-0.2302379803
3.84,0.1241547579,-0.233683727
3.85,0.1179057327,-0.2369635535
3.86,0.111564701,-0.2400744614
3.87,0.1051363495,-0.2430135851
3.88,0.09862546875,-0.2457781962
3.89,0.09203694877,-0.2483657079
3.9,0.08537577429,-0.2507736795
3.91,0.07864701995,-0.2529998204
3.92,0.07185584527,-0.255041994
3.93,0.06500748932,-0.2568982213
3.94,0.05810726533,-0.2585666849
3.95,0.05116055501,-0.2600457317
3.96,0.04417280279,-0.2613338764
3.97,0.03714950984,-0.262429804
3.98,0.03009622799,-0.2633323727
3.99,0.02301855351,-0.2640406159
4,0.01592212072,-0.2645537446
4.01,0.008812595584,-0.2648711488
4.02,0.001695669128,-0.2649923993
4.03,-0.005422949185,-0.2649172489
4.04,-0.01253753815,-0.2646456333
4.05,-0.01964237157,-0.2641776715
4.06,-0.02673172503,-0.2635136666
4.07,-0.03379988275,-0.2626541057
4.08,-0.04084114435,-0.2615996596
4.09,-0.04784983169,-0.2603511821
4.1,-0.05482029566,-0.2589097096
4.11,-0.06174692294,-0.2572764597
4.12,-0.06862414269,-0.2554528299
4.13,-0.07544643321,-0.2534403958
4.14,-0.08220832848,-0.251240909
4.15,-0.08890442463,-0.2488562953
4.16,-0.09552938631,-0.2462886514
4.17,-0.1020779529,-0.2435402428
4.18,-0.1085449447,-0.2406135004
4.19,-0.1149252687,-0.2375110169
4.2,-0.1212139245,-0.2342355437
4.21,-0.12740601,-0.2307899866
4.22,-0.1334967267,-0.2271774019
4.23,-0.1394813849,-0.2234009924
4.24,-0.145355409,-0.2194641022
4.25,-0.1511143418,-0.2153702126
4.26,-0.1567538497,-0.211122937
4.27,-0.1622697267,-0.2067260155
4.28,-0.1676578985,-0.2021833103
4.29,-0.1729144265,-0.1974987997
4.3,-0.1780355112,-0.1926765729
4.31,-0.1830174958,-0.1877208239
4.32,-0.1878568691,-0.1826358465
4.33,-0.1925502684,-0.1774260276
4.34,-0.1970944818,-0.1720958417
4.35,-0.2014864509,-0.1666498448
4.36,-0.2057232721,-0.1610926681
4.37,-0.2098021991,-0.1554290122
4.38,-0.2137206434,-0.1496636407
4.39,-0.2174761762,-0.1438013743
4.4,-0.2210665289,-0.1378470841
4.41,-0.2244895937,-0.1318056862
4.42,-0.2277434237,-0.125682135
4.43,-0.2308262333,-0.1194814174
4.44,-0.2337363977,-0.1132085468
4.45,-0.2364724524,-0.106868557
4.46,-0.2390330927,-0.1004664966
4.47,-0.2414171723,-0.09400742293
4.48,-0.2436237022,-0.08749639685
4.49,-0.2456518493,-0.08093847683
4.5,-0.2475009347,-0.07433871378
4.51,-0.2491704318,-0.06770214573
4.52,-0.2506599638,-0.06103379281
4.53,-0.2519693019,-0.05433865228
4.54,-0.2530983626,-0.04762169378
4.55,-0.2540472046,-0.04088785479
4.56,-0.2548160269,-0.03414203621
4.57,-0.2554051647,-0.02738909821
4.58,-0.2558150872,-0.02063385619
4.59,-0.2560463937,-0.01388107702
4.6,-0.2560998106,-0.007135475474
4.61,-0.2559761877,-0.0004017108285
4.62,-0.255676495,0.006315616264
4.63,-0.2552018186,0.01301196672
4.64,-0.2545533572,0.01968286573
4.65,-0.2537324186,0.02632390528
4.66,-0.2527404156,0.03293074641
4.67,-0.2515788623,0.03949912127
4.68,-0.2502493704,0.046024835
4.69,-0.2487536452,0.05250376732
4.7,-0.2470934821,0.05893187398
4.71,-0.2452707626,0.065305188
4.72,-0.2432874506,0.07161982063
4.73,-0.2411455889,0.07787196223
4.74,-0.2388472954,0.08405788287
4.75,-0.2363947596,0.0901739328
4.76,-0.2337902393,0.0962165427
4.77,-0.2310360572,0.1021822238
4.78,-0.2281345974,0.1080675679
4.79,-0.2250883024,0.1138692471
4.8,-0.2218996701,0.1195840133
4.81,-0.218571251,0.1252086981
4.82,-0.2151056451,0.130740212
4.83,-0.2115054994,0.1361755435
4.84,-0.2077735054,0.1415117587
4.85,-0.2039123968,0.1467460001
4.86,-0.1999249471,0.1518754858
4.87,-0.1958139677,0.1568975084
4.88,-0.1915823058,0.1618094337
4.89,-0.1872328427,0.1666087001
4.9,-0.1827684923,0.1712928169
4.91,-0.1781921995,0.1758593634
4.92,-0.1735069389,0.1803059875
4.93,-0.1687157136,0.1846304049
4.94,-0.1638215544,0.1888303973
4.95,-0.1588275187,0.1929038118
4.96,-0.1537366899,0.1968485597
4.97,-0.1485521765,0.2006626149
4.98,-0.1432771124,0.2043440135
4.99,-0.1379146555,0.2078908527
5,-0.1324679885,0.2113012896
5.01,-0.1269403181,0.2145735408
5.02,-0.1213348753,0.2177058812
5.03,-0.1156549155,0.220696644
5.04,-0.1099037186,0.2235442197
5.05,-0.1040845893,0.2262470559
5.06,-0.09820085729,0.2288036569
5.07,-0.09225587802,0.2312125836
5.08,-0.08625303272,0.2334724535
5.09,-0.08019572912,0.2355819408
5.1,-0.07408740191,0.2375397765
5.11,-0.06793151323,0.2393447489
5.12,-0.06173155326,0.240995704
5.13,-0.05549104069,0.2424915461
5.14,-0.0492135233,0.2438312387
5.15,-0.04290257837,0.2450138054
5.16,-0.03656181321,0.2460383308
5.17,-0.03019486549,0.2469039619
5.18,-0.02380540363,0.2476099091
5.19,-0.01739712704,0.248155448
5.2,-0.01097376633,0.2485399208
5.21,-0.004539083384,0.2487627378
5.22,0.001903128626,0.2488233796
5.23,0.008349045357,0.2487213986
5.24,0.01479481153,0.2484564213
5.25,0.02123654129,0.2480281502
5.26,0.02767031873,0.247436366
5.27,0.03409219847,0.24668093
5.28,0.04049820654,0.2457617863
5.29,0.04688434128,0.2446789643
5.3,0.05324657444,0.2434325808
5.31,0.05958085253,0.242022843
5.32,0.06588309823,0.2404500503
5.33,0.07214921206,0.2387145973
5.34,0.07837507418,0.2368169765
5.35,0.08455654643,0.2347577799
5.36,0.09068947447,0.2325377023
5.37,0.09676969022,0.2301575436
5.38,0.1027930144,0.2276182106
5.39,0.1087552592,0.2249207202
5.4,0.1146522314,0.222066201
5.41,0.1204797354,0.2190558955
5.42,0.1262335764,0.2158911627
5.43,0.1319095642,0.2125734795
5.44,0.1375035164,0.2091044428
5.45,0.1430112627,0.205485771
5.46,0.1484286484,0.2017193061
5.47,0.1537515391,0.1978070143
5.48,0.1589758244,0.1937509879
5.49,0.1640974228,0.1895534461
5.5,0.169112286,0.1852167359
5.51,0.1740164034,0.1807433329
5.52,0.1788058076,0.1761358415
5.53,0.1834765782,0.1713969954
5.54,0.188024848,0.1665296577
5.55,0.192446807,0.1615368202
5.56,0.1967387081,0.1564216039
5.57,0.2008968722,0.1511872574
5.58,0.2049176933,0.1458371565
5.59,0.2087976437,0.1403748029
5.6,0.2125332795,0.1348038228
5.61,0.2161212457,0.1291279652
5.62,0.2195582814,0.1233510999
5.63,0.222841225,0.1174772155
5.64,0.2259670195,0.1115104167
5.65,0.2289327177,0.1054549219
5.66,0.2317354868,0.0993150597
5.67,0.2343726139,0.09309526622
5.68,0.2368415105,0.08680008123
5.69,0.2391397173,0.08043414458
5.7,0.2412649088,0.07400219212
5.71,0.243214898,0.06750905153
5.72,0.2449876405,0.0609596378
5.73,0.2465812385,0.05435894858
5.74,0.2479939451,0.04771205923
5.75,0.2492241678,0.04102411769
5.76,0.2502704722,0.03430033918
5.77,0.2511315854,0.02754600064
5.78,0.2518063988,0.02076643503
5.79,0.2522939712,0.0139670255
5.8,0.2525935317,0.007153199262
5.81,0.2527044814,0.0003304215057
5.82,0.252626396,-0.006495810985
5.83,0.2523590275,-0.01331997624
5.84,0.2519023058,-0.02013653365
5.85,0.2512563397,-0.02693993062
5.86,0.2504214182,-0.03372460925
5.87,0.2493980108,-0.04048501312
5.88,0.2481867683,-0.04721559416
5.89,0.2467885225,-0.05391081942
5.9,0.2452042861,-0.06056517803
5.91,0.243435252,-0.06717318801
5.92,0.2414827928,-0.07372940315
5.93,0.239348459,-0.08022841987
5.94,0.2370339782,-0.08666488394
5.95,0.234541253,-0.09303349726
5.96,0.2318723587,-0.09932902444
5.97,0.2290295416,-0.1055462994
5.98,0.2260152153,-0.1116802319
5.99,0.2228319589,-0.1177258136
6,0.2194825127,-0.1236781245
