"Freq [GHz]","re(S(Tx_p1,Tx_p1)) []","im(S(Tx_p1,Tx_p1)) []"
1,-0.007535213274,-0.001703613708
1.01,-0.007600632235,-0.001303879743
1.02,-0.007644640966,-0.0009010458891
1.03,-0.00766705179,-0.00049630697
1.04,-0.007667747598,-9.086931776E-05
1.05,-0.00764668241,0.0003140535415
1.06,-0.007603881674,0.000717245217
1.07,-0.007539442308,0.001117490785
1.08,-0.007453532481,0.001513581105
1.09,-0.007346391128,0.001904317113
1.1,-0.007218327223,0.002288514059
1.11,-0.007069718788,0.002665005702
1.12,-0.006901011661,0.003032648417
1.13,-0.006712718018,0.003390325221
1.14,-0.006505414658,0.003736949702
1.15,-0.006279741062,0.004071469817
1.16,-0.006036397227,0.004392871583
1.17,-0.005776141283,0.004700182608
1.18,-0.005499786912,0.004992475478
1.19,-0.005208200569,0.005268870978
1.2,-0.004902298516,0.005528541134
1.21,-0.004583043687,0.005770712073
1.22,-0.004251442388,0.00599466668
1.23,-0.00390854085,0.006199747061
1.24,-0.003555421642,0.006385356779
1.25,-0.003193199967,0.006550962881
1.26,-0.002823019839,0.00669609769
1.27,-0.002446050171,0.00682036037
1.28,-0.002063480779,0.006923418249
1.29,-0.001676518314,0.007005007899
1.3,-0.001286382153,0.007064935975
1.31,-0.0008943002382,0.007103079802
1.32,-0.0005015049002,0.007119387719
1.33,-0.0001092286754,0.007113879162
1.34,0.0002812998755,0.007086644513
1.35,0.0006688603238,0.007037844687
1.36,0.001052244494,0.006967710483
1.37,0.001430260535,0.006876541684
1.38,0.001801736922,0.006764705928
1.39,0.002165526384,0.006632637332
1.4,0.002520509738,0.006480834899
1.41,0.002865599612,0.006309860695
1.42,0.003199744053,0.006120337811
1.43,0.003521930006,0.005912948124
1.44,0.00383118664,0.005688429848
1.45,0.004126588528,0.005447574904
1.46,0.004407258659,0.005191226108
1.47,0.004672371271,0.004920274186
1.48,0.004921154501,0.004635654635
1.49,0.005152892841,0.004338344432
1.5,0.00536692939,0.004029358615
1.51,0.0055626679,0.003709746736
1.52,0.005739574598,0.003380589208
1.53,0.005897179796,0.00304299355
1.54,0.006035079265,0.00269809056
1.55,0.006152935386,0.002347030409
1.56,0.006250478058,0.001990978686
1.57,0.006327505376,0.0016311124
1.58,0.00638388407,0.001268615955
1.59,0.006419549698,0.0009046771173
1.6,0.006434506609,0.0005404829783
1.61,0.006428827663,0.0001772159394
1.62,0.006402653715,-0.0001839502759
1.63,0.006356192866,-0.0005418545642
1.64,0.006289719485,-0.0008953523267
1.65,0.006203573004,-0.001243319282
1.66,0.00609815649,-0.001584655194
1.67,0.005973935008,-0.001918287503
1.68,0.00583143377,-0.002243174843
1.69,0.005671236086,-0.002558310445
1.7,0.00549398112,-0.0028627254
1.71,0.005300361467,-0.003155491775
1.72,0.005091120545,-0.003435725585
1.73,0.004867049833,-0.003702589592
1.74,0.004628985944,-0.00395529593
1.75,0.004377807564,-0.004193108551
1.76,0.004114432249,-0.004415345478
1.77,0.00383981311,-0.004621380864
1.78,0.003554935382,-0.004810646845
1.79,0.003260812902,-0.00498263518
1.8,0.002958484502,-0.005136898685
1.81,0.002649010335,-0.005273052438
1.82,0.002333468136,-0.005390774775
1.83,0.002012949449,-0.005489808048
1.84,0.001688555821,-0.005569959167
1.85,0.001361394976,-0.005631099912
1.86,0.001032576989,-0.005673167014
1.87,0.0007032104756,-0.00569616202
1.88,0.0003743987935,-0.005700150921
1.89,4.723629435E-05,-0.005685263569
1.9,-0.0002771953824,-0.005651692864
1.91,-0.0005978309492,-0.005599693736
1.92,-0.0009136250351,-0.00552958191
1.93,-0.001223555663,-0.005441732466
1.94,-0.001526627624,-0.005336578202
1.95,-0.001821875749,-0.005214607806
1.96,-0.002108368045,-0.005076363838
1.97,-0.002385208712,-0.004922440538
1.98,-0.002651541008,-0.004753481465
1.99,-0.002906549967,-0.004570176979
2,-0.003149464954,-0.004373261571
2.01,-0.003379562051,-0.004163511051
2.02,-0.003596166269,-0.003941739616
2.03,-0.003798653573,-0.00370879679
2.04,-0.00398645272,-0.003465564268
2.05,-0.004159046898,-0.003212952654
2.06,-0.004315975172,-0.00295189813
2.07,-0.004456833719,-0.002683359041
2.08,-0.004581276859,-0.002408312434
2.09,-0.004689017879,-0.002127750545
2.1,-0.004779829637,-0.001842677253
2.11,-0.004853544963,-0.001554104521
2.12,-0.004910056842,-0.001263048821
2.13,-0.004949318386,-0.0009705275703
2.14,-0.004971342594,-0.0006775555866
2.15,-0.004976201907,-0.0003851415693
2.16,-0.004964027549,-9.428462713E-05
2.17,-0.004935008674,0.0001940291396
2.18,-0.004889391312,0.000478829991
2.19,-0.004827477116,0.00075916782
2.2,-0.004749621926,0.001034115336
2.21,-0.004656234154,0.001302771149
2.22,-0.004547772986,0.00156426274
2.23,-0.004424746422,0.001817749313
2.24,-0.004287709156,0.002062424522
2.25,-0.004137260303,0.002297519045
2.26,-0.003974040981,0.002522303027
2.27,-0.003798731771,0.002736088358
2.28,-0.003612050037,0.002938230791
2.29,-0.003414747153,0.003128131891
2.3,-0.003207605609,0.003305240812
2.31,-0.002991436039,0.00346905589
2.32,-0.002767074165,0.003619126052
2.33,-0.002535377668,0.003755052041
2.34,-0.002297223011,0.003876487442
2.35,-0.002053502204,0.00398313952
2.36,-0.00180511955,0.004074769862
2.37,-0.001552988357,0.004151194811
2.38,-0.001298027645,0.004212285723
2.39,-0.001041158858,0.004257969006
2.4,-0.0007833025824,0.004288225975
2.41,-0.0005253752962,0.004303092511
2.42,-0.0002682861543,0.004302658527
2.43,-1.293381961E-05,0.004287067243
2.44,0.0002397966451,0.004256514282
2.45,0.0004890368162,0.004211246578
2.46,0.0007339378675,0.004151561117
2.47,0.0009736734389,0.0040778035
2.48,0.001207442404,0.003990366348
2.49,0.001434471531,0.003889687549
2.5,0.001654018019,0.003776248354
2.51,0.001865371919,0.003650571331
2.52,0.002067858407,0.003513218191
2.53,0.002260839929,0.003364787481
2.54,0.002443718186,0.003205912166
2.55,0.002615935971,0.003037257107
2.56,0.002776978845,0.002859516436
2.57,0.002926376647,0.002673410852
2.58,0.003063704834,0.002479684834
2.59,0.00318858565,0.002279103794
2.6,0.003300689116,0.002072451171
2.61,0.003399733841,0.001860525484
2.62,0.003485487658,0.001644137351
2.63,0.003557768072,0.001424106483
2.64,0.003616442532,0.001201258672
2.65,0.003661428512,0.000976422774
2.66,0.003692693425,0.0007504277062
2.67,0.003710254346,0.0005240994619
2.68,0.003714177562,0.000298258161
2.69,0.003704577951,7.371514081E-05
2.7,0.003681618184,-0.0001487298999
2.71,0.003645507767,-0.000368291694
2.72,0.003596501914,-0.0005842021271
2.73,0.003534900269,-0.0007957128766
2.74,0.003461045473,-0.001002097961
2.75,0.003375321587,-0.001202656187
2.76,0.003278152376,-0.001396713494
2.77,0.003169999467,-0.001583625181
2.78,0.003051360371,-0.001762778006
2.79,0.002922766404,-0.001933592166
2.8,0.002784780489,-0.002095523132
2.81,0.002637994869,-0.002248063352
2.82,0.002483028721,-0.002390743796
2.83,0.002320525696,-0.002523135358
2.84,0.002151151387,-0.002644850104
2.85,0.001975590734,-0.002755542354
2.86,0.00179454538,-0.002854909609
2.87,0.001608730984,-0.002942693309
2.88,0.0014188745,-0.003018679431
2.89,0.001225711445,-0.003082698918
2.9,0.001029983141,-0.003134627936
2.91,0.000832433969,-0.003174387975
2.92,0.0006338086247,-0.003201945776
2.93,0.0004348493962,-0.003217313094
2.94,0.0002362934689,-0.003220546302
2.95,3.887027039E-05,-0.003211745832
2.96,-0.0001567011386,-0.003191055464
2.97,-0.0003497146146,-0.003158661451
2.98,-0.0005394794171,-0.003114791511
2.99,-0.0007253226186,-0.00305971366
3,-0.0009065914331,-0.002993734913
3.01,-0.001082655452,-0.002917199855
3.02,-0.001252908785,-0.002830489077
3.03,-0.001416772088,-0.002734017497
3.04,-0.001573694491,-0.002628232566
3.05,-0.001723155396,-0.002513612367
3.06,-0.001864666155,-0.002390663621
3.07,-0.001997771619,-0.002259919589
3.08,-0.002122051557,-0.002121937911
3.09,-0.002237121922,-0.001977298355
3.1,-0.002342635994,-0.001826600507
3.11,-0.002438285362,-0.00167046141
3.12,-0.002523800767,-0.001509513148
3.13,-0.002598952787,-0.001344400396
3.14,-0.002663552382,-0.001175777943
3.15,-0.002717451273,-0.00100430819
3.16,-0.002760542176,-0.0008306586494
3.17,-0.002792758885,-0.0006554994294
3.18,-0.002814076193,-0.0004795007389
3.19,-0.002824509677,-0.0003033304041
3.2,-0.002824115318,-0.0001276514137
3.21,-0.002812988988,4.68805002E-05
3.22,-0.002791265786,0.0002196192373
3.23,-0.002759119236,0.0003899306509
3.24,-0.002716760349,0.0005571948096
3.25,-0.002664436554,0.0007208081893
3.26,-0.002602430497,0.0008801857888
3.27,-0.00253105873,0.001034763162
3.28,-0.002450670266,0.001183998359
3.29,-0.002361645043,0.001327373772
3.3,-0.002264392275,0.00146439787
3.31,-0.002159348701,0.001594606839
3.32,-0.00204697676,0.001717566091
3.33,-0.001927762666,0.001832871666
3.34,-0.001802214426,0.001940151507
3.35,-0.001670859774,0.002039066604
3.36,-0.001534244063,0.002129312008
3.37,-0.001392928092,0.00221061772
3.38,-0.001247485903,0.002282749432
3.39,-0.001098502537,0.002345509133
3.4,-0.0009465717665,0.002398735585
3.41,-0.0007922938155,0.002442304646
3.42,-0.0006362730654,0.002476129459
3.43,-0.0004791157664,0.002500160504
3.44,-0.0003214277567,0.002514385503
3.45,-0.0001638121985,0.002518829193
3.46,-6.867340938E-06,0.002513552962
3.47,0.0001488156833,0.002498654349
3.48,0.0003026550196,0.00247426641
3.49,0.000454080203,0.002440556966
3.5,0.0006025342128,0.002397727718
3.51,0.0007474754625,0.002346013241
3.52,0.0008883797183,0.002285679869
3.53,0.00102474194,0.002217024464
3.54,0.001156078035,0.002140373083
3.55,0.001281926527,0.002056079541
3.56,0.001401850124,0.001964523885
3.57,0.001515437186,0.001866110776
3.58,0.001622303086,0.001761267794
3.59,0.001722091468,0.001650443665
3.6,0.001814475377,0.001534106429
3.61,0.001899158282,0.001412741535
3.62,0.001975874977,0.001286849898
3.63,0.002044392354,0.001156945901
3.64,0.002104510054,0.001023555367
3.65,0.002156060987,0.0008872134958
3.66,0.002198911734,0.0007484627876
3.67,0.002232962803,0.000607850945
3.68,0.002258148777,0.0004659287752
3.69,0.002274438312,0.0003232480927
3.7,0.002281834023,0.0001803596326
3.71,0.002280372239,3.78109825E-05
3.72,0.002270122628,-0.0001038554605
3.73,0.002251187706,-0.0002441044995
3.74,0.002223702222,-0.0003824101067
3.75,0.002187832427,-0.0005182573449
3.76,0.002143775234,-0.0006511442345
3.77,0.00209175726,-0.0007805835599
3.78,0.002032033768,-0.0009061046072
3.79,0.001964887509,-0.00102725483
3.8,0.001890627464,-0.001143601433
3.81,0.001809587505,-0.001254732877
3.82,0.001722124956,-0.001360260285
3.83,0.001628619089,-0.001459818762
3.84,0.001529469543,-0.001553068611
3.85,0.001425094674,-0.001639696448
3.86,0.001315929847,-0.001719416214
3.87,0.001202425677,-0.001791970066
3.88,0.001085046221,-0.001857129172
3.89,0.0009642671345,-0.001914694379
3.9,0.0008405737911,-0.001964496771
3.91,0.0007144593847,-0.002006398108
3.92,0.0005864230081,-0.002040291145
3.93,0.0004569677254,-0.002066099833
3.94,0.0003265986402,-0.002083779404
3.95,0.0001958209696,-0.002093316333
3.96,6.513812952E-05,-0.002094728187
3.97,-6.495016115E-05,-0.002088063351
3.98,-0.0001939497497,-0.002073400646
3.99,-0.0003213738864,-0.002050848832
4,-0.0004467450212,-0.002020546001
4.01,-0.0005695965546,-0.001982658865
4.02,-0.0006894745362,-0.001937381935
4.03,-0.0008059393044,-0.001884936609
4.04,-0.0009185670618,-0.001825570153
4.05,-0.001026951381,-0.001759554604
4.06,-0.001130704635,-0.001687185574
4.07,-0.001229459349,-0.001608780981
4.08,-0.001322869463,-0.001524679695
4.09,-0.001410611512,-0.001435240128
4.1,-0.001492385711,-0.001340838737
4.11,-0.001567916939,-0.001241868493
4.12,-0.001636955629,-0.001138737275
4.13,-0.001699278559,-0.001031866232
4.14,-0.001754689526,-0.0009216880999
4.15,-0.001803019926,-0.0008086454818
4.16,-0.001844129223,-0.000693189109
4.17,-0.001877905301,-0.0005757760756
4.18,-0.001904264718,-0.0004568680623
4.19,-0.001923152844,-0.0003369295541
4.2,-0.001934543886,-0.000216426057
4.21,-0.001938440808,-9.582232296E-05
4.22,-0.001934875145,2.441941207E-05
4.23,-0.001923906702,0.0001438411699
4.24,-0.001905623153,0.0002619909447
4.25,-0.001880139539,0.0003784243853
4.26,-0.00184759766,0.0004927064372
4.27,-0.00180816537,0.0006044129406
4.28,-0.001762035781,0.0007131321765
4.29,-0.001709426375,0.0008184663569
4.3,-0.001650578026,0.000920033053
4.31,-0.001585753941,0.001017466557
4.32,-0.001515238523,0.00111041917
4.33,-0.001439336163,0.001198562418
4.34,-0.001358369955,0.001281588187
4.35,-0.001272680358,0.001359209765
4.36,-0.001182623793,0.001431162815
4.37,-0.001088571191,0.001497206236
4.38,-0.0009909064921,0.001557122947
4.39,-0.0008900251072,0.00161072057
4.4,-0.0007863323428,0.001657832008
4.41,-0.0006802417984,0.001698315938
4.42,-0.0005721737421,0.001732057189
4.43,-0.0004625534697,0.001758967028
4.44,-0.0003518096552,0.001778983337
4.45,-0.0002403726975,0.001792070696
4.46,-0.0001286730708,0.001798220354
4.47,-1.713968347E-05,0.001797450111
4.48,9.380174617E-05,0.001789804084
4.49,0.0002037302938,0.001775352393
4.5,0.0003122314046,0.00175419073
4.51,0.0004188984357,0.001726439855
4.52,0.0005233341596,0.001692244976
4.53,0.0006251522231,0.001651775062
4.54,0.0007239785558,0.001605222053
4.55,0.0008194527248,0.001552799997
4.56,0.0009112292288,0.001494744102
4.57,0.0009989787281,0.001431309717
4.58,0.001082389207,0.001362771241
4.59,0.00116116706,0.001289420963
4.6,0.001235038109,0.001211567845
4.61,0.001303748533,0.001129536249
4.62,0.001367065716,0.001043664604
4.63,0.001424779018,0.0009543040374
4.64,0.001476700443,0.0008618169634
4.65,0.001522665234,0.000766575631
4.66,0.001562532359,0.0006689606488
4.67,0.001596184919,0.000569359484
4.68,0.00162353045,0.0004681649442
4.69,0.001644501138,0.0003657736475
4.7,0.001659053937,0.0002625844863
4.71,0.001667170588,0.0001589970919
4.72,0.001668857546,5.541030462E-05
4.73,0.00166414582,-4.777934443E-05
4.74,0.001653090705,-0.0001501791342
4.75,0.001635771439,-0.0002514016314
4.76,0.001612290762,-0.00035106614
4.77,0.001582774384,-0.0004488001161
4.78,0.001547370385,-0.000544240545
4.79,0.00150624851,-0.0006370352732
4.8,0.001459599406,-0.0007268442917
4.81,0.001407633769,-0.0008133409658
4.82,0.001350581432,-0.0008962132077
4.83,0.00128869037,-0.0009751645853
4.84,0.001222225657,-0.001049915367
4.85,0.001151468351,-0.001120203497
4.86,0.001076714333,-0.001185785493
4.87,0.0009982730901,-0.001246437278
4.88,0.0009164664587,-0.00130195492
4.89,0.0008316273208,-0.001352155305
4.9,0.0007440982722,-0.001396876715
4.91,0.0006542302568,-0.001435979327
4.92,0.0005623811783,-0.001469345625
4.93,0.0004689144923,-0.001496880723
4.94,0.0003741977857,-0.001518512603
4.95,0.0002786013478,-0.001534192259
4.96,0.0001824967386,-0.001543893758
4.97,8.625536116E-05,-0.00154761421
4.98,-9.752958684E-06,-0.001545373646
4.99,-0.0001051613777,-0.001537214821
5,-0.0001996074222,-0.001523202917
5.01,-0.0002927343505,-0.001503425169
5.02,-0.0003841924855,-0.001477990413
5.03,-0.0004736405136,-0.001447028544
5.04,-0.0005607467444,-0.001410689905
5.05,-0.0006451903259,-0.001369144598
5.06,-0.0007266624128,-0.001322581719
5.07,-0.0008048672816,-0.001271208535
5.08,-0.0008795233899,-0.001215249586
5.09,-0.0009503643752,-0.00115494573
5.1,-0.001017139991,-0.001090553131
5.11,-0.001079616975,-0.001022342196
5.12,-0.001137579849,-0.0009505964565
5.13,-0.001190831645,-0.0008756114138
5.14,-0.001239194558,-0.0007976933402
5.15,-0.00128251052,-0.000717158047
5.16,-0.001320641697,-0.0006343296223
5.17,-0.001353470907,-0.0005495391445
5.18,-0.001380901953,-0.0004631233757
5.19,-0.001402859877,-0.0003754234403
5.2,-0.001419291129,-0.000286783495
5.21,-0.001430163658,-0.0001975493931
5.22,-0.001435466913,-0.0001080673506
5.23,-0.001435211769,-1.868261783E-05
5.24,-0.001429430365,7.026183801E-05
5.25,-0.001418175865,0.0001584266346
5.26,-0.001401522141,0.0002454772552
5.27,-0.001379563375,0.0003310853038
5.28,-0.001352413588,0.0004149297303
5.29,-0.001320206095,0.0004966980209
5.3,-0.001283092887,0.0005760873489
5.31,-0.00124124395,0.0006528056826
5.32,-0.001194846511,0.0007265728461
5.33,-0.001144104231,0.0007971215285
5.34,-0.001089236331,0.0008641982385
5.35,-0.001030476671,0.0009275642013
5.36,-0.0009680727711,0.0009869961936
5.37,-0.0009022847882,0.001042287315
5.38,-0.0008333844522,0.001093247694
5.39,-0.0007616539603,0.001139705122
5.4,-0.000687384838,0.001181505616
5.41,-0.0006108767716,0.001218513918
5.42,-0.0005324364142,0.001250613901
5.43,-0.0004523761727,0.001277708923
5.44,-0.0003710129785,0.001299722082
5.45,-0.0002886670478,0.00131659641
5.46,-0.0002056606358,0.001328294984
5.47,-0.00012231679,0.001334800956
5.48,-3.895810679E-05,0.001336117513
5.49,4.409450299E-05,0.001332267755
5.5,0.0001265230361,0.001323294501
5.51,0.0002080136009,0.001309260015
5.52,0.0002882575987,0.001290245667
5.53,0.0003669528797,0.001266351518
5.54,0.0004438048667,0.00123769583
5.55,0.0005185276447,0.001204414524
5.56,0.000590845011,0.001166660556
5.57,0.0006604914826,0.001124603244
5.58,0.0007272132574,0.001078427528
5.59,0.0007907691247,0.00102833318
5.6,0.0008509313239,0.0009745339542
5.61,0.0009074863454,0.0009172566967
5.62,0.0009602356744,0.0008567404028
5.63,0.001008996471,0.000793235236
5.64,0.001053602191,0.0007270015094
5.65,0.001093903132,0.0006583086321
5.66,0.001129766926,0.0005874340283
5.67,0.001161078947,0.0005146620297
5.68,0.00118774266,0.0004402827484
5.69,0.001209679898,0.0003645909335
5.7,0.001226831056,0.0002878848155
5.71,0.001239155231,0.0002104649441
5.72,0.001246630271,0.0001326330233
5.73,0.001249252764,5.469074735E-05
5.74,0.001247037955,-2.306135552E-05
5.75,0.001240019581,-0.0001003250702
5.76,0.001228249651,-0.0001768056258
5.77,0.001211798144,-0.0002522128083
5.78,0.001190752652,-0.0003262620493
5.79,0.001165217942,-0.0003986754873
5.8,0.001135315473,-0.0004691829982
5.81,0.001101182834,-0.00053752319
5.82,0.001062973136,-0.0006034443592
5.83,0.00102085434,-0.0006667054049
5.84,0.0009750085387,-0.0007270766968
5.85,0.0009256311781,-0.0007843408961
5.86,0.000872930242,-0.000838293723
5.87,0.0008171253863,-0.0008887446719
5.88,0.0007584470364,-0.0009355176684
5.89,0.0006971354465,-0.0009784516692
5.9,0.0006334397272,-0.001017401199
5.91,0.0005676168434,-0.001052236829
5.92,0.0004999305887,-0.001082845583
5.93,0.0004306505375,-0.001109131292
5.94,0.0003600509822,-0.001131014866
5.95,0.0002884098567,-0.001148434513
5.96,0.000216007652,-0.001161345885
5.97,0.0001431263283,-0.00116972215
5.98,7.004822637E-05,-0.001173554011
5.99,-2.945015864E-06,-0.001172849645
6,-7.557353904E-05,-0.00116763458
