"Freq [GHz]","re(S(Tx_p1,Tx_p1)) []","im(S(Tx_p1,Tx_p1)) []"
1,-0.02671253089,-0.03470284619
1.01,-0.02804324036,-0.03328893923
1.02,-0.02930586458,-0.03181782898
1.03,-0.03049741635,-0.03029286203
1.04,-0.03161509639,-0.02871755732
1.05,-0.03265630251,-0.02709559436
1.06,-0.0336186382,-0.0254308011
1.07,-0.0344999204,-0.0237271414
1.08,-0.03529818662,-0.02198870211
1.09,-0.03601170124,-0.02021967991
1.1,-0.03663896108,-0.01842436783
1.11,-0.03717870019,-0.01660714156
1.12,-0.03762989383,-0.01477244558
1.13,-0.03799176171,-0.01292477911
1.14,-0.03826377036,-0.011068682
1.15,-0.03844563477,-0.009208720546
1.16,-0.03853731921,-0.007349473258
1.17,-0.03853903721,-0.005495516695
1.18,-0.03845125082,-0.003651411338
1.19,-0.03827466904,-0.001821687581
1.2,-0.03801024548,-1.083186939E-05
1.21,-0.03765917526,0.001776726966
1.22,-0.03722289116,0.003536631147
1.23,-0.03670305904,0.005264607115
1.24,-0.03610157251,0.006956478385
1.25,-0.03542054697,0.00860817805
1.26,-0.03466231289,0.01021576091
1.27,-0.0338294085,0.01177541515
1.28,-0.03292457183,0.01328347364
1.29,-0.03195073216,0.01473642464
1.3,-0.03091100085,0.01613092205
1.31,-0.02980866174,0.01746379516
1.32,-0.02864716092,0.0187320577
1.33,-0.0274300961,0.0199329164
1.34,-0.02616120553,0.0210637789
1.35,-0.02484435651,0.02212226096
1.36,-0.0234835335,0.02310619306
1.37,-0.02208282597,0.02401362634
1.38,-0.02064641591,0.02484283773
1.39,-0.01917856514,0.0255923345
1.4,-0.01768360232,0.02626085802
1.41,-0.01616590989,0.02684738674
1.42,-0.01462991086,0.02735113856
1.43,-0.01308005544,0.0277715723
1.44,-0.01152080776,0.02810838859
1.45,-0.00995663245,0.02836152985
1.46,-0.008391981364,0.02853117965
1.47,-0.006831280322,0.02861776128
1.48,-0.005278916001,0.02862193556
1.49,-0.003739222982,0.02854459803
1.5,-0.002216470992,0.02838687531
1.51,-0.0007148523892,0.02815012081
1.52,0.0007615300691,0.0278359098
1.53,0.002208675154,0.02744603375
1.54,0.003622694734,0.02698249406
1.55,0.004999824968,0.02644749518
1.56,0.006336437066,0.02584343707
1.57,0.007629047618,0.02517290717
1.58,0.008874328427,0.02443867177
1.59,0.01006911584,0.02364366685
1.6,0.01121041954,0.02279098849
1.61,0.01229543079,0.02188388275
1.62,0.01332153006,0.02092573517
1.63,0.01428629406,0.0199200599
1.64,0.01518750219,0.01887048841
1.65,0.01602314227,0.01778075791
1.66,0.01679141566,0.01665469953
1.67,0.01749074171,0.01549622619
1.68,0.01811976145,0.01430932027
1.69,0.01867734073,0.01309802118
1.7,0.01916257249,0.0118664127
1.71,0.01957477845,0.01061861032
1.72,0.01991351003,0.009358748463
1.73,0.02017854858,0.008090967748
1.74,0.02036990489,0.006819402238
1.75,0.02048781798,0.005548166789
1.76,0.02053275326,0.00428134449
1.77,0.02050539991,0.003022974251
1.78,0.02040666764,0.001777038578
1.79,0.02023768276,0.0005474515621
1.8,0.01999978359,-0.0006619528696
1.81,0.01969451525,-0.001847432411
1.82,0.01932362383,-0.003005347508
1.83,0.01888904993,-0.00413217213
1.84,0.01839292168,-0.005224504149
1.85,0.01783754714,-0.006279075293
1.86,0.01722540622,-0.007292760646
1.87,0.0165591421,-0.008262587674
1.88,0.01584155213,-0.009185744736
1.89,0.01507557831,-0.01005958907
1.9,0.01426429742,-0.01088165421
1.91,0.01341091065,-0.01164965685
1.92,0.01251873299,-0.0123615031
1.93,0.01159118223,-0.01301529413
1.94,0.01063176774,-0.01360933116
1.95,0.009644078976,-0.01414211986
1.96,0.008631773775,-0.01461237408
1.97,0.007598566507,-0.01501901888
1.98,0.006548216075,-0.01536119291
1.99,0.005484513828,-0.01563825016
2,0.00441127142,-0.01584976097
2.01,0.003332308642,-0.01599551237
2.02,0.002251441288,-0.01607550778
2.03,0.001172469064,-0.01608996599
2.04,9.916359947E-05,-0.0160393195
2.05,-0.0009647434072,-0.0159242122
2.06,-0.002015571883,-0.01574549634
2.07,-0.003049704863,-0.01550422896
2.08,-0.004063599738,-0.01520166756
2.09,-0.005053799228,-0.0148392653
2.1,-0.006016942049,-0.0144186655
2.11,-0.006949773237,-0.01394169558
2.12,-0.007849154107,-0.01341036048
2.13,-0.008712071813,-0.01282683552
2.14,-0.00953564847,-0.01219345875
2.15,-0.01031714983,-0.0115127228
2.16,-0.01105399348,-0.01078726633
2.17,-0.0117437565,-0.01001986494
2.18,-0.01238418267,-0.009213421822
2.19,-0.01297318903,-0.008370957916
2.2,-0.01350887193,-0.007495601791
2.21,-0.01398951253,-0.00659057921
2.22,-0.01441358158,-0.005659202415
2.23,-0.01477974374,-0.004704859178
2.24,-0.01508686113,-0.003731001647
2.25,-0.01533399635,-0.002741135026
2.26,-0.01552041482,-0.001738806123
2.27,-0.01564558646,-0.0007275917956
2.28,-0.01570918671,0.0002889126524
2.29,-0.01571109697,0.001307105106
2.3,-0.0156514043,0.002323388258
2.31,-0.0155304005,0.003334181175
2.32,-0.01534858057,0.004335930786
2.33,-0.01510664051,0.005325123238
2.34,-0.0148054745,0.006298295107
2.35,-0.01444617143,0.007252044409
2.36,-0.01403001088,0.008183041389
2.37,-0.01355845846,0.009088039051
2.38,-0.01303316059,0.009963883398
2.39,-0.01245593871,0.01080752335
2.4,-0.011828783,0.0116160203
2.41,-0.01115384551,0.01238655732
2.42,-0.01043343284,0.0131164479
2.43,-0.009669998333,0.01380314433
2.44,-0.00886613386,0.01444424552
2.45,-0.008024561119,0.01503750447
2.46,-0.007148122601,0.01558083506
2.47,-0.006239772173,0.01607231851
2.48,-0.005302565333,0.01651020911
2.49,-0.004339649167,0.01689293954
2.5,-0.003354252044,0.01721912549
2.51,-0.002349673067,0.01748756977
2.52,-0.001329271334,0.01769726579
2.53,-0.0002964550288,0.01784740042
2.54,0.0007453296176,0.01793735626
2.55,0.001792609465,0.01796671324
2.56,0.002841895658,0.01793524962
2.57,0.003889694852,0.01784294238
2.58,0.004932520421,0.01768996691
2.59,0.005966903629,0.01747669616
2.6,0.006989404719,0.0172036991
2.61,0.007996623882,0.0168717386
2.62,0.008985212088,0.01648176865
2.63,0.009951881722,0.01603493106
2.64,0.01089341702,0.01553255152
2.65,0.01180668423,0.01497613503
2.66,0.01268864154,0.01436736094
2.67,0.01353634864,0.01370807724
2.68,0.014346976,0.01300029448
2.69,0.01511781372,0.01224617915
2.7,0.01584628006,0.01144804649
2.71,0.01652992946,0.010608353
2.72,0.01716646019,0.009729688369
2.73,0.01775372152,0.008814767096
2.74,0.01828972035,0.007866419674
2.75,0.01877262735,0.006887583448
2.76,0.01920078265,0.005881293147
2.77,0.01957270086,0.004850671119
2.78,0.0198870756,0.003798917312
2.79,0.02014278347,0.002729299016
2.8,0.02033888739,0.001645140424
2.81,0.02047463936,0.0005498120162
2.82,0.02054948264,-0.0005532801795
2.83,0.02056305331,-0.001660705419
2.84,0.02051518121,-0.002769019139
2.85,0.02040589024,-0.003874773879
2.86,0.02023539813,-0.004974530197
2.87,0.02000411553,-0.006064867537
2.88,0.01971264448,-0.00714239503
2.89,0.01936177635,-0.008203762176
2.9,0.01895248911,-0.009245669386
2.91,0.01848594406,-0.01026487835
2.92,0.01796348198,-0.01125822218
2.93,0.0173866187,-0.01222261537
2.94,0.01675704015,-0.01315506336
2.95,0.01607659686,-0.01405267196
2.96,0.01534729797,-0.01491265633
2.97,0.01457130472,-0.01573234963
2.98,0.0137509235,-0.01650921128
2.99,0.01288859842,-0.01724083487
3,0.01198690351,-0.01792495552
3.01,0.01104853443,-0.01855945691
3.02,0.01007629994,-0.01914237772
3.03,0.009073112883,-0.01967191767
3.04,0.008041980957,-0.02014644296
3.05,0.006985997158,-0.02056449123
3.06,0.005908329975,-0.02092477595
3.07,0.004812213358,-0.02122619029
3.08,0.003700936503,-0.02146781034
3.09,0.002577833468,-0.02164889781
3.1,0.00144627267,-0.02176890215
3.11,0.0003096462818,-0.02182746203
3.12,-0.0008286404262,-0.02182440623
3.13,-0.00196517977,-0.02175975398
3.14,-0.003096572331,-0.02163371465
3.15,-0.004219437591,-0.02144668683
3.16,-0.005330424496,-0.02119925688
3.17,-0.006426221909,-0.02089219684
3.18,-0.007503568919,-0.02052646174
3.19,-0.008559264986,-0.02010318641
3.2,-0.009590179873,-0.01962368165
3.21,-0.01059326335,-0.01908942993
3.22,-0.0115655546,-0.01850208047
3.23,-0.01250419142,-0.01786344386
3.24,-0.01340641895,-0.01717548618
3.25,-0.0142695982,-0.0164403226
3.26,-0.01509121411,-0.01566021055
3.27,-0.01586888323,-0.01483754246
3.28,-0.01660036098,-0.01397483806
3.29,-0.01728354846,-0.0130747363
3.3,-0.01791649879,-0.01213998691
3.31,-0.01849742295,-0.01117344161
3.32,-0.01902469513,-0.01017804506
3.33,-0.01949685755,-0.009156825455
3.34,-0.01991262474,-0.008112884925
3.35,-0.02027088728,-0.007049389709
3.36,-0.02057071498,-0.005969560132
3.37,-0.02081135945,-0.004876660428
3.38,-0.02099225616,-0.003773988443
3.39,-0.02111302586,-0.002664865255
3.4,-0.02117347547,-0.001552624724
3.41,-0.02117359828,-0.0004406030295
3.42,-0.02111357369,0.0006678717884
3.43,-0.02099376629,0.001769490244
3.44,-0.02081472433,0.002860971745
3.45,-0.02057717769,0.003939074822
3.46,-0.02028203523,0.005000607223
3.47,-0.01993038157,0.006042435828
3.48,-0.01952347335,0.007061496365
3.49,-0.01906273496,0.008054802895
3.5,-0.01854975369,0.009019457026
3.51,-0.01798627445,0.009952656841
3.52,-0.01737419393,0.0108517055
3.53,-0.01671555433,0.01171401951
3.54,-0.01601253665,0.01253713658
3.55,-0.01526745348,0.01331872316
3.56,-0.01448274153,0.01405658145
3.57,-0.01366095358,0.01474865608
3.58,-0.01280475028,0.01539304022
3.59,-0.01191689145,0.01598798132
3.6,-0.01100022723,0.01653188623
3.61,-0.01005768883,0.01702332591
3.62,-0.009092279112,0.01746103956
3.63,-0.008107062976,0.01784393822
3.64,-0.007105157497,0.01817110777
3.65,-0.00608972197,0.0184418115
3.66,-0.005063947826,0.01865549196
3.67,-0.00403104845,0.01881177231
3.68,-0.002994248967,0.01891045712
3.69,-0.001956775994,0.01895153252
3.7,-0.0009218474158,0.01893516586
3.71,0.0001073377996,0.01886170468
3.72,0.001127609701,0.01873167524
3.73,0.002135837347,0.01854578035
3.74,0.003128938654,0.01830489678
3.75,0.004103890073,0.01801007199
3.76,0.005057736057,0.01766252041
3.77,0.0059875983,0.01726361916
3.78,0.006890684708,0.01681490326
3.79,0.007764298079,0.01631806036
3.8,0.008605844466,0.01577492497
3.81,0.009412841192,0.01518747224
3.82,0.0101829245,0.01455781134
3.83,0.01091385678,0.01388817833
3.84,0.01160353345,0.01318092875
3.85,0.01224998932,0.01243852978
3.86,0.0128514045,0.01166355204
3.87,0.01340610995,0.01085866113
3.88,0.01391259234,0.01002660883
3.89,0.0143694986,0.009170224082
3.9,0.0147756398,0.008292403725
3.91,0.01512999458,0.007396103005
3.92,0.01543171202,0.006484325954
3.93,0.0156801139,0.005560115614
3.94,0.01587469651,0.004626544153
3.95,0.01601513179,0.003686702905
3.96,0.01610126798,0.002743692373
3.97,0.01613312964,0.001800612218
3.98,0.01611091717,0.0008605512677
3.99,0.0160350057,-7.342241911E-05
4,0.01590594347,-0.0009982714031
4.01,0.01572444961,-0.001910998598
4.02,0.01549141142,-0.002808656859
4.03,0.01520788111,-0.003688358386
4.04,0.01487507195,-0.004547283927
4.05,0.014494354,-0.005382691738
4.06,0.01406724926,-0.006191926275
4.07,0.01359542641,-0.0069724266
4.08,0.01308069503,-0.007721734456
4.09,0.01252499942,-0.008437502008
4.1,0.01193041194,-0.0091174992
4.11,0.01129912603,-0.009759620729
4.12,0.01063344876,-0.0103618926
4.13,0.009935793098,-0.01092247825
4.14,0.009208669806,-0.01143968419
4.15,0.008454679062,-0.01191196523
4.16,0.007676501792,-0.01233792915
4.17,0.006876890755,-0.01271634092
4.18,0.00605866142,-0.01304612637
4.19,0.005224682649,-0.01332637536
4.2,0.004377867223,-0.01355634438
4.21,0.003521162251,-0.01373545863
4.22,0.002657539469,-0.01386331357
4.23,0.00178998549,-0.01393967585
4.24,0.0009214920141,-0.01396448376
4.25,5.504603836E-05,-0.01393784708
4.26,-0.0008063798972,-0.01386004634
4.27,-0.001659837405,-0.01373153163
4.28,-0.002502411847,-0.01355292076
4.29,-0.003331231815,-0.01332499694
4.3,-0.004143478441,-0.01304870588
4.31,-0.004936394538,-0.01272515244
4.32,-0.005707293516,-0.01235559665
4.33,-0.006453568055,-0.01194144938
4.34,-0.007172698513,-0.0114842674
4.35,-0.007862261033,-0.01098574806
4.36,-0.008519935321,-0.01044772343
4.37,-0.009143512087,-0.009872154159
4.38,-0.009730900102,-0.009261122738
4.39,-0.01028013287,-0.008616826535
4.4,-0.01078937488,-0.007941570388
4.41,-0.01125692743,-0.007237758871
4.42,-0.01168123397,-0.006507888262
4.43,-0.01206088504,-0.005754538212
4.44,-0.01239462263,-0.00498036316
4.45,-0.01268134413,-0.004188083515
4.46,-0.0129201057,-0.003380476637
4.47,-0.01311012519,-0.002560367647
4.48,-0.01325078444,-0.001730620091
4.49,-0.01334163115,-0.0008941264975
4.5,-0.01338238009,-5.37988453E-05
4.51,-0.01337291389,0.0007874410108
4.52,-0.01331328316,0.001626670938
4.53,-0.01320370619,0.002460978111
4.54,-0.01304456797,0.003287468553
4.55,-0.0128364188,0.004103276606
4.56,-0.01257997227,0.004905574294
4.57,-0.01227610275,0.005691580552
4.58,-0.01192584238,0.006458570293
4.59,-0.01153037749,0.007203883281
4.6,-0.01109104458,0.007924932779
4.61,-0.01060932581,0.008619213954
4.62,-0.01008684402,0.009284311996
4.63,-0.00952535723,0.009917909947
4.64,-0.008926752844,0.01051779619
4.65,-0.008293041321,0.01108187161
4.66,-0.007626349508,0.01160815632
4.67,-0.006928913601,0.01209479611
4.68,-0.006203071742,0.01254006834
4.69,-0.005451256312,0.01294238751
4.7,-0.004675985916,0.01330031029
4.71,-0.003879857102,0.0136125402
4.72,-0.003065535837,0.01387793166
4.73,-0.002235748765,0.01409549368
4.74,-0.001393274281,0.01426439298
4.75,-0.0005409334493,0.01438395657
4.76,0.0003184192142,0.01445367388
4.77,0.001181905048,0.01447319831
4.78,0.002046630627,0.01444234828
4.79,0.002909697172,0.01436110769
4.8,0.00376820998,0.01422962593
4.81,0.004619287819,0.01404821725
4.82,0.005460072272,0.01381735971
4.83,0.006287737003,0.01353769351
4.84,0.007099496899,0.01321001887
4.85,0.00789261708,0.01283529329
4.86,0.008664421728,0.01241462847
4.87,0.009412302721,0.01194928657
4.88,0.01013372804,0.01144067607
4.89,0.01082624991,0.0108903472
4.9,0.01148751268,0.0102999868
4.91,0.01211526038,0.009671412865
4.92,0.01270734398,0.009006568622
4.93,0.01326172823,0.008307516189
4.94,0.0137764982,0.007576429897
4.95,0.01424986539,0.00681558924
4.96,0.01468017343,0.006027371502
4.97,0.01506590335,0.005214244068
4.98,0.01540567841,0.004378756463
4.99,0.01569826844,0.003523532132
5,0.01594259375,0.002651259992
5.01,0.01613772853,0.001764685786
5.02,0.01628290373,0.0008666032598
5.03,0.01637750947,-4.015480141E-05
5.04,0.01642109692,-0.0009527256512
5.05,0.01641337966,-0.001868225748
5.06,0.01635423453,-0.002783759974
5.07,0.01624370196,-0.003696430886
5.08,0.01608198571,-0.004603347954
5.09,0.01586945224,-0.005501636775
5.1,0.01560662936,-0.006388448219
5.11,0.01529420455,-0.007260967486
5.12,0.01493302265,-0.008116423042
5.13,0.01452408311,-0.008952095403
5.14,0.01406853672,-0.009765325744
5.15,0.01356768188,-0.01055352431
5.16,0.01302296042,-0.01131417857
5.17,0.01243595291,-0.01204486117
5.18,0.0118083736,-0.01274323754
5.19,0.0111420649,-0.01340707322
5.2,0.01043899146,-0.0140342409
5.21,0.009701233927,-0.01462272701
5.22,0.008930982234,-0.01517063806
5.23,0.00813052866,-0.01567620651
5.24,0.007302260508,-0.01613779625
5.25,0.006448652515,-0.01655390764
5.26,0.00557225899,-0.01692318216
5.27,0.004675705718,-0.01724440655
5.28,0.003761681638,-0.01751651653
5.29,0.002832930341,-0.01773859998
5.3,0.001892241409,-0.0179098997
5.31,0.0009424416165,-0.01802981565
5.32,-1.361396988E-05,-0.01809790667
5.33,-0.000973050967,-0.01811389172
5.34,-0.001932984697,-0.01807765059
5.35,-0.002890529231,-0.01798922413
5.36,-0.003842806412,-0.01784881396
5.37,-0.004786954854,-0.01765678162
5.38,-0.005720138856,-0.01741364732
5.39,-0.006639557235,-0.0171200881
5.4,-0.007542452021,-0.01677693554
5.41,-0.008426117011,-0.01638517298
5.42,-0.009287906142,-0.01594593228
5.43,-0.01012524165,-0.01546049007
5.44,-0.01093562203,-0.01493026363
5.45,-0.01171662968,-0.01435680623
5.46,-0.01246593835,-0.01374180218
5.47,-0.01318132019,-0.01308706136
5.48,-0.0138606526,-0.01239451341
5.49,-0.0145019246,-0.0116662016
5.5,-0.01510324293,-0.01090427628
5.51,-0.01566283776,-0.01011098802
5.52,-0.01617906793,-0.009288680533
5.53,-0.01665042586,-0.008439783197
5.54,-0.01707554202,-0.007566803408
5.55,-0.01745318886,-0.006672318676
5.56,-0.01778228445,-0.005758968521
5.57,-0.01806189549,-0.004829446192
5.58,-0.01829123997,-0.003886490236
5.59,-0.01846968927,-0.002932875943
5.6,-0.01859676986,-0.001971406699
5.61,-0.01867216439,-0.001004905264
5.62,-0.0186957124,-3.620501649E-05
5.63,-0.01866741051,0.0009318588217
5.64,-0.01858741205,0.001896457939
5.65,-0.0184560263,0.002854779649
5.66,-0.01827371718,0.003804035536
5.67,-0.01804110146,0.004741470003
5.68,-0.01775894656,0.00566436869
5.69,-0.01742816777,0.006570066754
5.7,-0.01704982516,0.007455956965
5.71,-0.01662511992,0.008319497601
5.72,-0.01615539032,0.009158220122
5.73,-0.01564210727,0.009969736596
5.74,-0.01508686945,0.01075174685
5.75,-0.01449139804,0.01150204532
5.76,-0.01385753116,0.01221852761
5.77,-0.01318721785,0.01289919672
5.78,-0.01248251178,0.01354216885
5.79,-0.01174556469,0.01414567896
5.8,-0.01097861945,0.01470808582
5.81,-0.01018400293,0.01522787674
5.82,-0.009364118589,0.01570367186
5.83,-0.008521438878,0.01613422802
5.84,-0.007658497418,0.01651844216
5.85,-0.006777881027,0.01685535433
5.86,-0.005882221608,0.01714415019
5.87,-0.004974187911,0.01738416309
5.88,-0.004056477212,0.01757487567
5.89,-0.003131806926,0.01771592096
5.9,-0.00220290618,0.01780708308
5.91,-0.001272507387,0.01784829737
5.92,-0.0003433378173,0.01783965015
5.93,0.0005818887678,0.01778137794
5.94,0.001500480428,0.01767386621
5.95,0.002409775254,0.01751764774
5.96,0.003307149461,0.01731340048
5.97,0.004190025336,0.01706194493
5.98,0.005055879014,0.01676424115
5.99,0.005902248063,0.01642138533
6,0.006726738855,0.01603460589
