"Freq [GHz]","re(S(Tx_p1,Tx_p1)) []","im(S(Tx_p1,Tx_p1)) []"
1,0.08552853746,-0.233289299
1.01,0.07928550214,-0.231425774
1.02,0.07317872384,-0.2294127271
1.03,0.06721539748,-0.2272544901
1.04,0.06140247278,-0.2249560087
1.05,0.05574661542,-0.2225228148
1.06,0.05025417025,-0.2199609971
1.07,0.04493112674,-0.2172771704
1.08,0.0397830865,-0.2144784441
1.09,0.03481523299,-0.2115723887
1.1,0.03003230357,-0.2085670021
1.11,0.02543856371,-0.2054706743
1.12,0.02103778346,-0.2022921516
1.13,0.01683321636,-0.1990404998
1.14,0.01282758051,-0.1957250665
1.15,0.009023042108,-0.1923554435
1.16,0.005421201279,-0.1889414277
1.17,0.002023080254,-0.185492983
1.18,-0.001170886072,-0.1820202004
1.19,-0.004160857234,-0.1785332593
1.2,-0.00694759196,-0.1750423879
1.21,-0.009532450585,-0.1715578239
1.22,-0.01191739517,-0.168089776
1.23,-0.01410498734,-0.1646483843
1.24,-0.01609838382,-0.161243683
1.25,-0.01790132984,-0.1578855618
1.26,-0.01951815025,-0.1545837295
1.27,-0.0209537386,-0.1513476769
1.28,-0.02221354408,-0.148186642
1.29,-0.02330355644,-0.1451095748
1.3,-0.02423028897,-0.1421251043
1.31,-0.02500075956,-0.139241506
1.32,-0.02562246994,-0.1364666706
1.33,-0.0261033832,-0.1338080748
1.34,-0.02645189958,-0.1312727523
1.35,-0.02667683072,-0.1288672677
1.36,-0.02678737242,-0.1265976908
1.37,-0.026793076,-0.1244695731
1.38,-0.0267038183,-0.1224879264
1.39,-0.02652977054,-0.1206572025
1.4,-0.02628136607,-0.118981275
1.41,-0.0259692671,-0.1174634232
1.42,-0.02560433056,-0.1161063178
1.43,-0.02519757317,-0.1149120086
1.44,-0.02476013588,-0.1138819145
1.45,-0.02430324773,-0.1130168149
1.46,-0.02383818929,-0.1123168438
1.47,-0.02337625577,-0.111781486
1.48,-0.02292871998,-0.1114095752
1.49,-0.02250679516,-0.1111992939
1.5,-0.02212159785,-0.1111481762
1.51,-0.02178411097,-0.1112531123
1.52,-0.0215051471,-0.1115103547
1.53,-0.02129531217,-0.1119155272
1.54,-0.02116496972,-0.1124636358
1.55,-0.02112420566,-0.113149081
1.56,-0.02118279386,-0.1139656729
1.57,-0.02135016251,-0.1149066476
1.58,-0.02163536143,-0.1159646862
1.59,-0.02204703046,-0.1171319346
1.6,-0.02259336897,-0.1184000262
1.61,-0.02328210656,-0.1197601056
1.62,-0.02412047522,-0.121202854
1.63,-0.02511518274,-0.1227185164
1.64,-0.02627238779,-0.1242969304
1.65,-0.02759767646,-0.1259275554
1.66,-0.02909604054,-0.1275995047
1.67,-0.03077185746,-0.1293015776
1.68,-0.03262887209,-0.1310222929
1.69,-0.03467018034,-0.1327499235
1.7,-0.03689821469,-0.1344725321
1.71,-0.03931473167,-0.1361780074
1.72,-0.04192080134,-0.137854101
1.73,-0.04471679879,-0.1394884653
1.74,-0.0477023977,-0.1410686911
1.75,-0.05087656601,-0.1425823465
1.76,-0.05423756368,-0.1440170154
1.77,-0.05778294252,-0.1453603361
1.78,-0.06150954825,-0.1466000403
1.79,-0.06541352456,-0.1477239921
1.8,-0.06949031934,-0.1487202261
1.81,-0.07373469302,-0.1495769855
1.82,-0.07814072895,-0.1502827604
1.83,-0.08270184586,-0.1508263245
1.84,-0.08741081233,-0.1511967716
1.85,-0.09225976323,-0.1513835517
1.86,-0.09724021813,-0.1513765053
1.87,-0.1023431015,-0.1511658981
1.88,-0.1075587651,-0.1507424526
1.89,-0.1128770114,-0.1500973807
1.9,-0.1182871195,-0.1492224135
1.91,-0.1237778723,-0.1481098304
1.92,-0.1293375853,-0.1467524864
1.93,-0.1349541368,-0.1451438381
1.94,-0.1406149995,-0.1432779678
1.95,-0.1463072737,-0.1411496066
1.96,-0.1520177211,-0.1387541545
1.97,-0.1577328005,-0.1360877001
1.98,-0.1634387039,-0.1331470371
1.99,-0.1691213937,-0.1299296798
2,-0.1747666409,-0.1264338763
2.01,-0.1803600635,-0.1226586192
2.02,-0.1858871663,-0.1186036554
2.03,-0.1913333803,-0.1142694923
2.04,-0.1966841032,-0.1096574033
2.05,-0.2019247394,-0.1047694298
2.06,-0.2070407411,-0.09960838265
2.07,-0.2120176485,-0.09417783974
2.08,-0.2168411305,-0.08848214272
2.09,-0.2214970249,-0.08252639093
2.1,-0.2259713784,-0.07631643342
2.11,-0.2302504861,-0.06985885877
2.12,-0.2343209305,-0.06316098286
2.13,-0.2381696199,-0.05623083459
2.14,-0.2417838261,-0.04907713956
2.15,-0.2451512206,-0.04170930174
2.16,-0.2482599107,-0.03413738328
2.17,-0.2510984741,-0.02637208241
2.18,-0.2536559924,-0.01842470951
2.19,-0.255922083,-0.01030716142
2.2,-0.2578869302,-0.002031894175
2.21,-0.2595413143,0.006388106049
2.22,-0.2608766397,0.01493935335
2.23,-0.261884961,0.02360789403
2.24,-0.2625590073,0.03237933991
2.25,-0.2628922053,0.04123890285
2.26,-0.2628787001,0.05017143045
2.27,-0.2625133742,0.05916144287
2.28,-0.2617918643,0.06819317056
2.29,-0.2607105773,0.07725059293
2.3,-0.2592667024,0.08631747767
2.31,-0.2574582228,0.09537742083
2.32,-0.2552839242,0.1044138874
2.33,-0.2527434018,0.1134102523
2.34,-0.249837065,0.1223498417
2.35,-0.2465661399,0.1312159746
2.36,-0.2429326692,0.1399920044
2.37,-0.2389395111,0.1486613605
2.38,-0.2345903347,0.1572075898
2.39,-0.229889614,0.1656143978
2.4,-0.2248426197,0.1738656896
2.41,-0.2194554088,0.1819456101
2.42,-0.2137348121,0.1898385839
2.43,-0.2076884195,0.1975293543
2.44,-0.2013245636,0.2050030213
2.45,-0.1946523014,0.2122450798
2.46,-0.1876813934,0.2192414548
2.47,-0.1804222816,0.2259785377
2.48,-0.1728860655,0.2324432197
2.49,-0.1650844764,0.2386229245
2.5,-0.1570298493,0.2445056403
2.51,-0.1487350947,0.2500799489
2.52,-0.1402136675,0.2553350546
2.53,-0.1314795353,0.2602608108
2.54,-0.1225471451,0.2648477446
2.55,-0.1134313886,0.2690870808
2.56,-0.1041475667,0.2729707626
2.57,-0.09471135299,0.2764914717
2.58,-0.08513875551,0.2796426455
2.59,-0.07544607888,0.2824184932
2.6,-0.06564988475,0.2848140089
2.61,-0.05576695203,0.2868249835
2.62,-0.04581423655,0.2884480143
2.63,-0.03580883021,0.2896805119
2.64,-0.02576791998,0.2905207061
2.65,-0.01570874661,0.2909676484
2.66,-0.005648563294,0.2910212137
2.67,0.004395405616,0.2906820985
2.68,0.01440600575,0.289951818
2.69,0.02436619361,0.2888327007
2.7,0.03425907707,0.287327881
2.71,0.0440679554,0.2854412893
2.72,0.05377635872,0.2831776408
2.73,0.06336808676,0.2805424219
2.74,0.07282724674,0.2775418743
2.75,0.08213829051,0.2741829778
2.76,0.09128605054,0.2704734309
2.77,0.1002557749,0.2664216296
2.78,0.1090331611,0.2620366446
2.79,0.1176043883,0.2573281967
2.8,0.1259561491,0.2523066304
2.81,0.1340756784,0.2469828864
2.82,0.1419507823,0.2413684724
2.83,0.1495698643,0.2354754322
2.84,0.1569219504,0.2293163144
2.85,0.1639967124,0.222904139
2.86,0.1707844889,0.2162523633
2.87,0.1772763057,0.2093748467
2.88,0.1834638929,0.2022858147
2.89,0.1893397008,0.1949998222
2.9,0.1948969141,0.1875317156
2.91,0.2001294634,0.1798965947
2.92,0.2050320352,0.1721097743
2.93,0.2096000798,0.1641867448
2.94,0.213829817,0.1561431332
2.95,0.2177182397,0.1479946631
2.96,0.2212631156,0.1397571158
2.97,0.224462987,0.1314462902
2.98,0.2273171679,0.1230779638
2.99,0.2298257401,0.1146678533
3,0.2319895459,0.1062315762
3.01,0.2338101804,0.09778461238
3.02,0.2352899804,0.08934226637
3.03,0.2364320122,0.08091963047
3.04,0.2372400574,0.07253154844
3.05,0.2377185969,0.06419258022
3.06,0.2378727925,0.05591696755
3.07,0.2377084676,0.04771860063
3.08,0.237232086,0.03961098599
3.09,0.2364507288,0.03160721553
3.1,0.23537207,0.02371993697
3.11,0.2340043503,0.01596132557
3.12,0.2323563505,0.008343057376
3.13,0.2304373624,0.0008762840579
3.14,0.2282571589,-0.006428390778
3.15,0.2258259635,-0.01356093353
3.16,0.2231544181,-0.02051190086
3.17,0.22025355,-0.02727245821
3.18,0.2171347385,-0.03383439646
3.19,0.2138096799,-0.04019014681
3.2,0.2102903529,-0.04633279373
3.21,0.2065889825,-0.05225608606
3.22,0.202718004,-0.05795444607
3.23,0.1986900266,-0.06342297676
3.24,0.1945177966,-0.06865746699
3.25,0.1902141606,-0.07365439479
3.26,0.1857920287,-0.07841092867
3.27,0.1812643374,-0.08292492693
3.28,0.1766440137,-0.08719493506
3.29,0.1719439379,-0.0912201812
3.3,0.1671769082,-0.09500056968
3.31,0.1623556053,-0.09853667263
3.32,0.1574925572,-0.1018297198
3.33,0.1526001055,-0.1048815867
3.34,0.1476903716,-0.1076947803
3.35,0.1427752241,-0.1102724242
3.36,0.1378662479,-0.112618241
3.37,0.132974713,-0.1147365333
3.38,0.1281115453,-0.1166321638
3.39,0.1232872989,-0.118310533
3.4,0.1185121284,-0.1197775564
3.41,0.113795764,-0.121039639
3.42,0.1091474873,-0.1221036504
3.43,0.1045761085,-0.1229768966
3.44,0.1000899455,-0.1236670928
3.45,0.09569680433,-0.1241823332
3.46,0.09140396161,-0.1245310615
3.47,0.08721814815,-0.1247220395
3.48,0.08314553482,-0.1247643152
3.49,0.07919171986,-0.1246671908
3.5,0.07536171816,-0.1244401892
3.51,0.07165995233,-0.1240930206
3.52,0.06809024559,-0.1236355491
3.53,0.06465581656,-0.123077758
3.54,0.0613592759,-0.1224297159
3.55,0.05820262487,-0.1217015423
3.56,0.05518725567,-0.1209033734
3.57,0.05231395377,-0.1200453279
3.58,0.04958290199,-0.119137473
3.59,0.04699368648,-0.1181897912
3.6,0.04454530445,-0.1172121467
3.61,0.04223617375,-0.1162142534
3.62,0.04006414417,-0.1152056425
3.63,0.03802651039,-0.1141956317
3.64,0.03612002675,-0.1131932943
3.65,0.03434092342,-0.1122074303
3.66,0.03268492438,-0.1112465374
3.67,0.03114726667,-0.1103187838
3.68,0.02972272127,-0.1094319819
3.69,0.02840561526,-0.1085935634
3.7,0.02718985533,-0.1078105549
3.71,0.02606895251,-0.1070895564
3.72,0.02503604806,-0.1064367196
3.73,0.02408394045,-0.1058577287
3.74,0.02320511335,-0.1053577824
3.75,0.02239176452,-0.1049415774
3.76,0.02163583548,-0.1046132939
3.77,0.02092904202,-0.1043765825
3.78,0.02026290523,-0.1042345524
3.79,0.01962878319,-0.1041897626
3.8,0.01901790301,-0.1042442132
3.81,0.01842139332,-0.1043993399
3.82,0.01783031694,-0.1046560096
3.83,0.01723570375,-0.1050145179
3.84,0.01662858363,-0.1054745886
3.85,0.01600001935,-0.1060353746
3.86,0.01534113929,-0.1066954613
3.87,0.01464317001,-0.1074528711
3.88,0.01389746842,-0.1083050701
3.89,0.01309555355,-0.1092489765
3.9,0.01222913779,-0.1102809706
3.91,0.01129015755,-0.1113969066
3.92,0.01027080318,-0.1125921259
3.93,0.009163548116,-0.1138614727
3.94,0.007961177135,-0.1151993098
3.95,0.006656813679,-0.1165995378
3.96,0.005243946101,-0.1180556139
3.97,0.003716452806,-0.1195605734
3.98,0.002068626202,-0.1211070522
3.99,0.0002951953754,-0.1226873102
4,-0.001608652559,-0.1242932564
4.01,-0.003647252509,-0.1259164752
4.02,-0.005824442907,-0.1275482531
4.03,-0.008143548726,-0.1291796072
4.04,-0.01060736605,-0.1308013138
4.05,-0.01321814827,-0.1324039387
4.06,-0.01597759388,-0.1339778677
4.07,-0.01888683603,-0.1355133372
4.08,-0.02194643373,-0.1370004668
4.09,-0.02515636482,-0.1384292909
4.1,-0.02851602072,-0.1397897914
4.11,-0.03202420294,-0.1410719306
4.12,-0.03567912139,-0.1422656843
4.13,-0.03947839447,-0.1433610743
4.14,-0.04341905098,-0.1443482019
4.15,-0.04749753386,-0.145217281
4.16,-0.0517097056,-0.1459586699
4.17,-0.05605085556,-0.1465629047
4.18,-0.06051570896,-0.1470207303
4.19,-0.0650984376,-0.1473231325
4.2,-0.0697926723,-0.1474613687
4.21,-0.074591517,-0.1474269977
4.22,-0.07948756449,-0.1472119095
4.23,-0.08447291368,-0.1468083537
4.24,-0.08953918846,-0.1462089669
4.25,-0.09467755799,-0.1454067994
4.26,-0.09987875846,-0.1443953407
4.27,-0.1051331162,-0.1431685435
4.28,-0.1104305719,-0.1417208471
4.29,-0.1157607066,-0.1400471987
4.3,-0.1211127681,-0.1381430741
4.31,-0.126475699,-0.1360044962
4.32,-0.1318381656,-0.1336280527
4.33,-0.1371885874,-0.1310109117
4.34,-0.1425151681,-0.1281508361
4.35,-0.1478059269,-0.125046196
4.36,-0.1530487304,-0.1216959799
4.37,-0.1582313251,-0.1180998038
4.38,-0.1633413709,-0.1142579183
4.39,-0.1683664742,-0.1101712151
4.4,-0.1732942221,-0.1058412302
4.41,-0.1781122158,-0.1012701464
4.42,-0.1828081054,-0.09646079355
4.43,-0.1873696232,-0.09141664705
4.44,-0.1917846185,-0.08614182469
4.45,-0.196041091,-0.08064108147
4.46,-0.2001272244,-0.07491980281
4.47,-0.2040314195,-0.06898399591
4.48,-0.2077423273,-0.06284027937
4.49,-0.2112488807,-0.05649587111
4.5,-0.2145403264,-0.04995857463
4.51,-0.2176062556,-0.04323676353
4.52,-0.2204366336,-0.03633936451
4.53,-0.2230218294,-0.02927583876
4.54,-0.2253526436,-0.02205616183
4.55,-0.2274203351,-0.01469080207
4.56,-0.2292166477,-0.007190697636
4.57,-0.2307338338,0.0004327678518
4.58,-0.2319646787,0.008167790883
4.59,-0.232902522,0.01600217488
4.6,-0.2335412786,0.02392335816
4.61,-0.2338754576,0.0319184429
4.62,-0.2339001804,0.03997422514
4.63,-0.233611196,0.04807722571
4.64,-0.2330048963,0.05621372184
4.65,-0.2320783283,0.06436977969
4.66,-0.2308292056,0.07253128735
4.67,-0.2292559176,0.0806839885
4.68,-0.2273575372,0.0888135165
4.69,-0.2251338266,0.09690542884
4.7,-0.2225852416,0.1049452419
4.71,-0.2197129338,0.1129184657
4.72,-0.2165187508,0.1208106393
4.73,-0.2130052356,0.1286073654
4.74,-0.2091756227,0.1362943454
4.75,-0.2050338336,0.1438574141
4.76,-0.20058447,0.1512825741
4.77,-0.1958328055,0.1585560299
4.78,-0.1907847753,0.1656642214
4.79,-0.1854469641,0.1725938569
4.8,-0.1798265927,0.1793319455
4.81,-0.173931503,0.1858658287
4.82,-0.1677701406,0.1921832111
4.83,-0.1613515367,0.1982721906
4.84,-0.1546852886,0.2041212868
4.85,-0.1477815374,0.2097194693
4.86,-0.1406509461,0.2150561842
4.87,-0.1333046752,0.2201213798
4.88,-0.1257543573,0.2249055306
4.89,-0.1180120704,0.2293996602
4.9,-0.1100903107,0.2335953633
4.91,-0.1020019633,0.2374848249
4.92,-0.09376027278,0.2410608398
4.93,-0.08537881265,0.2443168289
4.94,-0.07687145369,0.2472468551
4.95,-0.06825233195,0.2498456368
4.96,-0.05953581588,0.2521085599
4.97,-0.05073647301,0.2540316886
4.98,-0.04186903608,0.2556117741
4.99,-0.03294836889,0.2568462611
5,-0.02398943179,0.2577332934
5.01,-0.01500724698,0.2582717172
5.02,-0.006016863759,0.2584610828
5.03,0.002966676268,0.2583016444
5.04,0.0119283739,0.2577943585
5.05,0.02085330687,0.2569408797
5.06,0.0297266641,0.2557435559
5.07,0.03853377961,0.2542054206
5.08,0.04726016596,0.2523301845
5.09,0.05589154723,0.250122225
5.1,0.06441389126,0.2475865734
5.11,0.07281344127,0.2447289019
5.12,0.08107674671,0.2415555078
5.13,0.08919069318,0.2380732964
5.14,0.09714253147,0.2342897634
5.15,0.1049199055,0.2302129741
5.16,0.1125108793,0.2258515431
5.17,0.1199039626,0.2212146113
5.18,0.1270881357,0.2163118222
5.19,0.1340528722,0.2111532973
5.2,0.1407881616,0.2057496099
5.21,0.1472845289,0.2001117577
5.22,0.1535330547,0.1942511355
5.23,0.1595253918,0.1881795056
5.24,0.1652537821,0.1819089685
5.25,0.1707110704,0.1754519324
5.26,0.1758907176,0.1688210819
5.27,0.180786812,0.1620293466
5.28,0.1853940787,0.1550898691
5.29,0.1897078876,0.1480159721
5.3,0.1937242598,0.1408211261
5.31,0.1974398717,0.1335189159
5.32,0.2008520583,0.1261230083
5.33,0.2039588139,0.1186471181
5.34,0.2067587919,0.1111049755
5.35,0.2092513021,0.1035102934
5.36,0.2114363072,0.09587673422
5.37,0.213314417,0.08821787794
5.38,0.2148868808,0.08054719004
5.39,0.2161555791,0.07287799011
5.4,0.2171230129,0.06522342097
5.41,0.2177922914,0.05759641848
5.42,0.2181671192,0.0500096821
5.43,0.2182517805,0.04247564624
5.44,0.2180511234,0.03500645248
5.45,0.2175705417,0.02761392282
5.46,0.2168159561,0.02030953387
5.47,0.2157937938,0.01310439219
5.48,0.214510967,0.006009210753
5.49,0.2129748502,-0.0009657133771
5.5,0.2111932566,-0.007810520072
5.51,0.2091744133,-0.01451580589
5.52,0.2069269359,-0.02107264242
5.53,0.2044598019,-0.02747259327
5.54,0.2017823235,-0.03370772956
5.55,0.1989041197,-0.03977064393
5.56,0.1958350879,-0.04565446309
5.57,0.1925853749,-0.05135285878
5.58,0.189165347,-0.05686005716
5.59,0.1855855609,-0.06217084667
5.6,0.1818567329,-0.06728058426
5.61,0.177989709,-0.07218519999
5.62,0.1739954344,-0.07688120013
5.63,0.1698849231,-0.08136566851
5.64,0.1656692274,-0.08563626637
5.65,0.161359408,-0.0896912306
5.66,0.1569665037,-0.09352937037
5.67,0.1525015019,-0.09715006222
5.68,0.1479753094,-0.1005532436
5.69,0.1433987233,-0.1037394049
5.7,0.1387824033,-0.1067095801
5.71,0.1341368437,-0.1094653358
5.72,0.1294723463,-0.1120087587
5.73,0.124798995,-0.1143424424
5.74,0.1201266299,-0.1164694721
5.75,0.115464823,-0.1183934083
5.76,0.1108228552,-0.1201182695
5.77,0.1062096936,-0.1216485136
5.78,0.1016339703,-0.1229890177
5.79,0.09710396243,-0.1241450581
5.8,0.09262757311,-0.1251222878
5.81,0.08821231395,-0.1259267143
5.82,0.08386528857,-0.126564676
5.83,0.07959317765,-0.1270428176
5.84,0.07540222525,-0.1273680659
5.85,0.07129822655,-0.1275476033
5.86,0.06728651707,-0.1275888424
5.87,0.06337196326,-0.1274993991
5.88,0.05955895464,-0.1272870657
5.89,0.05585139735,-0.1269597836
5.9,0.05225270928,-0.1265256161
5.91,0.04876581666,-0.1259927201
5.92,0.04539315213,-0.1253693192
5.93,0.04213665438,-0.1246636756
5.94,0.03899776927,-0.1238840625
5.95,0.03597745239,-0.1230387371
5.96,0.03307617314,-0.1221359128
5.97,0.03029392029,-0.1211837331
5.98,0.02763020889,-0.1201902451
5.99,0.02508408868,-0.119163373
6,0.02265415377,-0.1181108937
