"Freq [GHz]","re(S(Tx_p1,Tx_p1)) []","im(S(Tx_p1,Tx_p1)) []"
1,0.071685346,-0.2346031736
1.01,0.06529370165,-0.2325857555
1.02,0.05903938931,-0.230405661
1.03,0.05293034084,-0.2280674147
1.04,0.04697422528,-0.225576184
1.05,0.04117840893,-0.2229377511
1.06,0.03554991751,-0.2201584827
1.07,0.03009540047,-0.2172452986
1.08,0.02482109757,-0.2142056389
1.09,0.0197328076,-0.2110474298
1.1,0.01483585943,-0.2077790489
1.11,0.01013508535,-0.2044092883
1.12,0.005634796734,-0.2009473179
1.13,0.001338762087,-0.1974026474
1.14,-0.002749812546,-0.1937850873
1.15,-0.006628300767,-0.1901047098
1.16,-0.01029467059,-0.1863718087
1.17,-0.01374749679,-0.1825968592
1.18,-0.01698597084,-0.1787904775
1.19,-0.02000990838,-0.1749633797
1.2,-0.02281975431,-0.1711263412
1.21,-0.02541658549,-0.1672901562
1.22,-0.02780211099,-0.1634655966
1.23,-0.02997867002,-0.1596633724
1.24,-0.03194922755,-0.1558940913
1.25,-0.03371736756,-0.1521682197
1.26,-0.0352872841,-0.1484960442
1.27,-0.0366637701,-0.1448876331
1.28,-0.03785220402,-0.1413528002
1.29,-0.03885853442,-0.137901068
1.3,-0.03968926243,-0.1345416334
1.31,-0.04035142235,-0.1312833333
1.32,-0.04085256025,-0.1281346125
1.33,-0.04120071078,-0.1251034927
1.34,-0.04140437227,-0.1221975424
1.35,-0.04147248016,-0.1194238493
1.36,-0.04141437882,-0.1167889935
1.37,-0.04123979201,-0.114299023
1.38,-0.04095879186,-0.1119594308
1.39,-0.04058176669,-0.1097751336
1.4,-0.04011938758,-0.107750453
1.41,-0.03958257399,-0.1058890978
1.42,-0.03898245838,-0.1041941496
1.43,-0.03833035003,-0.1026680489
1.44,-0.03763769814,-0.101312585
1.45,-0.03691605442,-0.1001288863
1.46,-0.03617703511,-0.09911741441
1.47,-0.03543228278,-0.09827795918
1.48,-0.03469342776,-0.09760963668
1.49,-0.03397204965,-0.09711088907
1.5,-0.03327963869,-0.09677948674
1.51,-0.03262755741,-0.09661253269
1.52,-0.03202700248,-0.09660646899
1.53,-0.03148896693,-0.09675708557
1.54,-0.03102420298,-0.09705953096
1.55,-0.03064318537,-0.09750832529
1.56,-0.03035607554,-0.09809737528
1.57,-0.03017268661,-0.09881999128
1.58,-0.03010244933,-0.09966890622
1.59,-0.03015437915,-0.1006362966
1.6,-0.03033704438,-0.1017138052
1.61,-0.03065853576,-0.1028925656
1.62,-0.03112643727,-0.1041632285
1.63,-0.03174779851,-0.1055159897
1.64,-0.03252910857,-0.1069406193
1.65,-0.03347627162,-0.1084264926
1.66,-0.03459458413,-0.1099626226
1.67,-0.03588871394,-0.1115376935
1.68,-0.03736268119,-0.1131400949
1.69,-0.03901984114,-0.1147579584
1.7,-0.04086286902,-0.1163791935
1.71,-0.04289374683,-0.1179915257
1.72,-0.04511375235,-0.1195825345
1.73,-0.04752345011,-0.1211396925
1.74,-0.05012268461,-0.1226504046
1.75,-0.05291057566,-0.1241020481
1.76,-0.05588551597,-0.1254820126
1.77,-0.05904517085,-0.1267777399
1.78,-0.06238648022,-0.127976765
1.79,-0.06590566276,-0.1290667553
1.8,-0.06959822227,-0.1300355514
1.81,-0.07345895625,-0.130871206
1.82,-0.07748196663,-0.1315620232
1.83,-0.08166067263,-0.1320965973
1.84,-0.08598782571,-0.1324638503
1.85,-0.09045552668,-0.132653069
1.86,-0.09505524469,-0.1326539414
1.87,-0.09977783832,-0.1324565913
1.88,-0.1046135785,-0.1320516128
1.89,-0.1095521733,-0.1314301024
1.9,-0.1145827947,-0.1305836908
1.91,-0.1196941064,-0.1295045727
1.92,-0.1248742943,-0.1281855352
1.93,-0.1301110975,-0.1266199847
1.94,-0.1353918418,-0.1248019716
1.95,-0.1407034732,-0.1227262141
1.96,-0.146032594,-0.1203881195
1.97,-0.1513654993,-0.1177838035
1.98,-0.1566882149,-0.1149101081
1.99,-0.161986536,-0.1117646171
2,-0.1672460665,-0.1083456693
2.01,-0.1724522596,-0.1046523701
2.02,-0.1775904585,-0.1006846006
2.03,-0.1826459381,-0.09644302469
2.04,-0.1876039464,-0.09192909338
2.05,-0.1924497468,-0.08714504781
2.06,-0.19716866,-0.08209391924
2.07,-0.2017461065,-0.07677952712
2.08,-0.2061676485,-0.07120647485
2.09,-0.2104190319,-0.06538014324
2.1,-0.2144862276,-0.05930668179
2.11,-0.2183554726,-0.05299299778
2.12,-0.2220133106,-0.04644674303
2.13,-0.2254466317,-0.03967629872
2.14,-0.2286427112,-0.03269075789
2.15,-0.2315892475,-0.025499906
2.16,-0.2342743997,-0.01811419942
2.17,-0.2366868227,-0.01054474198
2.18,-0.2388157019,-0.002803259601
2.19,-0.2406507869,0.005097926882
2.2,-0.2421824227,0.01314593068
2.21,-0.2434015802,0.02132732965
2.22,-0.2442998847,0.02962819854
2.23,-0.2448696429,0.03803414264
2.24,-0.2451038681,0.046530333
2.25,-0.2449963029,0.0551015428
2.26,-0.2445414412,0.06373218505
2.27,-0.243734547,0.07240635135
2.28,-0.242571672,0.08110785165
2.29,-0.2410496703,0.08982025494
2.3,-0.239166212,0.09852693066
2.31,-0.2369197936,0.1072110909
2.32,-0.2343097466,0.1158558328
2.33,-0.2313362442,0.1244441821
2.34,-0.228000305,0.1329591362
2.35,-0.2243037948,0.1413837076
2.36,-0.2202494266,0.149700968
2.37,-0.2158407571,0.1578940917
2.38,-0.2110821824,0.1659463989
2.39,-0.2059789301,0.1738413991
2.4,-0.2005370498,0.1815628334
2.41,-0.1947634017,0.1890947172
2.42,-0.1886656419,0.1964213814
2.43,-0.1822522069,0.2035275133
2.44,-0.175532295,0.2103981965
2.45,-0.1685158458,0.2170189496
2.46,-0.1612135181,0.2233757643
2.47,-0.1536366656,0.2294551417
2.48,-0.1457973104,0.2352441279
2.49,-0.1377081151,0.2407303476
2.5,-0.1293823533,0.2459020366
2.51,-0.1208338778,0.2507480728
2.52,-0.1120770879,0.2552580051
2.53,-0.1031268948,0.2594220808
2.54,-0.09399868589,0.2632312712
2.55,-0.08470828732,0.2666772954
2.56,-0.07527192601,0.2697526418
2.57,-0.06570619008,0.2724505877
2.58,-0.05602798854,0.2747652175
2.59,-0.04625451002,0.2766914373
2.6,-0.03640318084,0.2782249889
2.61,-0.02649162237,0.2793624607
2.62,-0.01653760792,0.2801012965
2.63,-0.00655901921,0.2804398023
2.64,0.003426197406,0.2803771505
2.65,0.01340007491,0.2799133822
2.66,0.02334466961,0.2790494066
2.67,0.03324210505,0.2777869992
2.68,0.04307461568,0.2761287963
2.69,0.05282459032,0.2740782886
2.7,0.06247461502,0.2716398113
2.71,0.07200751547,0.2688185334
2.72,0.08140639875,0.2656204434
2.73,0.09065469421,0.262052334
2.74,0.09973619352,0.2581217837
2.75,0.1086350897,0.2538371374
2.76,0.117336015,0.2492074843
2.77,0.1258240776,0.244242634
2.78,0.1340848971,0.2389530908
2.79,0.1421046385,0.2333500265
2.8,0.1498700444,0.227445251
2.81,0.1573684663,0.2212511814
2.82,0.1645878935,0.21478081
2.83,0.171516981,0.2080476703
2.84,0.1781450746,0.201065802
2.85,0.1844622352,0.1938497146
2.86,0.1904592606,0.1864143496
2.87,0.1961277049,0.1787750424
2.88,0.2014598969,0.1709474826
2.89,0.2064489555,0.1629476734
2.9,0.2110888029,0.1547918908
2.91,0.215374177,0.1464966422
2.92,0.2193006394,0.1380786236
2.93,0.2228645833,0.1295546776
2.94,0.2260632378,0.1209417505
2.95,0.2288946706,0.1122568494
2.96,0.2313577882,0.1035169991
2.97,0.2334523338,0.09473919948
2.98,0.2351788834,0.08594038304
2.99,0.2365388393,0.07713737226
3,0.2375344212,0.06834683806
3.01,0.2381686561,0.05958525843
3.02,0.2384453647,0.05086887794
3.03,0.2383691471,0.04221366791
3.04,0.2379453653,0.03363528752
3.05,0.2371801247,0.02514904598
3.06,0.2360802528,0.01676986568
3.07,0.2346532766,0.008512246652
3.08,0.2329073981,0.000390232299
3.09,0.2308514682,-0.007582623524
3.1,0.2284949582,-0.0153932879
3.11,0.2258479311,-0.02302927873
3.12,0.2229210099,-0.03047869291
3.13,0.2197253457,-0.03773023286
3.14,0.2162725843,-0.04477323123
3.15,0.2125748306,-0.05159767379
3.16,0.2086446134,-0.05819422038
3.17,0.2044948481,-0.06455422393
3.18,0.2001387993,-0.07066974747
3.19,0.1955900416,-0.07653357907
3.2,0.190862421,-0.08213924476
3.21,0.1859700147,-0.08748101926
3.22,0.1809270913,-0.09255393462
3.23,0.1757480697,-0.09735378667
3.24,0.1704474788,-0.1018771394
3.25,0.1650399165,-0.106121327
3.26,0.1595400086,-0.1100844539
3.27,0.1539623688,-0.1137653926
3.28,0.1483215574,-0.1171637791
3.29,0.1426320419,-0.1202800068
3.3,0.1369081569,-0.1231152176
3.31,0.1311640657,-0.1256712912
3.32,0.1254137212,-0.1279508327
3.33,0.1196708292,-0.1299571576
3.34,0.1139488111,-0.1316942753
3.35,0.1082607687,-0.1331668706
3.36,0.1026194497,-0.134380283
3.37,0.09703721439,-0.1353404848
3.38,0.09152600353,-0.1360540572
3.39,0.0860973079,-0.1365281649
3.4,0.08076213917,-0.1367705286
3.41,0.07553100221,-0.1367893971
3.42,0.07041386926,-0.1365935168
3.43,0.06542015554,-0.1361921009
3.44,0.06055869682,-0.1355947968
3.45,0.05583772867,-0.1348116526
3.46,0.05126486765,-0.1338530826
3.47,0.0468470944,-0.1327298319
3.48,0.04259073871,-0.13145294
3.49,0.03850146655,-0.1300337043
3.5,0.03458426917,-0.1284836421
3.51,0.03084345427,-0.126814453
3.52,0.02728263918,-0.1250379803
3.53,0.02390474625,-0.1231661729
3.54,0.02071200024,-0.121211046
3.55,0.01770592783,-0.1191846426
3.56,0.01488735932,-0.1170989953
3.57,0.01225643227,-0.1149660871
3.58,0.009812597386,-0.1127978139
3.59,0.007554626289,-0.1106059465
3.6,0.005480621448,-0.1084020938
3.61,0.003588028031,-0.1061976658
3.62,0.001873647721,-0.1040038382
3.63,0.0003336544564,-0.1018315176
3.64,-0.001036387993,-0.09969130726
3.65,-0.002241506632,-0.09759347432
3.66,-0.003287298112,-0.0955479182
3.67,-0.004179905926,-0.09356413999
3.68,-0.004925996002,-0.09165121331
3.69,-0.005532730757,-0.08981775653
3.7,-0.006007741718,-0.08807190655
3.71,-0.006359100752,-0.08642129405
3.72,-0.006595290042,-0.08487302046
3.73,-0.006725170852,-0.08343363659
3.74,-0.006757951213,-0.08210912301
3.75,-0.006703152604,-0.08090487231
3.76,-0.006570575741,-0.07982567314
3.77,-0.006370265564,-0.07887569623
3.78,-0.006112475547,-0.07805848235
3.79,-0.005807631415,-0.07737693224
3.8,-0.00546629439,-0.07683329854
3.81,-0.005099124079,-0.0764291798
3.82,-0.004716841097,-0.07616551653
3.83,-0.00433018956,-0.07604258923
3.84,-0.00394989954,-0.07606001864
3.85,-0.003586649601,-0.07621676789
3.86,-0.003251029536,-0.07651114683
3.87,-0.002953503397,-0.07694081831
3.88,-0.002704372946,-0.07750280657
3.89,-0.002513741626,-0.07819350752
3.9,-0.002391479157,-0.07900870106
3.91,-0.002347186878,-0.07994356533
3.92,-0.002390163911,-0.08099269276
3.93,-0.002529374273,-0.08215010808
3.94,-0.002773415024,-0.08340928798
3.95,-0.003130485538,-0.0847631826
3.96,-0.003608358003,-0.08620423861
3.97,-0.004214349229,-0.0877244239
3.98,-0.004955293845,-0.08931525381
3.99,-0.005837518977,-0.09096781875
4,-0.006866820468,-0.09267281323
4.01,-0.008048440726,-0.09442056611
4.02,-0.009387048253,-0.09620107209
4.03,-0.01088671892,-0.09800402421
4.04,-0.01255091907,-0.09981884745
4.05,-0.01438249042,-0.1016347331
4.06,-0.01638363694,-0.103440674
4.07,-0.01855591364,-0.1052255005
4.08,-0.0209002173,-0.106977917
4.09,-0.02341677925,-0.1086865386
4.1,-0.02610516018,-0.1103399289
4.11,-0.02896424697,-0.1119266373
4.12,-0.0319922516,-0.1134352369
4.13,-0.0351867121,-0.1148543621
4.14,-0.0385444956,-0.1161727463
4.15,-0.04206180337,-0.1173792596
4.16,-0.04573417799,-0.1184629459
4.17,-0.04955651247,-0.1194130596
4.18,-0.05352306141,-0.1202191021
4.19,-0.05762745414,-0.1208708573
4.2,-0.06186270973,-0.1213584265
4.21,-0.06622125398,-0.1216722625
4.22,-0.07069493819,-0.1218032029
4.23,-0.07527505977,-0.121742502
4.24,-0.07995238452,-0.1214818621
4.25,-0.08471717069,-0.121013463
4.26,-0.08955919454,-0.1203299904
4.27,-0.0944677775,-0.1194246633
4.28,-0.09943181475,-0.1182912594
4.29,-0.1044398052,-0.1169241389
4.3,-0.1094798828,-0.1153182675
4.31,-0.1145398489,-0.1134692366
4.32,-0.1196072059,-0.1113732823
4.33,-0.1246691919,-0.1090273028
4.34,-0.1297128162,-0.1064288736
4.35,-0.1347248955,-0.1035762608
4.36,-0.1396920912,-0.1004684325
4.37,-0.1446009466,-0.0971050681
4.38,-0.1494379257,-0.09348656609
4.39,-0.1541894512,-0.08961404895
4.4,-0.1588419435,-0.08548936666
4.41,-0.16338186,-0.08111509783
4.42,-0.1677957336,-0.0764945488
4.43,-0.1720702122,-0.07163175066
4.44,-0.1761920972,-0.06653145417
4.45,-0.1801483823,-0.06119912263
4.46,-0.1839262917,-0.05564092265
4.47,-0.1875133175,-0.04986371292
4.48,-0.1908972572,-0.04387503097
4.49,-0.1940662496,-0.03768307792
4.5,-0.197008811,-0.03129670136
4.51,-0.199713869,-0.02472537626
4.52,-0.2021707969,-0.01797918411
4.53,-0.2043694459,-0.01106879027
4.54,-0.2063001764,-0.004005419542
4.55,-0.207953888,0.003199169862
4.56,-0.2093220482,0.01053271394
4.57,-0.2103967194,0.01798247204
4.58,-0.2111705848,0.02553525745
4.59,-0.2116369722,0.03317746932
4.6,-0.2117898762,0.0408951258
4.61,-0.211623979,0.04867389846
4.62,-0.2111346689,0.05649914764
4.63,-0.2103180574,0.06435595891
4.64,-0.2091709937,0.07222918032
4.65,-0.2076910784,0.08010346045
4.66,-0.2058766734,0.08796328716
4.67,-0.2037269121,0.09579302685
4.68,-0.201241705,0.1035769642
4.69,-0.1984217454,0.1112993423
4.7,-0.1952685115,0.1189444029
4.71,-0.1917842674,0.126496427
4.72,-0.187972061,0.1339397749
4.73,-0.1838357208,0.1412589271
4.74,-0.1793798497,0.148438524
4.75,-0.1746098174,0.1554634061
4.76,-0.1695317503,0.162318653
4.77,-0.1641525195,0.1689896222
4.78,-0.1584797267,0.1754619879
4.79,-0.1525216881,0.1817217775
4.8,-0.1462874167,0.1877554089
4.81,-0.1397866022,0.1935497258
4.82,-0.1330295893,0.1990920322
4.83,-0.1260273543,0.204370126
4.84,-0.11879148,0.2093723307
4.85,-0.1113341285,0.2140875267
4.86,-0.1036680131,0.2185051802
4.87,-0.09580636812,0.2226153715
4.88,-0.08776291771,0.2264088208
4.89,-0.07955184307,0.2298769132
4.9,-0.07118774853,0.2330117215
4.91,-0.06268562645,0.2358060272
4.92,-0.05406082107,0.23825334
4.93,-0.04532899137,0.2403479148
4.94,-0.03650607312,0.2420847674
4.95,-0.02760824016,0.2434596881
4.96,-0.01865186498,0.2444692525
4.97,-0.009653478839,0.2451108315
4.98,-0.0006297313765,0.2453825983
4.99,0.008402650053,0.2452835337
5,0.01742690128,0.2448134288
5.01,0.02642626232,0.2439728863
5.02,0.03538401835,0.2427633194
5.03,0.0442835406,0.2411869481
5.04,0.05310832694,0.239246794
5.05,0.06184204223,0.2369466729
5.06,0.07046855812,0.234291185
5.07,0.07897199234,0.2312857034
5.08,0.08733674732,0.2279363603
5.09,0.09554754803,0.2242500318
5.1,0.1035894789,0.2202343197
5.11,0.11144802,0.2158975327
5.12,0.1191090817,0.2112486646
5.13,0.1265590385,0.2062973717
5.14,0.1337847619,0.2010539478
5.15,0.1407736509,0.195529298
5.16,0.1475136624,0.1897349106
5.17,0.153993339,0.1836828279
5.18,0.1602018358,0.1773856151
5.19,0.1661289456,0.1708563286
5.2,0.1717651218,0.1641084821
5.21,0.1771015002,0.1571560126
5.22,0.1821299187,0.1500132444
5.23,0.186842935,0.1426948531
5.24,0.1912338423,0.135215828
5.25,0.1952966838,0.1275914341
5.26,0.1990262638,0.1198371733
5.27,0.2024181582,0.1119687456
5.28,0.205468722,0.1040020088
5.29,0.2081750952,0.09595293929
5.3,0.2105352063,0.08783759135
5.31,0.2125477741,0.07967205718
5.32,0.2142123068,0.07147242665
5.33,0.2155290997,0.06325474722
5.34,0.2164992305,0.05503498405
5.35,0.2171245523,0.04682898059
5.36,0.2174076852,0.03865241945
5.37,0.2173520052,0.03052078401
5.38,0.2169616314,0.02244932052
5.39,0.2162414117,0.01445300115
5.4,0.2151969059,0.006546487718
5.41,0.2138343673,-0.001255903466
5.42,0.2121607227,-0.00894023577
5.43,0.2101835503,-0.01649298525
5.44,0.2079110561,-0.02390107243
5.45,0.205352049,-0.03115189271
5.46,0.2025159138,-0.03823334545
5.47,0.1994125834,-0.04513386152
5.48,0.1960525089,-0.0518424293
5.49,0.1924466294,-0.05834861908
5.5,0.1886063396,-0.06464260579
5.51,0.184543457,-0.07071518997
5.52,0.1802701881,-0.07655781691
5.53,0.1757990931,-0.08216259404
5.54,0.1711430502,-0.08752230634
5.55,0.1663152197,-0.09263042991
5.56,0.1613290065,-0.09748114353
5.57,0.1561980227,-0.1020693382
5.58,0.1509360499,-0.106390625
5.59,0.1455570011,-0.1104413402
5.6,0.1400748819,-0.1142185493
5.61,0.1345037527,-0.1177200482
5.62,0.1288576901,-0.1209443629
5.63,0.1231507487,-0.123890747
5.64,0.1173969234,-0.1265591771
5.65,0.1116101114,-0.1289503462
5.66,0.1058040755,-0.1310656555
5.67,0.09999240761,-0.1329072035
5.68,0.09418849261,-0.1344777745
5.69,0.08840547353,-0.1357808236
5.7,0.08265621723,-0.1368204612
5.71,0.07695328125,-0.1376014352
5.72,0.07130888156,-0.1381291116
5.73,0.06573486154,-0.1384094533
5.74,0.06024266219,-0.1384489975
5.75,0.05484329358,-0.1382548318
5.76,0.04954730775,-0.1378345681
5.77,0.04436477305,-0.1371963161
5.78,0.03930524996,-0.1363486549
5.79,0.03437776856,-0.1353006036
5.8,0.02959080762,-0.1340615908
5.81,0.02495227537,-0.132641423
5.82,0.02046949207,-0.1310502523
5.83,0.01614917431,-0.1292985429
5.84,0.01199742123,-0.1273970374
5.85,0.008019702522,-0.125356722
5.86,0.004220848404,-0.1231887912
5.87,0.0006050414442,-0.1209046125
5.88,-0.00282418962,-0.1185156906
5.89,-0.006063974145,-0.1160336308
5.9,-0.009112101876,-0.1134701034
5.91,-0.01196702329,-0.1108368071
5.92,-0.014627848,-0.1081454329
5.93,-0.01709434117,-0.1054076285
5.94,-0.01936691808,-0.1026349625
5.95,-0.02144663673,-0.09983888905
5.96,-0.0233351886,-0.09703071357
5.97,-0.02503488753,-0.09422155843
5.98,-0.02654865682,-0.09142232972
5.99,-0.02788001459,-0.08864368465
6,-0.02903305739,-0.08589599994
