"Freq [GHz]","re(S(Tx_p1,Tx_p1)) []","im(S(Tx_p1,Tx_p1)) []"
1,-0.02124022299,-0.01789112085
1.01,-0.02189688205,-0.01660761533
1.02,-0.02248646718,-0.01529559086
1.03,-0.02300732831,-0.01395852614
1.04,-0.02345801282,-0.01260000569
1.05,-0.02383727151,-0.01122370781
1.06,-0.02414406385,-0.009833392137
1.07,-0.02437756255,-0.008432887058
1.08,-0.02453715729,-0.007026076888
1.09,-0.02462245785,-0.005616888904
1.1,-0.0246332963,-0.004209280263
1.11,-0.02456972861,-0.00280722484
1.12,-0.02443203538,-0.001414700047
1.13,-0.02422072187,-3.567364697E-05
1.14,-0.02393651722,0.001325909375
1.15,-0.023580373,0.002666139852
1.16,-0.02315346097,0.003981157348
1.17,-0.02265717008,0.005267162891
1.18,-0.02209310281,0.006520431503
1.19,-0.02146307076,0.007737324481
1.2,-0.02076908959,0.008914301381
1.21,-0.02001337323,0.01004793169
1.22,-0.01919832752,0.01113490612
1.23,-0.01832654314,0.01217204753
1.24,-0.01740078797,0.01315632139
1.25,-0.01642399889,0.01408484583
1.26,-0.01539927302,0.01495490112
1.27,-0.01432985839,0.01576393869
1.28,-0.01321914419,0.01650958964
1.29,-0.01207065053,0.01718967252
1.3,-0.01088801776,0.0178022007
1.31,-0.009674995404,0.01834538899
1.32,-0.008435430777,0.01881765968
1.33,-0.00717325723,0.01921764789
1.34,-0.005892482152,0.01954420628
1.35,-0.004597174711,0.01979640904
1.36,-0.003291453403,0.01997355519
1.37,-0.001979473432,0.0200751712
1.38,-0.0006654139686,0.02010101285
1.39,0.0006465346715,0.02005106639
1.4,0.001952183895,0.01992554899
1.41,0.003247359699,0.01972490844
1.42,0.004527915496,0.01944982217
1.43,0.005789744869,0.01910119549
1.44,0.007028794198,0.01868015916
1.45,0.008241075132,0.0181880663
1.46,0.009422676868,0.01762648849
1.47,0.01056977819,0.01699721131
1.48,0.01167865923,0.01630222914
1.49,0.01274571294,0.01554373938
1.5,0.01376745621,0.01472413592
1.51,0.01474054057,0.0138460022
1.52,0.01566176257,0.01291210344
1.53,0.01652807362,0.01192537856
1.54,0.01733658943,0.01088893135
1.55,0.01808459889,0.009806021253
1.56,0.01876957249,0.00868005368
1.57,0.01938917012,0.007514569786
1.58,0.01994124833,0.006313235913
1.59,0.02042386701,0.005079832612
1.6,0.02083529536,0.003818243329
1.61,0.02117401737,0.002532442768
1.62,0.02143873651,0.001226484987
1.63,0.02162837984,-9.5508758E-05
1.64,0.02174210141,-0.001429362363
1.65,0.02177928495,-0.0027708574
1.66,0.02173954597,-0.00411574576
1.67,0.02162273298,-0.005459762394
1.68,0.02142892821,-0.006798638097
1.69,0.02115844744,-0.008128112305
1.7,0.0208118393,-0.009443945863
1.71,0.0203898837,-0.01074193373
1.72,0.01989358972,-0.01201791759
1.73,0.01932419268,-0.01326779827
1.74,0.01868315067,-0.01448754806
1.75,0.01797214026,-0.01567322276
1.76,0.01719305168,-0.01682097344
1.77,0.01634798333,-0.01792705804
1.78,0.01543923563,-0.01898785248
1.79,0.01446930432,-0.01999986157
1.8,0.01344087315,-0.02095972942
1.81,0.01235680601,-0.02186424946
1.82,0.01122013858,-0.02271037408
1.83,0.0100340694,-0.02349522369
1.84,0.008801950503,-0.02421609533
1.85,0.007527277594,-0.02487047078
1.86,0.006213679793,-0.02545602406
1.87,0.004864909001,-0.02597062838
1.88,0.003484828908,-0.02641236252
1.89,0.002077403668,-0.02677951658
1.9,0.0006466862939,-0.02707059707
1.91,-0.0008031932138,-0.02728433145
1.92,-0.002268039948,-0.02741967193
1.93,-0.003743606367,-0.0274757986
1.94,-0.00522560471,-0.02745212198
1.95,-0.006709719523,-0.02734828483
1.96,-0.008191620261,-0.02716416323
1.97,-0.009666973923,-0.02689986708
1.98,-0.01113145768,-0.02655573982
1.99,-0.01258077149,-0.02613235756
2,-0.01401065059,-0.0256305274
2.01,-0.01541687792,-0.02505128524
2.02,-0.01679529638,-0.02439589276
2.03,-0.0181418209,-0.02366583387
2.04,-0.01945245029,-0.02286281043
2.05,-0.02072327886,-0.0219887374
2.06,-0.0219505077,-0.02104573734
2.07,-0.02313045569,-0.02003613431
2.08,-0.02425957016,-0.01896244718
2.09,-0.0253344371,-0.01782738246
2.1,-0.02635179105,-0.01663382644
2.11,-0.02730852448,-0.01538483699
2.12,-0.02820169673,-0.01408363474
2.13,-0.02902854249,-0.01273359384
2.14,-0.02978647969,-0.01133823232
2.15,-0.0304731169,-0.009901202
2.16,-0.03108626022,-0.008426278011
2.17,-0.03162391946,-0.006917348034
2.18,-0.03208431386,-0.00537840117
2.19,-0.03246587714,-0.003813516552
2.2,-0.0327672619,-0.002226851708
2.21,-0.03298734348,-0.0006226307078
2.22,-0.03312522304,0.0009948678614
2.23,-0.03318023012,0.00262132307
2.24,-0.03315192445,0.004252383921
2.25,-0.03304009714,0.005883681701
2.26,-0.03284477121,0.007510842368
2.27,-0.03256620141,0.00912949893
2.28,-0.03220487342,0.0107353038
2.29,-0.03176150241,0.01232394108
2.3,-0.03123703085,0.01389113872
2.31,-0.03063262579,0.01543268054
2.32,-0.02994967541,0.01694441812
2.33,-0.02918978503,0.01842228242
2.34,-0.02835477241,0.01986229516
2.35,-0.02744666252,0.02126058001
2.36,-0.02646768171,0.02261337334
2.37,-0.02542025132,0.02391703475
2.38,-0.02430698071,0.02516805718
2.39,-0.02313065981,0.02636307663
2.4,-0.02189425115,0.02749888144
2.41,-0.02060088142,0.02857242121
2.42,-0.01925383256,0.02958081509
2.43,-0.01785653241,0.03052135976
2.44,-0.01641254503,0.03139153674
2.45,-0.01492556057,0.03218901926
2.46,-0.01339938484,0.03291167852
2.47,-0.01183792859,0.03355758941
2.48,-0.01024519644,0.03412503565
2.49,-0.008625275613,0.03461251429
2.5,-0.006982324498,0.03501873962
2.51,-0.005320560925,0.03534264648
2.52,-0.003644250378,0.03558339291
2.53,-0.001957694061,0.03574036219
2.54,-0.0002652168921,0.03581316419
2.55,0.001428844549,0.03580163617
2.56,0.003120154083,0.03570584281
2.57,0.004804387965,0.03552607574
2.58,0.006477246871,0.03526285229
2.59,0.008134467776,0.03491691372
2.6,0.009771835721,0.03448922277
2.61,0.01138519541,0.03398096057
2.62,0.01297046263,0.03339352299
2.63,0.01452363543,0.03272851637
2.64,0.01604080503,0.03198775263
2.65,0.01751816652,0.0311732439
2.66,0.01895202914,0.03028719649
2.67,0.02033882629,0.02933200442
2.68,0.02167512514,0.02831024237
2.69,0.02295763587,0.02722465816
2.7,0.0241832204,0.02607816476
2.71,0.02534890081,0.02487383187
2.72,0.0264518672,0.02361487704
2.73,0.02748948503,0.02230465642
2.74,0.02845930206,0.02094665514
2.75,0.02935905466,0.01954447732
2.76,0.0301866736,0.01810183585
2.77,0.03094028933,0.01662254174
2.78,0.03161823661,0.01511049341
2.79,0.03221905861,0.01356966558
2.8,0.03274151036,0.01200409808
2.81,0.03318456166,0.0104178845
2.82,0.03354739934,0.008815160652
2.83,0.03382942887,0.00720009299
2.84,0.03403027544,0.005576866986
2.85,0.03414978431,0.003949675441
2.86,0.03418802065,0.002322706833
2.87,0.03414526864,0.0007001336923
2.88,0.03402203007,-0.000913898935
2.89,0.03381902227,-0.002515284927
2.9,0.03353717541,-0.00409996838
2.91,0.03317762929,-0.005663954731
2.92,0.03274172946,-0.007203321682
2.93,0.03223102282,-0.008714229886
2.94,0.03164725267,-0.01019293337
2.95,0.03099235319,-0.01163578967
2.96,0.03026844337,-0.01303926963
2.97,0.02947782053,-0.01439996691
2.98,0.02862295325,-0.015714607
2.99,0.02770647389,-0.016980056
3,0.02673117067,-0.01819332883
3.01,0.02569997928,-0.01935159706
3.02,0.02461597418,-0.02045219631
3.03,0.02348235945,-0.02149263308
3.04,0.02230245934,-0.02247059115
3.05,0.0210797085,-0.02338393739
3.06,0.01981764193,-0.02423072713
3.07,0.01851988465,-0.02500920887
3.08,0.01719014119,-0.0257178285
3.09,0.01583218484,-0.02635523292
3.1,0.01444984672,-0.0269202731
3.11,0.01304700482,-0.02741200648
3.12,0.0116275728,-0.02782969893
3.13,0.01019548885,-0.02817282588
3.14,0.008754704391,-0.02844107308
3.15,0.007309172889,-0.02863433662
3.16,0.005862838606,-0.02875272237
3.17,0.004419625462,-0.02879654485
3.18,0.002983425965,-0.02876632552
3.19,0.001558090279,-0.02866279042
3.2,0.0001474154295,-0.02848686728
3.21,-0.001244865289,-0.02823968207
3.22,-0.002615092706,-0.02792255495
3.23,-0.003959691913,-0.02753699571
3.24,-0.005275182139,-0.02708469867
3.25,-0.006558186316,-0.02656753708
3.26,-0.007805440326,-0.02598755695
3.27,-0.009013801889,-0.02534697054
3.28,-0.01018025908,-0.02464814923
3.29,-0.01130193844,-0.0238936161
3.3,-0.01237611268,-0.023086038
3.31,-0.01340020787,-0.02222821723
3.32,-0.01437181031,-0.02132308293
3.33,-0.01528867274,-0.02037368207
3.34,-0.01614872021,-0.01938317012
3.35,-0.01695005529,-0.01835480145
3.36,-0.01769096288,-0.01729191952
3.37,-0.0183699144,-0.01619794671
3.38,-0.01898557143,-0.01507637415
3.39,-0.01953678885,-0.01393075117
3.4,-0.02002261728,-0.01276467474
3.41,-0.02044230514,-0.01158177882
3.42,-0.02079529991,-0.01038572351
3.43,-0.02108124899,-0.009180184275
3.44,-0.02129999984,-0.007968841127
3.45,-0.02145159964,-0.006755367775
3.46,-0.02153629431,-0.005543420884
3.47,-0.02155452695,-0.004336629388
3.48,-0.02150693575,-0.003138583917
3.49,-0.02139435128,-0.00195282637
3.5,-0.02121779328,-0.0007828396569
3.51,-0.02097846687,0.0003679623569
3.52,-0.02067775822,0.001496244675
3.53,-0.02031722977,0.002598760737
3.54,-0.01989861482,0.003672361697
3.55,-0.01942381176,0.004714005395
3.56,-0.01889487777,0.005720764983
3.57,-0.01831402205,0.006689837194
3.58,-0.01768359866,0.007618550224
3.59,-0.01700609897,0.008504371204
3.6,-0.01628414365,0.009344913242
3.61,-0.01552047435,0.01013794202
3.62,-0.01471794506,0.01088138193
3.63,-0.01387951313,0.01157332169
3.64,-0.01300823,0.0122120195
3.65,-0.0121072317,0.0127959077
3.66,-0.01117972912,0.01332359682
3.67,-0.01022899806,0.01379387916
3.68,-0.00925836915,0.01420573182
3.69,-0.008271217563,0.01455831915
3.7,-0.00727095271,0.01485099462
3.71,-0.006261007792,0.01508330221
3.72,-0.005244829328,0.0152549771
3.73,-0.004225866665,0.01536594592
3.74,-0.003207561502,0.01541632633
3.75,-0.002193337463,0.01540642609
3.76,-0.001186589742,0.01533674156
3.77,-0.0001906748619,0.01520795558
3.78,0.0007910994397,0.0150209349
3.79,0.001755484147,0.01477672697
3.8,0.002699298713,0.01447655627
3.81,0.003619440582,0.01412182007
3.82,0.004512894456,0.0137140837
3.83,0.005376741286,0.01325507531
3.84,0.006208166959,0.01274668022
3.85,0.007004470646,0.01219093469
3.86,0.007763072804,0.01159001935
3.87,0.008481522799,0.01094625218
3.88,0.009157506123,0.01026208108
3.89,0.009788851194,0.009540076044
3.9,0.01037353572,0.008782921058
3.91,0.01090969258,0.007993405571
3.92,0.01139561529,0.007174415729
3.93,0.01182976288,0.006328925311
3.94,0.01221076436,0.005459986412
3.95,0.01253742264,0.004570719918
3.96,0.01280871786,0.003664305771
3.97,0.01302381029,0.002743973089
3.98,0.01318204257,0.001812990135
3.99,0.01328294151,0.0008746541936
4,0.01332621924,-6.771862976E-05
4.01,0.01331177386,-0.001010803656
4.02,0.01323968949,-0.001951277887
4.03,0.01311023577,-0.002885830248
4.04,0.01292386685,-0.003811171776
4.05,0.01268121971,-0.004724045733
4.06,0.01238311209,-0.005621237615
4.07,0.01203053973,-0.006499585009
4.08,0.01162467314,-0.0073559873
4.09,0.01116685388,-0.008187415169
4.1,0.01065859026,-0.008990919872
4.11,0.01010155258,-0.009763642265
4.12,0.009497567901,-0.01050282155
4.13,0.008848614282,-0.01120580373
4.14,0.008156814647,-0.01187004969
4.15,0.007424430167,-0.012493143
4.16,0.006653853255,-0.01307279728
4.17,0.005847600156,-0.01360686317
4.18,0.00500830318,-0.01409333492
4.19,0.004138702587,-0.01453035653
4.2,0.003241638146,-0.01491622738
4.21,0.002320040413,-0.01524940749
4.22,0.001376921725,-0.01552852218
4.23,0.000415366969,-0.01575236635
4.24,-0.0005614758778,-0.01591990811
4.25,-0.00155040538,-0.016030292
4.26,-0.002548176439,-0.01608284164
4.27,-0.003551510214,-0.0160770618
4.28,-0.004557104135,-0.01601264
4.29,-0.00556164199,-0.01588944748
4.3,-0.006561804044,-0.01570753967
4.31,-0.007554277164,-0.01546715609
4.32,-0.008535764926,-0.01516871971
4.33,-0.009502997658,-0.01481283572
4.34,-0.01045274241,-0.01440028977
4.35,-0.0113818128,-0.01393204573
4.36,-0.01228707874,-0.01340924279
4.37,-0.01316547593,-0.01283319217
4.38,-0.01401401526,-0.01220537321
4.39,-0.01482979185,-0.011527429
4.4,-0.01560999394,-0.01080116156
4.41,-0.01635191146,-0.01002852643
4.42,-0.0170529443,-0.009211626948
4.43,-0.01771061022,-0.008352707949
4.44,-0.01832255245,-0.00745414915
4.45,-0.01888654689,-0.006518458063
4.46,-0.01940050889,-0.005548262562
4.47,-0.01986249969,-0.004546303075
4.48,-0.02027073229,-0.003515424448
4.49,-0.02062357702,-0.002458567501
4.5,-0.02091956651,-0.001378760291
4.51,-0.02115740027,-0.0002791091222
4.52,-0.02133594867,0.0008372106764
4.53,-0.02145425653,0.001966964181
4.54,-0.02151154609,0.003106866473
4.55,-0.02150721951,0.004253592397
4.56,-0.0214408608,0.005403786419
4.57,-0.0213122372,0.006554072593
4.58,-0.0211213001,0.007701064575
4.59,-0.02086818528,0.008841375665
4.6,-0.02055321269,0.009971628854
4.61,-0.02017688569,0.01108846684
4.62,-0.01973988968,0.01218856197
4.63,-0.01924309027,0.01326862613
4.64,-0.01868753082,0.01432542044
4.65,-0.01807442956,0.0153557649
4.66,-0.01740517611,0.01635654777
4.67,-0.01668132755,0.0173247348
4.68,-0.01590460393,0.01825737822
4.69,-0.01507688338,0.01915162544
4.7,-0.0142001967,0.02000472749
4.71,-0.0132767215,0.02081404718
4.72,-0.01230877594,0.02157706684
4.73,-0.01129881205,0.02229139583
4.74,-0.0102494086,0.02295477753
4.75,-0.009163263705,0.02356509606
4.76,-0.008043186992,0.02412038251
4.77,-0.00689209148,0.02461882073
4.78,-0.005712985154,0.02505875271
4.79,-0.004508962264,0.02543868346
4.8,-0.003283194376,0.02575728544
4.81,-0.002038921193,0.02601340243
4.82,-0.0007794411945,0.02620605296
4.83,0.0004918979004,0.02633443322
4.84,0.001771708807,0.0263979194
4.85,0.003056574456,0.02639606953
4.86,0.004343057856,0.02632862481
4.87,0.005627712005,0.02619551034
4.88,0.006907089831,0.02599683537
4.89,0.008177754111,0.02573289298
4.9,0.009436287368,0.02540415923
4.91,0.01067930169,0.02501129176
4.92,0.01190344846,0.0245551279
4.93,0.01310542797,0.02403668221
4.94,0.01428199883,0.02345714353
4.95,0.0154299873,0.02281787153
4.96,0.01654629632,0.02212039273
4.97,0.01762791432,0.02136639607
4.98,0.01867192385,0.02055772803
4.99,0.01967550978,0.01969638722
5,0.02063596737,0.01878451861
5.01,0.02155070985,0.01782440732
5.02,0.02241727572,0.01681847199
5.03,0.02323333568,0.01576925775
5.04,0.02399669917,0.01467942893
5.05,0.02470532042,0.01355176132
5.06,0.02535730418,0.01238913416
5.07,0.02595091095,0.01119452189
5.08,0.02648456169,0.009970985534
5.09,0.02695684219,0.008721663944
5.1,0.02736650685,0.007449764781
5.11,0.02771248196,0.006158555318
5.12,0.02799386855,0.004851353097
5.13,0.02820994469,0.003531516448
5.14,0.02836016721,0.002202434909
5.15,0.02844417301,0.0008675195771
5.16,0.02846177976,-0.0004698065877
5.17,0.0284129861,-0.001806118472
5.18,0.02829797135,-0.003137998504
5.19,0.0281170946,-0.00446204631
5.2,0.02787089341,-0.005774888295
5.21,0.02756008189,-0.007073187125
5.22,0.02718554831,-0.008353651087
5.23,0.02674835221,-0.009613043294
5.24,0.02624972107,-0.0108481907
5.25,0.02569104637,-0.01205599293
5.26,0.02507387933,-0.01323343084
5.27,0.02439992611,-0.01437757487
5.28,0.02367104259,-0.01548559306
5.29,0.02288922876,-0.01655475882
5.3,0.02205662267,-0.01758245832
5.31,0.021175494,-0.01856619758
5.32,0.02024823731,-0.01950360915
5.33,0.01927736487,-0.02039245842
5.34,0.01826549924,-0.02123064956
5.35,0.01721536555,-0.02201623099
5.36,0.01612978343,-0.02274740044
5.37,0.01501165875,-0.02342250956
5.38,0.01386397519,-0.02404006806
5.39,0.01268978548,-0.02459874741
5.4,0.01149220254,-0.025097384
5.41,0.01027439052,-0.02553498187
5.42,0.009039555639,-0.02591071494
5.43,0.007790936964,-0.02622392867
5.44,0.006531797138,-0.0264741413
5.45,0.005265413055,-0.02666104455
5.46,0.003995066537,-0.02678450384
5.47,0.002724035024,-0.02684455793
5.48,0.00145558231,-0.02684141812
5.49,0.0001929493593,-0.026775467
5.5,-0.001060654785,-0.02664725657
5.51,-0.002302061957,-0.026457506
5.52,-0.003528153682,-0.02620709886
5.53,-0.004735869796,-0.02589707987
5.54,-0.005922216879,-0.02552865124
5.55,-0.007084276448,-0.02510316852
5.56,-0.008219212902,-0.02462213604
5.57,-0.009324281199,-0.02408720196
5.58,-0.01039683423,-0.02350015288
5.59,-0.01143432989,-0.02286290808
5.6,-0.01243433778,-0.02217751342
5.61,-0.0133945456,-0.02144613488
5.62,-0.01431276516,-0.02067105179
5.63,-0.01518693794,-0.01985464972
5.64,-0.01601514038,-0.01899941316
5.65,-0.01679558857,-0.01810791789
5.66,-0.01752664273,-0.01718282312
5.67,-0.01820681101,-0.01622686346
5.68,-0.01883475308,-0.01524284065
5.69,-0.01940928303,-0.01423361522
5.7,-0.01992937203,-0.0132020979
5.71,-0.0203941503,-0.01215124103
5.72,-0.02080290879,-0.01108402982
5.73,-0.02115510027,-0.01000347361
5.74,-0.02145033997,-0.008912597044
5.75,-0.02168840577,-0.007814431275
5.76,-0.02186923785,-0.006712005209
5.77,-0.02199293793,-0.005608336767
5.78,-0.02205976803,-0.004506424239
5.79,-0.02207014868,-0.003409237739
5.8,-0.02202465683,-0.002319710784
5.81,-0.02192402317,-0.001240732019
5.82,-0.02176912907,-0.0001751371309
5.83,-0.0215610031,0.00087429906
5.84,-0.02130081715,0.001904870271
5.85,-0.02098988204,0.002913946194
5.86,-0.02062964294,0.003898979671
5.87,-0.02022167422,0.004857513581
5.88,-0.01976767404,0.005787187428
5.89,-0.01926945865,0.006685743609
5.9,-0.01872895628,0.007551033342
5.91,-0.01814820074,0.008381022246
5.92,-0.01752932486,0.009173795544
5.93,-0.0168745535,0.009927562894
5.94,-0.01618619647,0.01064066282
5.95,-0.01546664116,0.01131156673
5.96,-0.014718345,0.01193888254
5.97,-0.01394382778,0.01252135784
5.98,-0.01314566378,0.01305788269
5.99,-0.01232647383,0.01354749188
6,-0.01148891723,0.01398936685
