"Freq [GHz]","re(S(Antenna1_1_1,Antenna1_1_1)) []","im(S(Antenna1_1_1,Antenna1_1_1)) []"
3,-0.202261375343193,-0.161425453928426
3.0175,-0.209207807461313,-0.145750490427694
3.035,-0.215069013745277,-0.130442729660035
3.0525,-0.220355445874328,-0.115140690642854
3.07,-0.225020047164073,-0.0992615472124744
3.0875,-0.228518595216016,-0.0825165180512111
3.105,-0.230231736113793,-0.0651714286956929
3.1225,-0.229911615125742,-0.0478875990976398
3.14,-0.227832738779017,-0.0312944069088418
3.1575,-0.224567555490142,-0.01561829480063
3.175,-0.220575619437047,-0.000621057289275704
3.1925,-0.215904122736867,0.014135895389497
3.21,-0.210195071210543,0.0289056364648935
3.2275,-0.202973116270998,0.043521355971607
3.245,-0.194000845586688,0.0574368360734647
3.2625,-0.183506247867372,0.0700400949214738
3.28,-0.172062315348395,0.0810367450214707
3.2975,-0.160232080275946,0.0905929629017073
3.315,-0.148224817815538,0.0991650975843836
3.3325,-0.135799669731674,0.107122743021647
3.35,-0.12249480331043,0.114423756897648
3.3675,-0.108035239265688,0.120578163137012
3.385,-0.0926332546672387,0.124947270405613
3.4025,-0.0769501655962052,0.127182432482057
3.42,-0.0617198621731445,0.127486059967061
3.4375,-0.0472904111067872,0.126482004754051
3.455,-0.0334413731767284,0.124784162122713
3.4725,-0.019535032785579,0.122477779836726
3.49,-0.00519258805292149,0.119018181550146
3.5075,0.00930888229397871,0.113676817985848
3.525,0.0231240323660739,0.106150312438772
3.5425,0.0353909782241429,0.0968717085626344
3.56,0.0458307726290276,0.0867562612766442
3.5775,0.0549152327165105,0.0765549915022556
3.595,0.0634458980239724,0.0663159707476834
3.6125,0.071854823350813,0.0553925834795833
3.63,0.0797783265446797,0.043017653482455
3.6475,0.0862602339094567,0.0290060532549825
3.665,0.0904275066905196,0.0140219210173499
3.6825,0.0922023145061762,-0.000756878378724118
3.7,0.0924218202182312,-0.0145589681760457
3.7175,0.0920881106440535,-0.0275529612377002
3.735,0.0915784715973256,-0.0405916993761986
3.7525,0.0903550437968017,-0.0544321712414919
3.77,0.08741313187463,-0.0690365513173587
3.7875,0.0821079970681248,-0.0835098614896199
3.805,0.0747030197976287,-0.0967210292632459
3.8225,0.0662077074550634,-0.108114382514311
3.84,0.0576360750463762,-0.118073569104284
3.8575,0.0492679385907956,-0.127556221325082
3.875,0.0404874185234063,-0.13728800858563
3.8925,0.0302570583090333,-0.1471580855897
3.91,0.0181494500302703,-0.156108215380277
3.9275,0.00469326162834257,-0.163154467617269
3.945,-0.0090318106086892,-0.168034968863273
3.9625,-0.0221627721950443,-0.171346591132547
3.98,-0.034620690199102,-0.17404021530805
3.9975,-0.0470676922484682,-0.176681267185147
4.015,-0.0603141226901807,-0.179033692447218
4.0325,-0.074637309001759,-0.180261736838456
4.05,-0.0895193118721466,-0.179578683173087
4.0675,-0.103986585321123,-0.176849785448049
4.085,-0.117288108417618,-0.172703147571308
4.1025,-0.129404544915741,-0.168071771308202
4.12,-0.141010021337159,-0.163509721428321
4.1375,-0.152912821418726,-0.158792376624131
4.155,-0.165388627748265,-0.153104317886412
4.1725,-0.177907629629862,-0.145684855402485
4.19,-0.189473980948005,-0.13645372134126
4.2075,-0.199340177052315,-0.126138026904189
4.225,-0.207563322146357,-0.115781650547547
4.2425,-0.21496588441638,-0.105986288867586
4.26,-0.22249988165187,-0.0964593710907502
4.2775,-0.230476866930781,-0.086239220156592
4.295,-0.238259709485824,-0.0744617472980934
4.3125,-0.244688426285881,-0.0610988379063176
4.33,-0.248893486405705,-0.0471281854703655
4.3475,-0.251240246759356,-0.033823268874722
4.365,-0.252836542466581,-0.0216735983180522
4.3825,-0.25469783272943,-0.0101185778575918
4.4,-0.256952948921927,0.0019680256466782
4.4175,-0.258742956122744,0.0153511210526563
4.435,-0.258896757653116,0.0297879707662001
4.4525,-0.256857789934435,0.0441725037679779
4.47,-0.253132961674239,0.0573623600196535
4.4875,-0.248905186769216,0.0690401032233658
4.505,-0.245109896573207,0.0799264051631633
4.5225,-0.241704554705215,0.0911706236160541
4.54,-0.237714081238458,0.103396779611831
4.5575,-0.232022871000841,0.116162392716971
4.575,-0.224288153497666,0.12826611101368
4.5925,-0.215245937187767,0.138666755370228
4.61,-0.206158500852411,0.147285093770237
4.6275,-0.197836330403317,0.155045460071902
4.645,-0.190012850553672,0.163115465550599
4.6625,-0.181576834290147,0.171943570334465
4.68,-0.171486564639064,0.180863240158752
4.6975,-0.159641751747744,0.188588021972509
4.715,-0.147014053246839,0.194212518726153
4.7325,-0.134921731317118,0.197924375399412
4.75,-0.124017454586468,0.200853463557609
4.7675,-0.113754220881755,0.204244900103773
4.785,-0.102846534849277,0.208157902231792
4.8025,-0.0905368770441192,0.211681107888643
4.82,-0.0770932159283895,0.213656796235483
4.8375,-0.0635787518835009,0.21357059505125
4.855,-0.0510323548450797,0.211897991994408
4.8725,-0.0397207394963133,0.209677704526945
4.89,-0.0290281681682593,0.207686512159687
4.9075,-0.0180266532447405,0.20587167428354
4.925,-0.0062456764227066,0.203458253303367
4.9425,0.00596163609892012,0.199604143959452
4.96,0.0177095000493632,0.194063314544809
4.9775,0.0282590211920577,0.187347515256444
4.995,0.0375370114843626,0.180297503657487
5.0125,0.0461069791538308,0.173435848855835
5.03,0.0546551364937055,0.166615019966709
5.0475,0.0634235033551528,0.159208970707957
5.065,0.0720301632423996,0.150658614801511
5.0825,0.0797838961473459,0.140923751015324
5.1,0.0862110785897856,0.130502353482345
5.1175,0.0913733452947929,0.120039374289013
5.135,0.0957521307722779,0.109860215302838
5.1525,0.0998282359225382,0.0997908202731058
5.17,0.103704721449188,0.0893728187486518
5.1875,0.107053088469543,0.0782712575811456
5.205,0.109388601898554,0.066548903425102
5.2225,0.110433348241224,0.0546182992935642
5.24,0.110289863542959,0.0429449684330276
5.2575,0.109323279507832,0.031748251647498
5.275,0.107875091899863,0.0209135363962534
5.2925,0.106032802463107,0.0101472728068887
5.31,0.103604556134854,-0.000767556941334893
5.3275,0.100283631164283,-0.011800820060473
5.345,0.0958671533532454,-0.0226851456999889
5.3625,0.0903865098204344,-0.0330716660606674
5.38,0.0840867244376566,-0.0427192655718153
5.3975,0.077285017969597,-0.05160856657562
5.415,0.0701934680797697,-0.0599260074013799
5.4325,0.0628001906230266,-0.0679280918807256
5.45,0.0548787789133112,-0.0757525936002465
5.4675,0.0461393180563184,-0.0832818910412314
5.485,0.0364514769549024,-0.0901587603093569
5.5025,0.0259991076264373,-0.0959804185601727
5.52,0.0152325298799837,-0.10057053025667
5.5375,0.0046042828863005,-0.104135650611902
5.555,-0.00575154298004388,-0.107151221883856
5.5725,-0.0161452552056911,-0.110007768314436
5.59,-0.0271144718684677,-0.112660051198858
5.6075,-0.0389757697079019,-0.114575848828361
5.625,-0.051480298028442,-0.115086566944896
5.6425,-0.0638496953996086,-0.113888784420951
5.66,-0.0753662610928226,-0.111486538208948
5.6775,-0.0859719522702964,-0.108698592487808
5.695,-0.0962796258066867,-0.106039593012583
5.7125,-0.107063752404813,-0.103284275240482
5.73,-0.1185857835134,-0.0996205118430912
5.7475,-0.130306978496565,-0.0943011512408344
5.765,-0.141251477704691,-0.0872793500482316
5.7825,-0.150751245332646,-0.0792956136547394
5.8,-0.158969237601722,-0.0713170223183716
5.8175,-0.166754095553006,-0.0637683548301683
5.835,-0.174921086201793,-0.0561887822417766
5.8525,-0.183538917977772,-0.0476159766142676
5.87,-0.191817689519207,-0.0374007144489935
5.8875,-0.198708893149814,-0.0257853495610978
5.905,-0.203736190521753,-0.0137583370337854
5.9225,-0.207371267584443,-0.00228957782534318
5.94,-0.210634045771436,0.00843017706037357
5.9575,-0.21423666867302,0.019115041099527
5.975,-0.217974515063336,0.0307627108724481
5.9925,-0.220870356916806,0.0437927429960522
6.01,-0.221957963841265,0.05765422885653
6.0275,-0.221062168042947,0.0712281596057622
6.045,-0.218934064815959,0.0836946662490283
6.0625,-0.216631717470567,0.0951529126912974
6.08,-0.214686483241194,0.106502485027796
6.0975,-0.212568125919216,0.118660918691055
6.115,-0.209238435674495,0.131692350664057
6.1325,-0.204014321868825,0.144781439144643
6.15,-0.197112343341008,0.156887553875846
6.1675,-0.18944325875208,0.167548307081336
6.185,-0.181861404207381,0.177176022191277
6.2025,-0.174503596939251,0.186635767071513
6.22,-0.1667445980329,0.196485364824435
6.2375,-0.157768605095203,0.206508071733371
6.255,-0.147260765176475,0.215894923087006
6.2725,-0.135657749046057,0.223889695423342
6.29,-0.123786542164536,0.230351319122413
6.3075,-0.112221034799528,0.235792044522755
6.325,-0.100887101596799,0.240899007507227
6.3425,-0.0892096715357673,0.245956571396487
6.36,-0.0766431553940586,0.250632651739456
6.3775,-0.0631371133887109,0.254267044124589
6.395,-0.0491784250232478,0.256393272495189
6.4125,-0.0354151259661966,0.257066789492855
6.43,-0.0221927495423665,0.256763738981066
6.4475,-0.00936897794240783,0.255971245470956
6.465,0.00348093696265817,0.254815718879736
6.4825,0.0166681988066387,0.253008000346261
6.5,0.0301261575183054,0.250109369262088
6.5175,0.0434584871135139,0.245858012716694
6.535,0.0561990458255922,0.240406836588115
6.5525,0.0681763693616551,0.234125637555396
6.57,0.0795161980113704,0.227310195632272
6.5875,0.0904513769913483,0.220010009908747
6.605,0.101100029318025,0.212069783305026
6.6225,0.111376655498668,0.20330464236172
6.64,0.121063938521812,0.19365297331825
6.6575,0.129951447688674,0.183209596071874
6.675,0.137929669393875,0.172155165104389
6.6925,0.144997169329369,0.160662615732562
6.71,0.151213007311527,0.148843401408103
6.7275,0.156644580227192,0.136740065827059
6.745,0.161331041486345,0.1243409347401
6.7625,0.165255725227778,0.111605025612397
6.78,0.168329221967352,0.0985055027369089
6.7975,0.170407514631642,0.0850893787158111
6.815,0.171363013195419,0.0715158751791632
6.8325,0.171178889493947,0.0580228891044727
6.85,0.169991619207092,0.0448149340698874
6.8675,0.168021396404662,0.0319420729855466
6.885,0.165414582592463,0.0192757371200695
6.9025,0.162112940896984,0.00663135734893982
6.92,0.157872342044751,-0.00603303681661506
6.9375,0.152449028381996,-0.0184994685138646
6.955,0.145818244959406,-0.0303530841176855
6.9725,0.1383132306236,-0.0412963082400988
6.99,0.130339054346378,-0.051361532061942
7.0075,0.122095068861224,-0.0608525944462591
7.025,0.11343194018416,-0.0700698220404676
7.0425,0.103991915657922,-0.079021499256199
7.06,0.0935346434030219,-0.0873630998449834
7.0775,0.0821871257007921,-0.0946304230661555
7.095,0.0704032088352477,-0.100589026688119
7.1125,0.0586499948498339,-0.105413383864734
7.13,0.0470698892246505,-0.109536583368407
7.1475,0.0354006575506374,-0.113280880705721
7.165,0.0232321020177928,-0.116569691651227
7.1825,0.0103975579746211,-0.118966719296291
7.2,-0.0028240687620512,-0.120022393298834
7.2175,-0.0158731665693441,-0.119647576119005
7.235,-0.0283155768462095,-0.118200882175165
7.2525,-0.0401562956391532,-0.11620668207209
7.27,-0.0517940994939158,-0.11392992955851
7.2875,-0.063645528119552,-0.111161642411579
7.305,-0.0757465165574235,-0.107400896930551
7.3225,-0.0876666510085059,-0.102289315447617
7.34,-0.0988150063345853,-0.095937729318446
7.3575,-0.108888004360624,-0.0888682152867372
7.375,-0.118085605909435,-0.0816137851266326
7.3925,-0.126938709588209,-0.0743136408134223
7.41,-0.13576351314389,-0.0665666485401168
7.4275,-0.144388323977361,-0.0579132052684337
7.445,-0.152306715910004,-0.0482222046351081
7.4625,-0.159081184976068,-0.0378147679514478
7.48,-0.164668453983691,-0.027216288702514
7.4975,-0.169407581484168,-0.0167611687310065
7.515,-0.173702982632397,-0.00638066731025321
7.5325,-0.177681211252518,0.00426680391412449
7.55,-0.18110249082174,0.0154542101119137
7.5675,-0.183579399438979,0.0271275616285073
7.585,-0.184899880356326,0.0389346313729763
7.6025,-0.185182508445616,0.0504933627819889
7.62,-0.184752121659827,0.061660158426796
7.6375,-0.183863063458296,0.0725793313588338
7.655,-0.182510708612232,0.0834947310236468
7.6725,-0.180476228753061,0.0945018559694262
7.69,-0.177542967917032,0.10544977491352
7.7075,-0.173687822125888,0.116056569437282
7.725,-0.169093402821549,0.126118585604103
7.7425,-0.163993015050115,0.13562997167863
7.76,-0.158497855301711,0.144725743512073
7.7775,-0.152551675413315,0.153519733306705
7.795,-0.146032108773367,0.161987341460435
7.8125,-0.138891593381772,0.169984492205769
7.83,-0.131212967055974,0.177362371581631
7.8475,-0.123148348715127,0.184079986680405
7.865,-0.114798354748142,0.190187194878638
7.8825,-0.106178000199269,0.195738993686422
7.9,-0.0972645895521472,0.200728791093209
7.9175,-0.0880701979129064,0.205096999665749
7.935,-0.0786652044511191,0.208792458608534
7.9525,-0.0691376043596385,0.211817275667075
7.97,-0.0595379901223406,0.214211145494681
7.9875,-0.0498695491617356,0.215996643072779
8.005,-0.0401324132925084,0.217145663693453
8.0225,-0.0303752626629963,0.217603607329001
8.04,-0.0207002998856669,0.217348325492026
8.0575,-0.011210434983335,0.216428317160067
8.075,-0.00194658616510341,0.214931711553681
8.0925,0.00711656733006506,0.212917993406187
8.11,0.0160181019532111,0.210375095565598
8.1275,0.0247435577545347,0.207238363846894
8.145,0.0332009806203409,0.203457636322909
8.1625,0.0412615686245925,0.199057087059283
8.18,0.048832786553497,0.194138726736939
8.1975,0.0559061648833731,0.188826195359419
8.215,0.0625426958511723,0.183192032786779
8.2325,0.0688066710557329,0.177223264835172
8.25,0.0746965194346075,0.170850965117657
8.2675,0.080120728567642,0.164019463495893
8.285,0.084941495517797,0.156769349419957
8.3025,0.0890670699219252,0.14922871641723
8.32,0.0925029918850191,0.1415541543554
8.3375,0.0953424061958186,0.133847078772582
8.355,0.0976936740991348,0.126104471444757
8.3725,0.0995918173597304,0.118243024283212
8.39,0.100957729346187,0.110187121728829
8.4075,0.101642399575831,0.101961997540634
8.425,0.10153377812673,0.0937203308825597
8.4425,0.10065087611805,0.0856713467879089
8.46,0.0991474670343104,0.077954837044838
8.4775,0.0972089313400337,0.0705546219855222
8.495,0.0949117889691761,0.0633285777289666
8.5125,0.092157713984789,0.0561467464794646
8.53,0.0887478375909218,0.0490363704568602
8.5475,0.084553396597263,0.0422120463414136
8.565,0.0796503319396061,0.0359503777466779
8.5825,0.0742987512242908,0.0303963845721863
8.6,0.0687663619659182,0.0254585484743525
8.6175,0.0631290240525371,0.0208919484121484
8.635,0.0572163505287602,0.0165184158990463
8.6525,0.0507635287384316,0.0124092878988877
8.67,0.0436594237153071,0.00887079704560303
8.6875,0.0360877847812478,0.00622635533707585
8.705,0.0284472809874111,0.00456858759382579
8.7225,0.0210307521410694,0.00364049088949328
8.74,0.0138185883877235,0.00310693129863556
8.7575,0.00653902287965332,0.00282434861111299
8.775,-0.00107114179104118,0.00296613584545334
8.7925,-0.00901082470657011,0.00388516881781681
8.81,-0.016975314487914,0.00582558037990273
8.8275,-0.0245661702989873,0.00872136501055558
8.845,-0.0315768248599032,0.0122475003159345
8.8625,-0.0381184578053449,0.0160796554001905
8.88,-0.0444847201919567,0.0201466093274194
8.8975,-0.050870648828529,0.024668341058942
8.915,-0.0571791731360693,0.029952873523968
8.9325,-0.0630715140913565,0.0361238183163138
8.95,-0.0682136591827445,0.0430028309547354
8.9675,-0.0725122737440438,0.0502374942914563
8.985,-0.0761495642237091,0.0575617989281962
9.0025,-0.0793979075112628,0.0649734314046438
9.02,-0.0823741638718603,0.0726897155105579
9.0375,-0.08493353374787,0.0809298303737259
9.055,-0.0867788227104753,0.0897072893216286
9.0725,-0.0876841369156466,0.0987959663776817
9.09,-0.0876491273528252,0.107883122480521
9.1075,-0.0868701465484837,0.116774826912192
9.125,-0.0855681034171824,0.125491241733744
9.1425,-0.0838251055344455,0.134199020493545
9.16,-0.0815102508643888,0.143023378299844
9.1775,-0.0784346534956476,0.151920392496152
9.195,-0.0744873509430929,0.160705506776583
9.2125,-0.069701763316787,0.169164450214353
9.23,-0.0642183137100098,0.177161426951295
9.2475,-0.0581916346078708,0.184676890703141
9.265,-0.0517118103547223,0.191770749132419
9.2825,-0.0447787009474382,0.198511470110572
9.3,-0.0373273585031911,0.204914565541517
9.3175,-0.0292824076182704,0.210913821664339
9.335,-0.020618207770204,0.216372324060522
9.3525,-0.0114014362751883,0.221132280449361
9.37,-0.00178976364199893,0.225088804598773
9.3875,0.00802843539434268,0.228249472868012
9.405,0.0179314292227782,0.230730862702611
9.4225,0.0279347916132726,0.232672719702097
9.44,0.0381687747674613,0.234114249468897
9.4575,0.048754797988174,0.234926005002129
9.475,0.0596604409744999,0.234869968621714
9.4925,0.0706525067582206,0.233766442058371
9.51,0.0814096849624132,0.231647121801166
9.5275,0.0917293851158993,0.228760037007059
9.545,0.101668239964981,0.225395379111908
9.5625,0.111484857298416,0.221651618548011
9.58,0.121420073478088,0.217325503610794
9.5975,0.131382274288933,0.21204665101644
9.615,0.140990996969762,0.205632096241498
9.6325,0.149823177266873,0.198247897454244
9.65,0.157714853028737,0.190312762009066
9.6675,0.164867120239314,0.182189445103289
9.685,0.171656290043182,0.173908124936406
9.7025,0.178289548159811,0.165153990366216
9.72,0.18458456901757,0.155543766629875
9.7375,0.190063148715201,0.144976054826667
9.755,0.194296869408008,0.133767662115063
9.7725,0.197229698864996,0.12245209174895
9.79,0.199208347162684,0.111391683470101
9.8075,0.200681665504781,0.100517074255624
9.825,0.201803714812853,0.0894162997579727
9.8425,0.202265820173753,0.0777155596808821
9.86,0.201507515684978,0.0654490202490164
9.8775,0.199148784248453,0.0531106508523625
9.895,0.195295665266717,0.0413309735349346
9.9125,0.190460788197848,0.0304296749459217
9.93,0.185147589484159,0.0202088941034966
9.9475,0.179427252360983,0.0101692804198116
9.965,0.172858203046342,-1.01360647045747E-05
9.9825,0.164831107095153,-0.0101120100645186
10,0.155075445264936,-0.0194427487395527
