"Freq [GHz]","re(S(Tx_p1,Tx_p1)) []","im(S(Tx_p1,Tx_p1)) []"
3,-0.06296011535,0.1488521537
3.014,-0.06920749799,0.1496806724
3.028,-0.07110439904,0.1621671339
3.042,-0.06102176527,0.1797549606
3.056,-0.03834686511,0.1923142343
3.07,-0.009583474468,0.1923151391
3.084,0.01572422772,0.1786995127
3.098,0.03018159257,0.1568152891
3.112,0.03211756854,0.1348746084
3.126,0.02536567643,0.1188852165
3.14,0.01499457632,0.1098010923
3.154,0.002716415522,0.1058435751
3.168,-0.01280378571,0.1077504162
3.182,-0.03049118078,0.1204705459
3.196,-0.0426660535,0.1481131961
3.21,-0.0380813743,0.1869882871
3.224,-0.01035590354,0.2245281314
3.238,0.03599994656,0.2460967828
3.252,0.08746676265,0.244122529
3.266,0.1297888219,0.22232797
3.28,0.1563768617,0.1921003564
3.294,0.1707269754,0.1637768478
3.308,0.180874698,0.1395201765
3.322,0.1902875589,0.1140623871
3.336,0.1938540133,0.0832434523
3.35,0.1839421721,0.05196076229
3.364,0.1610474084,0.03221826389
3.378,0.1373105034,0.03187104122
3.392,0.1277937992,0.04542003034
3.406,0.1375188904,0.05695439221
3.42,0.1570270088,0.05290407536
3.434,0.1705256519,0.03256053828
3.448,0.1686440331,0.007200893328
3.462,0.1545156026,-0.01035342685
3.476,0.1388007139,-0.01594578222
3.49,0.1290065989,-0.01530190302
3.504,0.1232643829,-0.01571366351
3.518,0.1147936986,-0.01663968563
3.532,0.1028311054,-0.009588668548
3.546,0.0979647706,0.01115448508
3.56,0.1141530916,0.03775383414
3.574,0.1539314635,0.05083898017
3.588,0.2021698801,0.03447244498
3.602,0.2359873392,-0.01003970285
3.616,0.2418611242,-0.06507167232
3.63,0.2239382768,-0.1110707052
3.644,0.196999712,-0.1404877703
3.658,0.1721913069,-0.1592837578
3.672,0.1489359441,-0.1765628955
3.686,0.119406091,-0.1931207818
3.7,0.08038655638,-0.1997127361
3.714,0.04077271278,-0.1867859433
3.728,0.01654708647,-0.1565443691
3.742,0.01682372741,-0.1249071689
3.756,0.03431471173,-0.1098445101
3.77,0.05047989605,-0.1165184367
3.784,0.05105239412,-0.1338305659
3.798,0.03682414515,-0.1456120474
3.812,0.01981719475,-0.1448111414
3.826,0.01023928321,-0.1370416421
3.84,0.007871927909,-0.1319062482
3.854,0.00518747743,-0.1324003423
3.868,-0.00268899202,-0.1328027374
3.882,-0.01164046434,-0.1261148501
3.896,-0.01196564951,-0.1133144276
3.91,0.001398292989,-0.1052338029
3.924,0.0213236478,-0.1142315162
3.938,0.03171299462,-0.1424035426
3.952,0.02000395817,-0.1776418804
3.966,-0.01230780437,-0.2024162928
3.98,-0.05149775539,-0.2075076377
3.994,-0.08394548505,-0.1975091339
4.008,-0.1065317566,-0.1835033692
4.022,-0.125567286,-0.1714568819
4.036,-0.1471617881,-0.157962883
4.05,-0.1696299103,-0.1360082308
4.064,-0.184631383,-0.1036843007
4.078,-0.1847499489,-0.06757690131
4.092,-0.1703118078,-0.03846930303
4.106,-0.1498031957,-0.02334627282
4.12,-0.1335545,-0.02036884123
4.134,-0.1259390325,-0.02124327115
4.148,-0.123129614,-0.01906448603
4.162,-0.1186094793,-0.01416694793
4.176,-0.1107251447,-0.01216386003
4.19,-0.1043318528,-0.01662956248
4.204,-0.1052499754,-0.02456471925
4.218,-0.1140535216,-0.02911739806
4.232,-0.1255385948,-0.02588517763
4.246,-0.1334240352,-0.01626860452
4.26,-0.1351760144,-0.005625141147
4.274,-0.1332721113,0.001147365209
4.288,-0.1328578346,0.003074685692
4.302,-0.1377678779,0.003592959117
4.316,-0.1476136686,0.007757226412
4.33,-0.1583814657,0.0181502662
4.344,-0.166301853,0.03325090503
4.358,-0.1710673605,0.05013756714
4.372,-0.1746562612,0.06852820527
4.386,-0.1770543771,0.09124536042
4.4,-0.1739982886,0.1203233199
4.414,-0.1594768508,0.1530396338
4.428,-0.1304712171,0.1818830127
4.442,-0.08982100844,0.1981423184
4.456,-0.04569115572,0.1962221271
4.47,-0.008456398289,0.1764998806
4.484,0.01367002347,0.1455786294
4.498,0.0182625212,0.113329772
4.512,0.00897666752,0.08806544073
4.526,-0.007908815211,0.0734767949
4.54,-0.02731374428,0.06969751111
4.554,-0.04584151548,0.07630754077
4.568,-0.0595864716,0.0930783135
4.582,-0.06330302748,0.117693735
4.596,-0.05293070627,0.1438699241
4.61,-0.02914183487,0.1628500749
4.624,0.001501101566,0.1675428925
4.638,0.02884090064,0.1564486936
4.652,0.0436986523,0.1350884942
4.666,0.04257086147,0.113869509
4.68,0.0296723834,0.1028902645
4.694,0.0143774613,0.106698249
4.708,0.005685903323,0.122996123
4.722,0.008454190783,0.1459310457
4.736,0.02410295105,0.1698533352
4.75,0.05305538324,0.189577821
4.764,0.09444384641,0.1984543713
4.778,0.143068469,0.1888319862
4.792,0.1880437749,0.1563590892
4.806,0.2161684717,0.1044615408
4.82,0.2181325805,0.04472576322
4.834,0.1932746079,-0.007417614582
4.848,0.1501335964,-0.03907633127
4.862,0.102673364,-0.04497833613
4.876,0.06420040142,-0.02864203567
4.89,0.0425528156,0.0009029923349
4.904,0.03949911541,0.03410027679
4.918,0.05347210383,0.06338284661
4.932,0.08145366574,0.08224776553
4.946,0.1177281312,0.08447766528
4.96,0.1523938345,0.06675132685
4.974,0.1738283277,0.03264785043
4.988,0.1746061518,-0.006946443995
5.002,0.1559101129,-0.0386339102
5.016,0.1268544183,-0.05293413
5.03,0.09984474965,-0.04798982113
5.044,0.0853775525,-0.02931184717
5.058,0.08859398221,-0.00683157379
5.072,0.1083677412,0.009003597677
5.086,0.1387288447,0.0103921208
5.1,0.1712164271,-0.00657105466
5.114,0.1964208205,-0.04189973208
5.128,0.2049345189,-0.09118366346
5.142,0.1897557985,-0.144672799
5.156,0.1503199793,-0.1887608362
5.17,0.09467414916,-0.2112194445
5.184,0.03662467788,-0.206920893
5.198,-0.0103938572,-0.1793798023
5.212,-0.03781725681,-0.1376596906
5.226,-0.04260615741,-0.09244970184
5.24,-0.02623250984,-0.05410124224
5.254,0.005590479331,-0.03161068295
5.268,0.04305888275,-0.03062831329
5.282,0.0742053793,-0.05097108969
5.296,0.08872146074,-0.08573671286
5.31,0.08192334033,-0.1232242739
5.324,0.05683905643,-0.1512498578
5.338,0.02295448195,-0.1621876228
5.352,-0.008420559811,-0.1559665075
5.366,-0.02953210176,-0.138696651
5.38,-0.03827648988,-0.1180046169
5.394,-0.03594454934,-0.09954396074
5.408,-0.0244038492,-0.08756753284
5.422,-0.006760351278,-0.08694152805
5.436,0.009865176618,-0.1018447536
5.45,0.01471663603,-0.1310603237
5.464,-0.001038779897,-0.1651998908
5.478,-0.03793000652,-0.1900931237
5.492,-0.08684052422,-0.1943357008
5.506,-0.1338766431,-0.1751059339
5.52,-0.1674838037,-0.1383484782
5.534,-0.1828514677,-0.0941030045
5.548,-0.1813035216,-0.0509478973
5.562,-0.166242077,-0.01369034829
5.576,-0.1400134888,0.01452491409
5.59,-0.1051656606,0.02906852073
5.604,-0.06844545472,0.02473099887
5.618,-0.04152257859,0.001302500682
5.632,-0.0350531215,-0.0321599484
5.646,-0.05062538313,-0.06062083844
5.66,-0.07885176437,-0.07240305154
5.674,-0.1060995229,-0.06616730332
5.688,-0.1236064208,-0.04942361691
5.702,-0.1310097117,-0.03101234323
5.716,-0.1326320968,-0.01501056049
5.73,-0.1314926951,-0.0007139850541
5.744,-0.1268630073,0.01286095234
5.758,-0.1170986658,0.02315034112
5.772,-0.1045376251,0.02510014755
5.786,-0.09695722715,0.01676814704
5.8,-0.1026580199,0.004126199146
5.814,-0.1226901493,-0.0008712670561
5.828,-0.1479797554,0.01122715624
5.842,-0.1652368301,0.03990862699
5.856,-0.1664622743,0.07564327282
5.87,-0.1529489801,0.1079948953
5.884,-0.1308531212,0.1323817164
5.898,-0.1043329743,0.1494526068
5.912,-0.07364634,0.1596177301
5.926,-0.03906756006,0.1597315678
5.94,-0.005377134001,0.1454686642
5.954,0.01820208183,0.1168146962
5.968,0.02318333241,0.08135525827
5.982,0.008225738224,0.05184761218
5.996,-0.01859811388,0.03903229668
6.01,-0.04436188174,0.04499841964
6.024,-0.05952783957,0.06286717316
6.038,-0.06277204651,0.08321299652
6.052,-0.05833060575,0.1009741115
6.066,-0.0495618027,0.1162955952
6.08,-0.03606003769,0.1297729321
6.094,-0.01678745004,0.1386440517
6.108,0.005478485095,0.1384845863
6.122,0.02397781369,0.1281116037
6.136,0.0323418165,0.1121937748
6.15,0.02927327361,0.09908381752
6.164,0.01976048059,0.095870944
6.178,0.01224517329,0.1042891511
6.192,0.01381715301,0.1200617249
6.206,0.02668863906,0.1359615771
6.22,0.04838988303,0.146127202
6.234,0.07495396775,0.1479885304
6.248,0.1033683339,0.1406713761
6.262,0.1307161751,0.122899796
6.276,0.1519829362,0.09390261082
6.29,0.1605775953,0.05655422879
6.304,0.1522025133,0.01855121755
6.318,0.1283584581,-0.01052524302
6.332,0.09613798519,-0.02383805544
6.346,0.06490631682,-0.01996797659
6.36,0.04267751683,-0.002604178054
6.374,0.03390438463,0.02151088131
6.388,0.03890596011,0.04512011665
6.402,0.0548051592,0.06259063125
6.416,0.0773288747,0.07072188121
6.43,0.1020301682,0.06818513565
6.444,0.1242704617,0.05505032905
6.458,0.1392753398,0.03346015838
6.472,0.143667715,0.008252717724
6.486,0.137498201,-0.01431880971
6.5,0.1245072782,-0.02932504313
6.514,0.1102640584,-0.03504758212
6.528,0.100005755,-0.03298282621
6.542,0.09735708814,-0.02702753449
6.556,0.1033752407,-0.02261415376
6.57,0.115699701,-0.02516075267
6.584,0.1289662727,-0.03776643887
6.598,0.1369787888,-0.05975977217
6.612,0.1350902401,-0.08726925585
6.626,0.1212232647,-0.1147978527
6.64,0.09599977838,-0.136346093
6.654,0.06306427509,-0.1464174433
6.668,0.02900051608,-0.1418623198
6.682,0.001528032413,-0.1237367997
6.696,-0.01346819677,-0.09729439457
6.71,-0.01397271931,-0.06989880701
6.724,-0.001962754588,-0.04851032603
6.738,0.01761125758,-0.03791257103
6.752,0.03835396546,-0.03960951069
6.766,0.05450673888,-0.05161319642
6.78,0.06279384479,-0.06979812547
6.794,0.06251340374,-0.09008313645
6.808,0.0540673054,-0.1093246011
6.822,0.03825480793,-0.1244193698
6.836,0.01747272807,-0.1319065888
6.85,-0.003313661805,-0.1298485706
6.864,-0.0183345456,-0.1202279668
6.878,-0.0245605475,-0.1086858416
6.892,-0.02363181969,-0.1013012409
6.906,-0.0205574535,-0.1012443411
6.92,-0.02073050322,-0.1076946173
6.934,-0.02749256871,-0.1169644658
6.948,-0.04120613695,-0.1245855006
6.962,-0.05988818283,-0.1272291941
6.976,-0.08085319834,-0.123384678
6.99,-0.1018093822,-0.1124230352
7.004,-0.120109069,-0.09361667104
7.018,-0.1314392405,-0.06726653525
7.032,-0.1309390615,-0.03723125884
7.046,-0.1170854112,-0.01115488944
7.06,-0.0944160361,0.003516710984
7.074,-0.07141859884,0.004489921259
7.088,-0.05512673705,-0.004411898486
7.102,-0.04757298715,-0.01699810903
7.116,-0.04686404029,-0.02910156323
7.13,-0.05075206127,-0.03972884999
7.144,-0.05888780456,-0.04897809968
7.158,-0.07209329781,-0.0554815192
7.172,-0.0897723225,-0.05592359377
7.186,-0.1080159708,-0.04733738612
7.2,-0.1207499732,-0.03049748819
7.214,-0.1239076414,-0.01098665969
7.228,-0.1191050886,0.00419725685
7.242,-0.1126324129,0.0120796491
7.256,-0.1100231707,0.0157534225
7.27,-0.1115905778,0.02069784524
7.284,-0.1134914178,0.02936790962
7.298,-0.112613019,0.03982904075
7.312,-0.1095608059,0.04923434653
7.326,-0.1068680862,0.05758612905
7.34,-0.1050948018,0.06764219122
7.354,-0.1012241816,0.08145178901
7.368,-0.09091805948,0.09718637311
7.382,-0.07261071728,0.1092996139
7.396,-0.04992456745,0.1122281289
7.41,-0.02994001761,0.1048852209
7.424,-0.01813843691,0.09190004869
7.438,-0.0143934193,0.07984672503
7.452,-0.01420151196,0.07173144915
7.466,-0.01412588732,0.06548009571
7.48,-0.01547583149,0.05813766594
7.494,-0.02199210807,0.05091175991
7.508,-0.03424854763,0.04911905898
7.522,-0.04723601038,0.05703053886
7.536,-0.05380159408,0.07327556733
7.55,-0.0502843826,0.09145393474
7.564,-0.0389662574,0.1050271763
7.578,-0.02555086055,0.1118676332
7.592,-0.01424848401,0.1147771738
7.606,-0.004684172454,0.1178567477
7.62,0.006723731641,0.1219910306
7.634,0.0220803621,0.1237400833
7.648,0.0386690685,0.1190999315
7.662,0.05087300491,0.1084892559
7.676,0.05581984316,0.09733896976
7.69,0.05663948082,0.09112322263
7.704,0.05951877167,0.09005419905
7.718,0.0676928441,0.08917259512
7.732,0.07876024793,0.08344258018
7.746,0.08759845698,0.07223350244
7.76,0.09118744808,0.05904198082
7.774,0.09056506054,0.04766686563
7.788,0.08879812189,0.03895850728
7.802,0.08745531398,0.03085784439
7.816,0.0848445507,0.02135700149
7.83,0.07770428944,0.01168575755
7.844,0.0651768189,0.0065376684
7.858,0.05134867767,0.01038725089
7.872,0.04324349687,0.02295169469
7.886,0.04556564359,0.03847015118
7.9,0.05728034574,0.04986889138
7.914,0.07332990364,0.05362383728
7.928,0.08917899079,0.05063066571
7.942,0.1032974797,0.04319360079
7.956,0.1158671159,0.03216367625
7.97,0.1262672447,0.01698053778
7.984,0.1322780766,-0.002344518123
7.998,0.1313819602,-0.02371534061
8.012,0.1227773671,-0.04314909253
8.026,0.1086446273,-0.05657364849
8.04,0.09358864175,-0.06226033109
8.054,0.08212549771,-0.06210950622
8.068,0.07593292524,-0.06032997194
8.082,0.07336671717,-0.06040519876
8.096,0.07159343504,-0.06321412683
8.11,0.06884298526,-0.06780756036
8.124,0.06460514001,-0.07317248944
8.138,0.05855953404,-0.07868535308
8.152,0.0502961219,-0.08340107612
8.166,0.04003013161,-0.08587812686
8.18,0.02893818642,-0.08488949283
8.194,0.01874763363,-0.07991661209
8.208,0.01148540326,-0.07115964082
8.222,0.009450341815,-0.05993256099
8.236,0.01432756892,-0.04933550777
8.25,0.02546652012,-0.04370909067
8.264,0.03917231155,-0.04640224606
8.278,0.05025702026,-0.05765698068
8.292,0.05465928691,-0.07454207989
8.306,0.05102613628,-0.09273758642
8.32,0.04053435416,-0.1085673724
8.334,0.02557992768,-0.1201519435
8.348,0.008181087311,-0.1273030765
8.362,-0.01088931737,-0.1301813949
8.376,-0.03120370399,-0.1278034784
8.39,-0.0505906322,-0.1184375429
8.404,-0.06459953223,-0.1023275008
8.418,-0.06936289884,-0.08383369237
8.432,-0.06554612267,-0.06962673577
8.446,-0.05885129957,-0.06378617251
8.46,-0.05586473862,-0.06462599977
8.474,-0.05917009607,-0.06650956994
8.488,-0.06629433724,-0.06465903934
8.502,-0.07282784472,-0.05832708782
8.516,-0.07625799801,-0.05003207339
8.53,-0.07722815292,-0.04237131023
8.544,-0.07767094322,-0.03553861142
8.558,-0.07780995757,-0.0277228555
8.572,-0.07505423373,-0.01813746863
8.586,-0.06649972385,-0.00974226627
8.6,-0.05315814458,-0.008169178733
8.614,-0.04130274527,-0.01681055056
8.628,-0.03847927321,-0.03270382601
8.642,-0.04752341319,-0.04790482577
8.656,-0.06459093772,-0.0553863951
8.67,-0.0830102547,-0.0535737484
8.684,-0.0985956015,-0.04541858826
8.698,-0.1111867319,-0.03397912687
8.712,-0.1218926335,-0.01952990007
8.726,-0.1297545539,-0.0006532305687
8.74,-0.1312862254,0.02245873333
8.754,-0.1232231306,0.04591987871
8.768,-0.1060776281,0.06343215535
8.782,-0.08526352375,0.07035933271
8.796,-0.06815911871,0.06737037356
8.81,-0.05910240663,0.06009149876
8.824,-0.05687100629,0.0546358452
8.838,-0.05711104229,0.05326579384
8.852,-0.05689698145,0.05444226527
8.866,-0.05638448798,0.0564741656
8.88,-0.0563427589,0.059982234
8.894,-0.05533822265,0.0664184036
8.908,-0.05025218146,0.0749679017
8.922,-0.03942865325,0.08177734321
8.936,-0.02495004502,0.08238040917
8.95,-0.01195619664,0.07495554239
8.964,-0.005747900634,0.06185914613
8.978,-0.008728257813,0.04854864541
8.992,-0.01909374006,0.0406095782
9.006,-0.03220287331,0.04083056217
9.02,-0.04358072104,0.04853383042
9.034,-0.05086232252,0.06148816617
9.048,-0.05307687407,0.07800624989
9.062,-0.04890126037,0.09679177829
9.076,-0.03669499103,0.1152652678
9.09,-0.01645221182,0.1292234605
9.104,0.008961197528,0.1347653406
9.118,0.03488164968,0.1303558558
9.132,0.05683981318,0.1170659445
9.146,0.07156702412,0.09763213592
9.16,0.07718511876,0.07585238915
9.174,0.07368828306,0.0562267248
9.188,0.06348342416,0.04287868808
9.202,0.05089774259,0.03802387523
9.216,0.04067196027,0.04120122829
9.23,0.03648854357,0.0496161517
9.244,0.0400234888,0.05900520787
9.258,0.05036720455,0.0648180704
9.272,0.0641531338,0.06381482674
9.286,0.07688239117,0.05533496194
9.3,0.08471033736,0.0411984309
9.314,0.08531306952,0.02463186227
9.328,0.07789219513,0.009626916458
9.342,0.06367372028,0.0007630914632
9.356,0.04690507158,0.001941301715
9.37,0.03431543518,0.01378046757
9.384,0.03200757337,0.03210067646
9.398,0.04199349767,0.04966888452
9.412,0.06147927193,0.0599986368
9.426,0.08514896891,0.0599407699
9.44,0.1079174955,0.04955457862
9.454,0.1260869316,0.03055079609
9.468,0.1370177629,0.005160293535
9.482,0.138486365,-0.02391453514
9.496,0.1287140229,-0.05279821453
9.51,0.1076111034,-0.0759479352
9.524,0.0787081019,-0.08729337356
9.538,0.04965721729,-0.083450736
9.552,0.0294225938,-0.06682432068
9.566,0.02344470331,-0.0452828967
9.58,0.03078625352,-0.02794731208
9.594,0.04563232143,-0.02058719782
9.608,0.06117461174,-0.02420779622
9.622,0.07224288042,-0.03664877685
9.636,0.07559826905,-0.05441659938
9.65,0.06956074705,-0.07323303974
9.664,0.05436050252,-0.08815585394
9.678,0.0328274199,-0.09442592743
9.692,0.01044716729,-0.08906008546
9.706,-0.005736822362,-0.07257486649
9.72,-0.009550466664,-0.04997106355
9.734,0.001148557829,-0.02972429249
9.748,0.0225995743,-0.02027384835
9.762,0.04658974132,-0.02587699815
9.776,0.06455311894,-0.04499214329
9.79,0.07104699442,-0.07217303968
9.804,0.06434872966,-0.1011035492
9.818,0.04524781021,-0.1261251064
9.832,0.01632313749,-0.1423281824
9.846,-0.01791536773,-0.1459083042
9.86,-0.05128358289,-0.1352765886
9.874,-0.07714056749,-0.1119678788
9.888,-0.09000016075,-0.08074316491
9.902,-0.08717819097,-0.04897472599
9.916,-0.07034723224,-0.02501931749
9.93,-0.04596302294,-0.01528420918
9.944,-0.02326324026,-0.02124355597
9.958,-0.01043516317,-0.03868571522
9.972,-0.01147208693,-0.0598528501
9.986,-0.02544854303,-0.07667996358
10,-0.04761702253,-0.08319437968
