"Freq [GHz]","re(S(Tx_p1,Tx_p1)) []","im(S(Tx_p1,Tx_p1)) []"
3,-0.08603807905,0.1070981133
3.014,-0.1034170593,0.1150243012
3.028,-0.113128654,0.1384601554
3.042,-0.1063619163,0.1676704133
3.056,-0.08453919486,0.1901796243
3.07,-0.05691686162,0.1994184407
3.084,-0.03299929933,0.1975660579
3.098,-0.01645457356,0.1917210789
3.112,-0.004482086626,0.1874963289
3.126,0.007781915319,0.1849783921
3.14,0.02156122277,0.1800684982
3.154,0.03259369596,0.1702659836
3.168,0.03568787146,0.159421641
3.182,0.03176267254,0.1557077423
3.196,0.02955553385,0.1636378369
3.21,0.03892283757,0.1781822163
3.224,0.06187694146,0.1877329015
3.238,0.09037166267,0.1834857535
3.252,0.1129029376,0.1662860388
3.266,0.1235046608,0.1450400624
3.28,0.1254171998,0.128854792
3.294,0.1270247992,0.1197809394
3.308,0.1336791787,0.1118931224
3.322,0.1421115255,0.09770190331
3.336,0.1429234793,0.07697323475
3.35,0.130338803,0.05954167701
3.364,0.1105313248,0.05761413231
3.378,0.09907431251,0.07346956606
3.392,0.1081040411,0.09490893904
3.406,0.1351647974,0.1042567153
3.42,0.1649765305,0.09284782487
3.434,0.1824378381,0.06717248679
3.448,0.1842746365,0.04152045938
3.462,0.179073994,0.02504071712
3.476,0.1770717265,0.01529379198
3.49,0.179936035,0.003293023611
3.504,0.1799373322,-0.01547706237
3.518,0.1691833742,-0.03482575028
3.532,0.1500447055,-0.04311187447
3.546,0.135686418,-0.03578683595
3.56,0.1385089674,-0.02257910362
3.574,0.1572717244,-0.0205390205
3.588,0.1766492136,-0.03861517971
3.602,0.1806972375,-0.06929830129
3.616,0.1668278353,-0.09604181659
3.63,0.1463992019,-0.1086329116
3.644,0.1323387441,-0.111012072
3.658,0.1269476346,-0.1148817335
3.672,0.1213250246,-0.1267602923
3.686,0.1057251253,-0.1412082158
3.7,0.08050459474,-0.1460390969
3.714,0.05755261767,-0.1344680192
3.728,0.05053195493,-0.1131524764
3.742,0.0622582818,-0.09820312401
3.756,0.08107225527,-0.1018352594
3.77,0.09049064505,-0.1218776572
3.784,0.08329524727,-0.1445713394
3.798,0.06615817025,-0.1578896493
3.812,0.05067943923,-0.1616357531
3.826,0.04104431667,-0.1644821712
3.84,0.03122442792,-0.172458003
3.854,0.01344713694,-0.1817307403
3.868,-0.01196896629,-0.1826289306
3.882,-0.03543487956,-0.1699324257
3.896,-0.04628030949,-0.1491059089
3.91,-0.04250962455,-0.1327142204
3.924,-0.03328034414,-0.1300854063
3.938,-0.03148298815,-0.1392598572
3.952,-0.04262145849,-0.1488369646
3.966,-0.06037250477,-0.1485974873
3.98,-0.07349025462,-0.1388342479
3.994,-0.07725069698,-0.1289657264
4.008,-0.07763488508,-0.1270590266
4.022,-0.08432999902,-0.1314922794
4.036,-0.1005889276,-0.1330461188
4.05,-0.1203242548,-0.1241449866
4.064,-0.1340716582,-0.1054558317
4.078,-0.1368821617,-0.08451649699
4.092,-0.1312705958,-0.06925916462
4.106,-0.1241272637,-0.06249697013
4.12,-0.1210588599,-0.06113320331
4.134,-0.1226701678,-0.05997863844
4.148,-0.1256603175,-0.05676277343
4.162,-0.1276770339,-0.05363581964
4.176,-0.1308792633,-0.0533916938
4.19,-0.1398718709,-0.05439573878
4.204,-0.1558315485,-0.05029271135
4.218,-0.1734023148,-0.03545603172
4.232,-0.1840616819,-0.01053734232
4.246,-0.1825506772,0.01751818098
4.26,-0.1702506071,0.04051658058
4.274,-0.1532896452,0.054169904
4.288,-0.1379383874,0.05961062034
4.302,-0.1269503356,0.06111573352
4.316,-0.1190497217,0.0621490504
4.33,-0.1117825015,0.0626892587
4.344,-0.1053996736,0.06033401927
4.358,-0.1037315435,0.05458442351
4.372,-0.1103416299,0.04984265508
4.386,-0.1235960631,0.05315373515
4.4,-0.1361799276,0.06839994556
4.414,-0.1398622267,0.09281198579
4.428,-0.1307133552,0.1188808233
4.442,-0.1104511962,0.1389463337
4.456,-0.08443854118,0.148322986
4.47,-0.05917789251,0.1460705575
4.484,-0.04039871466,0.1346934062
4.498,-0.03145435574,0.1191404023
4.512,-0.03258874169,0.1049507302
4.526,-0.04167934992,0.09665729043
4.54,-0.05526485864,0.09757293438
4.554,-0.06839193503,0.1098640731
4.568,-0.07433983919,0.1331221087
4.582,-0.0665714916,0.162367205
4.596,-0.04257574019,0.1885308442
4.61,-0.006244220307,0.202302528
4.624,0.03350951393,0.1986028113
4.638,0.06669583543,0.1786234508
4.652,0.0861720693,0.1488691711
4.666,0.08999267343,0.1182326419
4.68,0.08143548357,0.09430611043
4.694,0.06648262918,0.08072248033
4.708,0.05041281948,0.07743315287
4.722,0.03659703767,0.08332178671
4.736,0.02829325022,0.09764834244
4.75,0.03014015361,0.1182000668
4.764,0.04606516232,0.1388088631
4.778,0.07517382869,0.1504682459
4.792,0.1103129893,0.1460687581
4.806,0.1411180668,0.1245009838
4.82,0.1587447245,0.09100554402
4.834,0.1590054806,0.05462886269
4.848,0.1432876628,0.02499370811
4.862,0.1178538272,0.00930591232
4.876,0.09161031932,0.01014123175
4.89,0.07300494431,0.025128444
4.904,0.0679063247,0.04853485197
4.918,0.07920267085,0.07286045456
4.932,0.1064378277,0.08937692889
4.946,0.1442942709,0.08936762527
4.96,0.182017989,0.06777751845
4.974,0.2066519204,0.02722606183
4.988,0.2091190899,-0.02173527961
5.002,0.1887034894,-0.06519268701
5.016,0.1528730658,-0.0920118207
5.03,0.1133911822,-0.09776349852
5.044,0.08151057747,-0.08520822423
5.058,0.06433115834,-0.06205426499
5.072,0.06351306845,-0.0373431404
5.086,0.07658602736,-0.0184558545
5.1,0.09919845044,-0.01043099413
5.114,0.1258272318,-0.0167879594
5.128,0.1489582073,-0.03907468415
5.142,0.1597268246,-0.07443663415
5.156,0.1516670565,-0.1143402537
5.17,0.1247671875,-0.147353332
5.184,0.08583683389,-0.1643317876
5.198,0.04511933839,-0.1617743566
5.212,0.01254347293,-0.1418083083
5.226,-0.004350806797,-0.1108086536
5.24,-0.001798904915,-0.07821319918
5.254,0.01862675506,-0.05467405913
5.268,0.04956556858,-0.04880762608
5.282,0.07982690009,-0.06397231147
5.296,0.09796782385,-0.09694045964
5.31,0.09584784701,-0.1387328749
5.324,0.0713467851,-0.1770864049
5.338,0.02955789937,-0.200332518
5.352,-0.0187341024,-0.2016878779
5.366,-0.06121835841,-0.1815741281
5.38,-0.08838822837,-0.1465324586
5.394,-0.09558941382,-0.1062440204
5.408,-0.08313330924,-0.07107365859
5.422,-0.05622598878,-0.05027296703
5.436,-0.02455492341,-0.04949231801
5.45,0.0001920701459,-0.06812081407
5.464,0.008711531294,-0.09895794636
5.478,-0.002428749876,-0.1311935608
5.492,-0.03036418563,-0.1546209849
5.506,-0.06792251034,-0.1625721954
5.52,-0.1062573599,-0.1530005168
5.534,-0.1372488637,-0.1282163604
5.548,-0.1552193501,-0.09356870626
5.562,-0.1573825763,-0.05578288261
5.576,-0.1435351754,-0.02218503954
5.59,-0.1166561113,-0.0005489649224
5.604,-0.08440734741,0.00266600092
5.618,-0.05852722263,-0.01362540156
5.632,-0.0499431234,-0.04226450803
5.646,-0.06250532045,-0.07031388904
5.66,-0.09098658691,-0.08589679263
5.674,-0.1250750089,-0.08369558881
5.688,-0.1551967645,-0.06513120907
5.702,-0.1753133017,-0.03495276156
5.716,-0.1822129483,0.001480548623
5.73,-0.1742181496,0.03844593295
5.744,-0.1515270021,0.0691400765
5.758,-0.1178977422,0.08620951791
5.772,-0.08175218078,0.08443855535
5.786,-0.05452957372,0.06450757272
5.8,-0.04569279744,0.03477697407
5.814,-0.0571844206,0.008219328287
5.828,-0.08216497825,-0.004451938965
5.842,-0.1097630488,-2.949667378E-05
5.856,-0.1315712987,0.01796265528
5.87,-0.1440017339,0.0441879588
5.884,-0.1458084571,0.07470383733
5.898,-0.1355099464,0.1058431491
5.912,-0.1123833474,0.1319574845
5.926,-0.07942331477,0.1460952488
5.94,-0.04431331919,0.1435787121
5.954,-0.01695173215,0.1253015791
5.968,-0.005166023759,0.09828079563
5.982,-0.01102825028,0.07310464918
5.996,-0.0297451352,0.05935946351
6.01,-0.05214136107,0.06141404369
6.024,-0.06938008115,0.07744132414
6.038,-0.07626088948,0.1021933547
6.052,-0.0707907138,0.1302970907
6.066,-0.05215390667,0.1566641963
6.08,-0.02093985508,0.174969873
6.094,0.01827263743,0.1782267154
6.108,0.05602148714,0.1627175381
6.122,0.08143682858,0.1316756136
6.136,0.08776376983,0.09473746242
6.15,0.07552007036,0.06344300889
6.164,0.05152978652,0.04628632735
6.178,0.02536941697,0.04611318272
6.192,0.005602561396,0.06038529243
6.206,-0.002501358908,0.08340659226
6.22,0.002934968851,0.1088291776
6.234,0.02156770952,0.1307108452
6.248,0.05115341943,0.1431664847
6.262,0.08635907933,0.1408594538
6.276,0.1184181142,0.1217383588
6.29,0.1380707382,0.08977811162
6.304,0.1403142674,0.05414566392
6.318,0.126738262,0.02476364387
6.332,0.1037030776,0.008135500157
6.346,0.07895530351,0.006305730195
6.36,0.05967198324,0.01784221374
6.374,0.05177225905,0.03846950293
6.388,0.05879396725,0.06128265491
6.402,0.08033117362,0.0779897308
6.416,0.1114945164,0.08134730605
6.43,0.1440005515,0.06755327761
6.444,0.1683723752,0.03774801681
6.458,0.1768605484,-0.001700957303
6.472,0.1665041932,-0.04083394231
6.486,0.1405945257,-0.06979228841
6.5,0.1070676857,-0.08262815145
6.514,0.0749651238,-0.07865878771
6.528,0.05176064804,-0.06126065973
6.542,0.0425424554,-0.03634545626
6.556,0.04949911885,-0.01169468933
6.57,0.07069178705,0.004125176479
6.584,0.0994754847,0.004366111877
6.598,0.126160316,-0.01303913798
6.612,0.141342802,-0.04438940977
6.626,0.1391153719,-0.08135374407
6.64,0.1191167543,-0.1135968717
6.654,0.08692562153,-0.1323002979
6.668,0.05207685669,-0.1335758507
6.682,0.02403817459,-0.1197340517
6.696,0.008632455927,-0.0973197765
6.71,0.007271250079,-0.07377709428
6.724,0.01827541839,-0.05558505396
6.738,0.03770227394,-0.0480323117
6.752,0.05917354694,-0.05447126936
6.766,0.07474517297,-0.07446046914
6.78,0.07772051253,-0.1029433009
6.794,0.06538069555,-0.1319949426
6.808,0.03955319441,-0.153741332
6.822,0.005532300961,-0.1623821486
6.836,-0.02916753633,-0.1552836534
6.85,-0.05632377746,-0.1339795157
6.864,-0.06951570232,-0.1044338937
6.878,-0.06668289856,-0.07530838711
6.892,-0.0508344799,-0.05480332322
6.906,-0.02862806826,-0.04806479063
6.92,-0.008176872438,-0.05608046918
6.934,0.003090680912,-0.07558574622
6.948,0.0005810567357,-0.0998892414
6.962,-0.01594344279,-0.1210312307
6.976,-0.0426550175,-0.1324946645
6.99,-0.07344873404,-0.1307424698
7.004,-0.1015055487,-0.1153214442
7.018,-0.1201817684,-0.08897563667
7.032,-0.1246550662,-0.05804395696
7.046,-0.114583311,-0.03122579641
7.06,-0.0952464877,-0.01582895714
7.074,-0.07506381373,-0.01409117757
7.088,-0.06120789446,-0.02286219459
7.102,-0.05701501021,-0.03644032567
7.116,-0.06240225147,-0.0494586988
7.13,-0.07538962999,-0.05792950533
7.144,-0.09299264397,-0.05920882583
7.158,-0.1116070894,-0.05199751698
7.172,-0.1273617972,-0.0364087124
7.186,-0.1363708337,-0.01412225245
7.2,-0.1353385145,0.01106671701
7.214,-0.1233195589,0.03315185842
7.228,-0.1036717195,0.04593277585
7.242,-0.08352517819,0.04669937932
7.256,-0.06996563715,0.03826608282
7.27,-0.06600325878,0.02695669144
7.284,-0.06996847667,0.01839699145
7.298,-0.07820408381,0.01507528773
7.312,-0.08777277449,0.01706994958
7.326,-0.09696156572,0.02393819246
7.34,-0.1042682382,0.03552107276
7.354,-0.1075828813,0.05134411509
7.368,-0.1044818032,0.06950547698
7.382,-0.09370997379,0.08616277477
7.396,-0.07701059626,0.09671647995
7.41,-0.05934108279,0.09867699477
7.424,-0.04616519692,0.09390634578
7.438,-0.03966056821,0.08746139244
7.452,-0.03767598939,0.08358935971
7.466,-0.03661675481,0.08293022395
7.48,-0.0349155535,0.08369949718
7.494,-0.03332789918,0.08487508593
7.508,-0.032462409,0.08742984899
7.522,-0.03100395459,0.09265498061
7.536,-0.02650666406,0.1000578992
7.55,-0.01747949343,0.1070747531
7.564,-0.004765737749,0.1105092097
7.578,0.008581023756,0.108502729
7.592,0.01889492955,0.1019391894
7.606,0.02431105862,0.09416271648
7.62,0.02617460873,0.08859685743
7.634,0.02770085438,0.08602492782
7.648,0.03080838793,0.08438407893
7.662,0.03446036827,0.08149374471
7.676,0.03634661846,0.07768736138
7.69,0.03585936543,0.07546284298
7.704,0.03507903906,0.07683845827
7.718,0.03711842896,0.08135331037
7.732,0.0438028245,0.08629186193
7.746,0.05451339726,0.08841571054
7.76,0.06661298171,0.08585984023
7.774,0.07712734804,0.0791465455
7.788,0.08470746537,0.070478241
7.802,0.09011892305,0.06157648118
7.816,0.0944408758,0.05222204619
7.83,0.09694491772,0.04146777871
7.844,0.09559563789,0.03025837504
7.858,0.0900098561,0.02191447965
7.872,0.08325610557,0.0193065825
7.886,0.08000011465,0.0217703087
7.9,0.08285605787,0.02520435881
7.914,0.09060939446,0.02504939049
7.928,0.09945075963,0.01912466061
7.942,0.1055004611,0.008374560859
7.956,0.1067810509,-0.004203573097
7.97,0.1038945566,-0.01551266005
7.984,0.09908359409,-0.02422942295
7.998,0.09405535856,-0.03120365606
8.012,0.08846641994,-0.03767774586
8.026,0.08095350221,-0.04302989678
8.04,0.07180936518,-0.04484099192
8.054,0.06410828971,-0.04157643757
8.068,0.06171008804,-0.03495290245
8.082,0.06615458672,-0.02941977507
8.096,0.07537733413,-0.02942450633
8.11,0.0848948586,-0.03693286188
8.124,0.09011660673,-0.05062892781
8.138,0.08843736765,-0.06677049572
8.152,0.08020232187,-0.08120493175
8.166,0.06785047003,-0.09145238586
8.18,0.05379381335,-0.09715218914
8.194,0.03925774639,-0.09848695754
8.208,0.02548253028,-0.09482779687
8.222,0.01540165612,-0.08592221266
8.236,0.01267775512,-0.07442047199
8.25,0.01824581211,-0.06603952249
8.264,0.02816543154,-0.0660987873
8.278,0.03553530356,-0.07554773724
8.292,0.03485544934,-0.09024413346
8.306,0.02507998676,-0.1037850226
8.32,0.009470739263,-0.1112662031
8.334,-0.006958380853,-0.1114928603
8.348,-0.02055859565,-0.1066726294
8.362,-0.03077904177,-0.09992570746
8.376,-0.03910792197,-0.09244858658
8.39,-0.04600019536,-0.08308542819
8.404,-0.0491217153,-0.07114359699
8.418,-0.04547570282,-0.05944409838
8.432,-0.03558055236,-0.05361415072
8.446,-0.02498765244,-0.05760838872
8.46,-0.02102948927,-0.06984206844
8.474,-0.02772401966,-0.08375575734
8.488,-0.04332135613,-0.09211638606
8.502,-0.06204251047,-0.09127373663
8.516,-0.07806585673,-0.08240379521
8.53,-0.08869421423,-0.06944229583
8.544,-0.09459777743,-0.05563493116
8.558,-0.09721375504,-0.04164114934
8.572,-0.09600264881,-0.02702136022
8.586,-0.08890532126,-0.0134990283
8.6,-0.07605297739,-0.005780214353
8.614,-0.06244025958,-0.007911050522
8.628,-0.05559997566,-0.01858778704
8.642,-0.05985998733,-0.03080208464
8.656,-0.07291646126,-0.03670671587
8.67,-0.08800312055,-0.03298073728
8.684,-0.09908608116,-0.02190939615
8.698,-0.1041997729,-0.008189139055
8.712,-0.1048512563,0.004902680028
8.726,-0.1031136374,0.01691292377
8.74,-0.09923396955,0.02876733505
8.754,-0.091668017,0.04012277842
8.768,-0.07956514491,0.04806325139
8.782,-0.06544305053,0.04888675024
8.796,-0.05493681869,0.04185283341
8.81,-0.0530118195,0.03114987309
8.824,-0.05998688279,0.02357288847
8.838,-0.07132011863,0.02386271508
8.852,-0.08118024296,0.03211617314
8.866,-0.08607846342,0.04514561975
8.88,-0.08557836223,0.05956462751
8.894,-0.08060944407,0.0735246182
8.908,-0.0717151582,0.08630964962
8.922,-0.0586793991,0.09694880053
8.936,-0.0415847468,0.1032671903
8.95,-0.02246655198,0.1024282989
8.964,-0.0059161505,0.09315556637
8.978,0.002830737571,0.07800257089
8.992,0.001456759611,0.06303075035
9.006,-0.007472707707,0.05435163157
9.02,-0.01827988314,0.05447950098
9.034,-0.02590064049,0.06178716146
9.048,-0.02799348703,0.07283970878
9.062,-0.02435102805,0.0846188934
9.076,-0.0155679956,0.09491628992
9.09,-0.002661707105,0.1018823829
9.104,0.01274013317,0.1040258087
9.118,0.02846674932,0.1005071785
9.132,0.04195009118,0.09130461884
9.146,0.05032488782,0.077630984
9.16,0.05124211143,0.06259784797
9.174,0.04457652076,0.05090030631
9.188,0.03350658008,0.04677242376
9.202,0.02345070761,0.0515577976
9.216,0.01947716308,0.06295036623
9.23,0.02416869918,0.07626476919
9.244,0.03699827674,0.08647826319
9.258,0.05494688281,0.08996457819
9.272,0.073914551,0.08547747789
9.286,0.0903793231,0.07393735147
9.3,0.1021403808,0.05711594792
9.314,0.1075240771,0.03671652485
9.328,0.1045495343,0.01522817218
9.342,0.09219664692,-0.002685354597
9.356,0.07313319703,-0.01117892155
9.37,0.05440100769,-0.00705235612
9.384,0.04408120373,0.007061115713
9.398,0.04642587572,0.02361252695
9.412,0.05966121731,0.03449120351
9.426,0.07777172927,0.0350994547
9.44,0.09411591266,0.02556982781
9.454,0.1042618761,0.009366746191
9.468,0.1068984962,-0.009178996645
9.482,0.1028538197,-0.02687081841
9.496,0.09322834148,-0.04192353766
9.51,0.07861954662,-0.0524984201
9.524,0.06062368213,-0.05561461963
9.538,0.04385246954,-0.04877015146
9.552,0.03512207987,-0.03339901986
9.566,0.03922257535,-0.01624136791
9.58,0.05491326222,-0.006221206504
9.594,0.07509561859,-0.009108180324
9.608,0.09104820043,-0.02445281439
9.622,0.09708070927,-0.04681742997
9.636,0.092366777,-0.06958999448
9.65,0.07948116602,-0.08828694081
9.664,0.06144035943,-0.1012749101
9.678,0.03989526758,-0.1078935468
9.692,0.01624197924,-0.1062395599
9.706,-0.005493092304,-0.0937388573
9.72,-0.01792408435,-0.07104352131
9.734,-0.01437385787,-0.04534094442
9.748,0.004985577755,-0.0283001522
9.762,0.03108507187,-0.02894344214
9.776,0.05083501858,-0.04741828868
9.79,0.05501547375,-0.07514089881
9.804,0.0427297728,-0.1007023986
9.818,0.0198283768,-0.1162249008
9.832,-0.006053984469,-0.1197641701
9.846,-0.02954717458,-0.1134465911
9.86,-0.04826944266,-0.1000459609
9.874,-0.06075177943,-0.08117971154
9.888,-0.06436110049,-0.05860033517
9.902,-0.05619077917,-0.03691935746
9.916,-0.03690494231,-0.02389958786
9.93,-0.01355383851,-0.02629199696
9.944,0.00275902821,-0.0442305751
9.958,0.003497959891,-0.06976475906
9.972,-0.01203030836,-0.0915181457
9.986,-0.03725251877,-0.1014786918
10,-0.06357370586,-0.09827064408
