"Freq [GHz]","re(S(Tx_p1,Tx_p1)) []","im(S(Tx_p1,Tx_p1)) []"
3,0.002699247195,0.01052968538
3.014,0.004552590181,0.009832157831
3.028,0.006242667227,0.008812845291
3.042,0.00771445554,0.0075077707
3.056,0.008920567894,0.005962201051
3.07,0.009822773235,0.004229076262
3.084,0.01039320148,0.00236719443
3.098,0.01061519481,0.0004392157189
3.112,0.01048377987,-0.0014904473
3.126,0.01000574797,-0.003357781792
3.14,0.009199343793,-0.005101297394
3.154,0.008093575845,-0.00666404916
3.168,0.006727174622,-0.007995494255
3.182,0.005147235777,-0.00905312198
3.196,0.00340759589,-0.009803804736
3.21,0.001566996864,-0.01022482723
3.224,-0.0003128984051,-0.01030456229
3.238,-0.00216957204,-0.01004277364
3.252,-0.00394172965,-0.009450538518
3.266,-0.00557132217,-0.008549795769
3.28,-0.007005444461,-0.007372537339
3.294,-0.00819804867,-0.005959672891
3.308,-0.009111417044,-0.004359607782
3.322,-0.009717347285,-0.002626583859
3.336,-0.009998013511,-0.000818839975
3.35,-0.009946476905,0.001003345374
3.364,-0.009566831996,0.002779663494
3.378,-0.008873986685,0.004451770059
3.392,-0.0078930863,0.0059651989
3.406,-0.006658603653,0.007271132328
3.42,-0.005213127936,0.008327970607
3.434,-0.003605895019,0.00910265032
3.448,-0.001891109859,0.009571670096
3.462,-0.0001261182046,0.00972179223
3.476,0.001630510725,0.009550399683
3.49,0.003320926519,0.009065499543
3.504,0.004889900434,0.008285375769
3.518,0.006286626356,0.007237905637
3.532,0.007466361248,0.005959565233
3.546,0.008391852322,0.004494159457
3.56,0.009034505626,0.00289132072
3.574,0.009375259706,0.001204827816
3.588,0.009405138016,-0.0005091981013
3.602,0.009125464597,-0.002194159932
3.616,0.008547738771,-0.00379485141
3.63,0.00769317587,-0.00525926276
3.644,0.006591931972,-0.006540266297
3.658,0.005282040849,-0.007597127495
3.672,0.003808100577,-0.0083967933
3.686,0.002219755144,-0.008914917212
3.7,0.0005700227559,-0.009136589667
3.714,-0.001086472891,-0.009056752245
3.728,-0.002695309399,-0.008680284804
3.742,-0.004204050842,-0.008021765492
3.756,-0.005563952867,-0.007104914333
3.77,-0.006731532423,-0.00596174139
3.784,-0.007669951782,-0.004631430011
3.798,-0.008350173026,-0.0031589941
3.812,-0.008751847119,-0.001593755399
3.826,-0.008863910725,1.230771312E-05
3.84,-0.008684873718,0.001606284675
3.854,-0.008222790665,0.003136073306
3.868,-0.007494919957,0.004552079307
3.882,-0.006527084452,0.005808819421
3.896,-0.005352757179,0.006866376591
3.91,-0.00401190439,0.007691660793
3.924,-0.002549625947,0.008259435986
3.938,-0.001014639252,0.008553081629
3.952,0.0005423423438,0.008565066178
3.966,0.00207028273,0.008297119614
3.98,0.003519492728,0.007760101966
3.994,0.004843241769,0.006973574796
4.008,0.005999259455,0.005965092208
4.022,0.006951078956,0.004769236977
4.036,0.007669179787,0.003426435461
4.05,0.008131894457,0.00198159188
4.064,0.008326051469,0.0004825880549
4.078,0.00824733603,-0.001021301317
4.092,0.007900359164,-0.002481025486
4.106,0.007298435528,-0.003849353639
4.12,0.006463079681,-0.005082398271
4.134,0.005423239677,-0.00614101698
4.148,0.004214295162,-0.00699204816
4.162,0.002876854649,-0.007609341807
4.176,0.001455392776,-0.007974553742
4.19,-3.226743544E-06,-0.008077679452
4.204,-0.001451293521,-0.007917312482
4.218,-0.002841807565,-0.007500621365
4.232,-0.004130000361,-0.006843048259
4.246,-0.005274770888,-0.005967741484
4.26,-0.006239990722,-0.004904742659
4.274,-0.006995637016,-0.003689956915
4.288,-0.007518718108,-0.002363941438
4.302,-0.007793963532,-0.0009705531564
4.316,-0.007814258087,0.0004444993954
4.33,-0.007580808112,0.001835152322
4.344,-0.007103036833,0.003156481861
4.358,-0.006398214517,0.004366150738
4.372,-0.005490837616,0.005425758981
4.386,-0.004411779133,0.006302056343
4.4,-0.00319723961,0.006967978274
4.414,-0.001887534315,0.00740347346
4.428,-0.0005257572205,0.007596097947
4.442,0.0008436340699,0.007541358605
4.456,0.002176266064,0.007242796956
4.47,0.003429282809,0.006711812816
4.484,0.004562718859,0.005967235617
4.498,0.005540767997,0.005034659325
4.512,0.006332907674,0.003945564357
4.526,0.00691484408,0.002736256566
4.54,0.007269248906,0.001446658987
4.554,0.007386265731,0.0001189964698
4.568,0.007263771631,-0.00120358356
4.582,0.006907387576,-0.002478409292
4.596,0.006330239304,-0.003664656513
4.61,0.005552478406,-0.00472465047
4.624,0.004600580921,-0.005625056279
4.638,0.003506447811,-0.006337920518
4.652,0.002306337789,-0.006841531704
4.666,0.001039668124,-0.007121073442
4.68,-0.000252276988,-0.007169050901
4.694,-0.001527688315,-0.006985478727
4.708,-0.002745580232,-0.006577826195
4.722,-0.003867102799,-0.005960723296
4.736,-0.004856775461,-0.005155439014
4.75,-0.005683603392,-0.004189150301
4.764,-0.006322041592,-0.003094026812
4.778,-0.006752777011,-0.001906162128
4.792,-0.006963304989,-0.0006643869061
4.806,-0.006948283132,0.0005909971268
4.82,-0.006709652943,0.001819521198
4.834,-0.006256527067,0.002981849476
4.848,-0.005604847491,0.004041033448
4.862,-0.004776827348,0.004963680864
4.876,-0.003800195767,0.00572100249
4.89,-0.00270727137,0.006289704066
4.904,-0.001533895289,0.006652696083
4.918,-0.0003182588384,0.006799599991
4.932,0.0009003359431,0.006727036122
4.946,0.002082742779,0.006438685695
4.96,0.003191224026,0.005945126497
4.974,0.004190650002,0.00526344911
4.988,0.005049606848,0.004416667451
5.002,0.005741378194,0.003432943884
5.016,0.006244770149,0.00234465491
5.03,0.006544754377,0.001187328339
5.044,0.006632909969,-1.513259772E-06
5.058,0.006507651366,-0.001183565329
5.072,0.006174236503,-0.002320971236
5.086,0.005644556372,-0.003377530013
5.1,0.004936714146,-0.004319843564
5.114,0.004074408661,-0.005118367168
5.128,0.003086143162,-0.005748330423
5.142,0.002004285655,-0.006190500135
5.156,0.0008640117416,-0.006431761834
5.17,-0.0002978356569,-0.006465502563
5.184,-0.00144393284,-0.006291783983
5.198,-0.002537670075,-0.005917301586
5.212,-0.003544316466,-0.005355132634
5.226,-0.004432118041,-0.004624282132
5.24,-0.00517329452,-0.003749042513
5.254,-0.005744903654,-0.002758188514
5.268,-0.006129546416,-0.001684033848
5.282,-0.006315891547,-0.0005613804974
5.296,-0.006299003824,0.0005736053455
5.31,-0.006080466748,0.001684554492
5.324,-0.005668296914,0.002736056004
5.338,-0.005076653968,0.003694781541
5.352,-0.004325356523,0.004530537272
5.366,-0.003439220487,0.005217210307
5.38,-0.002447241817,0.005733580154
5.394,-0.001381650523,0.006063970128
5.408,-0.000276866661,0.006198718884
5.422,0.0008316079648,0.006134458034
5.436,0.001908326852,0.005874188054
5.45,0.002919028321,0.005427151119
5.464,0.003831721653,0.004808505939
5.478,0.004617695569,0.004038815955
5.492,0.005252417404,0.003143368071
5.506,0.005716294949,0.002151344425
5.52,0.005995277449,0.00109487421
5.534,0.006081277444,7.996266135E-06
5.548,0.005972400918,-0.001074434195
5.562,0.005672979364,-0.002117859742
5.576,0.005193403663,-0.003089120263
5.59,0.004549765992,-0.003957503052
5.604,0.003763321997,-0.004695710321
5.618,0.002859791132,-0.005280713775
5.632,0.00186851811,-0.005694469638
5.646,0.000821522703,-0.005924472034
5.66,-0.0002475314476,-0.005964127847
5.674,-0.001304415913,-0.005812941945
5.688,-0.002315429984,-0.005476507687
5.702,-0.003248471851,-0.004966303827
5.716,-0.00407405454,-0.004299305087
5.73,-0.004766234556,-0.003497419509
5.744,-0.005303424117,-0.002586771179
5.758,-0.005669061635,-0.001596851693
5.772,-0.005852119719,-0.0005595678584
5.786,-0.005847435205,0.0004917837502
5.8,-0.005655851409,0.001523582508
5.814,-0.005284168806,0.002502955747
5.828,-0.004744906418,0.003398822979
5.842,-0.004055882185,0.004182879268
5.856,-0.003239626322,0.004830486738
5.87,-0.002322646878,0.005321446246
5.884,-0.001334571377,0.005640625106
5.898,-0.0003071922266,0.005778421458
5.912,0.0007265534506,0.005731051079
5.926,0.001733636906,0.005500648128
5.94,0.002681990227,0.005095177265
5.954,0.003541524723,0.004528160558
5.968,0.004285082987,0.003818228455
5.982,0.004889294597,0.002988509674
5.996,0.005335308572,0.002065879907
6.01,0.005609379684,0.001080093658
6.024,0.005703290455,6.282718316E-05
6.038,0.005614595926,-0.0009533367893
6.052,0.005346683947,-0.001935950092
6.066,0.004908649634,-0.002853732745
6.08,0.004314988522,-0.003677566325
6.094,0.0035851187,-0.00438141562
6.108,0.002742747611,-0.004943149459
6.122,0.001815104101,-0.005345234899
6.136,0.0008320605086,-0.005575283055
6.15,-0.0001748269861,-0.005626429602
6.164,-0.001173328986,-0.005497538318
6.178,-0.002131572209,-0.005193221646
6.192,-0.003019054719,-0.00472367811
6.206,-0.003807614799,-0.004104352246
6.22,-0.004472322745,-0.003355428313
6.234,-0.004992267414,-0.002501174315
6.248,-0.005351212739,-0.0015691576
6.262,-0.00553810365,-0.000589357304
6.276,-0.005547405659,0.0004067978483
6.29,-0.0053792677,0.001387435578
6.304,-0.005039503454,0.002321257791
6.318,-0.004539392191,0.003178537589
6.332,-0.00389530587,0.00393206385
6.346,-0.00312817479,0.00455800342
6.36,-0.002262809156,0.005036653648
6.374,-0.001327098489,0.005353061525
6.388,-0.0003511146756,0.005497490016
6.402,0.0006338526033,0.005465717042
6.416,0.001596297146,0.005259157959
6.43,0.002505502257,0.004884807996
6.444,0.003332519439,0.004355006869
6.458,0.004051088635,0.003687033429
6.472,0.004638470796,0.002902543614
6.486,0.005076166423,0.002026869941
6.5,0.005350497397,0.001088205126
6.514,0.005453033831,0.000116696101
6.528,0.005380852616,-0.0008565225257
6.542,0.005136619757,-0.001800324625
6.556,0.004728494193,-0.002684586506
6.57,0.004169856516,-0.003481146971
6.584,0.00347887155,-0.004164702936
6.598,0.002677899047,-0.00471361214
6.612,0.001792771587,-0.005110577523
6.626,0.0008519629257,-0.005343191659
6.64,-0.0001143264605,-0.005404324094
6.654,-0.001075137327,-0.00529233954
6.668,-0.001999742129,-0.005011140228
6.682,-0.002858626366,-0.004570031374
6.696,-0.003624429495,-0.003983414362
6.71,-0.004272815458,-0.003270317704
6.724,-0.004783245153,-0.002453781018
6.738,-0.005139626355,-0.001560111941
6.752,-0.005330820531,-0.0006180398822
6.766,-0.00535099061,0.0003422062048
6.78,-0.005199778842,0.00128986645
6.794,-0.004882309349,0.002194634123
6.808,-0.004409015536,0.003027623655
6.822,-0.003795298159,0.003762291756
6.836,-0.003061025212,0.004375282273
6.85,-0.002229889843,0.004847167936
6.864,-0.001328647011,0.005163065439
6.878,-0.0003862534495,0.005313104421
6.892,0.0005670614751,0.005292735546
6.906,0.001500764211,0.005102868111
6.92,0.002384993801,0.004749832991
6.934,0.003191515777,0.004245172373
6.948,0.003894622728,0.003605263222
6.962,0.004471952844,0.002850786745
6.976,0.004905200399,0.002006061001
6.99,0.005180695616,0.00109825817
7.004,0.005289835564,0.0001565316357
7.018,0.005229352507,-0.000788919101
7.032,0.005001411352,-0.001707815729
7.046,0.004613533288,-0.002570769698
7.06,0.004078348288,-0.003350221102
7.074,0.003413184594,-0.004021317916
7.088,0.002639508491,-0.004562707551
7.102,0.001782232486,-0.004957215554
7.116,0.0008689141314,-0.005192389887
7.13,-7.112875932E-05,-0.005260893556
7.144,-0.001007758123,-0.005160733223
7.158,-0.00191098079,-0.00489531668
7.172,-0.002751907872,-0.004473337553
7.186,-0.003503677745,-0.003908491113
7.2,-0.004142313168,-0.003219030463
7.214,-0.004647485211,-0.002427177478
7.228,-0.005003159676,-0.001558407462
7.242,-0.005198105484,-0.0006406305524
7.256,-0.005226248919,0.0002967038827
7.27,-0.005086862572,0.001223551124
7.284,-0.004784583109,0.002110233047
7.298,-0.004329257484,0.002928387369
7.312,-0.003735622668,0.003651873861
7.326,-0.003022829318,0.004257608605
7.34,-0.002213824742,0.004726299701
7.354,-0.001334615031,0.005043061001
7.368,-0.0004134300648,0.005197884359
7.382,0.0005201818478,0.005185955452
7.396,0.001436300669,0.005007803194
7.41,0.002305592387,0.004669278147
7.424,0.003100247197,0.004181360738
7.438,0.003794868136,0.003559805588
7.452,0.004367281813,0.002824633438
7.466,0.004799245373,0.00199948706
7.48,0.005077027203,0.00111087183
7.494,0.005191842894,0.0001873053523
7.508,0.005140132655,-0.0007415966322
7.522,0.004923671428,-0.001646068776
7.536,0.004549508304,-0.002497148752
7.55,0.004029737307,-0.003267603529
7.564,0.003381106986,-0.003932799699
7.578,0.002624481414,-0.004471490094
7.592,0.00178416991,-0.004866491582
7.606,0.0008871469938,-0.005105232473
7.62,-3.781240866E-05,-0.005180152108
7.634,-0.0009610548442,-0.005088939955
7.648,-0.001852997777,-0.00483460666
7.662,-0.002685076245,-0.004425384885
7.676,-0.003430656481,-0.003874463196
7.69,-0.004065887304,-0.003199561586
7.704,-0.004570462114,-0.002422362286
7.718,-0.004928267176,-0.001567814126
7.732,-0.005127895524,-0.0006633327352
7.746,-0.005163010133,0.0002620778138
7.76,-0.005032544805,0.001178753814
7.774,-0.004740736412,0.00205732148
7.788,-0.004296987548,0.002869636897
7.802,-0.003715564009,0.003589686339
7.816,-0.003015136851,0.004194418178
7.83,-0.002218183688,0.004664479845
7.844,-0.001350268413,0.004984836299
7.858,-0.0004392223842,0.005145250274
7.872,0.0004857467343,0.005140609002
7.886,0.001394989984,0.004971086986
7.9,0.002259366087,0.004642139664
7.914,0.003051174065,0.004164328177
7.928,0.003745039693,0.003552980884
7.942,0.004318727471,0.002827702434
7.956,0.004753852178,0.002011746111
7.97,0.005036467259,0.001131269504
7.984,0.005157511265,0.0002144972905
7.998,0.005113098064,-0.0007091821017
8.012,0.00490464155,-0.001610157112
8.026,0.004538810853,-0.002459540867
8.04,0.004027317469,-0.003230095936
8.054,0.003386541077,-0.003897106446
8.068,0.002637005999,-0.004439169697
8.082,0.001802724986,-0.004838881965
8.096,0.0009104312817,-0.005083396532
8.11,-1.127652559E-05,-0.005164836113
8.124,-0.0009328495533,-0.005080546435
8.138,-0.001824734359,-0.004833182819
8.152,-0.002658319141,-0.004430626957
8.166,-0.003406850164,-0.003885736464
8.18,-0.004046289112,-0.00321593515
8.194,-0.004556083942,-0.002442657039
8.208,-0.004919828555,-0.001590661845
8.222,-0.005125790152,-0.0006872437001
8.236,-0.005167287348,0.0002386416095
8.25,-0.005042906867,0.001157303055
8.264,-0.004756551803,0.002039264845
8.278,-0.0043173198,0.002856210604
8.292,-0.003739214927,0.00358189106
8.306,-0.003040702347,0.004192966195
8.32,-0.002244119908,0.0046697549
8.334,-0.001374965343,0.004996868078
8.348,-0.0004610818026,0.005163704873
8.362,0.0004682323624,0.005164796042
8.376,0.00138316113,0.00499998335
8.39,0.002254325733,0.004674429118
8.404,0.003053726451,0.004198455446
8.418,0.003755641138,0.003587218099
8.432,0.004337451693,0.002860225316
8.446,0.004780371984,0.002040716765
8.46,0.005070053812,0.00115492238
8.474,0.005197051409,0.0002312246309
8.488,0.005157129443,-0.0007007490557
8.502,0.004951404487,-0.001611074795
8.516,0.00458631523,-0.002470491341
8.53,0.004073422164,-0.003251339115
8.544,0.003429042932,-0.003928449087
8.558,0.002673734809,-0.004479952989
8.572,0.001831640649,-0.004887988825
8.586,0.0009297190666,-0.005139278942
8.6,-3.11668654E-06,-0.005225561981
8.614,-0.000936923697,-0.005143864656
8.628,-0.001841688705,-0.004896604414
8.642,-0.002688291088,-0.004491519443
8.656,-0.003449438677,-0.003941427983
8.67,-0.004100546382,-0.003263824378
8.684,-0.004620529402,-0.002480324545
8.698,-0.004992485439,-0.001615978364
8.712,-0.005204243887,-0.0006984708039
8.726,-0.005248764155,0.0002427628233
8.74,-0.005124370082,0.001177479274
8.754,-0.004834812645,0.002075597341
8.768,-0.004389158617,0.00290816435
8.782,-0.003801508419,0.003648288173
8.796,-0.003090551888,0.004272004822
8.81,-0.00227897588,0.004759053665
8.824,-0.001392742418,0.005093535213
8.838,-0.0004602602719,0.005264430147
8.852,0.0004885236628,0.005265962633
8.866,0.001423084214,0.005097795949
8.88,0.002313298303,0.004765053785
8.894,0.00313041442,0.004278166146
8.908,0.00384798006,0.003652544427
8.922,0.004442697238,0.002908095706
8.936,0.004895178459,0.002068591481
8.95,0.005190578625,0.001160910799
8.964,0.005319082297,0.0002141817849
8.978,0.005276230308,-0.0007411510774
8.992,0.00506307484,-0.001674304136
9.006,0.004686157586,-0.002555144919
9.02,0.004157311227,-0.003355163853
9.034,0.003493290198,-0.004048396058
9.048,0.002715242159,-0.004612263449
9.062,0.001848036773,-0.005028309863
9.076,0.0009194730075,-0.005282805289
9.09,-4.060985471E-05,-0.005367199405
9.104,-0.001001289148,-0.005278409445
9.118,-0.001931553081,-0.005018932672
9.132,-0.00280130041,-0.004596779361
9.146,-0.003582313368,-0.004025227977
9.16,-0.004249172437,-0.003322409904
9.174,-0.004780083332,-0.002510736659
9.188,-0.005157589318,-0.00161618757
9.202,-0.005369145574,-0.0006674804893
9.216,-0.005407536691,0.0003048480738
9.23,-0.005271123405,0.001269424021
9.244,-0.004963910084,0.002195046468
9.258,-0.004495430286,0.003051695789
9.272,-0.003880453526,0.003811506368
9.286,-0.00313852216,0.004449672578
9.3,-0.002293332844,0.004945258547
9.314,-0.001371982017,0.005281885281
9.328,-0.0004040993841,0.005448272584
9.342,0.0005791030051,0.005438617833
9.356,0.001545835612,0.005252798847
9.37,0.002464757924,0.004896393762
9.384,0.003305993523,0.004380516677
9.398,0.004042100878,0.003721473786
9.412,0.004648968329,0.002940250556
9.426,0.005106604086,0.002061845953
9.44,0.005399795361,0.001114474771
9.454,0.005518614866,0.0001286634197
9.468,0.00545875781,-0.0008637319311
9.482,0.00522169791,-0.001830553325
9.496,0.004814656762,-0.002740382002
9.51,0.004250386953,-0.003563558734
9.524,0.003546775291,-0.004273150395
9.538,0.002726278399,-0.004845831292
9.552,0.001815208387,-0.005262650402
9.566,0.00084289124,-0.005509659269
9.58,-0.0001592752546,-0.005578379738
9.594,-0.001158833831,-0.005466095791
9.608,-0.00212331775,-0.005175959432
9.622,-0.003021304557,-0.004716906526
9.636,-0.003823439427,-0.004103384662
9.65,-0.004503394778,-0.003354901208
9.664,-0.00503873479,-0.002495405592
9.678,-0.005411656426,-0.001552525273
9.692,-0.005609582458,-0.0005566797012
9.706,-0.005625586706,0.0004598994122
9.72,-0.005458637082,0.00146421
9.734,-0.005113647888,0.002423550106
9.748,-0.004601338977,0.003306582215
9.762,-0.00393790567,0.004084356835
9.776,-0.003144509469,0.004731261889
9.79,-0.002246605484,0.005225866794
9.804,-0.001273127859,0.005551633356
9.818,-0.0002555591869,0.005697469897
9.832,0.0007730862289,0.005658109991
9.846,0.001779332476,0.00543430284
9.86,0.002730330858,0.005032808413
9.874,0.003594932048,0.004466196779
9.888,0.004344706583,0.003752457467
9.902,0.004954880268,0.00291443086
9.916,0.005405153675,0.00197907953
9.93,0.005680378622,0.0009766226461
9.944,0.005771069025,-6.043880497E-05
9.958,0.005673728865,-0.00109837461
9.972,0.005390985902,-0.002103321684
9.986,0.004931526035,-0.003042388576
10,0.004309829743,-0.003884732115
