"Freq [GHz]","dB(S(Antenna1_1_1,Antenna1_1_1)) []","ang_rad(S(Antenna1_1_1,Antenna1_1_1)) [rad]"
2.5,-20.122471034587,0.849346780071415
2.505,-19.9008693822589,0.917498536173249
2.51,-19.6075523800737,0.979767362067051
2.515,-19.2559440330972,1.03513545548797
2.52,-18.8599920385365,1.08305277105262
2.525,-18.4329318575802,1.12337463825353
2.53,-17.9865111681262,1.15626748086409
2.535,-17.5306404829579,1.18211069854627
2.54,-17.0733557010053,1.20141166799962
2.545,-16.6209675099982,1.21474045487646
2.55,-16.1782976114882,1.22268412362365
2.555,-15.7489362020522,1.22581736283375
2.56,-15.3354840100482,1.22468530916155
2.565,-14.9397624801646,1.21979483916538
2.57,-14.5629875335959,1.21161137359254
2.575,-14.2059088545941,1.20055908559186
2.58,-13.8689188795929,1.18702301704516
2.585,-13.552136925702,1.17135219300548
2.59,-13.2554730620395,1.15386311150533
2.595,-12.978676197495,1.13484325936671
2.6,-12.7213696538862,1.11455444593572
2.605,-12.4830770862415,1.09323583339287
2.61,-12.2632409824679,1.07110663236648
2.615,-12.0612353951635,1.04836841848583
2.62,-11.8763742094192,1.02520708207318
2.625,-11.7079161517735,1.00179442049181
2.63,-11.5550671897366,0.978289369995365
2.635,-11.4169812752073,0.954838903355022
2.64,-11.2927598583786,0.931578597265022
2.645,-11.1814508498935,0.908632882651331
2.65,-11.0820475771748,0.886114990255142
2.655,-10.9934882535279,0.864126610868997
2.66,-10.9146565153816,0.842757290486656
2.665,-10.8443835940726,0.822083594649491
2.67,-10.7814526978199,0.802168086738224
2.675,-10.7246060460431,0.783058176966762
2.68,-10.67255511764,0.764784927240608
2.685,-10.6239942814626,0.747361897064882
2.69,-10.5776181093466,0.730784153311888
2.695,-10.532142105673,0.715027556360761
2.7,-10.4863265155003,0.700048461623447
2.705,-10.4390023821906,0.685783944783615
2.71,-10.3890987622594,0.672152660800407
2.715,-10.3356696682813,0.659056389203322
2.72,-10.2779190883837,0.646382289823606
2.725,-10.2152223910843,0.634005820410002
2.73,-10.1471425418016,0.621794208093225
2.735,-10.0734398767889,0.60961032269635
2.74,-9.99407451839695,0.59731673997982
2.745,-9.90920128332625,0.584779775440629
2.75,-9.81915739273619,0.571873266432789
2.755,-9.72444388089517,0.558481899986927
2.76,-9.62570204828329,0.544503938553867
2.765,-9.52368660383488,0.52985324631366
2.77,-9.4192371687206,0.514460578012796
2.775,-9.31324973510104,0.498274154662349
2.78,-9.20664951248593,0.481259593102839
2.785,-9.10036616391545,0.463399285122779
2.79,-8.99531222924783,0.444691352323336
2.795,-8.89236504818403,0.425148288469142
2.8,-8.79235233529149,0.404795413503531
2.805,-8.69604123442807,0.383669235899722
2.81,-8.60413052956241,0.361815810644508
2.815,-8.51724563832261,0.339289153179078
2.82,-8.4359358756189,0.316149756263256
2.825,-8.36067355853357,0.292463240575233
2.83,-8.29185448180854,0.268299145828019
2.835,-8.22979937112872,0.243729874658467
2.84,-8.17475598014019,0.218829773333917
2.845,-8.12690150445223,0.193674345854799
2.85,-8.08634512846606,0.16833957888411
2.855,-8.05313049494094,0.142901362705868
2.86,-8.02723797720499,0.117434986486629
2.865,-8.00858666611751,0.0920146863741198
2.87,-7.99703606854372,0.0667132290661056
2.875,-7.9923874344113,0.0416015062172783
2.88,-7.99438482799513,0.0167481249238837
2.885,-8.00271595211045,-0.00778102400860695
2.89,-8.0170128381156,-0.0319232401149452
2.895,-8.03685252860835,-0.0556195365154457
2.9,-8.06175795373978,-0.0788152290240072
2.905,-8.09119909928239,-0.101460594298885
2.91,-8.12459480668292,-0.123511603384963
2.915,-8.16131535095158,-0.144930718702337
2.92,-8.20068610738228,-0.165687755013538
2.925,-8.24199254670791,-0.185760774839091
2.93,-8.28448680997801,-0.205136995964416
2.935,-8.32739604581514,-0.223813669126185
2.94,-8.36993266101795,-0.241798880929198
2.945,-8.41130652138556,-0.259112224644378
2.95,-8.45073899911591,-0.275785274012477
2.955,-8.4874786535389,-0.291861805530528
2.96,-8.52081809755811,-0.307397695961564
2.965,-8.55011153471197,-0.322460454378614
2.97,-8.57479217855082,-0.337128350115723
2.975,-8.59438877037016,-0.351489121219966
2.98,-8.60854025727015,-0.36563828062584
2.985,-8.61700779590059,-0.379677063078918
2.99,-8.619683292491,-0.393710080103302
2.995,-8.61659387190338,-0.407842785581237
3,-8.60790199399042,-0.422178859297173
3.005,-8.59390107605815,-0.436817634720332
3.01,-8.57500691332156,-0.451851682468938
3.015,-8.55174536510253,-0.467364661093532
3.02,-8.52473702236895,-0.483429511819012
3.025,-8.49467968676063,-0.500107054337355
3.03,-8.46232957201789,-0.517445013235631
3.035,-8.4284820974295,-0.535477466128501
3.04,-8.39395302278725,-0.554224694248038
3.045,-8.35956060336337,-0.573693386959641
3.05,-8.3261092200492,-0.593877142618985
3.055,-8.29437481430645,-0.614757207896642
3.06,-8.26509222802803,-0.636303389858406
3.065,-8.23894453412892,-0.658475083529951
3.07,-8.21655419595688,-0.681222370826536
3.075,-8.19847593505037,-0.704487141185302
3.08,-8.18519104606396,-0.728204213525213
3.085,-8.1771029570962,-0.752302435265009
3.09,-8.17453378945132,-0.776705749042247
3.095,-8.17772165931708,-0.801334221466694
3.1,-8.18681861105141,-0.826105046616082
3.105,-8.20188893943875,-0.850933525013071
3.11,-8.22290787995772,-0.875734038119351
3.115,-8.24976059718578,-0.900421032414999
3.12,-8.28224144545429,-0.924910031567231
3.125,-8.32005364793552,-0.949118695027117
3.13,-8.36280945527961,-0.972967936441116
3.135,-8.41003101505501,-0.996383118069823
3.14,-8.46115220296411,-1.01929532506775
3.145,-8.51552169634818,-1.04164271760939
3.15,-8.57240765209391,-1.06337195550237
3.155,-8.63100432610116,-1.0844396652161
3.16,-8.69044100276317,-1.10481391624733
3.165,-8.74979351482583,-1.12447565450773
3.17,-8.80809857900745,-1.14342002161754
3.175,-8.86437100772745,-1.16165748206684
3.18,-8.91762368154257,-1.17921466157369
3.185,-8.96688992960248,-1.19613480830843
3.19,-9.01124765660502,-1.21247777683928
3.195,-9.04984439244635,-1.22831946899246
3.2,-9.08192206684493,-1.24375067490756
3.205,-9.10684024726898,-1.25887530434216
3.21,-9.12409650395245,-1.27380804374973
3.215,-9.13334252577723,-1.28867150976068
3.22,-9.13439501127044,-1.30359303090332
3.225,-9.12724047685064,-1.31870120938868
3.23,-9.11203374313941,-1.3341224453824
3.235,-9.08909017345665,-1.34997760880778
3.24,-9.05887230073954,-1.36637902336446
3.245,-9.02197182318759,-1.3834279041737
3.25,-8.9790881571516,-1.40121234599524
3.255,-8.93100494484375,-1.41980591080951
3.26,-8.87856584860391,-1.43926682079818
3.265,-8.82265082708727,-1.45963771854591
3.27,-8.76415393420612,-1.48094592864794
3.275,-8.7039633214496,-1.50320413548346
3.28,-8.64294399857767,-1.52641137684099
3.285,-8.5819234628043,-1.55055426159048
3.29,-8.52168032200625,-1.5756083203438
3.295,-8.46293566547086,-1.60153941709472
3.3,-8.40634696459186,-1.62830515354216
3.305,-8.35250417604172,-1.65585622581231
3.31,-8.30192762473481,-1.68413769796263
3.315,-8.25506741246624,-1.71309017239852
3.32,-8.21230391273179,-1.74265084945024
3.325,-8.17394913551877,-1.77275447149629
3.33,-8.14024865121036,-1.80333416047288
3.335,-8.1113839109805,-1.83432215422842
3.34,-8.08747477354425,-1.86565045287608
3.345,-8.06858211396362,-1.89725139179638
3.35,-8.05471045384363,-1.9290581484235
3.355,-8.04581054599219,-1.96100520145262
3.36,-8.04178187081524,-1.99302875211542
3.365,-8.04247508628281,-2.02506711569787
3.37,-8.04769441908321,-2.0570610995552
3.375,-8.05720002069421,-2.08895436742763
3.38,-8.07071038693079,-2.12069380415464
3.385,-8.08790485510962,-2.1522298776757
3.39,-8.10842623573106,-2.18351700693321
3.395,-8.13188371795365,-2.21451392996081
3.4,-8.1578560308969,-2.24518407535946
3.405,-8.18589499924959,-2.27549592860755
3.41,-8.21552951879821,-2.30542338605083
3.415,-8.24627001808861,-2.33494609236154
3.42,-8.27761343781484,-2.36404974481509
3.425,-8.30904874135764,-2.39272635166456
3.43,-8.34006296396631,-2.42097443461117
3.435,-8.37014770982922,-2.44879915314632
3.44,-8.39880610376354,-2.47621234213829
3.445,-8.42556000144125,-2.50323244339405
3.45,-8.4499573907552,-2.52988432071871
3.455,-8.47157973728843,-2.55619894980916
3.46,-8.49004915680829,-2.58221297707896
3.465,-8.50503511018194,-2.60796814621468
3.47,-8.51626046218602,-2.6335106026885
3.475,-8.52350665281959,-2.65889008179408
3.48,-8.52661782220311,-2.68415900248237
3.485,-8.52550366536388,-2.70937148753006
3.49,-8.52014097824602,-2.73458233740909
3.495,-8.51057377198812,-2.75984598735994
3.5,-8.49691198605912,-2.78521547480341
3.505,-8.47932882556499,-2.81074145525348
3.51,-8.45805688929451,-2.83647128147052
3.515,-8.4333831684514,-2.86244817924729
3.52,-8.40564315482406,-2.88871053298915
3.525,-8.3752142597185,-2.91529129199042
3.53,-8.34250876914995,-2.94221751107056
3.535,-8.30796651808007,-2.96951001621142
3.54,-8.27204752942118,-2.99718319763426
3.545,-8.2352247413064,-3.02524492421502
3.55,-8.19797702810652,-3.05369655902601
3.555,-8.16078255491444,-3.08253307124122
3.56,-8.1241125978673,-3.11174322525974
3.565,-8.08842584235953,-3.14130983436017
3.57,-8.05416321797065,3.11197524164297
3.575,-8.0217431849554,3.08176952495607
3.58,-7.99155754304222,3.05129139294956
3.585,-7.96396764656266,3.02057845857925
3.59,-7.93930101512075,2.98967247410315
3.595,-7.91784826538989,2.95861891828559
3.6,-7.89986033896067,2.92746657639203
3.605,-7.88554594670086,2.89626711264361
3.61,-7.87506919404291,2.86507463174806
3.615,-7.86854737300963,2.83394522959136
3.62,-7.86604888736376,2.80293652466043
3.625,-7.8675912910613,2.77210716671992
3.63,-7.87313950093939,2.74151631358731
3.635,-7.88260415073744,2.71122307242855
3.64,-7.89584019964627,2.68128589609995
3.645,-7.91264584246235,2.65176193033021
3.65,-7.93276183751655,2.62270630371476
3.655,-7.95587135640582,2.59417136430152
3.66,-7.9816005401164,2.56620585380833
3.665,-8.0095199042334,2.53885403421492
3.67,-8.03914676617266,2.51215476745802
3.675,-8.06994892710088,2.48614056635468
3.68,-8.10134971981283,2.46083664106872
3.685,-8.1327346316768,2.43625996461218
3.69,-8.16345958218173,2.41241839897019
3.695,-8.19286090845846,2.38930992063976
3.7,-8.2202670191154,2.36692199594588
3.705,-8.24501153696534,2.34523115314117
3.71,-8.26644771805723,2.32420280649919
3.715,-8.28396366234368,2.30379136954412
3.72,-8.29699786794821,2.28394069913311
3.725,-8.30505443765505,2.2645848854676
3.73,-8.30771728382254,2.24564939065376
3.735,-8.30466259896306,2.22705251827156
3.74,-8.2956689134682,2.20870716489653
3.745,-8.28062416049606,2.19052279619375
3.75,-8.25952937077181,2.1724075616762
3.755,-8.23249871963253,2.15427045576648
3.76,-8.19975596876323,2.13602343240494
3.765,-8.16162752292378,2.11758337590782
3.77,-8.11853251273583,2.09887385073411
3.775,-8.07097048785005,2.07982656549433
3.78,-8.01950740288631,2.06038250973514
3.785,-7.964760584296,2.04049274154148
3.79,-7.90738340467398,2.02011883184909
3.795,-7.848050257348,1.99923298221698
3.8,-7.78744236097943,1.97781785121786
3.805,-7.72623479242902,1.95586613618333
3.81,-7.66508502891082,1.93337995593652
3.815,-7.6046231050119,1.91037008441231
3.82,-7.54544348450625,1.8868550864743
3.825,-7.48809856493959,1.86286038938933
3.83,-7.43309372055986,1.83841733313237
3.835,-7.38088373349386,1.81356222318349
3.84,-7.3318704864157,1.78833540610819
3.845,-7.28640165947683,1.76278038535079
3.85,-7.2447703496106,1.73694298483501
3.855,-7.20721543789922,1.71087056279182
3.86,-7.17392252249912,1.68461128162092
3.865,-7.145025387683,1.65821342491519
3.87,-7.12060789346566,1.6317247668132
3.875,-7.10070618269581,1.60519198230623
3.88,-7.08531125969663,1.57866010015198
3.885,-7.07437183538176,1.55217199171251
3.89,-7.06779747706975,1.52576789458955
3.895,-7.06546206698878,1.49948497046656
3.9,-7.06720756367298,1.47335689598853
3.905,-7.07284810102776,1.44741349215341
3.91,-7.08217441520094,1.42168039001543
3.915,-7.09495864223145,1.39617874602415
3.92,-7.11095942903544,1.37092500763588
3.925,-7.12992738633902,1.3459307377114
3.93,-7.15161082483837,1.32120251039773
3.935,-7.17576172491206,1.29674187894888
3.94,-7.20214184404484,1.27254543226348
3.945,-7.23052890883203,1.24860493875158
3.95,-7.2607227420748,1.22490758503128
3.955,-7.29255121454155,1.20143631350518
3.96,-7.32587588373451,1.17817025242193
3.965,-7.36059720946511,1.15508523948784
3.97,-7.39665917417107,1.13215442783483
3.975,-7.43405326475378,1.10934896436075
3.98,-7.47282165222696,1.08663872870338
3.985,-7.51305958724238,1.06399311339115
3.99,-7.55491692005982,1.04138183500637
3.995,-7.59859880243389,1.01877575400485
4,-7.64436560515771,0.996147692585368
