"Freq [GHz]","dB(S(Antenna1_1_1,Antenna1_1_1)) []","ang_rad(S(Antenna1_1_1,Antenna1_1_1)) [rad]"
2.5,-19.5184280753989,0.910918143894305
2.505,-19.1980379804436,0.961571262692658
2.51,-18.8497901104189,1.00484871487992
2.515,-18.4851647615534,1.04122715391628
2.52,-18.1128900004969,1.07132316892658
2.525,-17.7393274142704,1.09579520408838
2.53,-17.3689480798183,1.11528331782726
2.535,-17.0047872348149,1.1303770090977
2.54,-16.648829747101,1.14160162283064
2.545,-16.3023149078831,1.14941597037942
2.55,-15.9659666725163,1.15421609280931
2.555,-15.6401619248554,1.1563419224051
2.56,-15.3250501539691,1.15608492045931
2.565,-15.0206365329037,1.15369561552511
2.57,-14.7268381106665,1.14939048492122
2.575,-14.4435207878049,1.14335797445887
2.58,-14.170522623258,1.13576356991959
2.585,-13.9076679064189,1.12675400143606
2.59,-13.6547748856497,1.11646064651187
2.595,-13.4116595310084,1.10500225784226
2.6,-13.1781367338652,1.09248711808723
2.605,-12.9540199929642,1.07901472004227
2.61,-12.7391204982808,1.06467708583326
2.615,-12.5332458221581,1.04955977487597
2.62,-12.3361986381774,1.03374266870966
2.625,-12.1477756214697,1.01730057709806
2.63,-11.9677665045911,1.00030370887986
2.635,-11.7959534243792,0.982818041170952
2.64,-11.6321104469607,0.964905612349703
2.645,-11.4760032765914,0.946624758998913
2.65,-11.3273891119057,0.928030306356748
2.655,-11.1860166007945,0.909173721538594
2.66,-11.0516258496284,0.890103239746882
2.665,-10.9239484920946,0.870863960375649
2.67,-10.8027077987858,0.85149791609308
2.675,-10.6876188077248,0.832044119583689
2.68,-10.578388542218,0.812538581463763
2.685,-10.4747162680787,0.79301430397224
2.69,-10.3762939037002,0.773501250899322
2.695,-10.2828065619901,0.754026291809349
2.7,-10.1939333091507,0.734613128968218
2.705,-10.1093481541477,0.71528220598265
2.71,-10.0287213434522,0.696050606509709
2.715,-9.9517209710235,0.676931949698415
2.72,-9.87801494919865,0.657936289702723
2.725,-9.80727333513676,0.639070030637752
2.73,-9.73917101212478,0.620335865688202
2.735,-9.67339073101331,0.60173275092636
2.74,-9.60962639037267,0.583255927051975
2.745,-9.54758657212138,0.5648969946473
2.75,-9.48699818826235,0.546644054189114
2.755,-9.4276101399863,0.52848191494348
2.76,-9.36919686805885,0.5103923782928
2.765,-9.31156166468937,0.492354593835208
2.77,-9.25453960201968,0.474345482824353
2.775,-9.1979999533419,0.456340227706236
2.78,-9.14184798913677,0.438312811526319
2.785,-9.08602604555953,0.420236595905001
2.79,-9.03051380665956,0.402084921629545
2.795,-8.97532775611095,0.383831714137413
2.8,-8.9205197932941,0.36545207526384
2.805,-8.86617506425194,0.346922842980923
2.81,-8.81240904337845,0.328223104724912
2.815,-8.75936399531441,0.309334646286126
2.82,-8.70720489332815,0.290242328307401
2.825,-8.65611497020803,0.270934380890116
2.83,-8.6062909992571,0.251402609640996
2.835,-8.55793847414509,0.231642516764573
2.84,-8.51126680877327,0.211653332490174
2.845,-8.46648467832793,0.191437968904174
2.85,-8.42379560852164,0.171002896749937
2.855,-8.38339390245259,0.150357958153826
2.86,-8.34546096601326,0.129516123423837
2.865,-8.31016207470096,0.108493202175013
2.87,-8.27764362802664,0.0873075193492343
2.875,-8.24803086923851,0.0659795654737792
2.88,-8.2214261052481,0.0445316323115442
2.885,-8.1979073738663,0.0229874387785145
2.89,-8.17752756284562,0.00137175754144072
2.895,-8.16031392144582,-0.0202899529929636
2.9,-8.14626796945247,-0.0419719080809544
2.905,-8.13536570762753,-0.0636483398313922
2.91,-8.12755815166048,-0.0852938251145575
2.915,-8.12277211272631,-0.106883594641594
2.92,-8.12091121189683,-0.128393821497796
2.925,-8.12185708449919,-0.149801890771123
2.93,-8.1254707641933,-0.171086648660619
2.935,-8.13159421640013,-0.192228631250969
2.94,-8.14005200220468,-0.213210275071771
2.945,-8.150653080084,-0.234016108946459
2.95,-8.16319271760609,-0.254632926382193
2.955,-8.17745452197273,-0.27504994309742
2.96,-8.19321259995071,-0.295258931592464
2.965,-8.21023383427064,-0.315254340671862
2.97,-8.22828028923088,-0.335033391733474
2.975,-8.24711174718025,-0.354596152792759
2.98,-8.26648837321065,-0.373945585661361
2.985,-8.28617350385123,-0.393087564584319
2.99,-8.30593654675831,-0.41203085988577
2.995,-8.32555594739269,-0.430787083598467
3,-8.34482223285798,-0.449370592834147
3.005,-8.36354102237821,-0.467798345967591
3.01,-8.38153600368583,-0.486089708089924
3.015,-8.39865176582549,-0.504266205159705
3.02,-8.41475641982715,-0.52235122446684
3.025,-8.42974392051734,-0.540369662909784
3.03,-8.44353600196002,-0.558347528192743
3.035,-8.45608363659146,-0.576311496587192
3.04,-8.46736792881035,-0.5942884364919
3.045,-8.4774003867709,-0.612304909012477
3.05,-8.48622252566343,-0.630386655567281
3.055,-8.49390474715315,-0.648558088229108
3.06,-8.50054453117593,-0.666841797243315
3.065,-8.50626392043933,-0.685258087473313
3.07,-8.51120636040038,-0.703824562440644
3.075,-8.51553297341542,-0.722555764935989
3.08,-8.51941834026824,-0.741462886544923
3.085,-8.52304589676086,-0.76055355683044
3.09,-8.52660308162706,-0.77983171652799
3.095,-8.53027633947961,-0.79929757799923
3.1,-8.53424611294414,-0.818947677890311
3.105,-8.53868195652863,-0.838775017194869
3.11,-8.54373787795203,-0.85876928579008
3.115,-8.54954802852078,-0.8789171689221
3.12,-8.55622282805794,-0.899202722124525
3.125,-8.5638456256975,-0.919607815490249
3.13,-8.57246996631423,-0.940112626862531
3.135,-8.58211750697865,-0.960696182302095
3.14,-8.59277666878926,-0.981336927942931
3.145,-8.60440202210384,-1.00201332143728
3.15,-8.6169144551645,-1.02270443395422
3.155,-8.6302021314173,-1.04339054551921
3.16,-8.64412222616084,-1.06405372347821
3.165,-8.65850343176703,-1.08467837068589
3.17,-8.67314919607027,-1.10525172837179
3.175,-8.68784163579936,-1.12576432113984
3.18,-8.70234606708406,-1.14621033183967
3.185,-8.71641604620832,-1.16658789424988
3.19,-8.72979881150026,-1.18689929151811
3.195,-8.74224099967944,-1.20715105471641
3.2,-8.75349448514276,-1.22735395316459
3.205,-8.76332217538266,-1.24752287495597
3.21,-8.77150360859617,-1.26767659893287
3.215,-8.7778401557757,-1.28783746040921
3.22,-8.78215970367343,-1.30803092374673
3.225,-8.7843206487068,-1.32828506915048
3.23,-8.78421507226397,-1.34863001273376
3.235,-8.78177104090211,-1.36909727730146
3.24,-8.77695392573709,-1.3897191349164
3.245,-8.76976677459499,-1.41052794026005
3.25,-8.76024971919328,-1.43155547869513
3.255,-8.74847849103898,-1.45283234435098
3.26,-8.7345621308956,-1.47438737103369
3.265,-8.71864001964762,-1.49624712267029
3.27,-8.70087833646972,-1.51843546185077
3.275,-8.68146611162127,-1.54097319678936
3.28,-8.66061101669399,-1.56387781480752
3.285,-8.63853499858282,-1.5871632979231
3.29,-8.61546994166113,-1.61084002056035
3.295,-8.59165340702513,-1.63491472328083
3.3,-8.56732458748694,-1.65939055282106
3.305,-8.54272052396112,-1.68426716304315
3.31,-8.51807264167791,-1.70954086572407
3.315,-8.49360365716579,-1.73520482280276
3.32,-8.46952483305821,-1.76124927208908
3.325,-8.44603363781789,-1.78766177577261
3.33,-8.42331175226244,-1.81442748876811
3.335,-8.40152344335746,-1.84152943749562
3.34,-8.38081428269195,-1.8689488051107
3.345,-8.36131016132183,-1.89666521897922
3.35,-8.34311661049747,-1.92465703732411
3.355,-8.3263183966249,-1.95290163250021
3.36,-8.31097934876632,-1.98137566882784
3.365,-8.29714243984157,-2.01005537260081
3.37,-8.28483007552763,-2.03891679548528
3.375,-8.27404458394744,-2.06793606632946
3.38,-8.26476891354286,-2.09708963509597
3.385,-8.2569675082006,-2.12635450337264
3.39,-8.25058735705383,-2.15570844261391
3.395,-8.245559235782,-2.18513019900248
3.4,-8.24179908656139,-2.214599681015
3.405,-8.23920957386997,-2.24409813128836
3.41,-8.23768177241217,-2.27360827659229
3.415,-8.23709699028352,-2.30311445877619
3.42,-8.23732869722173,-2.33260274052709
3.425,-8.2382445560124,-2.36206098569188
3.43,-8.23970851515214,-2.39147891371115
3.435,-8.24158292869202,-2.42084812332685
3.44,-8.2437307115724,-2.45016208893126
3.445,-8.24601743500422,-2.47941612447839
3.45,-8.24831338695758,-2.50860731908948
3.455,-8.25049550785173,-2.53773444248569
3.46,-8.2524492183121,-2.56679782287003
3.465,-8.25407004901155,-2.5957991990046
3.47,-8.25526508388216,-2.62474154988592
3.475,-8.25595416626206,-2.65362890559441
3.48,-8.25607086103629,-2.68246614162226
3.485,-8.2555631386542,-2.71125876416211
3.49,-8.25439378766904,-2.74001268864455
3.495,-8.25254054645572,-2.76873401683943
3.5,-8.24999596508292,-2.797428817209
3.505,-8.24676699402042,-2.82610291433864
3.51,-8.24287434378104,-2.85476168870152
3.515,-8.23835161278883,-2.88340989249533
3.52,-8.23324422322498,-2.91205148416739
3.525,-8.22760819238776,-2.94068948242749
3.53,-8.22150877429757,-2.96932584411887
3.535,-8.21501899116456,-2.99796136400688
3.54,-8.20821809995659,-3.02659559762803
3.545,-8.20119001199432,-3.05522680992696
3.55,-8.19402170364019,-3.08385194412757
3.555,-8.18680161885959,-3.11246661322959
3.56,-8.17961811504003,-3.14106511261312
3.565,-8.17255794227668,3.11354485636
3.57,-8.16570479011162,3.08500090833469
3.575,-8.15913788889921,3.05649775189971
3.58,-8.15293070871579,3.02804588116299
3.585,-8.14714972741563,2.99965678884351
3.59,-8.14185330269362,2.97134286098681
3.595,-8.13709063118445,2.94311725886689
3.6,-8.13290081475577,2.91499379186842
3.605,-8.12931203627729,2.88698677962497
3.61,-8.12634083760137,2.85911090597214
3.615,-8.12399152473833,2.83138106404132
3.62,-8.12225569948421,2.80381219464772
3.625,-8.12111191552221,2.77641911759175
3.63,-8.12052548819463,2.74921635742011
3.635,-8.12044844741624,2.72221796448383
3.64,-8.12081965867567,2.69543733275375
3.645,-8.12156510477161,2.66888701717414
3.65,-8.1225983635904,2.64257854854673
3.655,-8.12382125655303,2.61652225421596
3.66,-8.12512469938011,2.59072708044571
3.665,-8.12638975257146,2.56520042435562
3.67,-8.1274888585038,2.53994797568848
3.675,-8.12828728696612,2.51497357171009
3.68,-8.12864476048967,2.49027907019312
3.685,-8.1284172545427,2.46586424153071
3.69,-8.12745896295357,2.4417266857562
3.695,-8.12562439636851,2.41786177574155
3.7,-8.12277058713079,2.39426263121916
3.705,-8.11875937631723,2.37092012416711
3.71,-8.11345973286005,2.34782292073196
3.715,-8.10675006694631,2.32495755806515
3.72,-8.09852049829493,2.30230855870488
3.725,-8.08867501331807,2.2798585819373
3.73,-8.07713348323549,2.25758861085854
3.735,-8.06383347004834,2.23547817331431
3.74,-8.04873179432657,2.21350559319493
3.745,-8.03180579619622,2.19164826853568
3.75,-8.01305428794419,2.1698829718451
3.755,-7.9924981177335,2.14818616373731
3.76,-7.97018036906861,2.12653431899443
3.765,-7.94616614694713,2.10490425174694
3.77,-7.92054197990103,2.08327343714636
3.775,-7.89341480633932,2.06162032023196
3.78,-7.86491061562374,2.03992460485886
3.785,-7.83517272368501,2.0181675164724
3.79,-7.80435975799569,1.99633203264702
3.795,-7.77264338621667,1.97440307666987
3.8,-7.74020583919995,1.95236766859085
3.805,-7.70723729495043,1.93021503306592
3.81,-7.67393318896762,1.90793665998707
3.815,-7.64049150039165,1.885526318056
3.82,-7.60711009120091,1.86298002318051
3.825,-7.57398416057804,1.84029596087092
3.83,-7.54130385111272,1.81747436765112
3.835,-7.50925207933302,1.79451737426772
3.84,-7.47800264046503,1.77142881510651
3.845,-7.44771859610755,1.74821400899957
3.85,-7.41855100515752,1.7248795179931
3.855,-7.39063801994254,1.70143288872034
3.86,-7.36410433475781,1.67788238460936
3.865,-7.33906103477386,1.6542367134708
3.87,-7.31560580711366,1.63050475897797
3.875,-7.2938235268078,1.60669532086743
3.88,-7.27378719397292,1.5828168710515
3.885,-7.25555919524033,1.55887733117501
3.89,-7.23919285384647,1.53488387617546
3.895,-7.22473424508519,1.51084277061879
3.9,-7.21222420842038,1.48675923841938
3.905,-7.20170052942666,1.46263737315349
3.91,-7.1932002203537,1.43848008628507
3.915,-7.18676186462053,1.41428909936568
3.92,-7.18242794146888,1.39006497663288
3.925,-7.18024710555909,1.3658071979457
3.93,-7.18027635675247,1.34151427058663
3.935,-7.18258305199157,1.31718387567544
3.94,-7.18724671841905,1.29281304696621
3.945,-7.19436065124989,1.26839837448167
3.95,-7.20403326366652,1.24393623071671
3.955,-7.21638917231234,1.21942301245236
3.96,-7.23157003278268,1.19485539301069
3.965,-7.24973512494558,1.17023058021998
3.97,-7.27106170617511,1.14554657454395
3.975,-7.2957451784827,1.12080242580928
3.98,-7.32399908598406,1.09599848312761
3.985,-7.35605499436741,1.07113663847553
3.99,-7.39216230537372,1.04622056378749
3.995,-7.43258804049896,1.02125594225309
4,-7.47761665844798,0.996250697356936
