"Freq [GHz]","re(S(Antenna1_1_1,Antenna1_1_1)) []","im(S(Antenna1_1_1,Antenna1_1_1)) []"
6,-0.110263085185961,0.040528903903774
6.001,-0.110146082625809,0.0407458933828328
6.002,-0.11003049311837,0.040958897046832
6.003,-0.109916413364072,0.0411679767171561
6.004,-0.109803938460039,0.0413731963889606
6.005,-0.109693161852118,0.0415746221932713
6.006,-0.109584175288897,0.0417723223570787
6.007,-0.109477068778719,0.0419663671594366
6.008,-0.109371930544708,0.0421568288955602
6.009,-0.109268846979781,0.0423437818319207
6.01,-0.109167902608672,0.0425273021623457
6.011,-0.109069180046942,0.0427074679631137
6.012,-0.108972759957005,0.042884359151055
6.013,-0.108878721014136,0.0430580574376453
6.014,-0.108787139865494,0.0432286462791081
6.015,-0.108698091096134,0.0433962108345082
6.016,-0.108611647190026,0.0435608379148518
6.017,-0.108527878499067,0.0437226159321855
6.018,-0.108446853208094,0.0438816348576912
6.019,-0.108368637298907,0.0440379861647882
6.02,-0.108293294527272,0.0441917627822271
6.021,-0.108220886383943,0.0443430590431925
6.022,-0.10815147207167,0.0444919706323982
6.023,-0.108085108474215,0.044638594535186
6.024,-0.108021850130363,0.0447830289846271
6.025,-0.107961749208932,0.0449253734056166
6.026,-0.10790485548279,0.0450657283679754
6.027,-0.10785121630786,0.0452041955255466
6.028,-0.107800876598135,0.0453408775642968
6.029,-0.107753878805686,0.0454758781494124
6.03,-0.107710262902674,0.0456093018663995
6.031,-0.107670066361357,0.0457412541681847
6.032,-0.1076333241341,0.0458718413182106
6.033,-0.107600068643388,0.0460011703345385
6.034,-0.107570329759827,0.0461293489329445
6.035,-0.107544134792157,0.0462564854680215
6.036,-0.107521508474258,0.0463826888822757
6.037,-0.107502472955157,0.0465080686412288
6.038,-0.107487047783035,0.0466327346820148
6.039,-0.107475249903234,0.0467567973521802
6.04,-0.107467093647262,0.0468803673535854
6.041,-0.107462590723799,0.0470035556837004
6.042,-0.1074617502197,0.0471264735784091
6.043,-0.107464578588004,0.0472492324533033
6.044,-0.107471079651936,0.0473719438458882
6.045,-0.107481254597908,0.0474947193573775
6.046,-0.107495101980527,0.0476176705945944
6.047,-0.107512617716597,0.0477409091119735
6.048,-0.107533795093121,0.047864546353457
6.049,-0.1075586247653,0.0479886935932977
6.05,-0.107587094765542,0.048113461882156
6.051,-0.107619190505458,0.0482389619832027
6.052,-0.107654894784863,0.0483653043201157
6.053,-0.107694187798782,0.0484925989161831
6.054,-0.107737047144442,0.0486209553374004
6.055,-0.107783447836279,0.0487504826365715
6.056,-0.107833362314933,0.04888128929741
6.057,-0.10788676045725,0.0490134831746362
6.058,-0.107943609594278,0.0491471714380806
6.059,-0.108003874526267,0.0492824605217804
6.06,-0.108067517533664,0.0494194560600825
6.061,-0.108134498400116,0.0495582628407417
6.062,-0.10820477443046,0.0496989847410207
6.063,-0.108278300466725,0.0498417246817922
6.064,-0.108355028910124,0.0499865845666356
6.065,-0.108434909747052,0.0501336652319409
6.066,-0.108517890565083,0.0502830663910046
6.067,-0.108603916584961,0.0504348865821341
6.068,-0.108692930677595,0.0505892231187437
6.069,-0.108784873397057,0.0507461720314572
6.07,-0.108879683006571,0.0509058280232075
6.071,-0.108977295501509,0.0510682844143355
6.072,-0.109077644648382,0.0512336330916922
6.073,-0.109180662006836,0.0514019644647359
6.074,-0.109286276966638,0.0515733674106356
6.075,-0.109394416778673,0.0517479292253669
6.076,-0.109505006586932,0.0519257355828163
6.077,-0.109617969467505,0.0521068704798778
6.078,-0.10973322645957,0.0522914161945541
6.079,-0.109850696604381,0.0524794532400573
6.08,-0.109970296984264,0.0526710603179066
6.081,-0.110091942757598,0.0528663142750313
6.082,-0.110215547202808,0.0530652900608668
6.083,-0.110341021754355,0.0532680606834582
6.084,-0.11046827604972,0.0534746971675572
6.085,-0.110597217964393,0.0536852685167232
6.086,-0.11072775366286,0.0538998416684231
6.087,-0.110859787636591,0.0541184814581299
6.088,-0.110993222752024,0.0543412505804243
6.089,-0.111127960296554,0.0545682095500912
6.09,-0.111263900023511,0.0547994166682234
6.091,-0.111400940202157,0.0550349279833168
6.092,-0.111538977661659,0.0552747972593722
6.093,-0.111677907845081,0.0555190759389961
6.094,-0.111817624856361,0.055767813116496
6.095,-0.111958021509303,0.0560210554989842
6.096,-0.112098989382552,0.0562788473814732
6.097,-0.11224041887058,0.0565412306139783
6.098,-0.112382199233668,0.0568082445736138
6.099,-0.112524218653887,0.0570799261376948
6.1,-0.112666364289081,0.0573563096578338
6.101,-0.112808522323846,0.0576374269310412
6.102,-0.11295057803051,0.0579233071818248
6.103,-0.113092415821116,0.0582139770322858
6.104,-0.113233919303199,0.0585094604852219
6.105,-0.113374971338665,0.0588097789002213
6.106,-0.113515454100673,0.0591149509767662
6.107,-0.113655249131211,0.059424992732327
6.108,-0.113794237399602,0.0597399174874634
6.109,-0.113932299361438,0.0600597358499232
6.11,-0.11406931501775,0.0603844556977381
6.111,-0.11420516397459,0.0607140821703253
6.112,-0.114339725503453,0.0610486176475824
6.113,-0.114472878601229,0.0613880617489894
6.114,-0.114604502051772,0.0617324113147019
6.115,-0.11473447448658,0.0620816604036543
6.116,-0.114862674444967,0.0624358002836536
6.117,-0.114988980437639,0.0627948194224789
6.118,-0.115113271007666,0.0631587034879804
6.119,-0.115235424793459,0.0635274353441733
6.12,-0.11535532058974,0.0639009950443399
6.121,-0.115472837409515,0.0642793598361235
6.122,-0.115587854550047,0.0646625041576276
6.123,-0.11570025165183,0.0650503996425126
6.124,-0.115809908761556,0.0654430151220924
6.125,-0.115916706399092,0.065840316628433
6.126,-0.116019217229444,0.0662527711404471
6.127,-0.116118154640733,0.0666697841439943
6.128,-0.116213402285161,0.0670912972829738
6.129,-0.116304845007984,0.0675172494624248
6.13,-0.116392368911478,0.0679475768666201
6.131,-0.11647586142091,0.0683822129891639
6.132,-0.116555211340505,0.0688210886580891
6.133,-0.116630308918414,0.0692641320659504
6.134,-0.116701045906682,0.0697112687969243
6.135,-0.116767315622215,0.0701624218619013
6.136,-0.116829013004747,0.0706175117265849
6.137,-0.116886034675806,0.0710764563495847
6.138,-0.116938279000679,0.0715391712155146
6.139,-0.116985646139379,0.0720055693730854
6.14,-0.117028038109611,0.0724755614702018
6.141,-0.117065358841734,0.072949055796059
6.142,-0.117097514230726,0.0734259583212339
6.143,-0.11712441219415,0.0739061727387844
6.144,-0.117145962726115,0.0743896005083404
6.145,-0.117162077948243,0.074876140899202
6.146,-0.117172672160626,0.075365691035431
6.147,-0.117177661897793,0.0758581459469467
6.148,-0.117176965974671,0.0763533986106213
6.149,-0.117170505536544,0.0768513400073712
6.15,-0.11715820410602,0.0773518591672545
6.151,-0.117139987635985,0.0778548432205608
6.152,-0.117115784546568,0.0783601774549094
6.153,-0.117085525777098,0.0788677453653386
6.154,-0.117049144829068,0.0793774287104021
6.155,-0.117006577805089,0.0798891075712611
6.156,-0.116957763452852,0.0804026604007773
6.157,-0.116902643208088,0.0809179640896067
6.158,-0.11684116122852,0.0814348940232904
6.159,-0.116773264434829,0.0819533241393506
6.16,-0.116698902547603,0.0824731269903792
6.161,-0.116618028120301,0.0829941738081336
6.162,-0.116530596575206,0.0835163345606262
6.163,-0.116436566235379,0.0840394780242176
6.164,-0.116335898356622,0.0845634718387094
6.165,-0.116228557156424,0.0850881825814331
6.166,-0.116114509840926,0.085613475827345
6.167,-0.115993726635866,0.0861392162211147
6.168,-0.115866180809541,0.086665267538118
6.169,-0.115731848696757,0.0871914927608273
6.17,-0.115590709721782,0.0877177541422014
6.171,-0.115442746419302,0.0882439132776789
6.172,-0.115287944455372,0.0887698311753351
6.173,-0.115126292643368,0.0892953683268259
6.174,-0.114957782960939,0.0898203847789745
6.175,-0.114782410563961,0.0903447402056642
6.176,-0.114600173804485,0.0908682939805756
6.177,-0.114411074234691,0.0913909052502089
6.178,-0.114215116621835,0.0919124330058707
6.179,-0.114012308956203,0.0924327361621644
6.18,-0.113802662457057,0.0929516736232798
6.181,-0.113586191575587,0.0934691043643803
6.182,-0.11336291400186,0.0939848875046934
6.183,-0.113132850664768,0.0944988823775968
6.184,-0.112896025728975,0.0950109486127095
6.185,-0.112652466597867,0.0955209462089771
6.186,-0.1124022039085,0.0960287356047607
6.187,-0.112145271522543,0.096534177761926
6.188,-0.111881706524232,0.0970371342349277
6.189,-0.111611549209308,0.0975374672478998
6.19,-0.111334843072971,0.0980350397707401
6.191,-0.111051634800819,0.0985297155971991
6.192,-0.110761974251801,0.0990213594129649
6.193,-0.110465914443154,0.0995098368767503
6.194,-0.110163511535353,0.09999501469438
6.195,-0.109854824807053,0.100476760689874
6.196,-0.109539916640033,0.100954943884538
6.197,-0.109218852491142,0.101429434567042
6.198,-0.10889170087124,0.101900104370512
6.199,-0.108558533317142,0.102366826340613
6.2,-0.108219424363556,0.102829475014632
6.201,-0.107874451513036,0.103287926489566
6.202,-0.107523695203911,0.103742058494204
6.203,-0.107167238777235,0.104191750461212
6.204,-0.106805168443727,0.104636883597217
6.205,-0.106437573240707,0.105077340953892
6.206,-0.106064545001044,0.105513007495036
6.207,-0.105686178308088,0.105943770163663
6.208,-0.105302570453616,0.106369517955078
6.209,-0.10491382139777,0.106790141978968
6.21,-0.104520033719993,0.107205535525478
6.211,-0.104121312572971,0.107615594132296
6.212,-0.10371776563557,0.108020215646735
6.213,-0.103309503060775,0.108419300290816
6.214,-0.102896637425627,0.108812750721349
6.215,-0.10247928367616,0.109200472089011
6.216,-0.102057559074339,0.109582372104435
6.217,-0.101631583138995,0.109958361089283
6.218,-0.101201477590764,0.110328352039332
6.219,-0.100767366291021,0.110692260676551
6.22,-0.100329375181814,0.111050005508186
6.221,-0.0998876322218053,0.111401507874834
6.222,-0.0994422673262004,0.111746692008527
6.223,-0.0989934122986851,0.11208548507881
6.224,-0.0985412007653603,0.112417817244822
6.225,-0.0980857681066757,0.112743621702371
6.226,-0.0976272513913622,0.113062834730017
6.227,-0.0971657893033677,0.11337539573315
6.228,-0.0967015220697874,0.113681247292065
6.229,-0.0962345913927994,0.113980335197042
6.23,-0.095765140369594,0.114272608490428
6.231,-0.0952933134213085,0.114558019510705
6.232,-0.0948192562174574,0.114836523918576
6.233,-0.0943431155971641,0.115108080744037
6.234,-0.0938650394915926,0.115372652407458
6.235,-0.093385176845577,0.115630204762655
6.236,-0.0929036775369838,0.115880707111966
6.237,-0.0924206922966897,0.116124132265333
6.238,-0.0919363726264144,0.116360456510371
6.239,-0.0914508707166469,0.116589659692447
6.24,-0.0909643393635272,0.116811725214754
6.241,-0.0904769318838444,0.117026640048384
6.242,-0.0899888020322644,0.117234394772408
6.243,-0.0895001039168598,0.117434983555945
6.244,-0.089010991909736,0.117628404220237
6.245,-0.088521620563961,0.117814658208726
6.246,-0.0880321445254906,0.117993750618123
6.247,-0.0875427184470971,0.118165690202485
6.248,-0.0870534969002952,0.118330489378284
6.249,-0.0865646342872682,0.118488164227484
6.25,-0.0860762847527954,0.118638734500611
6.251,-0.0855886020961761,0.118782223618825
6.252,-0.0851017396811568,0.118918658666992
6.253,-0.0846158503518551,0.119048070391756
6.254,-0.0841310863376861,0.11917049319361
6.255,-0.0836475991692856,0.119285965120967
6.256,-0.0831655395874348,0.119394527854231
6.257,-0.0826850574539854,0.119496226697866
6.258,-0.0822063016677814,0.119591110562467
6.259,-0.0817294200705848,0.119679231945831
6.26,-0.0812545593599966,0.119760646915025
6.261,-0.0807818650063817,0.119835415086455
6.262,-0.0803114811597892,0.119903599597937
6.263,-0.0798435505658773,0.119965267085762
6.264,-0.0793782144768335,0.120020487653768
6.265,-0.0789156125692962,0.120069334843407
6.266,-0.0784558828542779,0.120111885604811
6.267,-0.0779991615960836,0.120148220255861
6.268,-0.0775455832242351,0.120178422449256
6.269,-0.0770952802533883,0.120202579134575
6.27,-0.0766483831992554,0.120220780512347
6.271,-0.0762050204955251,0.120233119994119
6.272,-0.0757653184137805,0.120239694157516
6.273,-0.0753294009854212,0.120240602697313
6.274,-0.0748973899165796,0.120235948377496
6.275,-0.0744694045170427,0.120225836977329
6.276,-0.0740455616191682,0.12021037724042
6.277,-0.073625975502805,0.12018968081978
6.278,-0.0732107578212098,0.120163862214894
6.279,-0.0728000175259655,0.120133038719781
6.28,-0.0723938607968993,0.120097330358057
6.281,-0.0719923909719981,0.120056859818002
6.282,-0.0715957084743287,0.120011752392618
6.283,-0.0712039107469509,0.119962135907694
6.284,-0.0708170921858375,0.119908140654868
6.285,-0.0704353440807872,0.119849899323691
6.286,-0.0700587545323434,0.119787546926684
6.287,-0.069687408411709,0.119721220725403
6.288,-0.0693213873066602,0.119651060157501
6.289,-0.0689607694284646,0.119577206756782
6.29,-0.068605629591793,0.11949980407727
6.291,-0.0682560391346377,0.119418997611264
6.292,-0.067912065878223,0.119334934706397
6.293,-0.0675737740869225,0.1192477644867
6.294,-0.0672412243981716,0.119157637764656
6.295,-0.0669144737723806,0.119064706956261
6.296,-0.0665935754728504,0.118969125991684
6.297,-0.0662785790056824,0.118871050232221
6.298,-0.0659695300896944,0.118770636375258
6.299,-0.0656664705863313,0.118668042365344
6.3,-0.0653694385295789,0.11856342730265
6.301,-0.0650784679958745,0.118456951348825
6.302,-0.0647935891840206,0.118348775633755
6.303,-0.0645148282850959,0.118239062160315
6.304,-0.064242207502365,0.118127973706909
6.305,-0.0639757450411932,0.118015673734022
6.306,-0.0637154550389537,0.117902326282077
6.307,-0.0634613475949416,0.11778809587769
6.308,-0.0632134287202813,0.117673147429724
6.309,-0.0629717003178392,0.117557646133341
6.31,-0.0627361601921336,0.117441757370061
6.311,-0.0625068020292417,0.117325646601811
6.312,-0.062283615386713,0.117209479275979
6.313,-0.0620735258734752,0.117093628326469
6.314,-0.0618765088397465,0.116978746388748
6.315,-0.0616855803069411,0.116864953336907
6.316,-0.0615006904975808,0.116752413133704
6.317,-0.0613217854752022,0.11664128850362
6.318,-0.0611488072112633,0.116531740828911
6.319,-0.0609816935840549,0.116423930050655
6.32,-0.0608203784206048,0.116318014557806
6.321,-0.0606647915325882,0.11621415109524
6.322,-0.0605148587542322,0.11611249465381
6.323,-0.0603705019832261,0.116013198375391
6.324,-0.0602316392206246,0.115916413454933
6.325,-0.0600981846177576,0.115822289035505
6.326,-0.0599700485271352,0.115730972116346
6.327,-0.059847137545353,0.115642607456915
6.328,-0.0597293545740005,0.115557337475934
6.329,-0.059616598871564,0.115475302165439
6.33,-0.0595087661073346,0.115396638990825
6.331,-0.0594057484283118,0.115321482805895
6.332,-0.0593074345161096,0.115249965756903
6.333,-0.0592137096548617,0.115182217197603
6.334,-0.0591244557941244,0.115118363604291
6.335,-0.0590395516247836,0.115058528483855
6.336,-0.0589588726419565,0.115002832296816
6.337,-0.0588822912258985,0.114951392369372
6.338,-0.0588096767129041,0.114904322818448
6.339,-0.0587408954752132,0.114861734470732
6.34,-0.0586758110009134,0.114823734783723
6.341,-0.0586142839728421,0.114790427775774
6.342,-0.0585561723564923,0.114761913948135
6.343,-0.0585013314829128,0.114738290217991
6.344,-0.0584496141376131,0.11471964984551
6.345,-0.0584008706474635,0.114706082379881
6.346,-0.0583549489746003,0.114697673579357
6.347,-0.0583116948083246,0.114694505336295
6.348,-0.0582709516580073,0.114696655677196
6.349,-0.0582325609509889,0.114704198612747
6.35,-0.0581963621294809,0.114717204187859
6.351,-0.0581621927484691,0.114735738311709
6.352,-0.0581298885786115,0.114759862837775
6.353,-0.0580992837071431,0.114789635383879
6.354,-0.0580702106367729,0.114825109392224
6.355,-0.0580425003985873,0.11486633402943
6.356,-0.0580159826509496,0.114913354166576
6.357,-0.0579904857863986,0.114966210309231
6.358,-0.057965837043552,0.115024938637498
6.359,-0.0579418626124024,0.115089570876045
6.36,-0.0579183877448203,0.115160134344145
6.361,-0.0578952368654505,0.115236651885709
6.362,-0.0578722336826152,0.115319141859323
6.363,-0.0578492013006083,0.115407618088283
6.364,-0.0578259623321989,0.115502089920629
6.365,-0.057802339011928,0.11560256209918
6.366,-0.0577781533100055,0.115709034851569
6.367,-0.0577532270462124,0.115821503820273
6.368,-0.0577273820053953,0.11593996007265
6.369,-0.0577004400513676,0.116064390080971
6.37,-0.0576722232418041,0.116194775772452
6.371,-0.0576425539441419,0.116331094439286
6.372,-0.0576112549524768,0.116473318848672
6.373,-0.0575781495984592,0.116621417162854
6.374,-0.057543061873194,0.116775352999143
6.375,-0.0575058165351347,0.116935085409955
6.376,-0.0574662392299836,0.117100568922836
6.377,-0.0574241566055853,0.117271753560495
6.378,-0.0573793964218254,0.117448584850831
6.379,-0.057331787669527,0.117631003836964
6.38,-0.0572811606793444,0.117818947127264
6.381,-0.057227347239663,0.118012346935377
6.382,-0.0571701807044911,0.118211131070255
6.383,-0.0571094961053598,0.118415223024184
6.384,-0.0570451302642148,0.118624541958809
6.385,-0.0569769219023155,0.118839002791161
6.386,-0.0569047117461262,0.119058516214687
6.387,-0.056828342641215,0.119282988749271
6.388,-0.0567476596521476,0.119512322796262
6.389,-0.0566625101723801,0.119746416686502
6.39,-0.0565727440271571,0.119985164734345
6.391,-0.0564782135774029,0.120228457299686
6.392,-0.0563787738196189,0.120476180848984
6.393,-0.0562742824897754,0.120728218010284
6.394,-0.0561646001562073,0.120984447650244
6.395,-0.0560495903215078,0.121244744933154
6.396,-0.0559291195174204,0.121508981396961
6.397,-0.055803057397736,0.121777025022288
6.398,-0.0556712768291821,0.122048740314462
6.399,-0.0555336539833208,0.122323988374529
6.4,-0.0553900684254379,0.122602626983278
6.401,-0.0552404032004387,0.12288451068326
6.402,-0.0550845449107405,0.123169490864812
6.403,-0.0549223838241629,0.12345741585007
6.404,-0.0547538139038252,0.123748130985996
6.405,-0.0545787329400338,0.12404147873239
6.406,-0.054397042605179,0.124337298756916
6.407,-0.0542086484936235,0.124635428032112
6.408,-0.0540134602715978,0.124935700928414
6.409,-0.0538113916670893,0.125237949316172
6.41,-0.0536023605697367,0.125542002667665
6.411,-0.0533862891007207,0.12584768815812
6.412,-0.0531631036626538,0.126154830766725
6.413,-0.0529327349994757,0.12646325339265
6.414,-0.05269511826634,0.126772776951057
6.415,-0.0524501930495101,0.127083220489119
6.416,-0.0521979034562459,0.127394401296031
6.417,-0.0519381981446981,0.127706135013028
6.418,-0.0516710303537982,0.128018235746395
6.419,-0.0513963579931467,0.128330516184485
6.42,-0.051114143612908,0.128642787711226
6.421,-0.0508243544936967,0.128954860522639
6.422,-0.0505269626864719,0.129266543746047
6.423,-0.0502219449824233,0.129577645557258
6.424,-0.049909283012865,0.129887973301025
6.425,-0.0495889632191225,0.130197333610761
6.426,-0.0492609769124251,0.130505532529842
6.427,-0.0489253202737941,0.130812375632774
6.428,-0.0485819943539324,0.131117668149032
6.429,-0.0482310051431151,0.131421215082763
6.43,-0.0478723634910773,0.131722821339803
6.431,-0.0475060852069059,0.132022291845181
6.432,-0.0471321909989251,0.132319431676127
6.433,-0.0467507065045893,0.13261404617508
6.434,-0.0463616622703703,0.132905941082698
6.435,-0.0459650937616448,0.13319492265486
6.436,-0.0455610413525863,0.133480797793676
6.437,-0.0451495502760504,0.133763374164491
6.438,-0.0447306706834664,0.134042460322892
6.439,-0.0443044575447226,0.134317865838711
6.44,-0.043870970678058,0.134589401415034
6.441,-0.043430274729948,0.134856879016198
6.442,-0.042982439084993,0.135120111983803
6.443,-0.0425275379158075,0.135378915163708
6.444,-0.042065650102906,0.135633105021041
6.445,-0.0415968591945937,0.135882499764195
6.446,-0.0411212533868512,0.136126919460835
6.447,-0.0406389254632245,0.136366186157896
6.448,-0.0401499727667104,0.136600123998589
6.449,-0.0396544971376462,0.136828559336397
6.45,-0.0391526048615959,0.137051320851077
6.451,-0.038644406617236,0.137268239662661
6.452,-0.038130017420246,0.137479149441456
6.453,-0.0376095565581918,0.137683886522039
6.454,-0.0370831475294159,0.137882290010263
6.455,-0.0365509179759214,0.138074201890247
