"Freq [GHz]","re(S(Antenna1_1_1,Antenna1_1_1)) []","im(S(Antenna1_1_1,Antenna1_1_1)) []"
6,-0.108189965783961,0.034696645041774
6.001,-0.108215916536809,0.0348620953678328
6.002,-0.10824454431737,0.035027014291832
6.003,-0.108275863424072,0.0351914942741561
6.004,-0.108309885813039,0.0353556280059606
6.005,-0.108346621101118,0.0355195083479713
6.006,-0.108386076559897,0.0356832282775787
6.007,-0.108428257123719,0.0358468808321366
6.008,-0.108473165390708,0.0360105590525602
6.009,-0.108520801624781,0.0361743559283207
6.01,-0.108571163765672,0.0363383643414057
6.011,-0.108624247433942,0.0365026770119137
6.012,-0.108680045938005,0.036667386442955
6.013,-0.108738550286136,0.0368325848664453
6.014,-0.108799749196494,0.0369983641894081
6.015,-0.108863629108134,0.0371648159401082
6.016,-0.108930174196026,0.0373320312148518
6.017,-0.108999366384067,0.0375001006261855
6.018,-0.109071185362094,0.0376691142486912
6.019,-0.109145608601907,0.0378391615717882
6.02,-0.109222611375272,0.0380103314442271
6.021,-0.109302166772943,0.0381827120231925
6.022,-0.10938424572467,0.0383563907303982
6.023,-0.109468817021215,0.038531454197186
6.024,-0.109555847338363,0.0387079882166271
6.025,-0.109645301253932,0.0388860776986166
6.026,-0.10973714128079,0.0390658066189754
6.027,-0.10983132788486,0.0392472579775466
6.028,-0.109927819518135,0.0394305137452968
6.029,-0.110026572640686,0.0396156548264124
6.03,-0.110127541749674,0.0398027610093995
6.031,-0.110230679411357,0.0399919109261847
6.032,-0.1103359362911,0.0401831820082106
6.033,-0.110443261179388,0.0403766504435385
6.034,-0.110552601030827,0.0405723911379445
6.035,-0.110663900992157,0.0407704776720215
6.036,-0.110777104434258,0.0409709822632757
6.037,-0.110892152992157,0.0411739757302288
6.038,-0.111008986596035,0.0413795274465148
6.039,-0.111127543505234,0.0415877053159802
6.04,-0.111247760351262,0.0417985757247854
6.041,-0.111369572168799,0.0420122035145004
6.042,-0.1114929124337,0.0422286519452091
6.043,-0.111617713106004,0.0424479826616033
6.044,-0.111743904664936,0.0426702556640882
6.045,-0.111871416150908,0.0428955292718775
6.046,-0.112000175203527,0.0431238600990944
6.047,-0.112130108103597,0.0433553030198735
6.048,-0.112261139814121,0.0435899111444569
6.049,-0.1123931940233,0.0438277357872977
6.05,-0.112526193185542,0.044068826446156
6.051,-0.112660058562458,0.0443132307712027
6.052,-0.112794710270863,0.0445609945451157
6.053,-0.112930067321782,0.0448121616541831
6.054,-0.113066047666442,0.0450667740714004
6.055,-0.113202568239279,0.0453248718325715
6.056,-0.113339545003933,0.04558649301641
6.057,-0.11347689299925,0.0458516737216362
6.058,-0.113614526381278,0.0461204480550806
6.059,-0.113752358471267,0.0463928481077804
6.06,-0.113890301801664,0.0466689039430825
6.061,-0.114028268160116,0.0469486435767417
6.062,-0.11416616863746,0.0472320929690207
6.063,-0.114303913674725,0.0475192760017922
6.064,-0.114441413108124,0.0478102144766356
6.065,-0.114578576217052,0.0481049280949409
6.066,-0.114715311769083,0.0484034344520046
6.067,-0.114851528070961,0.0487057490241341
6.068,-0.114987133011595,0.0490118851647437
6.069,-0.115122034112657,0.0493218540924572
6.07,-0.115256138573471,0.0496356648862075
6.071,-0.115389353319609,0.0499533244823355
6.072,-0.115521585050082,0.0502748376626922
6.073,-0.115652740284636,0.0506002070617359
6.074,-0.115782725411608,0.0509294331526356
6.075,-0.115911446734573,0.0512625142543669
6.076,-0.116038810520532,0.0515994465268163
6.077,-0.116164723046305,0.0519402239708778
6.078,-0.11628909064677,0.0522848384315541
6.079,-0.116411819761081,0.0526332796010573
6.08,-0.116532816980264,0.0529855350159066
6.081,-0.116651989094598,0.0533415900690313
6.082,-0.116769243137808,0.0537014280098668
6.083,-0.116884486437355,0.0540650299514582
6.084,-0.11699762665972,0.0544323748765572
6.085,-0.117108571854393,0.0548034396467231
6.086,-0.11721723050186,0.0551781990114231
6.087,-0.117323511561591,0.0555566256151299
6.088,-0.117427324511024,0.0559386900104243
6.089,-0.117528579400554,0.0563243606680912
6.09,-0.117627186889511,0.0567136039912234
6.091,-0.117723058296157,0.0571063843233168
6.092,-0.117816105640659,0.0575026639703722
6.093,-0.117906241692081,0.0579024032099961
6.094,-0.117993380007361,0.058305560306496
6.095,-0.118077434978303,0.0587120915329842
6.096,-0.118158321875552,0.0591219511854732
6.097,-0.11823595688958,0.0595350915999783
6.098,-0.118310257172668,0.0599514631746138
6.099,-0.118381140885887,0.0603710143896948
6.1,-0.118448527234081,0.0607936918248338
6.101,-0.118512336512846,0.0612194401860412
6.102,-0.11857249014651,0.0616482023248248
6.103,-0.118628910731116,0.0620799192632858
6.104,-0.118681522072399,0.0625145302162219
6.105,-0.118730249225765,0.0629519726202213
6.106,-0.118775018537273,0.0633921821527662
6.107,-0.118815757679611,0.063835092767327
6.108,-0.118852395694072,0.0642806367144634
6.109,-0.118884863023538,0.0647287445729233
6.11,-0.11891309155345,0.0651793452757381
6.111,-0.11893701464879,0.0656323661433253
6.112,-0.118956567187053,0.0660877329145824
6.113,-0.118971685596229,0.0665453697729894
6.114,-0.118982307887772,0.0670051993837019
6.115,-0.11898837369458,0.0674671429226543
6.116,-0.118989824301967,0.0679311201146536
6.117,-0.118986602678639,0.0683970492624789
6.118,-0.118978653516666,0.0688648472849804
6.119,-0.118965923256459,0.0693344297501733
6.12,-0.11894836011874,0.0698057109153399
6.121,-0.118925914140515,0.0702786037591235
6.122,-0.118898537199047,0.0707530200246276
6.123,-0.11886618304183,0.0712288702535126
6.124,-0.118828807320556,0.0717060638260924
6.125,-0.118786367611092,0.072184509001433
6.126,-0.118732285153444,0.0726684012894471
6.127,-0.118672862713733,0.0731530595269943
6.128,-0.118608073881161,0.0736383820939738
6.129,-0.118537894484984,0.0741242667074248
6.13,-0.118462302603478,0.0746106104696201
6.131,-0.11838127858791,0.075097309919164
6.132,-0.118294805070505,0.0755842610790891
6.133,-0.118202866979414,0.0760713595038504
6.134,-0.118105451550682,0.0765585003364243
6.135,-0.118002548343215,0.0770455783528013
6.136,-0.117894149241747,0.0775324880151849
6.137,-0.117780248473806,0.0780191235229847
6.138,-0.117660842610679,0.0785053788640366
6.139,-0.117535930581379,0.0789911478666854
6.14,-0.117405513670611,0.0794763242515018
6.141,-0.117269595533734,0.079960801683659
6.142,-0.117128182190726,0.0804444738252339
6.143,-0.11698128203415,0.0809272343880844
6.144,-0.116828905831115,0.0814089771863404
6.145,-0.116671066722243,0.081889596190202
6.146,-0.116507780219626,0.082368985576431
6.147,-0.116339064208793,0.0828470397869467
6.148,-0.116164938941671,0.0833236535756213
6.149,-0.115985427036544,0.0837987220663712
6.15,-0.11580055346902,0.0842721408052545
6.151,-0.115610345569985,0.0847438058115608
6.152,-0.115414833012568,0.0852136136369094
6.153,-0.115214047808098,0.0856814614123386
6.154,-0.115008024295068,0.0861472469054021
6.155,-0.114796799126089,0.0866108685712611
6.156,-0.114580411256852,0.0870722256107773
6.157,-0.114358901935088,0.0875312180166067
6.158,-0.11413231468052,0.0879877466302905
6.159,-0.113900695274829,0.0884417131953506
6.16,-0.113664091739603,0.0888930204073792
6.161,-0.113422554322301,0.0893415719681337
6.162,-0.113176135473206,0.0897872726386262
6.163,-0.112924889825379,0.0902300282882176
6.164,-0.112668874176622,0.0906697459467094
6.165,-0.112408147459424,0.0911063338584331
6.166,-0.112142770724926,0.091539701527345
6.167,-0.111872807107866,0.0919697597751147
6.168,-0.111598321808541,0.092396420782218
6.169,-0.111319382059757,0.0928195981450273
6.17,-0.111036057098782,0.0932392069219014
6.171,-0.110748418137302,0.0936551636792789
6.172,-0.110456538331372,0.0940673865427651
6.173,-0.110160492745368,0.0944757952452259
6.174,-0.109860358318939,0.0948803111708745
6.175,-0.109556213834961,0.0952808574013642
6.176,-0.109248139880485,0.0956773587648756
6.177,-0.108936218808691,0.0960697418762089
6.178,-0.108620534703835,0.0964579351848707
6.179,-0.108301173336203,0.0968418690141644
6.18,-0.107978222126057,0.0972214756102798
6.181,-0.107651770100587,0.0975966891763803
6.182,-0.10732190785086,0.0979674459176934
6.183,-0.106988727483768,0.0983336840815968
6.184,-0.106652322583975,0.0986953439967095
6.185,-0.106312788161867,0.0990523681079771
6.186,-0.1059702206095,0.0994047010177607
6.187,-0.105624717650543,0.099752289520926
6.188,-0.105276378292232,0.100095082637928
6.189,-0.104925302773308,0.1004330316519
6.19,-0.104571592515971,0.10076609013974
6.191,-0.104215350070819,0.101094214005199
6.192,-0.103856679063801,0.101417361507965
6.193,-0.103495684145154,0.10173549329575
6.194,-0.103132470930353,0.10204857243038
6.195,-0.102767145949053,0.102356564417874
6.196,-0.102399816584233,0.102659437229538
6.197,-0.102030591017942,0.102957161333042
6.198,-0.10165957817174,0.103249709709512
6.199,-0.101286887648342,0.103537057879613
6.2,-0.100912629672256,0.103819183925632
6.201,-0.100536915029226,0.104096068503566
6.202,-0.100159855005711,0.104367694870204
6.203,-0.0997815613272353,0.104634048893212
6.204,-0.099402146096527,0.104895119068217
6.205,-0.0990217217307074,0.105150896532892
6.206,-0.0986404008985441,0.105401375081036
6.207,-0.0982582964560881,0.105646551165663
6.208,-0.0978755213846164,0.105886423920078
6.209,-0.0974921887237701,0.106120995151968
6.21,-0.0971084115069927,0.106350269361478
6.211,-0.0967243026989707,0.106574253737296
6.212,-0.0963399751275699,0.106792958165735
6.213,-0.0959555414177752,0.107006395223816
6.214,-0.0955711139306273,0.107214580190349
6.215,-0.0951868046891604,0.107417531032011
6.216,-0.0948027253203392,0.107615268408435
6.217,-0.0944189869819954,0.107807815663283
6.218,-0.0940357003017643,0.107995198817332
6.219,-0.0936529753060205,0.108177446559551
6.22,-0.0932709213588142,0.108354590241186
6.221,-0.0928896470918053,0.108526663855834
6.222,-0.0925092603362005,0.108693704033527
6.223,-0.0921298680636851,0.10885575002081
6.224,-0.0917515763143603,0.109012843664822
6.225,-0.0913744901346757,0.109165029397371
6.226,-0.0909987135093622,0.109312354208017
6.227,-0.0906243493003677,0.10945486762915
6.228,-0.0902514991777874,0.109592621709065
6.229,-0.0898802635597994,0.109725670985042
6.23,-0.089510741547594,0.109854072458428
6.231,-0.0891430308623085,0.109977885567705
6.232,-0.0887772277809574,0.110097172151576
6.233,-0.0884134270773641,0.110211996423037
6.234,-0.0880517219600926,0.110322424933458
6.235,-0.087692204010377,0.110428526537655
6.236,-0.0873349631240538,0.110530372354966
6.237,-0.0869800874524897,0.110628035734333
6.238,-0.0866276633445144,0.110721592211371
6.239,-0.0862777752863469,0.110811119465447
6.24,-0.0859305058495272,0.110896697279754
6.241,-0.0855859356338444,0.110978407496384
6.242,-0.0852441432132644,0.111056333965408
6.243,-0.0849052050798598,0.111130562501945
6.244,-0.084569195598736,0.111201180836237
6.245,-0.084236186946961,0.111268278558726
6.246,-0.0839062490724906,0.111331947074123
6.247,-0.0835794496430971,0.111392279543485
6.248,-0.0832558539962952,0.111449370829284
6.249,-0.0829355250952682,0.111503317442484
6.25,-0.0826185234847954,0.111554217482611
6.251,-0.0823049072491761,0.111602170577825
6.252,-0.0819947319661568,0.111647277828992
6.253,-0.0816880506688551,0.111689641743756
6.254,-0.0813849138096861,0.11172936617661
6.255,-0.0810853692162856,0.111766556266967
6.256,-0.0807894620634348,0.111801318371231
6.257,-0.0804972348339854,0.111833759998866
6.258,-0.0802087272847814,0.111863989745467
6.259,-0.0799239764225848,0.111892117225431
6.26,-0.0796430164669966,0.111918253003825
6.261,-0.0793658788283817,0.111942508526055
6.262,-0.0790925920797892,0.111964996047837
6.263,-0.0788231819338773,0.111985828564562
6.264,-0.0785576712168335,0.112005119739198
6.265,-0.0782960798572962,0.112022983830107
6.266,-0.0780384248562779,0.112039535617511
6.267,-0.0777847202790836,0.112054890330161
6.268,-0.0775349772362351,0.112069163570756
6.269,-0.0772892038723883,0.112082471241275
6.27,-0.0770474053532555,0.112094929467347
6.271,-0.0768095838615251,0.112106654524119
6.272,-0.0765757385817805,0.112117762758516
6.273,-0.0763458657034211,0.112128370512313
6.274,-0.0761199584125796,0.112138594048496
6.275,-0.0758980068920427,0.112148549472329
6.276,-0.0756799983231682,0.11215835265342
6.277,-0.075465916886805,0.11216811915378
6.278,-0.0752557437702098,0.112177964142894
6.279,-0.0750494571739655,0.112188002328781
6.28,-0.0748470323168993,0.112198347876057
6.281,-0.0746484414539981,0.112209114330002
6.282,-0.0744536538813287,0.112220414539618
6.283,-0.0742626359569509,0.112232360585694
6.284,-0.0740753511148375,0.112245063696868
6.285,-0.0738917598867872,0.112258634180691
6.286,-0.0737118199193434,0.112273181344684
6.287,-0.073535485997709,0.112288813422403
6.288,-0.0733627100756601,0.112305637500501
6.289,-0.0731934412944646,0.112323759442782
6.29,-0.073027626016793,0.11234328381627
6.291,-0.0728652078576377,0.112364313822264
6.292,-0.072706127714223,0.112386951221397
6.293,-0.0725503238029225,0.1124112962657
6.294,-0.0723977316951716,0.112437447623656
6.295,-0.0722482843563806,0.112465502315261
6.296,-0.0721019121828504,0.112495555642084
6.297,-0.0719585430486824,0.112527701120321
6.298,-0.0718181023476944,0.112562030411858
6.299,-0.0716805130373313,0.112598633264324
6.3,-0.0715456956885789,0.11263759744115
6.301,-0.0714135685328745,0.112679008663625
6.302,-0.0712840475150206,0.112722950543955
6.303,-0.0711570463450959,0.112769504531315
6.304,-0.071032476550365,0.112818749846909
6.305,-0.0709102475341932,0.112870763429022
6.306,-0.0707902666299537,0.112925619875077
6.307,-0.0706724391639416,0.11298339139069
6.308,-0.0705566685102813,0.113044147729724
6.309,-0.0704428561578392,0.113107956148341
6.31,-0.0703309017681336,0.113174881353061
6.311,-0.0702207032452417,0.113244985449811
6.312,-0.070112156796713,0.113318327898979
6.313,-0.0700079930984751,0.113398808782469
6.314,-0.0699078321797465,0.113486681898748
6.315,-0.0698086306629411,0.113578211007907
6.316,-0.0697102696395808,0.113673431362704
6.317,-0.0696126292712022,0.11377237507662
6.318,-0.0695155888712633,0.113875071102911
6.319,-0.0694190269840549,0.113981545210655
6.32,-0.0693228214706048,0.114091819964806
6.321,-0.0692268495875882,0.11420591470924
6.322,-0.0691309880746322,0.11432384555281
6.323,-0.0690351132333261,0.114445625355391
6.324,-0.0689391010145246,0.114571263715933
6.325,-0.0688428271009576,0.114700766965505
6.326,-0.0687461669917572,0.114834138159346
6.327,-0.068648996087053,0.114971377071915
6.328,-0.0685511897723005,0.115112480197934
6.329,-0.068452623503164,0.115257440749439
6.33,-0.0683531728898346,0.115406248658825
6.331,-0.0682527137813118,0.115558890585895
6.332,-0.0681511223511096,0.115715349917903
6.333,-0.0680482751788617,0.115875606786603
6.334,-0.0679440493371244,0.116039638075291
6.335,-0.0678383224717836,0.116207417429855
6.336,-0.0677309728869565,0.116378915277816
6.337,-0.0676218796308985,0.116554098846372
6.338,-0.0675109225709041,0.116732932178448
6.339,-0.0673979824822133,0.116915376157732
6.34,-0.0672829411229134,0.117101388531723
6.341,-0.0671656813198421,0.117290923935774
6.342,-0.0670460870454923,0.117483933925135
6.343,-0.0669240434969128,0.117680367002991
6.344,-0.0667994371756131,0.11788016865151
6.345,-0.0666721559614635,0.118083281368881
6.346,-0.0665420891926003,0.118289644702357
6.347,-0.0664091277383246,0.118499195290295
6.348,-0.0662731640750073,0.118711866899196
6.349,-0.0661340923579889,0.118927590465747
6.35,-0.0659918084934809,0.119146294143859
6.351,-0.0658462102134691,0.119367903346709
6.352,-0.0656971971386116,0.119592340794775
6.353,-0.0655446708511431,0.119819526568879
6.354,-0.0653885349607729,0.120049378156224
6.355,-0.0652286951725873,0.12028181050743
6.356,-0.0650650593459496,0.120516736088576
6.357,-0.0648975375643986,0.120754064935231
6.358,-0.064726042189552,0.120993704714498
6.359,-0.0645504879280024,0.121235560784045
6.36,-0.0643707918842203,0.121479536246145
6.361,-0.0641868736204505,0.121725532019709
6.362,-0.0639986552086152,0.121973446895323
6.363,-0.0638060612892083,0.122223177603283
6.364,-0.0636090191151989,0.122474618881629
6.365,-0.063407458607928,0.12272766354118
6.366,-0.0632013124040055,0.122982202535569
6.367,-0.0629905158982124,0.123238125030273
6.368,-0.0627750072943953,0.12349531847265
6.369,-0.0625547276403676,0.123753668667971
6.37,-0.0623296208748041,0.124013059846452
6.371,-0.0620996338631419,0.124273374745286
6.372,-0.0618647164354768,0.124534494675672
6.373,-0.0616248214194592,0.124796299602854
6.374,-0.061379904676194,0.125058668224143
6.375,-0.0611299251291347,0.125321478042955
6.376,-0.0608748447959836,0.125584605447836
6.377,-0.0606146288085853,0.125847925794495
6.378,-0.0603492454478254,0.126111313481831
6.379,-0.060078666156527,0.126374642033964
6.38,-0.0598028655683444,0.126637784178264
6.381,-0.059521821520663,0.126900611930377
6.382,-0.0592355150744911,0.127162996671255
6.383,-0.0589439305283598,0.127424809232184
6.384,-0.0586470554292148,0.127685919976709
6.385,-0.0583448805843155,0.127946198880561
6.386,-0.0580374000701262,0.128205515615987
6.387,-0.057724611235215,0.128463739633881
6.388,-0.0574065147081476,0.128720740246462
6.389,-0.0570831143973801,0.128976386710102
6.39,-0.0567544174911571,0.129230548307445
6.391,-0.0564204344554029,0.129483094430686
6.392,-0.0560811790296189,0.129733894663584
6.393,-0.0557366682207754,0.129982818863284
6.394,-0.0553869222932073,0.130229737244244
6.395,-0.0550319647605078,0.130474520456154
6.396,-0.0546718223714204,0.130717039668961
6.397,-0.0543065250947359,0.130957166652288
6.398,-0.0539361061031821,0.131194773855462
6.399,-0.0535606017573208,0.131429734488529
6.4,-0.0531800515794379,0.131661922599278
6.401,-0.0527944982354387,0.13189121315726
6.402,-0.0524039875107405,0.132117482123812
6.403,-0.0520085682781629,0.13234060653907
6.404,-0.0516082924748252,0.132560464590996
6.405,-0.0512032150720338,0.13277693569439
6.406,-0.050793394040179,0.132989900564916
6.407,-0.0503788903146235,0.133199241295112
6.408,-0.0499597677615978,0.133404841426414
6.409,-0.0495360931430893,0.133606586021172
6.41,-0.0491079360697367,0.133804361734665
6.411,-0.0486753689687207,0.13399805688312
6.412,-0.0482384670346538,0.134187561517725
6.413,-0.0477973081864757,0.13437276748565
6.414,-0.04735197302534,0.134553568503057
6.415,-0.0469025447795101,0.134729860219119
6.416,-0.0464491092622459,0.134901540275031
6.417,-0.0459917548156981,0.135068508375028
6.418,-0.0455305722627982,0.135230666344395
6.419,-0.0450656548491467,0.135387918187485
6.42,-0.044597098191908,0.135540170149726
6.421,-0.0441250002206967,0.135687330775639
6.422,-0.0436494611174719,0.135829310961847
6.423,-0.0431705832644233,0.135966024014088
6.424,-0.042688471175865,0.136097385698225
6.425,-0.0422032314381225,0.136223314295261
6.426,-0.0417149726514251,0.136343730645342
6.427,-0.0412238053577941,0.136458558202774
6.428,-0.0407298419829324,0.136567723077032
6.429,-0.0402331967641151,0.136671154082763
6.43,-0.0397339856870773,0.136768782775803
6.431,-0.0392323264149059,0.136860543505181
6.432,-0.0387283382189251,0.136946373443127
6.433,-0.0382221419105893,0.13702621262808
6.434,-0.0377138597673703,0.137100004001698
6.435,-0.0372036154616448,0.13716769344086
6.436,-0.0366915339905863,0.137229229791676
6.437,-0.0361777415980504,0.137284564902491
6.438,-0.0356623657034664,0.137333653648892
6.439,-0.0351455348267226,0.137376453963711
6.44,-0.034627378513058,0.137412926862034
6.441,-0.034108027254948,0.137443036467198
6.442,-0.033587612417993,0.137466750026803
6.443,-0.0330662661628075,0.137484037937708
6.444,-0.032544121368906,0.137494873764041
6.445,-0.0320213115543937,0.137499234248195
6.446,-0.0314979708019512,0.137497099329835
6.447,-0.0309742336767245,0.137488452159896
6.448,-0.0304502351498104,0.137473279103589
6.449,-0.0299261105190562,0.137451569754397
6.45,-0.0294019953303959,0.137423316942077
6.451,-0.028878025298836,0.137388516730661
6.452,-0.028354336229346,0.137347168428456
6.453,-0.0278310639381918,0.137299274585039
6.454,-0.0273083441734159,0.137244840988263
6.455,-0.0267863125369214,0.137183876668247
