"Freq [GHz]","re(S(Antenna1_1_1,Antenna1_1_1)) []","im(S(Antenna1_1_1,Antenna1_1_1)) []"
6,-0.108228106319961,0.034720999564774
6.001,-0.108252808128809,0.0348872957468328
6.002,-0.10828017037637,0.035053003357832
6.003,-0.108310209841072,0.0352182146351561
6.004,-0.108342940960039,0.0353830221489606
6.005,-0.108378375817118,0.0355475187437713
6.006,-0.108416524148897,0.0357117974855787
6.007,-0.108457393331719,0.0358759516021366
6.008,-0.108500988389708,0.0360400744271602
6.009,-0.108547311990781,0.0362042593437207
6.01,-0.108596364446672,0.0363685997270157
6.011,-0.108648143719942,0.0365331888885137
6.012,-0.108702645425005,0.036698120019255
6.013,-0.108759862838136,0.0368634861340453
6.014,-0.108819786897494,0.0370293800153081
6.015,-0.108882406217134,0.0371958941575082
6.016,-0.108947707096026,0.0373631207121518
6.017,-0.109015673526067,0.0375311514321855
6.018,-0.109086287208094,0.0377000776176912
6.019,-0.109159527560907,0.0378699900627882
6.02,-0.109235371739272,0.0380409789992271
6.021,-0.109313794649943,0.0382131340441925
6.022,-0.10939476896767,0.0383865441493982
6.023,-0.109478265152215,0.038561297545186
6.024,-0.109564251471363,0.0387374816916271
6.025,-0.109652694018932,0.0389151832236166
6.026,-0.10974355673879,0.0390944879049755
6.027,-0.10983680144686,0.0392754805745466
6.028,-0.109932387855135,0.0394582450962968
6.029,-0.110030273596686,0.0396428643144124
6.03,-0.110130414253674,0.0398294200013995
6.031,-0.110232763385357,0.0400179928111847
6.032,-0.1103372725541,0.0402086622332106
6.033,-0.110443891356388,0.0404015065485385
6.034,-0.110552567453827,0.0405966027779445
6.035,-0.110663246606157,0.0407940266460215
6.036,-0.110775872699258,0.0409938525302757
6.037,-0.110890387784157,0.0411961534222288
6.038,-0.111006732110035,0.0414010008865148
6.039,-0.111124844155234,0.0416084650149802
6.04,-0.111244660672262,0.0418186143927854
6.041,-0.111366116715799,0.0420315160525004
6.042,-0.1114891456887,0.0422472354412091
6.043,-0.111613679374004,0.0424658363806033
6.044,-0.111739647979936,0.0426873810320882
6.045,-0.111866980176908,0.0429119298588775
6.046,-0.111995603140527,0.0431395415940944
6.047,-0.112125442594598,0.0433702732048735
6.048,-0.112256422849121,0.043604179862457
6.049,-0.1123884668483,0.0438413149112977
6.05,-0.112521496213542,0.044081729833156
6.051,-0.112655431285458,0.0443254742242027
6.052,-0.112790191170863,0.0445725957661157
6.053,-0.112925693789782,0.0448231401921831
6.054,-0.113061855918442,0.0450771512714004
6.055,-0.113198593239279,0.0453346707755715
6.056,-0.113335820385933,0.04559573845841
6.057,-0.11347345099125,0.0458603920336362
6.058,-0.113611397736278,0.0461286671520806
6.059,-0.113749572398267,0.0464005973797804
6.06,-0.113887885900664,0.0466762141810825
6.061,-0.114026248360116,0.0469555469017417
6.062,-0.11416456913846,0.0472386227460207
6.063,-0.114302756890725,0.0475254667667922
6.064,-0.114440719617124,0.0478161018466356
6.065,-0.114578364713052,0.0481105486879409
6.066,-0.114715599017083,0.0484088257950046
6.067,-0.114852328866961,0.0487109494681341
6.068,-0.114988460146895,0.0490169337917437
6.069,-0.115123898339157,0.0493267906214572
6.07,-0.115258548577071,0.0496405295832075
6.071,-0.115392315695109,0.0499581580593355
6.072,-0.115525104280982,0.0502796811896922
6.073,-0.115656818727136,0.0506051018617359
6.074,-0.115787363282308,0.0509344207086356
6.075,-0.115916642103373,0.0512676361103669
6.076,-0.116044559306632,0.0516047441878163
6.077,-0.116171019019705,0.0519457388068778
6.078,-0.11629592543287,0.0522906115775541
6.079,-0.116419182850381,0.0526393518560573
6.08,-0.116540695742264,0.0529919467509066
6.081,-0.116660368794598,0.0533483811250313
6.082,-0.116778106960808,0.0537086376018668
6.083,-0.116893815514355,0.0540726965724582
6.084,-0.11700740009572,0.0544405362055572
6.085,-0.117118766765393,0.0548121324537232
6.086,-0.11722782205286,0.0551874590634231
6.087,-0.117334473008591,0.0555664875911299
6.088,-0.117438627251024,0.0559491874074243
6.089,-0.117540193014553,0.0563355257170912
6.09,-0.117639079204511,0.0567254675732234
6.091,-0.117735195440157,0.0571189758883168
6.092,-0.117828452102659,0.0575160114533722
6.093,-0.117918760387081,0.0579165329579961
6.094,-0.118006032348361,0.058320497003496
6.095,-0.118090180942303,0.0587278581279842
6.096,-0.118171120083552,0.0591385688224732
6.097,-0.11824876468058,0.0595525795559783
6.098,-0.118323030686668,0.0599698387956138
6.099,-0.118393835143887,0.0603902930316948
6.1,-0.118461096229081,0.0608138867988338
6.101,-0.118524733293846,0.0612405627090412
6.102,-0.11858466691251,0.0616702614678248
6.103,-0.118640818920116,0.0621029219102858
6.104,-0.118693112458399,0.0625384810242219
6.105,-0.118741472016765,0.0629768739812213
6.106,-0.118785823472273,0.0634180341647662
6.107,-0.118826094128611,0.063861893202327
6.108,-0.118862212758072,0.0643083809994634
6.109,-0.118894109639538,0.0647574257669233
6.11,-0.11892171659645,0.0652089540567381
6.111,-0.11894496703479,0.0656628907993253
6.112,-0.118963795977053,0.0661191593315824
6.113,-0.118978140105229,0.0665776814399894
6.114,-0.118987937788772,0.0670383773907019
6.115,-0.11899312912058,0.0675011659706543
6.116,-0.118993655953967,0.0679659645246536
6.117,-0.118989461933639,0.0684326889934789
6.118,-0.118980492525666,0.0689012539529804
6.119,-0.11896669505246,0.0693715726571733
6.12,-0.11894801872074,0.0698435570723399
6.121,-0.118924414651515,0.0703171179251235
6.122,-0.118895835908047,0.0707921647416276
6.123,-0.11886223752783,0.0712686058905126
6.124,-0.118823576541556,0.0717463486260924
6.125,-0.118779812008092,0.072225299131433
6.126,-0.118724341235444,0.0727095769974471
6.127,-0.118663498625733,0.0731945702529943
6.128,-0.118597259709161,0.0736801755949738
6.129,-0.118525602331984,0.0741662891374248
6.13,-0.118448506666478,0.0746528064576201
6.131,-0.11836595522591,0.0751396226531639
6.132,-0.118277932870505,0.0756266323930891
6.133,-0.118184426825414,0.0761137299712504
6.134,-0.118085426678682,0.0766008093559243
6.135,-0.117980924399215,0.0770877642477013
6.136,-0.117870914334747,0.0775744881295849
6.137,-0.117755393222806,0.0780608743218847
6.138,-0.117634360191679,0.0785468160352646
6.139,-0.117507816764379,0.0790322064245854
6.14,-0.117375766857611,0.0795169386427018
6.141,-0.117238216789734,0.080000905894359
6.142,-0.117095175269726,0.0804840014899339
6.143,-0.11694665340615,0.0809661188994844
6.144,-0.116792664696115,0.0814471518063404
6.145,-0.116633225024243,0.081926994162202
6.146,-0.116468352657626,0.082405540239431
6.147,-0.116298068240793,0.0828826846849467
6.148,-0.116122394785671,0.0833583225746213
6.149,-0.115941357662544,0.0838323494663712
6.15,-0.11575498459302,0.0843046614542545
6.151,-0.115563305636985,0.0847751552195608
6.152,-0.115366353181568,0.0852437280889094
6.153,-0.115164161926098,0.0857102780793386
6.154,-0.114956768868068,0.0861747039574021
6.155,-0.114744213289089,0.0866369052882611
6.156,-0.114526536736852,0.0870967824897773
6.157,-0.114303783006088,0.0875542368816067
6.158,-0.11407599812252,0.0880091707392904
6.159,-0.113843230319829,0.0884614873423506
6.16,-0.113605530017603,0.0889110910293792
6.161,-0.113362949802301,0.0893578872441336
6.162,-0.113115544400206,0.0898017825846262
6.163,-0.112863370655379,0.0902426848582176
6.164,-0.112606487501622,0.0906805031257094
6.165,-0.112344955936424,0.0911151477484331
6.166,-0.112078838990926,0.091546530443345
6.167,-0.111808201706866,0.0919745643211147
6.168,-0.111533111097541,0.092399163940218
6.169,-0.111253636122757,0.0928202453480273
6.17,-0.110969847654782,0.0932377261319014
6.171,-0.110681818443302,0.0936515254572789
6.172,-0.110389623083372,0.0940615641167651
6.173,-0.110093337978368,0.0944677645732259
6.174,-0.109793041303939,0.0948700509988745
6.175,-0.109488812968961,0.0952683493223642
6.176,-0.109180734579485,0.0956625872678756
6.177,-0.108868889396691,0.0960526943932089
6.178,-0.108553362298835,0.0964386021338707
6.179,-0.108234239736203,0.0968202438391644
6.18,-0.107911609693057,0.0971975548102798
6.181,-0.107585561640587,0.0975704723393803
6.182,-0.10725618649586,0.0979389357426934
6.183,-0.106923576570768,0.0983028863995968
6.184,-0.106587825533975,0.0986622677827095
6.185,-0.106249028358867,0.0990170254949771
6.186,-0.1059072812755,0.0993671072997607
6.187,-0.105562681723543,0.099712463152926
6.188,-0.105215328304232,0.100053045233928
6.189,-0.104865320727308,0.1003888079739
6.19,-0.104512759761971,0.10071970808374
6.191,-0.104157747183819,0.101045704582199
6.192,-0.103800385721801,0.101366758820965
6.193,-0.103440779010154,0.10168283450975
6.194,-0.103079031526353,0.10199389774138
6.195,-0.102715248545053,0.102299917011874
6.196,-0.102349536075433,0.102600863242538
6.197,-0.101982000811242,0.102896709800042
6.198,-0.10161275007154,0.103187432515512
6.199,-0.101241891744642,0.103473009703613
6.2,-0.100869534231056,0.103753422175632
6.201,-0.100495786384637,0.104028653255566
6.202,-0.100120757455311,0.104298688795204
6.203,-0.0997445570296353,0.104563517186212
6.204,-0.099367294971827,0.104823129370217
6.205,-0.0989890813638074,0.105077518846892
6.206,-0.0986100264459441,0.105326681687036
6.207,-0.0982302405560881,0.105570616535663
6.208,-0.0978498340686164,0.105809324617078
6.209,-0.0974689173357701,0.106042809742968
6.21,-0.0970876006229927,0.106271078311478
6.211,-0.0967059940519707,0.106494139310296
6.212,-0.0963242075335699,0.106712004314735
6.213,-0.0959423507117752,0.106924687487816
6.214,-0.0955605328996273,0.107132205578349
6.215,-0.0951788630161604,0.107334577914011
6.216,-0.0947974495283392,0.107531826394435
6.217,-0.0944164003819954,0.107723975488283
6.218,-0.0940358229507643,0.107911052221332
6.219,-0.0936558239640205,0.108093086165551
6.22,-0.0932765094508142,0.108270109428186
6.221,-0.0928979846788053,0.108442156637834
6.222,-0.0925203540892005,0.108609264931527
6.223,-0.0921437212376851,0.10877147393681
6.224,-0.0917681887363603,0.108928825751822
6.225,-0.0913938581876757,0.109081364930371
6.226,-0.0910208301283622,0.109229138457017
6.227,-0.0906492039693677,0.10937219572815
6.228,-0.0902790779317874,0.109510588526065
6.229,-0.0899105489947994,0.109644370992042
6.23,-0.089543712831594,0.109773599604428
6.231,-0.0891786637543085,0.109898333144705
6.232,-0.0888154946549574,0.110018632674576
6.233,-0.0884542969483641,0.110134561495037
6.234,-0.0880951605170926,0.110246185125458
6.235,-0.087738173657377,0.110353571257655
6.236,-0.0873834230170538,0.110456789731966
6.237,-0.0870309935514897,0.110555912489333
6.238,-0.0866809684615144,0.110651013541371
6.239,-0.0863334291443469,0.110742168927447
6.24,-0.0859884551445272,0.110829456670754
6.241,-0.0856461240978444,0.110912956741384
6.242,-0.0853065116822644,0.110992751010408
6.243,-0.0849696915748598,0.111068923200945
6.244,-0.084635735394736,0.111141558847237
6.245,-0.084304712661961,0.111210745245726
6.246,-0.0839766907524906,0.111276571403123
6.247,-0.0836517348480971,0.111339127988485
6.248,-0.0833299078952952,0.111398507283284
6.249,-0.0830112705662682,0.111454803125484
6.25,-0.0826958812127953,0.111508110856611
6.251,-0.0823837958261761,0.111558527269825
6.252,-0.0820750680021568,0.111606150549992
6.253,-0.0817697488998551,0.111651080219756
6.254,-0.0814678872076861,0.11169341707861
6.255,-0.0811695291082856,0.111733263146967
6.256,-0.0808747182434348,0.111770721601231
6.257,-0.0805834956829854,0.111805896718866
6.258,-0.0802958998957814,0.111838893811467
6.259,-0.0800119667175848,0.111869819162631
6.26,-0.0797317293259966,0.111898779966925
6.261,-0.0794552182133817,0.111925884262455
6.262,-0.0791824611627892,0.111951240866537
6.263,-0.0789134832248773,0.111974959309362
6.264,-0.0786483066948336,0.111997149767628
6.265,-0.0783869510952962,0.112017922996307
6.266,-0.0781294331572779,0.112037390260911
6.267,-0.0778757668040836,0.112055663268861
6.268,-0.0776259631352351,0.112072854100156
6.269,-0.0773800304163883,0.112089075137075
6.27,-0.0771379740642554,0.112104438995347
6.271,-0.0768997966395251,0.112119058450119
6.272,-0.0766654978387805,0.112133046370516
6.273,-0.0764350744894211,0.112146515643313
6.274,-0.0762085205415796,0.112159579102496
6.275,-0.0759858270720427,0.112172349458329
6.276,-0.0757669822771682,0.11218493922542
6.277,-0.075551971478805,0.11219746064978
6.278,-0.0753407771252098,0.112210025633894
6.279,-0.0751333787939655,0.112222745670781
6.28,-0.0749297532058993,0.112235731766057
6.281,-0.0747298742239981,0.112249094365002
6.282,-0.0745337128713287,0.112262943284618
6.283,-0.0743412373389509,0.112277387639694
6.284,-0.0741524130028375,0.112292535768868
6.285,-0.0739672024387872,0.112308495165691
6.286,-0.0737855654373435,0.112325372403684
6.287,-0.073607459029709,0.112343273068403
6.288,-0.0734328375046601,0.112362301686501
6.289,-0.0732616524304646,0.112382561652782
6.29,-0.073093852684793,0.11240415516327
6.291,-0.0729293844806377,0.112427183143264
6.292,-0.072768191389223,0.112451745180397
6.293,-0.0726102143809225,0.1124779394557
6.294,-0.0724553918471716,0.112505862676656
6.295,-0.0723036596423806,0.112535610008261
6.296,-0.0721549511138504,0.112567275012084
6.297,-0.0720091971466824,0.112600949573321
6.298,-0.0718663261946944,0.112636723843858
6.299,-0.0717262643283313,0.112674686176324
6.3,-0.0715889352725789,0.11271492305815
6.301,-0.0714542604568745,0.112757519054625
6.302,-0.0713221590530206,0.112802556747955
6.303,-0.0711925480320959,0.112850116675315
6.304,-0.071065342207365,0.112900277269909
6.305,-0.0709404542881932,0.112953114811022
6.306,-0.0708177949289537,0.113008703360077
6.307,-0.0706972727879416,0.11306711470769
6.308,-0.0705787945772813,0.113128418325724
6.309,-0.0704622651258392,0.113192681307341
6.31,-0.0703475874311336,0.113259968325061
6.311,-0.0702346627232417,0.113330341574811
6.312,-0.070123390523713,0.113403860728979
6.313,-0.0700164958924752,0.113484378174469
6.314,-0.0699136066887465,0.113572148152748
6.315,-0.0698116931739411,0.113663483278907
6.316,-0.0697106395885807,0.113758419805704
6.317,-0.0696103291972022,0.11385699095962
6.318,-0.0695106443572633,0.113959226914911
6.319,-0.0694114666030549,0.114065154771655
6.32,-0.0693126767186048,0.114174798531806
6.321,-0.0692141548215882,0.11428817907824
6.322,-0.0691157804385322,0.11440531416081
6.323,-0.0690174325871261,0.114526218373391
6.324,-0.0689189898557246,0.114650903144933
6.325,-0.0688203304843576,0.114779376727505
6.326,-0.0687213324458252,0.114911644182346
6.327,-0.068621873527053,0.115047707375915
6.328,-0.0685218314109005,0.115187564970934
6.329,-0.068421083757964,0.115331212426439
6.33,-0.0683195082883346,0.115478641991825
6.331,-0.0682169828643118,0.115629842710895
6.332,-0.0681133855721096,0.115784800421903
6.333,-0.0680085948028617,0.115943497766603
6.334,-0.0679024893361244,0.116105914189291
6.335,-0.0677949484227836,0.116272025955855
6.336,-0.0676858518639565,0.116441806155816
6.337,-0.0675750800908985,0.116615224720372
6.338,-0.0674625142529041,0.116792248437448
6.339,-0.0673480362912132,0.116972840968732
6.34,-0.0672315290219134,0.117156962867723
6.341,-0.0671128762168421,0.117344571602774
6.342,-0.0669919626794923,0.117535621582135
6.343,-0.0668686743269128,0.117730064174991
6.344,-0.0667428982666131,0.11792784774551
6.345,-0.0666145228724635,0.118128917676881
6.346,-0.0664834378646003,0.118333216407357
6.347,-0.0663495343813246,0.118540683461295
6.348,-0.0662127050550073,0.118751255484196
6.349,-0.0660728440889889,0.118964866286747
6.35,-0.0659298473274809,0.119181446874859
6.351,-0.0657836123274691,0.119400925497709
6.352,-0.0656340384306116,0.119623227690775
6.353,-0.0654810268351431,0.119848276316879
6.354,-0.0653244806597729,0.120075991618224
6.355,-0.0651643050155873,0.12030629126043
6.356,-0.0650004070709496,0.120539090388576
6.357,-0.0648326961123986,0.120774301673231
6.358,-0.064661083616552,0.121011835369498
6.359,-0.0644854833040024,0.121251599369045
6.36,-0.0643058112042203,0.121493499258145
6.361,-0.0641219857154505,0.121737438379709
6.362,-0.0639339276596152,0.121983317888323
6.363,-0.0637415603402083,0.122231036815283
6.364,-0.0635448095971989,0.122480492129629
6.365,-0.063343603857928,0.12273157880718
6.366,-0.0631378741920055,0.122984189888569
6.367,-0.0629275543582124,0.123238216556273
6.368,-0.0627125808513953,0.12349354819365
6.369,-0.0624928929513676,0.123750072463971
6.37,-0.0622684327658041,0.124007675371452
6.371,-0.0620391452721419,0.124266241343286
6.372,-0.0618049783584768,0.124525653293672
6.373,-0.0615658828644592,0.124785792706854
6.374,-0.061321812613194,0.125046539703143
6.375,-0.0610727244511347,0.125307773123955
6.376,-0.0608185782769836,0.125569370602836
6.377,-0.0605593370755853,0.125831208643495
6.378,-0.0602949669448254,0.126093162702831
6.379,-0.060025437123527,0.126355107264964
6.38,-0.0597507200143444,0.126616915926264
6.381,-0.059470791209663,0.126878461472377
6.382,-0.0591856295104911,0.127139615958255
6.383,-0.0588952169423598,0.127400250794284
6.384,-0.0585995387772148,0.127660236826909
6.385,-0.0582985835423155,0.127919444418961
6.386,-0.0579923430371262,0.128177743534487
6.387,-0.057680812340215,0.128435003821671
6.388,-0.0573639898171476,0.128691094696072
6.389,-0.0570418771283801,0.128945885424102
6.39,-0.0567144792321571,0.129199245207045
6.391,-0.0563818043834029,0.129451043264586
6.392,-0.0560438641366189,0.129701148918384
6.393,-0.0557006733417754,0.129949431676284
6.394,-0.0553522501392073,0.130195761316244
6.395,-0.0549986159495078,0.130440007968154
6.396,-0.0546397954714204,0.130682042198961
6.397,-0.054275816664736,0.130921735094288
6.398,-0.0539067107361821,0.131158958341462
6.399,-0.0535325121283208,0.131393584313529
6.4,-0.0531532584984379,0.131625486148278
6.401,-0.0527689907004387,0.13185453783026
6.402,-0.0523797527607405,0.132080614273812
6.403,-0.0519855918591629,0.13230359139907
6.404,-0.0515865582958252,0.132523346216996
6.405,-0.0511827054690338,0.13273975690239
6.406,-0.050774089844179,0.132952702875916
6.407,-0.0503607709196235,0.133162064882112
6.408,-0.0499428111945978,0.133367725060414
6.409,-0.0495202761330893,0.133569567027172
6.41,-0.0490932341257367,0.133767475945665
6.411,-0.0486617564507207,0.13396133860312
6.412,-0.0482259172316538,0.134151043478725
6.413,-0.0477857933964757,0.13433648081965
6.414,-0.04734146462734,0.134517542709057
6.415,-0.0468930133205101,0.134694123135119
6.416,-0.0464405245322459,0.134866118059031
6.417,-0.0459840859306981,0.135033425484028
6.418,-0.0455237877447982,0.135195945516395
6.419,-0.0450597227101467,0.135353580431485
6.42,-0.044591986011908,0.135506234737726
6.421,-0.0441206752316967,0.135653815234639
6.422,-0.0436458902864719,0.135796231075847
6.423,-0.0431677333704233,0.135933393823088
6.424,-0.042686308891865,0.136065217506225
6.425,-0.0422017234151225,0.136191618678261
6.426,-0.0417140855904251,0.136312516466342
6.427,-0.0412235060957941,0.136427832622774
6.428,-0.0407300975639324,0.136537491581032
6.429,-0.0402339745191151,0.136641420495763
6.43,-0.0397352533060773,0.136739549296803
6.431,-0.0392340520209059,0.136831810728181
6.432,-0.0387304904419251,0.136918140394127
6.433,-0.0382246899545894,0.13699847680108
6.434,-0.0377167734773703,0.137072761394698
6.435,-0.0372068653936448,0.13714093859786
6.436,-0.0366950914715863,0.137202955847676
6.437,-0.0361815787890504,0.137258763628491
6.438,-0.0356664556604664,0.137308315502892
6.439,-0.0351498515537226,0.137351568139711
6.44,-0.034631897020058,0.137388481349034
6.441,-0.034112723606948,0.137419018099198
6.442,-0.033592463786993,0.137443144546803
6.443,-0.0330712508698075,0.137460830054708
6.444,-0.032549218931906,0.137472047215041
6.445,-0.0320265027242937,0.137476771866195
6.446,-0.0315032376023512,0.137474983105835
6.447,-0.0309795594374245,0.137466663307896
6.448,-0.0304556045381104,0.137451798134589
6.449,-0.0299315095673762,0.137430376544397
6.45,-0.0294074114608959,0.137402390799077
6.451,-0.028883447344736,0.137367836470661
6.452,-0.028359754453146,0.137326712444456
6.453,-0.0278364700458918,0.137279020921039
6.454,-0.0273137313264159,0.137224767415263
6.455,-0.0267916753599214,0.137163960754247
