"Freq [GHz]","re(S(Tx_p1,Tx_p1)) []","im(S(Tx_p1,Tx_p1)) []"
1,0.0939199067,-0.09485092594
1.01,0.09205982202,-0.09594951654
1.02,0.09017495157,-0.09704667828
1.03,0.08826483352,-0.09813985237
1.04,0.08632913432,-0.09922657329
1.05,0.08436764026,-0.1003044683
1.06,0.08238024935,-0.1013712565
1.07,0.08036696357,-0.1024247485
1.08,0.0783278814,-0.1034628448
1.09,0.07626319066,-0.1044835352
1.1,0.07417316167,-0.105484897
1.11,0.07205814062,-0.1064650944
1.12,0.06991854335,-0.1074223761
1.13,0.0677548493,-0.1083550743
1.14,0.06556759581,-0.1092616028
1.15,0.06335737262,-0.1101404548
1.16,0.06112481672,-0.1109902015
1.17,0.05887060744,-0.1118094894
1.18,0.05659546173,-0.1125970385
1.19,0.05430012986,-0.1133516399
1.2,0.0519853912,-0.1140721535
1.21,0.04965205042,-0.1147575055
1.22,0.04730093384,-0.1154066859
1.23,0.04493288609,-0.1160187461
1.24,0.04254876699,-0.116592796
1.25,0.04014944868,-0.1171280017
1.26,0.03773581306,-0.1176235827
1.27,0.03530874938,-0.1180788092
1.28,0.03286915213,-0.1184929994
1.29,0.03041791913,-0.1188655171
1.3,0.02795594991,-0.1191957684
1.31,0.02548414423,-0.1194832
1.32,0.02300340091,-0.1197272958
1.33,0.0205146168,-0.1199275747
1.34,0.018018686,-0.120083588
1.35,0.01551649927,-0.1201949173
1.36,0.01300894364,-0.1202611715
1.37,0.01049690221,-0.1202819853
1.38,0.007981254095,-0.1202570164
1.39,0.005462874596,-0.1201859439
1.4,0.002942635476,-0.1200684658
1.41,0.0004214054267,-0.1199042979
1.42,-0.002099949347,-0.1196931714
1.43,-0.004620564402,-0.1194348317
1.44,-0.007139576213,-0.1191290368
1.45,-0.00965612122,-0.1187755561
1.46,-0.01216933478,-0.1183741693
1.47,-0.01467835004,-0.1179246652
1.48,-0.0171822967,-0.117426841
1.49,-0.01968029977,-0.1168805016
1.5,-0.02217147824,-0.1162854592
1.51,-0.0246549437,-0.1156415326
1.52,-0.02712979897,-0.1149485475
1.53,-0.02959513668,-0.1142063361
1.54,-0.03205003791,-0.1134147374
1.55,-0.03449357073,-0.1125735975
1.56,-0.03692478886,-0.11168277
1.57,-0.03934273038,-0.1107421166
1.58,-0.04174641633,-0.1097515081
1.59,-0.04413484957,-0.1087108251
1.6,-0.04650701359,-0.1076199592
1.61,-0.04886187137,-0.1064788141
1.62,-0.05119836446,-0.105287307
1.63,-0.05351541202,-0.1040453703
1.64,-0.05581191004,-0.1027529527
1.65,-0.05808673068,-0.1014100215
1.66,-0.06033872171,-0.1000165638
1.67,-0.06256670609,-0.09857258908
1.68,-0.06476948171,-0.0970781305
1.69,-0.06694582124,-0.09553324745
1.7,-0.06909447217,-0.09393802748
1.71,-0.07121415699,-0.09229258852
1.72,-0.07330357353,-0.09059708106
1.73,-0.07536139547,-0.08885169046
1.74,-0.07738627305,-0.08705663915
1.75,-0.07937683389,-0.08521218894
1.76,-0.08133168403,-0.08331864329
1.77,-0.08324940914,-0.08137634952
1.78,-0.08512857588,-0.07938570106
1.79,-0.08696773345,-0.0773471396
1.8,-0.08876541533,-0.07526115722
1.81,-0.09052014114,-0.07312829842
1.82,-0.09223041869,-0.07094916211
1.83,-0.09389474623,-0.06872440349
1.84,-0.09551161477,-0.0664547358
1.85,-0.09707951064,-0.06414093201
1.86,-0.09859691812,-0.06178382631
1.87,-0.1000623223,-0.05938431559
1.88,-0.1014742118,-0.05694336062
1.89,-0.1028310822,-0.05446198719
1.9,-0.1041314389,-0.05194128704
1.91,-0.1053738003,-0.04938241863
1.92,-0.1065567016,-0.04678660771
1.93,-0.1076786976,-0.04415514774
1.94,-0.1087383668,-0.04148940011
1.95,-0.1097343146,-0.03879079408
1.96,-0.110665177,-0.03606082667
1.97,-0.1115296241,-0.03330106219
1.98,-0.1123263642,-0.03051313167
1.99,-0.1130541467,-0.02769873198
2,-0.1137117664,-0.02485962484
2.01,-0.1142980671,-0.02199763551
2.02,-0.1148119447,-0.01911465135
2.03,-0.1152523511,-0.0162126201
2.04,-0.1156182978,-0.01329354796
2.05,-0.1159088591,-0.0103594975
2.06,-0.1161231754,-0.00741258532
2.07,-0.1162604565,-0.004454979501
2.08,-0.1163199848,-0.00148889689
2.09,-0.1163011181,0.001483399829
2.1,-0.1162032927,0.004459605251
2.11,-0.1160260256,0.007437374536
2.12,-0.1157689177,0.01041432687
2.13,-0.1154316556,0.01338804909
2.14,-0.115014014,0.01635609944
2.15,-0.1145158577,0.01931601152
2.16,-0.1139371434,0.0222652983
2.17,-0.113277921,0.0252014563
2.18,-0.1125383353,0.02812196982
2.19,-0.111718627,0.03102431539
2.2,-0.1108191333,0.0339059661
2.21,-0.1098402891,0.03676439621
2.22,-0.108782627,0.03959708565
2.23,-0.1076467773,0.04240152464
2.24,-0.1064334686,0.04517521832
2.25,-0.1051435266,0.04791569138
2.26,-0.1037778744,0.05062049268
2.27,-0.1023375307,0.05328719988
2.28,-0.1008236095,0.05591342399
2.29,-0.09923731845,0.0584968139
2.3,-0.09757995707,0.06103506084
2.31,-0.0958529152,0.06352590276
2.32,-0.09405767081,0.0659671286
2.33,-0.09219578768,0.06835658248
2.34,-0.09026891285,0.07069216772
2.35,-0.0882787739,0.07297185081
2.36,-0.08622717597,0.07519366511
2.37,-0.08411599854,0.0773557145
2.38,-0.0819471921,0.0794561768
2.39,-0.0797227746,0.081493307
2.4,-0.07744482769,0.08346544031
2.41,-0.07511549285,0.08537099504
2.42,-0.07273696736,0.08720847515
2.43,-0.07031150011,0.08897647273
2.44,-0.06784138728,0.09067367012
2.45,-0.065328968,0.09229884185
2.46,-0.0627766198,0.09385085633
2.47,-0.06018675403,0.09532867728
2.48,-0.05756181122,0.09673136488
2.49,-0.05490425642,0.09805807676
2.5,-0.05221657442,0.09930806856
2.51,-0.04950126503,0.1004806944
2.52,-0.04676083834,0.101575407
2.53,-0.04399780997,0.1025917574
2.54,-0.04121469636,0.1035293949
2.55,-0.03841401012,0.1043880661
2.56,-0.03559825545,0.1051676141
2.57,-0.03276992354,0.1058679773
2.58,-0.02993148823,0.106489188
2.59,-0.02708540162,0.1070313709
2.6,-0.02423408985,0.107494741
2.61,-0.02137994907,0.1078796016
2.62,-0.01852534148,0.1081863419
2.63,-0.01567259154,0.1084154348
2.64,-0.01282398239,0.1085674337
2.65,-0.009981752438,0.1086429697
2.66,-0.007148092089,0.1086427489
2.67,-0.004325140765,0.1085675487
2.68,-0.001514984067,0.1084182147
2.69,0.001280348814,0.1081956568
2.7,0.004058887466,0.1079008462
2.71,0.006818722387,0.107534811
2.72,0.009558006879,0.1070986327
2.73,0.0122749587,0.1065934421
2.74,0.01496786147,0.1060204157
2.75,0.01763506581,0.1053807711
2.76,0.02027499027,0.1046757634
2.77,0.02288612195,0.103906681
2.78,0.02546701691,0.1030748415
2.79,0.02801630032,0.1021815877
2.8,0.03053266635,0.1012282837
2.81,0.03301487785,0.1002163107
2.82,0.03546176572,0.09914706325
2.83,0.03787222812,0.09802194559
2.84,0.04024522943,0.0968423677
2.85,0.04257979896,0.09560974183
2.86,0.04487502946,0.09432547901
2.87,0.04713007548,0.09299098567
2.88,0.04934415142,0.0916076605
2.89,0.05151652954,0.09017689139
2.9,0.05364653765,0.08870005257
2.91,0.05573355679,0.08717850196
2.92,0.05777701863,0.08561357868
2.93,0.0597764028,0.08400660074
2.94,0.06173123411,0.08235886301
2.95,0.06364107966,0.08067163532
2.96,0.06550554579,0.07894616088
2.97,0.06732427507,0.07718365481
2.98,0.06909694313,0.07538530301
2.99,0.0708232555,0.07355226118
3,0.07250294438,0.07168565416
3.01,0.07413576548,0.06978657541
3.02,0.07572149473,0.0678560868
3.03,0.07725992513,0.06589521861
3.04,0.07875086357,0.06390496978
3.05,0.08019412773,0.06188630834
3.06,0.08158954299,0.05984017215
3.07,0.08293693954,0.05776746978
3.08,0.08423614942,0.05566908166
3.09,0.08548700384,0.0535458614
3.1,0.08668933048,0.05139863735
3.11,0.087842951,0.0492282143
3.12,0.08894767875,0.04703537544
3.13,0.09000331646,0.04482088437
3.14,0.09100965437,0.04258548741
3.15,0.09196646826,0.04032991596
3.16,0.0928735179,0.03805488899
3.17,0.0937305456,0.03576111574
3.18,0.09453727495,0.03344929844
3.19,0.09529340983,0.03112013514
3.2,0.09599863364,0.02877432266
3.21,0.09665260874,0.02641255956
3.22,0.0972549761,0.02403554914
3.23,0.09780535526,0.02164400254
3.24,0.09830334443,0.01923864178
3.25,0.09874852095,0.01682020286
3.26,0.09914044185,0.01438943876
3.27,0.09947864477,0.01194712253
3.28,0.09976264905,0.009494050172
3.29,0.09999195706,0.007031043591
3.3,0.1001660558,0.00455895339
3.31,0.1002844186,0.002078661584
3.32,0.1003465074,-0.000408915803
3.33,0.1003517744,-0.002902826265
3.34,0.1002996652,-0.005402078493
3.35,0.1001896208,-0.007905640204
3.36,0.1000210809,-0.01041243615
3.37,0.09979348631,-0.01292134629
3.38,0.09950628255,-0.01543120419
3.39,0.09915892287,-0.01794079563
3.4,0.09875087172,-0.02044885735
3.41,0.09828160824,-0.02295407613
3.42,0.0977506299,-0.02545508807
3.43,0.09715745617,-0.02795047806
3.44,0.09650163237,-0.03043877955
3.45,0.09578273343,-0.03291847459
3.46,0.09500036779,-0.03538799407
3.47,0.09415418133,-0.03784571828
3.48,0.09324386123,-0.04028997769
3.49,0.09226913986,-0.04271905403
3.5,0.0912297987,-0.04513118163
3.51,0.09012567206,-0.04752454899
3.52,0.08895665091,-0.04989730066
3.53,0.08772268653,-0.05224753937
3.54,0.08642379405,-0.0545733284
3.55,0.08506005592,-0.05687269417
3.56,0.08363162526,-0.05914362918
3.57,0.082138729,-0.06138409505
3.58,0.08058167091,-0.06359202589
3.59,0.07896083443,-0.06576533185
3.6,0.0772766853,-0.06790190285
3.61,0.07552977402,-0.06999961257
3.62,0.07372073803,-0.07205632257
3.63,0.07185030371,-0.07406988657
3.64,0.06991928815,-0.07603815497
3.65,0.06792860055,-0.07795897939
3.66,0.06587924354,-0.07983021746
3.67,0.06377231406,-0.0816497376
3.68,0.06160900406,-0.08341542399
3.69,0.05939060085,-0.08512518156
3.7,0.05711848726,-0.08677694106
3.71,0.05479414134,-0.08836866416
3.72,0.05241913592,-0.08989834858
3.73,0.0499951378,-0.09136403321
3.74,0.04752390658,-0.09276380325
3.75,0.04500729333,-0.09409579526
3.76,0.04244723881,-0.09535820221
3.77,0.03984577148,-0.0965492784
3.78,0.0372050052,-0.09766734439
3.79,0.03452713663,-0.09871079172
3.8,0.03181444231,-0.09967808752
3.81,0.02906927556,-0.1005677791
3.82,0.026294063,-0.1013784981
3.83,0.02349130089,-0.1021089648
3.84,0.02066355118,-0.1027579921
3.85,0.01781343735,-0.1033244892
3.86,0.01494363999,-0.103807465
3.87,0.01205689219,-0.1042060318
3.88,0.009155974726,-0.1045194077
3.89,0.006243711095,-0.1047469201
3.9,0.00332296231,-0.1048880078
3.91,0.000396621607,-0.104942223
3.92,-0.002532391006,-0.104909234
3.93,-0.005461134317,-0.1047888261
3.94,-0.008386651576,-0.104580903
3.95,-0.01130597624,-0.1042854884
3.96,-0.01421613778,-0.103902726
3.97,-0.01711416752,-0.1034328803
3.98,-0.01999710456,-0.1028763363
3.99,-0.02286200156,-0.1022335997
4,-0.02570593071,-0.1015052958
4.01,-0.02852598947,-0.1006921688
4.02,-0.03131930641,-0.09979508072
4.03,-0.03408304683,-0.09881500934
4.04,-0.03681441847,-0.09775304676
4.05,-0.03951067691,-0.09661039704
4.06,-0.04216913098,-0.09538837366
4.07,-0.04478714799,-0.09408839681
4.08,-0.04736215875,-0.09271199024
4.09,-0.04989166247,-0.09126077799
4.1,-0.0523732314,-0.0897364807
4.11,-0.05480451536,-0.0881409118
4.12,-0.05718324589,-0.0864759734
4.13,-0.0595072403,-0.08474365196
4.14,-0.06177440542,-0.08294601377
4.15,-0.06398274103,-0.08108520024
4.16,-0.06613034308,-0.07916342297
4.17,-0.06821540663,-0.07718295875
4.18,-0.07023622844,-0.07514614431
4.19,-0.07219120929,-0.07305537105
4.2,-0.07407885602,-0.07091307958
4.21,-0.07589778318,-0.06872175424
4.22,-0.07764671444,-0.06648391751
4.23,-0.07932448364,-0.0642021244
4.24,-0.08093003553,-0.06187895681
4.25,-0.08246242619,-0.05951701787
4.26,-0.0839208231,-0.05711892627
4.27,-0.08530450492,-0.0546873107
4.28,-0.08661286097,-0.05222480424
4.29,-0.08784539034,-0.04973403892
4.3,-0.08900170075,-0.04721764027
4.31,-0.09008150708,-0.04467822204
4.32,-0.09108462961,-0.04211838103
4.33,-0.092010992,-0.03954069208
4.34,-0.09286061896,-0.03694770315
4.35,-0.09363363372,-0.03434193066
4.36,-0.09433025514,-0.03172585499
4.37,-0.09495079473,-0.02910191611
4.38,-0.09549565329,-0.02647250957
4.39,-0.09596531751,-0.0238399826
4.4,-0.09636035621,-0.02120663049
4.41,-0.09668141654,-0.01857469323
4.42,-0.0969292199,-0.01594635242
4.43,-0.09710455784,-0.01332372844
4.44,-0.09720828774,-0.01070887785
4.45,-0.09724132843,-0.008103791174
4.46,-0.09720465567,-0.005510390882
4.47,-0.09709929764,-0.002930529713
4.48,-0.09692633034,-0.0003659892766
4.49,-0.09668687288,0.002181521044
4.5,-0.09638208293,0.004710364892
4.51,-0.09601315199,0.00721897944
4.52,-0.09558130083,0.009705875603
4.53,-0.09508777486,0.01216963796
4.54,-0.09453383965,0.01460892437
4.55,-0.09392077649,0.01702246535
4.56,-0.09324987803,0.01940906313
4.57,-0.09252244409,0.0217675905
4.58,-0.0917397775,0.02409698931
4.59,-0.09090318023,0.02639626883
4.6,-0.09001394954,0.02866450381
4.61,-0.08907337441,0.03090083232
4.62,-0.08808273209,0.03310445338
4.63,-0.0870432849,0.03527462445
4.64,-0.08595627721,0.03741065862
4.65,-0.08482293265,0.03951192175
4.66,-0.0836444516,0.0415778294
4.67,-0.08242200885,0.04360784361
4.68,-0.08115675158,0.04560146963
4.69,-0.07984979752,0.04755825245
4.7,-0.07850223347,0.04947777336
4.71,-0.07711511399,0.05135964633
4.72,-0.07568946043,0.05320351442
4.73,-0.07422626021,0.05500904616
4.74,-0.07272646635,0.05677593187
4.75,-0.0711909973,0.05850388003
4.76,-0.06962073704,0.06019261366
4.77,-0.06801653542,0.06184186674
4.78,-0.06637920879,0.06345138073
4.79,-0.06470954086,0.0650209011
4.8,-0.06300828386,0.06655017402
4.81,-0.0612761599,0.06803894316
4.82,-0.05951386256,0.06948694656
4.83,-0.05772205873,0.07089391371
4.84,-0.05590139065,0.07225956276
4.85,-0.05405247818,0.07358359795
4.86,-0.05217592122,0.07486570714
4.87,-0.05027230231,0.0761055596
4.88,-0.04834218945,0.07730280404
4.89,-0.04638613895,0.07845706679
4.9,-0.04440469858,0.07956795027
4.91,-0.04239841065,0.08063503167
4.92,-0.04036781536,0.08165786189
4.93,-0.03831345407,0.08263596476
4.94,-0.03623587279,0.08356883643
4.95,-0.03413562558,0.08445594517
4.96,-0.0320132781,0.08529673131
4.97,-0.02986941103,0.08609060749
4.98,-0.02770462363,0.08683695921
4.99,-0.02551953718,0.08753514561
5,-0.02331479835,0.08818450053
5.01,-0.02109108264,0.08878433385
5.02,-0.01884909755,0.08933393305
5.03,-0.01658958585,0.08983256507
5.04,-0.01431332853,0.09027947838
5.05,-0.01202114781,0.09067390531
5.06,-0.009713909847,0.09101506461
5.07,-0.007392527363,0.09130216424
5.08,-0.005057962063,0.09153440431
5.09,-0.002711226858,0.09171098032
5.1,-0.0003533878808,0.09183108648
5.11,0.002014433717,0.09189391932
5.12,0.004391060206,0.09189868129
5.13,0.006775255964,0.09184458468
5.14,0.009165726409,0.09173085557
5.15,0.01156111721,0.09155673787
5.16,0.01396001374,0.0913214975
5.17,0.01636094087,0.09102442666
5.18,0.01876236295,0.09066484808
5.19,0.02116268414,0.09024211937
5.2,0.02356024908,0.08975563739
5.21,0.02595334371,0.08920484257
5.22,0.02834019653,0.08858922324
5.23,0.03071898005,0.08790831994
5.24,0.0330878126,0.08716172966
5.25,0.03544476038,0.08634910996
5.26,0.03778783984,0.08547018307
5.27,0.04011502028,0.08452473979
5.28,0.04242422675,0.08351264338
5.29,0.04471334324,0.08243383313
5.3,0.04698021612,0.08128832794
5.31,0.04922265773,0.08007622957
5.32,0.05143845036,0.07879772581
5.33,0.05362535034,0.0774530933
5.34,0.05578109236,0.0760427003
5.35,0.05790339401,0.07456700901
5.36,0.05998996049,0.07302657783
5.37,0.06203848945,0.07142206316
5.38,0.06404667605,0.06975422113
5.39,0.06601221807,0.06802390884
5.4,0.06793282119,0.06623208542
5.41,0.06980620433,0.06437981278
5.42,0.0716301051,0.062468256
5.43,0.07340228528,0.06049868345
5.44,0.07512053631,0.05847246651
5.45,0.07678268491,0.0563910791
5.46,0.07838659851,0.05425609674
5.47,0.07993019087,0.05206919539
5.48,0.08141142749,0.04983214989
5.49,0.08282833103,0.04754683214
5.5,0.08417898664,0.04521520891
5.51,0.08546154721,0.04283933936
5.52,0.08667423843,0.04042137223
5.53,0.08781536377,0.03796354279
5.54,0.08888330931,0.03546816936
5.55,0.08987654831,0.03293764974
5.56,0.0907936457,0.03037445716
5.57,0.09163326224,0.02778113613
5.58,0.09239415859,0.02516029795
5.59,0.09307519896,0.02251461599
5.6,0.09367535471,0.01984682081
5.61,0.0941937075,0.01715969499
5.62,0.09462945222,0.01445606783
5.63,0.09498189972,0.01173880984
5.64,0.09525047906,0.009010827098
5.65,0.09543473959,0.006275055452
5.66,0.09553435263,0.003534454622
5.67,0.09554911284,0.0007920021843
5.68,0.09547893932,-0.001949312512
5.69,0.09532387621,-0.004686494497
5.7,0.09508409315,-0.007416549365
5.71,0.09475988522,-0.01013648948
5.72,0.09435167265,-0.01284334018
5.73,0.09386000011,-0.01553414597
5.74,0.09328553572,-0.01820597665
5.75,0.09262906969,-0.02085593339
5.76,0.0918915126,-0.02348115473
5.77,0.09107389336,-0.0260788225
5.78,0.0901773569,-0.02864616752
5.79,0.0892031615,-0.0311804753
5.8,0.08815267576,-0.03367909147
5.81,0.08702737538,-0.03613942706
5.82,0.0858288396,-0.03855896363
5.83,0.08455874734,-0.04093525813
5.84,0.08321887314,-0.04326594756
5.85,0.08181108279,-0.04554875336
5.86,0.08033732881,-0.04778148564
5.87,0.0787996456,-0.04996204696
5.88,0.07720014452,-0.05208843604
5.89,0.07554100871,-0.05415875101
5.9,0.07382448775,-0.05617119246
5.91,0.07205289219,-0.05812406609
5.92,0.07022858799,-0.06001578517
5.93,0.06835399076,-0.06184487254
5.94,0.06643156004,-0.06360996236
5.95,0.06446379338,-0.06530980151
5.96,0.0624532205,-0.06694325065
5.97,0.0604023973,-0.06850928493
5.98,0.0583139,-0.0700069944
5.99,0.05619031917,-0.07143558403
6,0.05403425386,-0.07279437345
