"Freq [GHz]","re(S(Tx_p1,Tx_p1)) []","im(S(Tx_p1,Tx_p1)) []"
1,0.001852132744,-0.06038637276
1.01,0.0003084863185,-0.05908205344
1.02,-0.001154779784,-0.0577436295
1.03,-0.002536159495,-0.05637509586
1.04,-0.003834396097,-0.05498057415
1.05,-0.005048489634,-0.05356429383
1.06,-0.006177703062,-0.05213057308
1.07,-0.00722156712,-0.05068379956
1.08,-0.008179883943,-0.04922841117
1.09,-0.009052729423,-0.0477688768
1.1,-0.009840454331,-0.04630967721
1.11,-0.01054368422,-0.04485528599
1.12,-0.01116331811,-0.04341015083
1.13,-0.01170052603,-0.04197867497
1.14,-0.01215674535,-0.0405651991
1.15,-0.01253367608,-0.03917398356
1.16,-0.01283327499,-0.03780919111
1.17,-0.01305774869,-0.03647487012
1.18,-0.01320954582,-0.03517493843
1.19,-0.01329134806,-0.03391316777
1.2,-0.01330606041,-0.03269316892
1.21,-0.01325680047,-0.03151837753
1.22,-0.01314688698,-0.03039204082
1.23,-0.01297982747,-0.02931720497
1.24,-0.01275930535,-0.02829670349
1.25,-0.01248916616,-0.02733314642
1.26,-0.01217340339,-0.0264289104
1.27,-0.0118161436,-0.02558612988
1.28,-0.01142163118,-0.02480668906
1.29,-0.0109942126,-0.02409221506
1.3,-0.01053832037,-0.02344407197
1.31,-0.01005845665,-0.02286335598
1.32,-0.009559176696,-0.02235089158
1.33,-0.009045072058,-0.02190722876
1.34,-0.008520753773,-0.02153264129
1.35,-0.007990835456,-0.02122712609
1.36,-0.007459916449,-0.02099040359
1.37,-0.006932565058,-0.02082191917
1.38,-0.006413301953,-0.02072084559
1.39,-0.005906583777,-0.02068608652
1.4,-0.005416787042,-0.02071628094
1.41,-0.004948192358,-0.02080980862
1.42,-0.004504969057,-0.02096479648
1.43,-0.004091160271,-0.0211791259
1.44,-0.003710668509,-0.02145044091
1.45,-0.003367241787,-0.02177615717
1.46,-0.003064460367,-0.02215347186
1.47,-0.002805724138,-0.02257937428
1.48,-0.00259424069,-0.02305065713
1.49,-0.002433014124,-0.02356392857
1.5,-0.002324834623,-0.02411562487
1.51,-0.002272268836,-0.02470202355
1.52,-0.002277651087,-0.02531925722
1.53,-0.002343075452,-0.02596332774
1.54,-0.002470388723,-0.02663012092
1.55,-0.00266118427,-0.02731542145
1.56,-0.00291679684,-0.02801492832
1.57,-0.003238298285,-0.02872427028
1.58,-0.00362649424,-0.02943902168
1.59,-0.004081921761,-0.03015471836
1.6,-0.004604847917,-0.03086687355
1.61,-0.005195269336,-0.03157099395
1.62,-0.00585291272,-0.03226259563
1.63,-0.006577236285,-0.03293721986
1.64,-0.007367432157,-0.03359044888
1.65,-0.008222429679,-0.03421792132
1.66,-0.009140899621,-0.03481534745
1.67,-0.01012125928,-0.03537852411
1.68,-0.01116167844,-0.0359033492
1.69,-0.01226008617,-0.03638583585
1.7,-0.01341417837,-0.03682212606
1.71,-0.01462142622,-0.03720850385
1.72,-0.01587908522,-0.03754140785
1.73,-0.01718420499,-0.03781744328
1.74,-0.0185336398,-0.03803339335
1.75,-0.01992405955,-0.03818622993
1.76,-0.02135196153,-0.03827312351
1.77,-0.02281368252,-0.03829145253
1.78,-0.02430541151,-0.0382388118
1.79,-0.02582320279,-0.03811302024
1.8,-0.02736298944,-0.03791212779
1.81,-0.02892059715,-0.03763442144
1.82,-0.03049175832,-0.03727843054
1.83,-0.03207212644,-0.03684293111
1.84,-0.03365729056,-0.03632694938
1.85,-0.03524278997,-0.03572976447
1.86,-0.03682412889,-0.03505091013
1.87,-0.03839679126,-0.03429017568
1.88,-0.03995625544,-0.03344760606
1.89,-0.04149800881,-0.03252350102
1.9,-0.04301756234,-0.03151841344
1.91,-0.04451046486,-0.03043314687
1.92,-0.04597231718,-0.02926875222
1.93,-0.04739878592,-0.02802652361
1.94,-0.04878561699,-0.02670799354
1.95,-0.05012864874,-0.02531492723
1.96,-0.05142382469,-0.02384931621
1.97,-0.05266720576,-0.02231337132
1.98,-0.05385498214,-0.02070951494
1.99,-0.05498348448,-0.01904037263
2,-0.05604919468,-0.01730876416
2.01,-0.05704875591,-0.01551769401
2.02,-0.05797898223,-0.0136703413
2.03,-0.05883686736,-0.01177004927
2.04,-0.05961959293,-0.009820314297
2.05,-0.06032453593,-0.007824774564
2.06,-0.06094927555,-0.005787198312
2.07,-0.06149159925,-0.003711471827
2.08,-0.06194950806,-0.001601587143
2.09,-0.0623212212,0.000538370462
2.1,-0.0626051799,0.002704235149
2.11,-0.06280005048,0.004891773324
2.12,-0.06290472668,0.007096696522
2.13,-0.06291833119,0.009314674331
2.14,-0.06284021649,0.0115413473
2.15,-0.06266996486,0.0137723398
2.16,-0.06240738776,0.01600327276
2.17,-0.06205252437,0.0182297763
2.18,-0.06160563949,0.02044750216
2.19,-0.06106722072,0.02265213587
2.2,-0.06043797498,0.02483940875
2.21,-0.05971882437,0.02700510949
2.22,-0.05891090136,0.02914509546
2.23,-0.05801554346,0.03125530366
2.24,-0.05703428723,0.03333176125
2.25,-0.05596886177,0.03537059556
2.26,-0.05482118173,0.0373680438
2.27,-0.05359333978,0.03932046214
2.28,-0.05228759864,0.04122433432
2.29,-0.05090638274,0.04307627977
2.3,-0.04945226944,0.04487306106
2.31,-0.04792797994,0.04661159091
2.32,-0.04633636989,0.0482889385
2.33,-0.04468041967,0.04990233525
2.34,-0.04296322456,0.05144917995
2.35,-0.04118798459,0.05292704329
2.36,-0.03935799434,0.05433367173
2.37,-0.03747663256,0.05566699081
2.38,-0.03554735173,0.05692510777
2.39,-0.03357366765,0.05810631358
2.4,-0.03155914892,0.05920908433
2.41,-0.02950740655,0.06023208201
2.42,-0.02742208361,0.06117415469
2.43,-0.02530684498,0.06203433613
2.44,-0.02316536729,0.06281184475
2.45,-0.02100132898,0.06350608209
2.46,-0.01881840063,0.06411663071
2.47,-0.01662023547,0.06464325153
2.48,-0.01441046023,0.06508588069
2.49,-0.01219266625,0.06544462596
2.5,-0.009970400871,0.06571976258
2.51,-0.007747159285,0.0659117288
2.52,-0.005526376649,0.06602112089
2.53,-0.003311420646,0.06604868783
2.54,-0.001105584445,0.06599532567
2.55,0.001087919921,0.06586207148
2.56,0.003265967729,0.06565009707
2.57,0.005425527291,0.06536070246
2.58,0.007563665213,0.06499530905
2.59,0.009677551182,0.06455545263
2.6,0.01176446228,0.06404277625
2.61,0.01382178683,0.06345902288
2.62,0.01584702769,0.06280602802
2.63,0.01783780519,0.06208571221
2.64,0.01979185946,0.06130007351
2.65,0.02170705235,0.06045117998
2.66,0.02358136886,0.05954116208
2.67,0.02541291811,0.05857220528
2.68,0.02719993387,0.05754654261
2.69,0.02894077459,0.05646644734
2.7,0.03063392308,0.05533422585
2.71,0.03227798571,0.05415221055
2.72,0.03387169126,0.05292275309
2.73,0.03541388933,0.05164821767
2.74,0.03690354842,0.05033097461
2.75,0.0383397537,0.04897339419
2.76,0.03972170439,0.04757784071
2.77,0.04104871085,0.04614666685
2.78,0.04232019145,0.04468220825
2.79,0.0435356691,0.04318677853
2.8,0.0446947676,0.04166266451
2.81,0.04579720781,0.04011212179
2.82,0.04684280353,0.03853737064
2.83,0.04783145733,0.03694059235
2.84,0.04876315619,0.03532392571
2.85,0.04963796705,0.03368946406
2.86,0.05045603228,0.03203925253
2.87,0.05121756508,0.03037528573
2.88,0.05192284484,0.0286995057
2.89,0.0525722125,0.0270138003
2.9,0.05316606593,0.02532000186
2.91,0.05370485536,0.02361988618
2.92,0.0541890788,0.02191517189
2.93,0.05461927762,0.02020752007
2.94,0.05499603219,0.01849853422
2.95,0.05531995763,0.01678976048
2.96,0.05559169973,0.01508268814
2.97,0.05581193099,0.01337875044
2.98,0.05598134686,0.01167932559
2.99,0.05610066214,0.009985737984
3,0.05617060757,0.00829925972
3.01,0.05619192668,0.006621112221
3.02,0.05616537281,0.004952468087
3.03,0.05609170635,0.003294453082
3.04,0.05597169229,0.00164814827
3.05,0.05580609792,1.459225552E-05
3.06,0.05559569082,-0.001605216467
3.07,0.05534123715,-0.003210317093
3.08,0.05504350006,-0.004799784032
3.09,0.05470323849,-0.00637272439
3.1,0.05432120616,-0.007928275434
3.11,0.05389815076,-0.009465602069
3.12,0.0534348135,-0.01098389433
3.13,0.05293192875,-0.01248236489
3.14,0.05239022407,-0.01396024671
3.15,0.05181042032,-0.01541679062
3.16,0.05119323208,-0.01685126316
3.17,0.05053936821,-0.01826294439
3.18,0.04984953267,-0.01965112591
3.19,0.04912442543,-0.02101510895
3.2,0.04836474361,-0.0223542027
3.21,0.0475711828,-0.02366772269
3.22,0.04674443838,-0.02495498943
3.23,0.04588520714,-0.02621532719
3.24,0.04499418886,-0.02744806295
3.25,0.04407208805,-0.02865252564
3.26,0.04311961576,-0.02982804544
3.27,0.04213749139,-0.03097395338
3.28,0.04112644462,-0.03208958116
3.29,0.04008721728,-0.03317426109
3.3,0.03902056524,-0.03422732635
3.31,0.03792726035,-0.03524811135
3.32,0.03680809223,-0.03623595239
3.33,0.03566387011,-0.03719018848
3.34,0.03449542454,-0.03811016231
3.35,0.03330360905,-0.03899522152
3.36,0.03208930168,-0.03984472005
3.37,0.03085340645,-0.04065801974
3.38,0.02959685461,-0.04143449201
3.39,0.02832060584,-0.0421735198
3.4,0.02702564926,-0.04287449957
3.41,0.02571300425,-0.04353684344
3.42,0.02438372109,-0.04415998149
3.43,0.0230388815,-0.04474336412
3.44,0.02167959884,-0.04528646452
3.45,0.02030701826,-0.04578878117
3.46,0.0189223165,-0.04624984047
3.47,0.01752670158,-0.04666919933
3.48,0.01612141224,-0.04704644781
3.49,0.0147077171,-0.0473812118
3.5,0.01328691372,-0.04767315563
3.51,0.01186032733,-0.04792198467
3.52,0.01042930937,-0.04812744792
3.53,0.008995235861,-0.04828934045
3.54,0.007559505485,-0.04840750585
3.55,0.006123537515,-0.04848183852
3.56,0.00468876952,-0.04851228587
3.57,0.003256654881,-0.04849885036
3.58,0.001828660118,-0.04844159146
3.59,0.0004062620472,-0.04834062735
3.6,-0.001009055229,-0.04819613653
3.61,-0.00241580348,-0.04800835919
3.62,-0.003812493648,-0.04777759844
3.63,-0.005197639272,-0.0475042212
3.64,-0.006569760019,-0.04718865905
3.65,-0.007927385309,-0.04683140868
3.66,-0.009269058024,-0.04643303219
3.67,-0.01059333827,-0.04599415714
3.68,-0.01189880718,-0.04551547631
3.69,-0.01318407077,-0.04499774722
3.7,-0.01444776373,-0.04444179141
3.71,-0.01568855331,-0.04384849342
3.72,-0.01690514308,-0.04321879955
3.73,-0.0180962767,-0.04255371628
3.74,-0.01926074156,-0.04185430856
3.75,-0.02039737243,-0.04112169769
3.76,-0.0215050549,-0.0403570591
3.77,-0.02258272879,-0.03956161971
3.78,-0.02362939131,-0.03873665526
3.79,-0.02464410019,-0.0378834872
3.8,-0.02562597651,-0.03700347952
3.81,-0.02657420745,-0.03609803529
3.82,-0.02748804874,-0.03516859301
3.83,-0.02836682694,-0.03421662281
3.84,-0.02920994147,-0.03324362244
3.85,-0.0300168664,-0.03225111313
3.86,-0.03078715198,-0.03124063534
3.87,-0.03152042587,-0.03021374429
3.88,-0.03221639415,-0.02917200554
3.89,-0.03287484196,-0.02811699033
3.9,-0.03349563394,-0.02705027096
3.91,-0.0340787143,-0.0259734161
3.92,-0.03462410658,-0.02488798605
3.93,-0.0351319132,-0.02379552804
3.94,-0.03560231455,-0.0226975715
3.95,-0.0360355679,-0.0215956234
3.96,-0.03643200596,-0.02049116364
3.97,-0.0367920351,-0.01938564052
3.98,-0.0371161333,-0.01828046631
3.99,-0.03740484785,-0.01717701296
4,-0.03765879267,-0.01607660789
4.01,-0.0378786454,-0.01498053006
4.02,-0.03806514427,-0.01389000606
4.03,-0.03821908461,-0.01280620655
4.04,-0.03834131518,-0.01173024286
4.05,-0.03843273428,-0.01066316377
4.06,-0.03849428559,-0.00960595263
4.07,-0.03852695388,-0.0085595247
4.08,-0.03853176044,-0.007524724776
4.09,-0.03850975846,-0.006502325114
4.1,-0.03846202819,-0.005493023657
4.11,-0.03838967198,-0.004497442584
4.12,-0.03829380924,-0.003516127174
4.13,-0.03817557131,-0.002549545015
4.14,-0.03803609626,-0.001598085548
4.15,-0.03787652367,-0.0006620599516
4.16,-0.03769798935,0.0002582986128
4.17,-0.03750162015,0.001162834417
4.18,-0.03728852871,0.002051468223
4.19,-0.03705980832,0.002924195994
4.2,-0.03681652787,0.003781087257
4.21,-0.03655972682,0.00462228312
4.22,-0.03629041043,0.005447993952
4.23,-0.03600954501,0.00625849674
4.24,-0.03571805338,0.007054132113
4.25,-0.03541681059,0.007835301066
4.26,-0.03510663977,0.008602461382
4.27,-0.03478830822,0.009356123763
4.28,-0.0344625238,0.0100968477
4.29,-0.0341299316,0.01082523708
4.3,-0.0337911108,0.01154193558
4.31,-0.03344657197,0.01224762178
4.32,-0.0330967546,0.01294300416
4.33,-0.03274202499,0.01362881588
4.34,-0.03238267455,0.01430580938
4.35,-0.03201891831,0.01497475087
4.36,-0.031650894,0.01563641476
4.37,-0.03127866135,0.0162915779
4.38,-0.03090220183,0.01694101384
4.39,-0.03052141881,0.01758548704
4.4,-0.03013613809,0.01822574705
4.41,-0.0297461088,0.01886252273
4.42,-0.02935100475,0.01949651651
4.43,-0.02895042613,0.02012839868
4.44,-0.02854390163,0.02075880185
4.45,-0.02813089092,0.02138831548
4.46,-0.02771078755,0.02201748057
4.47,-0.0272829222,0.0226467845
4.48,-0.02684656625,0.02327665615
4.49,-0.0264009358,0.02390746114
4.5,-0.02594519588,0.02453949738
4.51,-0.02547846517,0.02517299087
4.52,-0.02499982082,0.02580809184
4.53,-0.02450830372,0.02644487108
4.54,-0.02400292395,0.02708331676
4.55,-0.0234826665,0.0277233315
4.56,-0.02294649719,0.02836472982
4.57,-0.02239336884,0.029007236
4.58,-0.02182222758,0.02965048236
4.59,-0.0212320193,0.03029400787
4.6,-0.02062169625,0.0309372573
4.61,-0.01999022372,0.03157958067
4.62,-0.01933658681,0.03222023328
4.63,-0.01865979722,0.03285837607
4.64,-0.01795890003,0.03349307651
4.65,-0.01723298053,0.03412330991
4.66,-0.01648117093,0.03474796119
4.67,-0.01570265703,0.03536582711
4.68,-0.01489668481,0.03597561893
4.69,-0.01406256679,0.03657596556
4.7,-0.01319968833,0.03716541709
4.71,-0.0123075137,0.03774244879
4.72,-0.01138559186,0.03830546553
4.73,-0.01043356211,0.03885280658
4.74,-0.009451159384,0.03938275081
4.75,-0.008438219225,0.03989352229
4.76,-0.007394682501,0.04038329621
4.77,-0.006320599712,0.04085020516
4.78,-0.005216134941,0.0412923457
4.79,-0.004081569406,0.04170778531
4.8,-0.002917304591,0.04209456945
4.81,-0.001723864945,0.04245072905
4.82,-0.0005019001206,0.04277428805
4.83,0.0007478132474,0.04306327125
4.84,0.002024370257,0.04331571225
4.85,0.003326736944,0.04352966159
4.86,0.004653749989,0.04370319486
4.87,0.006004116947,0.04383442104
4.88,0.007376416988,0.04392149077
4.89,0.008769102167,0.04396260465
4.9,0.01018049922,0.0439560215
4.91,0.01160881188,0.04390006658
4.92,0.01305212373,0.04379313972
4.93,0.01450840156,0.04363372328
4.94,0.01597549925,0.04342038995
4.95,0.01745116218,0.04315181044
4.96,0.01893303206,0.04282676082
4.97,0.02041865234,0.04244412969
4.98,0.02190547403,0.04200292499
4.99,0.02339086198,0.04150228059
5,0.0248721016,0.04094146244
5.01,0.02634640601,0.04031987433
5.02,0.02781092356,0.03963706337
5.03,0.02926274571,0.03889272488
5.04,0.03069891528,0.03808670697
5.05,0.03211643501,0.03721901452
5.06,0.03351227639,0.03628981274
5.07,0.03488338878,0.0352994302
5.08,0.0362267087,0.0342483613
5.09,0.03753916939,0.03313726822
5.1,0.03881771047,0.03196698225
5.11,0.04005928777,0.03073850466
5.12,0.04126088321,0.02945300683
5.13,0.04241951477,0.02811182991
5.14,0.04353224648,0.02671648382
5.15,0.0445961984,0.02526864568
5.16,0.04560855647,0.02377015762
5.17,0.04656658242,0.02222302398
5.18,0.04746762341,0.02062940794
5.19,0.04830912158,0.01899162754
5.2,0.04908862339,0.01731215116
5.21,0.04980378873,0.01559359231
5.22,0.05045239975,0.01383870405
5.23,0.05103236937,0.01205037265
5.24,0.0515417495,0.01023161094
5.25,0.05197873882,0.008385550966
5.26,0.05234169023,0.006515436267
5.27,0.05262911782,0.004624613671
5.28,0.0528397034,0.002716524629
5.29,0.05297230249,0.0007946961619
5.3,0.0530259499,-0.001137268591
5.31,0.05299986468,-0.003075700165
5.32,0.05289345451,-0.005016872887
5.33,0.05270631957,-0.006957015283
5.34,0.05243825576,-0.008892320727
5.35,0.05208925733,-0.01081895833
5.36,0.05165951885,-0.01273308396
5.37,0.05114943655,-0.0146308515
5.38,0.05055960906,-0.01650842408
5.39,0.04989083737,-0.01836198548
5.4,0.04914412427,-0.02018775153
5.41,0.04832067301,-0.02198198148
5.42,0.04742188534,-0.0237409893
5.43,0.0464493589,-0.02546115496
5.44,0.04540488392,-0.02713893548
5.45,0.04429043928,-0.02877087591
5.46,0.0431081879,-0.03035361999
5.47,0.0418604716,-0.03188392063
5.48,0.04054980516,-0.03335865011
5.49,0.03917886999,-0.03477480988
5.5,0.03775050704,-0.0361295401
5.51,0.03626770928,-0.03742012867
5.52,0.03473361354,-0.03864401992
5.53,0.03315149194,-0.03979882283
5.54,0.03152474272,-0.04088231867
5.55,0.02985688076,-0.0418924682
5.56,0.0281515275,-0.04282741834
5.57,0.02641240063,-0.04368550815
5.58,0.02464330332,-0.04446527432
5.59,0.02284811319,-0.045165456
5.6,0.02103077091,-0.04578499897
5.61,0.01919526868,-0.04632305918
5.62,0.01734563836,-0.04677900563
5.63,0.01548593956,-0.04715242247
5.64,0.0136202475,-0.04744311056
5.65,0.01175264085,-0.0476510882
5.66,0.009887189494,-0.04777659119
5.67,0.008027942312,-0.0478200722
5.68,0.006178914971,-0.04778219941
5.69,0.004344077828,-0.04766385443
5.7,0.002527343946,-0.04746612954
5.71,0.0007325572754,-0.04719032422
5.72,-0.00103651896,-0.04683794101
5.73,-0.002776213621,-0.04641068067
5.74,-0.004482958733,-0.04591043668
5.75,-0.00615330023,-0.04533928914
5.76,-0.007783908342,-0.04469949803
5.77,-0.009371587572,-0.04399349581
5.78,-0.01091328624,-0.04322387955
5.79,-0.01240610558,-0.04239340245
5.8,-0.01384730826,-0.04150496481
5.81,-0.01523432648,-0.04056160457
5.82,-0.0165647694,-0.03956648739
5.83,-0.01783643005,-0.03852289623
5.84,-0.01904729158,-0.03743422063
5.85,-0.02019553294,-0.0363039456
5.86,-0.02127953379,-0.03513564018
5.87,-0.02229787886,-0.03393294574
5.88,-0.02324936153,-0.03269956405
5.89,-0.02413298675,-0.03143924516
5.9,-0.02494797324,-0.03015577511
5.91,-0.02569375494,-0.02885296353
5.92,-0.02636998175,-0.02753463122
5.93,-0.02697651956,-0.02620459763
5.94,-0.02751344953,-0.02486666844
5.95,-0.0279810666,-0.02352462315
5.96,-0.02837987736,-0.0221822028
5.97,-0.0287105971,-0.02084309783
5.98,-0.02897414626,-0.01951093616
5.99,-0.02917164611,-0.01818927147
6,-0.02930441375,-0.01688157178
