"Freq [GHz]","re(S(Tx_p1,Tx_p1)) []","im(S(Tx_p1,Tx_p1)) []"
1,0.004669952378,-0.07447202375
1.01,0.002703919655,-0.07307685602
1.02,0.00082282448,-0.07163498151
1.03,-0.0009712362192,-0.07015044297
1.04,-0.002676417226,-0.06862745021
1.05,-0.004291134744,-0.06707036027
1.06,-0.005814074758,-0.06548365745
1.07,-0.00724420005,-0.06387193308
1.08,-0.008580755875,-0.06223986517
1.09,-0.009823274305,-0.06059219801
1.1,-0.01097157725,-0.05893372184
1.11,-0.01202577818,-0.05726925254
1.12,-0.01298628255,-0.05560361146
1.13,-0.01385378695,-0.05394160555
1.14,-0.01462927706,-0.05228800773
1.15,-0.01531402431,-0.05064753757
1.16,-0.01590958147,-0.04902484247
1.17,-0.01641777694,-0.04742447923
1.18,-0.01684070813,-0.04585089623
1.19,-0.01718073358,-0.04430841616
1.2,-0.01744046418,-0.04280121938
1.21,-0.01762275338,-0.04133332806
1.22,-0.01773068644,-0.03990859098
1.23,-0.01776756891,-0.03853066918
1.24,-0.01773691413,-0.03720302242
1.25,-0.01764243012,-0.03592889659
1.26,-0.01748800567,-0.03471131192
1.27,-0.01727769586,-0.03355305225
1.28,-0.01701570691,-0.03245665526
1.29,-0.01670638061,-0.03142440365
1.3,-0.0163541782,-0.03045831741
1.31,-0.01596366396,-0.02956014713
1.32,-0.01553948838,-0.02873136836
1.33,-0.01508637119,-0.02797317706
1.34,-0.01460908406,-0.02728648614
1.35,-0.01411243331,-0.02667192303
1.36,-0.01360124248,-0.02612982843
1.37,-0.01308033495,-0.02566025605
1.38,-0.0125545166,-0.0252629735
1.39,-0.0120285587,-0.02493746416
1.4,-0.01150718084,-0.02468293017
1.41,-0.01099503432,-0.0244982964
1.42,-0.01049668569,-0.02438221541
1.43,-0.01001660081,-0.02433307347
1.44,-0.009559129241,-0.02434899737
1.45,-0.009128489231,-0.02442786234
1.46,-0.008728753158,-0.02456730064
1.47,-0.00836383363,-0.02476471116
1.48,-0.008037470198,-0.02501726974
1.49,-0.007753216769,-0.02532194019
1.5,-0.007514429741,-0.02567548613
1.51,-0.007324256904,-0.02607448343
1.52,-0.007185627146,-0.0265153332
1.53,-0.00710124099,-0.02699427547
1.54,-0.007073561989,-0.02750740321
1.55,-0.007104809008,-0.02805067696
1.56,-0.007196949417,-0.02861993969
1.57,-0.007351693206,-0.02921093212
1.58,-0.007570488036,-0.02981930823
1.59,-0.007854515244,-0.03044065107
1.6,-0.008204686807,-0.03107048862
1.61,-0.008621643259,-0.03170430981
1.62,-0.009105752576,-0.03233758064
1.63,-0.009657110014,-0.03296576014
1.64,-0.0102755389,-0.03358431639
1.65,-0.01096059234,-0.03418874232
1.66,-0.01171155592,-0.03477457138
1.67,-0.01252745122,-0.03533739293
1.68,-0.01340704028,-0.03587286737
1.69,-0.01434883092,-0.03637674088
1.7,-0.0153510829,-0.03684485984
1.71,-0.01641181486,-0.03727318469
1.72,-0.0175288121,-0.03765780343
1.73,-0.01869963503,-0.03799494452
1.74,-0.01992162836,-0.03828098919
1.75,-0.02119193102,-0.03851248322
1.76,-0.02250748656,-0.03868614796
1.77,-0.02386505431,-0.03879889079
1.78,-0.02526122094,-0.03884781479
1.79,-0.02669241256,-0.03883022768
1.8,-0.02815490734,-0.03874365004
1.81,-0.02964484838,-0.03858582274
1.82,-0.03115825709,-0.0383547135
1.83,-0.03269104674,-0.03804852274
1.84,-0.03423903634,-0.03766568853
1.85,-0.03579796466,-0.0372048907
1.86,-0.03736350446,-0.03666505418
1.87,-0.03893127677,-0.03604535141
1.88,-0.04049686522,-0.03534520396
1.89,-0.04205583037,-0.03456428329
1.9,-0.043603724,-0.03370251066
1.91,-0.04513610326,-0.03276005628
1.92,-0.04664854471,-0.03173733755
1.93,-0.04813665814,-0.0306350166
1.94,-0.04959610012,-0.029453997
1.95,-0.05102258733,-0.0281954197
1.96,-0.05241190946,-0.02686065828
1.97,-0.05375994186,-0.02545131347
1.98,-0.05506265765,-0.02396920699
1.99,-0.05631613949,-0.02241637471
2,-0.05751659081,-0.02079505927
2.01,-0.05866034653,-0.01910770199
2.02,-0.05974388327,-0.01735693441
2.03,-0.06076382891,-0.01554556909
2.04,-0.06171697166,-0.01367659015
2.05,-0.06260026843,-0.01175314323
2.06,-0.06341085258,-0.009778525154
2.07,-0.064146041,-0.007756173125
2.08,-0.06480334058,-0.005689653742
2.09,-0.06538045389,-0.003582651652
2.1,-0.06587528424,-0.001438958016
2.11,-0.06628594003,0.0007375412121
2.12,-0.06661073841,0.002942877151
2.13,-0.06684820813,0.005173009952
2.14,-0.06699709186,0.007423840807
2.15,-0.06705634763,0.009691223979
2.16,-0.06702514971,0.01197097879
2.17,-0.06690288873,0.01425890156
2.18,-0.06668917114,0.01655077739
2.19,-0.06638381804,0.01884239186
2.2,-0.06598686331,0.02112954248
2.21,-0.06549855114,0.02340804997
2.22,-0.06491933301,0.02567376924
2.23,-0.06424986393,0.0279226001
2.24,-0.06349099831,0.03015049764
2.25,-0.06264378513,0.03235348229
2.26,-0.06170946272,0.03452764945
2.27,-0.06068945297,0.03666917875
2.28,-0.05958535513,0.03877434287
2.29,-0.05839893921,0.04083951592
2.3,-0.05713213893,0.04286118133
2.31,-0.05578704434,0.04483593927
2.32,-0.05436589418,0.04676051358
2.33,-0.05287106781,0.04863175813
2.34,-0.05130507705,0.05044666273
2.35,-0.04967055761,0.05220235846
2.36,-0.04797026056,0.05389612244
2.37,-0.04620704341,0.05552538212
2.38,-0.04438386125,0.05708771894
2.39,-0.04250375773,0.05858087156
2.4,-0.040569856,0.0600027384
2.41,-0.0385853496,0.06135137977
2.42,-0.03655349347,0.06262501938
2.43,-0.03447759486,0.0638220454
2.44,-0.03236100444,0.06494101093
2.45,-0.03020710743,0.06598063402
2.46,-0.02801931496,0.06693979718
2.47,-0.02580105547,0.06781754646
2.48,-0.02355576641,0.06861308999
2.49,-0.02128688608,0.06932579616
2.5,-0.01899784575,0.06995519135
2.51,-0.016692062,0.07050095727
2.52,-0.01437292938,0.07096292794
2.53,-0.01204381332,0.07134108626
2.54,-0.009708043347,0.07163556035
2.55,-0.007368906707,0.07184661949
2.56,-0.005029642223,0.07197466982
2.57,-0.002693434569,0.07202024982
2.58,-0.0003634088718,0.07198402552
2.59,0.001957374306,0.07186678551
2.6,0.004265923616,0.07166943576
2.61,0.006559321205,0.07139299439
2.62,0.008834726606,0.07103858616
2.63,0.01108938026,0.07060743698
2.64,0.01332060666,0.07010086833
2.65,0.01552581712,0.06952029157
2.66,0.01770251218,0.06886720228
2.67,0.01984828362,0.06814317465
2.68,0.02196081617,0.06734985572
2.69,0.02403788884,0.06648895988
2.7,0.0260773759,0.06556226328
2.71,0.02807724758,0.06457159838
2.72,0.03003557039,0.06351884864
2.73,0.03195050724,0.06240594323
2.74,0.03382031717,0.06123485199
2.75,0.03564335489,0.06000758048
2.76,0.03741807002,0.05872616523
2.77,0.03914300613,0.05739266912
2.78,0.04081679956,0.056009177
2.79,0.04243817796,0.05457779148
2.8,0.04400595883,0.05310062897
2.81,0.04551904767,0.05157981588
2.82,0.04697643617,0.05001748506
2.83,0.0483772002,0.0484157725
2.84,0.0497204977,0.04677681419
2.85,0.05100556644,0.04510274326
2.86,0.05223172183,0.04339568737
2.87,0.05339835457,0.04165776619
2.88,0.05450492826,0.03989108932
2.89,0.05555097714,0.03809775421
2.9,0.05653610363,0.03627984444
2.91,0.05745997602,0.03443942814
2.92,0.05832232618,0.03257855665
2.93,0.05912294726,0.03069926332
2.94,0.05986169148,0.02880356251
2.95,0.06053846804,0.02689344882
2.96,0.06115324099,0.02497089637
2.97,0.06170602733,0.0230378583
2.98,0.06219689512,0.0210962664
2.99,0.06262596175,0.01914803086
3,0.06299339229,0.01719504007
3.01,0.06329939799,0.01523916062
3.02,0.06354423492,0.01328223728
3.03,0.06372820266,0.01132609311
3.04,0.06385164325,0.009372529574
3.05,0.06391494016,0.007423326763
3.06,0.06391851748,0.005480243548
3.07,0.06386283916,0.003545017809
3.08,0.06374840843,0.001619366639
3.09,0.06357576737,-0.0002950134767
3.1,0.06334549654,-0.0021964465
3.11,0.06305821474,-0.00408327673
3.12,0.06271457893,-0.005953868751
3.13,0.06231528417,-0.007806607435
3.14,0.06186106373,-0.009639898034
3.15,0.06135268924,-0.01145216635
3.16,0.06079097087,-0.013241859
3.17,0.06017675771,-0.01500744378
3.18,0.05951093801,-0.01674741017
3.19,0.05879443965,-0.01846026988
3.2,0.05802823048,-0.02014455762
3.21,0.05721331876,-0.02179883186
3.22,0.05635075357,-0.02342167589
3.23,0.05544162522,-0.02501169881
3.24,0.05448706562,-0.02656753682
3.25,0.05348824862,-0.02808785451
3.26,0.05244639028,-0.02957134637
3.27,0.05136274909,-0.03101673835
3.28,0.05023862612,-0.03242278957
3.29,0.04907536502,-0.03378829414
3.3,0.047874352,-0.03511208311
3.31,0.04663701563,-0.03639302645
3.32,0.04536482655,-0.03763003518
3.33,0.04405929697,-0.03882206356
3.34,0.04272198015,-0.03996811136
3.35,0.04135446959,-0.04106722618
3.36,0.03995839815,-0.04211850582
3.37,0.03853543694,-0.04312110067
3.38,0.03708729405,-0.04407421614
3.39,0.0356157131,-0.04497711512
3.4,0.0341224716,-0.04582912037
3.41,0.03260937912,-0.04662961694
3.42,0.03107827523,-0.04737805453
3.43,0.02953102732,-0.04807394983
3.44,0.02796952814,-0.04871688873
3.45,0.02639569324,-0.04930652852
3.46,0.02481145807,-0.04984259992
3.47,0.02321877511,-0.05032490907
3.48,0.0216196106,-0.0507533393
3.49,0.02001594123,-0.05112785284
3.5,0.01840975063,-0.05144849233
3.51,0.01680302568,-0.05171538213
3.52,0.01519775268,-0.05192872949
3.53,0.0135959134,-0.05208882549
3.54,0.01199948098,-0.05219604577
3.55,0.0104104157,-0.05225085101
3.56,0.008830660708,-0.05225378724
3.57,0.007262137616,-0.05220548581
3.58,0.005706742025,-0.05210666316
3.59,0.004166339019,-0.05195812031
3.6,0.00264275861,-0.05176074209
3.61,0.001137791168,-0.05151549606
3.62,-0.0003468171463,-0.05122343115
3.63,-0.001809368941,-0.05088567606
3.64,-0.0032482201,-0.05050343732
3.65,-0.004661784242,-0.05007799705
3.66,-0.006048537098,-0.04961071048
3.67,-0.007407020791,-0.04910300317
3.68,-0.008735848004,-0.04855636787
3.69,-0.010033706,-0.04797236123
3.7,-0.0112993605,-0.04735260009
3.71,-0.01253165935,-0.04669875765
3.72,-0.01372953608,-0.04601255925
3.73,-0.01489201311,-0.04529577796
3.74,-0.01601820484,-0.04455022997
3.75,-0.01710732045,-0.04377776968
3.76,-0.01815866645,-0.0429802846
3.77,-0.01917164888,-0.0421596901
3.78,-0.02014577532,-0.04131792396
3.79,-0.02108065649,-0.04045694067
3.8,-0.02197600758,-0.03957870575
3.81,-0.02283164924,-0.03868518979
3.82,-0.02364750821,-0.03777836251
3.83,-0.02442361757,-0.03686018662
3.84,-0.02516011669,-0.03593261174
3.85,-0.02585725074,-0.03499756817
3.86,-0.02651536985,-0.03405696075
3.87,-0.02713492791,-0.03311266263
3.88,-0.02771648095,-0.03216650913
3.89,-0.02826068516,-0.03122029169
3.9,-0.02876829453,-0.0302757518
3.91,-0.02924015809,-0.02933457512
3.92,-0.02967721678,-0.02839838574
3.93,-0.03008049997,-0.02746874052
3.94,-0.03045112159,-0.02654712366
3.95,-0.03079027591,-0.0256349415
3.96,-0.031099233,-0.02473351751
3.97,-0.03137933384,-0.0238440875
3.98,-0.03163198508,-0.0229677952
3.99,-0.03185865358,-0.02210568803
4,-0.0320608606,-0.02125871327
4.01,-0.0322401757,-0.0204277145
4.02,-0.03239821047,-0.01961342845
4.03,-0.03253661199,-0.01881648218
4.04,-0.03265705604,-0.01803739065
4.05,-0.03276124025,-0.01727655475
4.06,-0.0328508769,-0.01653425968
4.07,-0.03292768582,-0.01581067376
4.08,-0.03299338697,-0.01510584776
4.09,-0.03304969308,-0.01441971457
4.1,-0.03309830215,-0.01375208944
4.11,-0.03314089002,-0.01310267056
4.12,-0.0331791028,-0.01247104022
4.13,-0.0332145495,-0.01185666634
4.14,-0.03324879459,-0.01125890458
4.15,-0.03328335072,-0.01067700081
4.16,-0.03331967153,-0.01011009411
4.17,-0.03335914466,-0.009557220181
4.18,-0.03340308482,-0.009017315292
4.19,-0.03345272724,-0.008489220562
4.2,-0.03350922122,-0.007971686756
4.21,-0.033573624,-0.007463379466
4.22,-0.03364689488,-0.006962884705
4.23,-0.03372988978,-0.006468714893
4.24,-0.03382335596,-0.005979315212
4.25,-0.03392792726,-0.005493070315
4.26,-0.03404411966,-0.005008311362
4.27,-0.03417232729,-0.004523323375
4.28,-0.03431281881,-0.004036352867
4.29,-0.03446573435,-0.003545615732
4.3,-0.03463108286,-0.003049305374
4.31,-0.03480873989,-0.002545601033
4.32,-0.03499844603,-0.00203267629
4.33,-0.0351998057,-0.001508707713
4.34,-0.03541228661,-0.0009718836211
4.35,-0.03563521966,-0.0004204129286
4.36,-0.0358677994,0.0001474659629
4.37,-0.03610908511,0.0007334762549
4.38,-0.03635800236,0.001339293861
4.39,-0.03661334513,0.001966538566
4.4,-0.03687377856,0.002616765274
4.41,-0.03713784213,0.003291455373
4.42,-0.03740395351,0.003992008259
4.43,-0.03767041288,0.004719733041
4.44,-0.03793540777,0.005475840474
4.45,-0.0381970185,0.006261435149
4.46,-0.03845322402,0.007077507965
4.47,-0.03870190831,0.007924928927
4.48,-0.03894086726,0.008804440291
4.49,-0.03916781597,0.009716650096
4.5,-0.03938039647,0.0106620261
4.51,-0.03957618592,0.01164089017
4.52,-0.03975270511,0.0126534131
4.53,-0.03990742738,0.01369960997
4.54,-0.04003778786,0.01477933601
4.55,-0.04014119298,0.01589228295
4.56,-0.04021503027,0.01703797596
4.57,-0.04025667842,0.01821577123
4.58,-0.04026351749,0.019424854
4.59,-0.04023293936,0.02066423736
4.6,-0.04016235823,0.0219327615
4.61,-0.04004922128,0.02322909375
4.62,-0.03989101936,0.02455172916
4.63,-0.03968529772,0.02589899172
4.64,-0.0394296667,0.02726903631
4.65,-0.03912181236,0.0286598512
4.66,-0.03875950706,0.03006926128
4.67,-0.03834061984,0.03149493188
4.68,-0.03786312667,0.03293437324
4.69,-0.03732512049,0.03438494566
4.7,-0.03672482095,0.03584386518
4.71,-0.03606058394,0.03730820998
4.72,-0.03533091071,0.03877492726
4.73,-0.03453445668,0.0402408408
4.74,-0.03367003984,0.04170265897
4.75,-0.03273664871,0.04315698342
4.76,-0.03173344984,0.04460031811
4.77,-0.0306597948,0.04602907896
4.78,-0.02951522668,0.04743960392
4.79,-0.02829948595,0.04882816343
4.8,-0.02701251584,0.0501909713
4.81,-0.02565446702,0.05152419602
4.82,-0.02422570171,0.05282397226
4.83,-0.02272679708,0.05408641282
4.84,-0.02115854802,0.05530762069
4.85,-0.0195219692,0.05648370145
4.86,-0.01781829641,0.05761077577
4.87,-0.01604898719,0.05868499206
4.88,-0.01421572075,0.05970253923
4.89,-0.01232039711,0.0606596595
4.9,-0.01036513555,0.06155266119
4.91,-0.008352272237,0.06237793154
4.92,-0.00628435719,0.06313194934
4.93,-0.004164150447,0.06381129758
4.94,-0.001994617508,0.06441267579
4.95,0.0002210759527,0.06493291228
4.96,0.002479570099,0.06536897607
4.97,0.004777317655,0.06571798853
4.98,0.007110591314,0.06597723473
4.99,0.009475491834,0.06614417429
5,0.01186795678,0.06621645198
5.01,0.01428376991,0.0661919077
5.02,0.01671857116,0.06606858608
5.03,0.01916786721,0.06584474545
5.04,0.02162704259,0.06551886636
5.05,0.02409137136,0.06508965935
5.06,0.02655602922,0.06455607224
5.07,0.02901610607,0.0639172966
5.08,0.03146661901,0.06317277368
5.09,0.03390252574,0.06232219952
5.1,0.03631873824,0.06136552933
5.11,0.03871013673,0.06030298119
5.12,0.04107158399,0.05913503886
5.13,0.04339793974,0.05786245385
5.14,0.04568407529,0.05648624669
5.15,0.04792488826,0.05500770738
5.16,0.05011531734,0.05342839495
5.17,0.05225035714,0.05175013627
5.18,0.05432507293,0.04997502398
5.19,0.05633461538,0.04810541358
5.2,0.0582742351,0.04614391969
5.21,0.06013929706,0.0440934115
5.22,0.06192529478,0.04195700738
5.23,0.06362786426,0.03973806868
5.24,0.06524279751,0.03744019275
5.25,0.06676605589,0.0350672052
5.26,0.06819378284,0.03262315133
5.27,0.06952231633,0.03011228689
5.28,0.07074820072,0.02753906812
5.29,0.07186819814,0.02490814107
5.3,0.0728792992,0.02222433034
5.31,0.07377873326,0.01949262705
5.32,0.07456397785,0.01671817642
5.33,0.07523276756,0.01390626464
5.34,0.07578310214,0.01106230527
5.35,0.07621325387,0.008191825191
5.36,0.07652177417,0.005300450129
5.37,0.07670749936,0.00239388973
5.38,0.0767695557,-0.0005220776476
5.39,0.07670736346,-0.003441620462
5.4,0.07652064022,-0.006358869766
5.41,0.07620940326,-0.009267935181
5.42,0.07577397108,-0.01216292102
5.43,0.07521496399,-0.01503794253
5.44,0.07453330383,-0.01788714214
5.45,0.07373021277,-0.02070470577
5.46,0.0728072112,-0.023484879
5.47,0.07176611472,-0.02622198324
5.48,0.07060903024,-0.02891043168
5.49,0.06933835114,-0.03154474497
5.5,0.06795675163,-0.03411956682
5.51,0.06646718019,-0.0366296791
5.52,0.06487285215,-0.03907001668
5.53,0.06317724151,-0.04143568187
5.54,0.06138407188,-0.04372195836
5.55,0.05949730667,-0.04592432471
5.56,0.05752113853,-0.04803846721
5.57,0.0554599781,-0.05006029228
5.58,0.05331844202,-0.05198593815
5.59,0.05110134028,-0.05381178586
5.6,0.04881366305,-0.05553446965
5.61,0.04646056682,-0.05715088651
5.62,0.04404736008,-0.05865820503
5.63,0.04157948849,-0.0600538734
5.64,0.03906251963,-0.06133562658
5.65,0.03650212729,-0.06250149271
5.66,0.0339040755,-0.06354979849
5.67,0.03127420221,-0.06447917377
5.68,0.02861840274,-0.0652885552
5.69,0.025942613,-0.06597718897
5.7,0.02325279266,-0.06654463256
5.71,0.02055490814,-0.06699075562
5.72,0.01785491558,-0.06731573982
5.73,0.01515874392,-0.06752007783
5.74,0.0124722779,-0.06760457127
5.75,0.009801341346,-0.06757032781
5.76,0.007151680523,-0.06741875721
5.77,0.004528947784,-0.06715156659
5.78,0.001938685484,-0.06677075461
5.79,-0.0006136897619,-0.06627860493
5.8,-0.00312290243,-0.06567767866
5.81,-0.005583832999,-0.06497080603
5.82,-0.007991532377,-0.06416107722
5.83,-0.01034123579,-0.06325183237
5.84,-0.0126283761,-0.06224665087
5.85,-0.01484859648,-0.06114933988
5.86,-0.01699776245,-0.05996392211
5.87,-0.01907197321,-0.0586946231
5.88,-0.02106757217,-0.05734585767
5.89,-0.02298115686,-0.05592221596
5.9,-0.02480958782,-0.05442844887
5.91,-0.02654999685,-0.05286945304
5.92,-0.02819979428,-0.05125025535
5.93,-0.0297566754,-0.0495759971
5.94,-0.03121862597,-0.04785191783
5.95,-0.03258392682,-0.04608333881
5.96,-0.03385115749,-0.04427564639
5.97,-0.03501919893,-0.04243427511
5.98,-0.03608723526,-0.04056469068
5.99,-0.0370547545,-0.03867237299
6,-0.0379215484,-0.03676279897
