"Freq [GHz]","re(S(Tx_p1,Tx_p1)) []","im(S(Tx_p1,Tx_p1)) []"
1,-0.02506950947,-0.02487335363
1.01,-0.02565239075,-0.02321123401
1.02,-0.02614319021,-0.02154089276
1.03,-0.02654190454,-0.01986745726
1.04,-0.02684884817,-0.01819604619
1.05,-0.02706465097,-0.01653174838
1.06,-0.02719025447,-0.01487960201
1.07,-0.02722690688,-0.01324457428
1.08,-0.02717615676,-0.01163154161
1.09,-0.02703984548,-0.01004527042
1.1,-0.02682009852,-0.008490398575
1.11,-0.02651931561,-0.006971417567
1.12,-0.02614015979,-0.005492655498
1.13,-0.0256855455,-0.00405826092
1.14,-0.02515862565,-0.002672187579
1.15,-0.02456277787,-0.001338180136
1.16,-0.02390158992,-5.976088756E-05
1.17,-0.02317884432,0.001159782453
1.18,-0.02239850237,0.002317407882
1.19,-0.02156468755,0.003410329113
1.2,-0.02068166838,0.004436024427
1.21,-0.01975384083,0.00539224435
1.22,-0.01878571047,0.006277018134
1.23,-0.01778187419,0.007088659038
1.24,-0.01674700181,0.007825768393
1.25,-0.01568581759,0.008487238448
1.26,-0.01460308159,0.009072254007
1.27,-0.01350357116,0.009580292863
1.28,-0.01239206251,0.01001112503
1.29,-0.01127331248,0.01036481082
1.3,-0.01015204052,0.01064169772
1.31,-0.009032911077,0.01084241624
1.32,-0.00792051634,0.0109678745
1.33,-0.006819359459,0.01101925198
1.34,-0.00573383831,0.01099799202
1.35,-0.004668229846,0.01090579352
1.36,-0.003626675109,0.0107446016
1.37,-0.002613164941,0.01051659744
1.38,-0.001631526457,0.01022418726
1.39,-0.0006854103273,0.00986999054
1.4,0.000221721101,0.009456827526
1.41,0.00108660479,0.008987706085
1.42,0.001906187079,0.008465807966
1.43,0.002677632802,0.007894474537
1.44,0.003398333427,0.00727719206
1.45,0.004065914201,0.006617576582
1.46,0.004678240284,0.005919358488
1.47,0.005233421848,0.00518636681
1.48,0.005729818154,0.004422513332
1.49,0.006166040588,0.00363177659
1.5,0.006540954664,0.002818185807
1.51,0.006853680997,0.001985804847
1.52,0.007103595266,0.001138716248
1.53,0.007290327159,0.0002810053989
1.54,0.007413758352,-0.0005832550746
1.55,0.00747401951,-0.001450020659
1.56,0.007471486359,-0.002315289969
1.57,0.007406774855,-0.003175119382
1.58,0.007280735475,-0.004025637233
1.59,0.007094446675,-0.004863057513
1.6,0.006849207552,-0.005683693036
1.61,0.006546529753,-0.006483968011
1.62,0.00618812867,-0.007260429992
1.63,0.005775913987,-0.008009761156
1.64,0.005311979597,-0.008728788878
1.65,0.004798592978,-0.009414495575
1.66,0.004238184046,-0.01006402778
1.67,0.003633333567,-0.01067470442
1.68,0.002986761164,-0.01124402431
1.69,0.002301312984,-0.0117696728
1.7,0.001579949086,-0.01224952758
1.71,0.000825730593,-0.01268166363
1.72,4.180667925E-05,-0.01306435736
1.73,-0.0007685985572,-0.01339608985
1.74,-0.001602199281,-0.01367554921
1.75,-0.002455661109,-0.01390163221
1.76,-0.003325614241,-0.01407344489
1.77,-0.004208666496,-0.01419030256
1.78,-0.005101416177,-0.01425172877
1.79,-0.006000464742,-0.01425745366
1.8,-0.006902429206,-0.01420741148
1.81,-0.007803954252,-0.01410173733
1.82,-0.008701723987,-0.01394076326
1.83,-0.009592473311,-0.01372501365
1.84,-0.01047299886,-0.01345519993
1.85,-0.01134016951,-0.01313221471
1.86,-0.0121909363,-0.01275712532
1.87,-0.01302234195,-0.01233116685
1.88,-0.01383152972,-0.01185573463
1.89,-0.01461575175,-0.01133237629
1.9,-0.01537237675,-0.01076278346
1.91,-0.01609889712,-0.01014878301
1.92,-0.01679293537,-0.009492328035
1.93,-0.01745224998,-0.008795488561
1.94,-0.0180747405,-0.008060441997
1.95,-0.01865845209,-0.007289463422
1.96,-0.0192015793,-0.006484915731
1.97,-0.01970246925,-0.005649239693
1.98,-0.02015962415,-0.004784943946
1.99,-0.0205717031,-0.00389459501
2,-0.02093752332,-0.00298080732
2.01,-0.02125606073,-0.002046233348
2.02,-0.02152644987,-0.001093553846
2.03,-0.02174798325,-0.0001254682368
2.04,-0.02192011014,0.0008553147836
2.05,-0.02204243479,0.00184608643
2.06,-0.02211471405,0.002844146737
2.07,-0.0221368546,0.003846813182
2.08,-0.02210890959,0.004851428982
2.09,-0.02203107491,0.005855371045
2.1,-0.02190368497,0.006856057543
2.11,-0.02172720812,0.0078509551
2.12,-0.02150224176,0.008837585562
2.13,-0.02122950702,0.009813532336
2.14,-0.02090984328,0.0107764463
2.15,-0.0205442023,0.01172405122
2.16,-0.02013364225,0.01265414879
2.17,-0.01967932147,0.01356462308
2.18,-0.01918249216,0.01445344462
2.19,-0.01864449386,0.01531867397
2.2,-0.01806674691,0.01615846481
2.21,-0.01745074587,0.01697106656
2.22,-0.01679805289,0.01775482657
2.23,-0.01611029111,0.01850819186
2.24,-0.01538913813,0.01922971032
2.25,-0.01463631947,0.01991803164
2.26,-0.01385360228,0.02057190771
2.27,-0.01304278903,0.02119019263
2.28,-0.01220571146,0.02177184238
2.29,-0.01134422464,0.02231591413
2.3,-0.01046020127,0.02282156514
2.31,-0.00955552619,0.02328805144
2.32,-0.008632091102,0.02371472612
2.33,-0.007691789567,0.02410103739
2.34,-0.006736512256,0.02444652644
2.35,-0.005768142474,0.02475082497
2.36,-0.004788551971,0.02501365258
2.37,-0.003799597044,0.02523481403
2.38,-0.00280311493,0.02541419628
2.39,-0.001800920498,0.02555176543
2.4,-0.0007948032483,0.02564756357
2.41,0.0002134753992,0.02570170561
2.42,0.001222184519,0.02571437594
2.43,0.002229625804,0.0256858252
2.44,0.0032341354,0.02561636695
2.45,0.004234085478,0.02550637444
2.46,0.005227885526,0.02535627736
2.47,0.0062139834,0.02516655871
2.48,0.007190866126,0.02493775168
2.49,0.008157060478,0.02467043669
2.5,0.009111133347,0.02436523856
2.51,0.01005169191,0.02402282368
2.52,0.01097738361,0.02364389752
2.53,0.01188689604,0.02322920211
2.54,0.01277895655,0.02277951379
2.55,0.01365233189,0.02229564106
2.56,0.01450582766,0.02177842268
2.57,0.01533828767,0.02122872587
2.58,0.01614859326,0.02064744475
2.59,0.01693566262,0.02003549891
2.6,0.01769844997,0.01939383222
2.61,0.01843594486,0.01872341173
2.62,0.0191471714,0.01802522686
2.63,0.01983118757,0.01730028864
2.64,0.0204870845,0.01654962915
2.65,0.02111398592,0.01577430116
2.66,0.0217110476,0.01497537787
2.67,0.02227745696,0.0141539527
2.68,0.02281243267,0.01331113935
2.69,0.02331522451,0.01244807184
2.7,0.02378511325,0.01156590466
2.71,0.0242214107,0.01066581306
2.72,0.02462345991,0.009748993256
2.73,0.02499063554,0.008816662834
2.74,0.02532234432,0.007870061038
2.75,0.02561802571,0.006910449138
2.76,0.02587715275,0.005939110751
2.77,0.02609923298,0.004957352137
2.78,0.02628380959,0.003966502437
2.79,0.02643046268,0.002967913844
2.8,0.02653881069,0.001962961684
2.81,0.02660851194,0.0009530443929
2.82,0.02663926633,-6.041662412E-05
2.83,0.02663081715,-0.001075977277
2.84,0.02658295295,-0.002092171221
2.85,0.02649550961,-0.003107510452
2.86,0.02636837238,-0.004120486086
2.87,0.02620147805,-0.005129569318
2.88,0.02599481716,-0.006133212592
2.89,0.02574843621,-0.007129850969
2.9,0.02546243995,-0.00811790372
2.91,0.02513699358,-0.009095776133
2.92,0.02477232501,-0.01006186156
2.93,0.02436872697,-0.01101454366
2.94,0.02392655921,-0.01195219895
2.95,0.02344625043,-0.01287319946
2.96,0.02292830025,-0.01377591574
2.97,0.02237328099,-0.01465872003
2.98,0.02178183928,-0.01551998964
2.99,0.02115469755,-0.01635811057
3,0.02049265533,-0.01717148132
3.01,0.01979659026,-0.01795851687
3.02,0.019067459,-0.01871765289
3.03,0.01830629778,-0.01944735002
3.04,0.01751422277,-0.02014609841
3.05,0.01669243012,-0.02081242231
3.06,0.01584219572,-0.02144488482
3.07,0.01496487469,-0.02204209266
3.08,0.01406190049,-0.02260270112
3.09,0.01313478375,-0.02312541897
3.1,0.01218511076,-0.02360901341
3.11,0.01121454158,-0.02405231505
3.12,0.01022480784,-0.02445422288
3.13,0.009217710172,-0.0248137091
3.14,0.008195115286,-0.02512982402
3.15,0.007158952691,-0.02540170068
3.16,0.006111211072,-0.02562855954
3.17,0.005053934311,-0.02580971283
3.18,0.003989217176,-0.02594456887
3.19,0.002919200665,-0.02603263607
3.2,0.001846067038,-0.02607352679
3.21,0.0007720345301,-0.02606696086
3.22,-0.0003006482247,-0.02601276887
3.23,-0.001369708057,-0.02591089516
3.24,-0.002432853382,-0.02576140042
3.25,-0.003487780572,-0.02556446402
3.26,-0.004532180536,-0.02532038591
3.27,-0.005563745515,-0.02502958815
3.28,-0.006580176039,-0.02469261603
3.29,-0.007579188038,-0.02431013877
3.3,-0.008558520074,-0.0238829498
3.31,-0.009515940665,-0.02341196651
3.32,-0.01044925567,-0.02289822968
3.33,-0.01135631572,-0.0223429023
3.34,-0.01223502362,-0.02174726801
3.35,-0.01308334177,-0.02111272897
3.36,-0.01389929945,-0.02044080338
3.37,-0.01468100012,-0.01973312237
3.38,-0.01542662847,-0.01899142652
3.39,-0.01613445737,-0.01821756185
3.4,-0.01680285466,-0.01741347536
3.41,-0.01743028962,-0.01658121013
3.42,-0.01801533931,-0.01572289992
3.43,-0.01855669445,-0.01484076337
3.44,-0.01905316515,-0.01393709784
3.45,-0.01950368621,-0.01301427271
3.46,-0.01990732199,-0.01207472248
3.47,-0.02026327098,-0.01112093934
3.48,-0.0205708699,-0.01015546556
3.49,-0.02082959726,-0.009180885463
3.5,-0.02103907658,-0.008199817191
3.51,-0.02119907902,-0.0072149042
3.52,-0.0213095255,-0.006228806539
3.53,-0.02137048829,-0.005244191955
3.54,-0.02138219209,-0.004263726845
3.55,-0.02134501447,-0.003290067104
3.56,-0.0212594858,-0.002325848884
3.57,-0.02112628857,-0.001373679334
3.58,-0.02094625613,-0.0004361273165
3.59,-0.02072037084,0.0004842858154
3.6,-0.02044976161,0.001385095381
3.61,-0.02013570091,0.002263902412
3.62,-0.01977960112,0.003118382539
3.63,-0.01938301038,0.003946294686
3.64,-0.01894760781,0.004745489532
3.65,-0.01847519824,0.005513917708
3.66,-0.01796770633,0.00624963768
3.67,-0.01742717028,0.006950823302
3.68,-0.01685573489,0.007615770978
3.69,-0.01625564432,0.008242906423
3.7,-0.01562923426,0.008830790981
3.71,-0.01497892373,0.009378127461
3.72,-0.01430720651,0.009883765483
3.73,-0.01361664217,0.01034670628
3.74,-0.01290984681,0.01076610696
3.75,-0.01218948343,0.01114128417
3.76,-0.01145825217,0.01147171718
3.77,-0.01071888019,0.01175705037
3.78,-0.009974111511,0.011997095
3.79,-0.009226696576,0.01219183046
3.8,-0.008479381842,0.01234140474
3.81,-0.007734899239,0.01244613432
3.82,-0.006995955646,0.01250650337
3.83,-0.006265222395,0.01252316227
3.84,-0.005545324848,0.01249692544
3.85,-0.004838832105,0.01242876854
3.86,-0.004148246856,0.012319825
3.87,-0.003475995459,0.01217138189
3.88,-0.002824418255,0.01198487514
3.89,-0.002195760176,0.01176188417
3.9,-0.001592161684,0.01150412589
3.91,-0.00101565009,0.01121344809
3.92,-0.0004681312674,0.01089182236
3.93,4.861817218E-05,0.01054133633
3.94,0.0005329582297,0.01016418554
3.95,0.0009833923503,0.009762664738
3.96,0.001398573707,0.009339158801
3.97,0.001777310909,0.008896133181
3.98,0.002118573102,0.008436124024
3.99,0.002421494441,0.00796172794
4,0.002685377916,0.007475591475
4.01,0.002909698496,0.00698040034
4.02,0.003094105595,0.006478868421
4.03,0.003238424829,0.005973726635
4.04,0.003342659061,0.005467711655
4.05,0.003406988727,0.004963554574
4.06,0.003431771431,0.004463969533
4.07,0.003417540809,0.003971642378
4.08,0.003365004673,0.003489219377
4.09,0.003275042419,0.003019296058
4.1,0.003148701729,0.002564406204
4.11,0.002987194552,0.002127011064
4.12,0.002791892407,0.00170948881
4.13,0.002564320994,0.001314124298
4.14,0.002306154153,0.000943099176
4.15,0.002019207185,0.0005984823657
4.16,0.00170542956,0.0002822209867
4.17,0.001366897041,-3.868261984E-06
4.18,0.001005803254,-0.0002581072126
4.19,0.0006244507345,-0.0004789637981
4.2,0.0002252414872,-0.0006650590471
4.21,-0.0001893329036,-0.0008151734734
4.22,-0.0006167015744,-0.0009282528288
4.23,-0.001054225054,-0.001003413195
4.24,-0.00149920626,-0.001039945391
4.25,-0.001948901783,-0.00103731867
4.26,-0.002400533398,-0.0009951836938
4.27,-0.002851299779,-0.0009133747686
4.28,-0.003298388345,-0.0007919113253
4.29,-0.003738987209,-0.0006309986396
4.3,-0.004170297163,-0.0004310277852
4.31,-0.004589543663,-0.0001925748167
4.32,-0.004993988762,8.360081698E-05
4.33,-0.005380942935,0.0003965586245
4.34,-0.00574777675,0.0007451801832
4.35,-0.006091932341,0.001128172998
4.36,-0.00641093463,0.001544075096
4.37,-0.006702402246,0.001991260339
4.38,-0.006964058106,0.002467944438
4.39,-0.00719373961,0.002972191636
4.4,-0.007389408394,0.003501922057
4.41,-0.00754915962,0.00405491966
4.42,-0.007671230747,0.004628840801
4.43,-0.007754009754,0.005221223343
4.44,-0.007796042774,0.005829496297
4.45,-0.007796041109,0.006450989939
4.46,-0.007752887596,0.00708294638
4.47,-0.007665642293,0.007722530537
4.48,-0.007533547463,0.008366841456
4.49,-0.007356031827,0.009012923958
4.5,-0.00713271408,0.009657780543
4.51,-0.006863405634,0.01029838352
4.52,-0.006548112596,0.01093168729
4.53,-0.006187036954,0.01155464078
4.54,-0.005780576971,0.01216419991
4.55,-0.005329326788,0.01275734009
4.56,-0.004834075225,0.0133310687
4.57,-0.004295803793,0.01388243749
4.58,-0.003715683914,0.01440855476
4.59,-0.003095073372,0.01490659751
4.6,-0.002435511992,0.01537382321
4.61,-0.001738716571,0.01580758137
4.62,-0.001006575083,0.01620532474
4.63,-0.0002411401762,0.01656462018
4.64,0.0005553780155,0.01688315902
4.65,0.001380619714,0.01715876707
4.66,0.002232083962,0.01738941403
4.67,0.003107137679,0.0175732224
4.68,0.004003025272,0.01770847582
4.69,0.004916878765,0.01779362672
4.7,0.005845728406,0.01782730345
4.71,0.006786513704,0.01780831657
4.72,0.007736094865,0.01773566461
4.73,0.008691264568,0.01760853893
4.74,0.00964876004,0.017426328
4.75,0.01060527539,0.01718862075
4.76,0.01155747411,0.01689520927
4.77,0.01250200182,0.01654609063
4.78,0.01343549895,0.01614146798
4.79,0.01435461366,0.01568175073
4.8,0.01525601462,0.01516755406
4.81,0.01613640379,0.01459969749
4.82,0.01699252909,0.01397920279
4.83,0.01782119695,0.01330729093
4.84,0.01861928455,0.01258537843
4.85,0.01938375195,0.01181507279
4.86,0.02011165379,0.01099816726
4.87,0.02080015073,0.01013663485
4.88,0.02144652045,0.009232621668
4.89,0.02204816821,0.008288439517
4.9,0.02260263697,0.007306557912
4.91,0.02310761696,0.006289595436
4.92,0.02356095468,0.005240310534
4.93,0.02396066132,0.004161591758
4.94,0.02430492061,0.0030564475
4.95,0.02459209588,0.001927995263
4.96,0.0248207366,0.0007794505153
4.97,0.02498958407,-0.0003858848484
4.98,0.02509757647,-0.001564634365
4.99,0.02514385311,-0.002753359153
5,0.02512775795,-0.003948570301
5.01,0.0250488423,-0.005146741443
5.02,0.02490686676,-0.006344321473
5.03,0.02470180238,-0.007537747348
5.04,0.02443383098,-0.008723456931
5.05,0.02410334468,-0.00989790182
5.06,0.02371094469,-0.01105756012
5.07,0.02325743921,-0.01219894908
5.08,0.02274384065,-0.01331863764
5.09,0.02217136203,-0.01441325862
5.1,0.02154141263,-0.01547952086
5.11,0.02085559294,-0.01651422085
5.12,0.02011568885,-0.01751425415
5.13,0.01932366517,-0.01847662637
5.14,0.01848165856,-0.01939846368
5.15,0.01759196971,-0.02027702291
5.16,0.01665705501,-0.02110970113
5.17,0.01567951761,-0.02189404461
5.18,0.01466209799,-0.02262775726
5.19,0.01360766404,-0.02330870849
5.2,0.01251920062,-0.02393494031
5.21,0.01139979882,-0.02450467392
5.22,0.01025264478,-0.02501631546
5.23,0.00908100823,-0.02546846114
5.24,0.007888230744,-0.02585990163
5.25,0.006677713761,-0.0261896257
5.26,0.005452906445,-0.02645682308
5.27,0.004217293405,-0.02666088662
5.28,0.002974382335,-0.02680141362
5.29,0.001727691617,-0.02687820642
5.3,0.0004807379485,-0.02689127228
5.31,-0.0007629759781,-0.02684082236
5.32,-0.00199997368,-0.02672727008
5.33,-0.003226816932,-0.02655122869
5.34,-0.004440117612,-0.02631350807
5.35,-0.005636549295,-0.02601511084
5.36,-0.006812858562,-0.02565722783
5.37,-0.007965875967,-0.02524123277
5.38,-0.009092526631,-0.02476867639
5.39,-0.01018984043,-0.02424127993
5.4,-0.01125496171,-0.02366092794
5.41,-0.01228515854,-0.02302966067
5.42,-0.01327783144,-0.02234966577
5.43,-0.01423052154,-0.0216232696
5.44,-0.01514091817,-0.02085292808
5.45,-0.01600686587,-0.02004121704
5.46,-0.01682637074,-0.01919082226
5.47,-0.01759760613,-0.01830452916
5.48,-0.01831891774,-0.01738521218
5.49,-0.0189888279,-0.0164358239
5.5,-0.01960603933,-0.01545938396
5.51,-0.02016943805,-0.01445896785
5.52,-0.02067809563,-0.01343769549
5.53,-0.02113127079,-0.01239871985
5.54,-0.02152841015,-0.01134521546
5.55,-0.02186914843,-0.01028036695
5.56,-0.02215330778,-0.009207357667
5.57,-0.02238089653,-0.008129358409
5.58,-0.02255210723,-0.007049516265
5.59,-0.02266731395,-0.005970943676
5.6,-0.02272706899,-0.004896707725
5.61,-0.02273209893,-0.003829819687
5.62,-0.02268330003,-0.002773224899
5.63,-0.02258173307,-0.001729792976
5.64,-0.02242861764,-0.0007023084066
5.65,-0.02222532578,0.0003065384317
5.66,-0.02197337524,0.00129415981
5.67,-0.02167442214,0.002258078709
5.68,-0.02133025329,0.003195936371
5.69,-0.02094277799,0.004105499324
5.7,-0.02051401953,0.004984665856
5.71,-0.02004610627,0.005831471908
5.72,-0.01954126254,0.006644096381
5.73,-0.0190017991,0.007420865836
5.74,-0.01843010356,0.008160258572
5.75,-0.01782863048,0.008860908077
5.76,-0.01719989136,0.009521605838
5.77,-0.01654644461,0.01014130352
5.78,-0.01587088532,0.01071911448
5.79,-0.0151758351,0.01125431466
5.8,-0.01446393197,0.01174634284
5.81,-0.01373782019,0.01219480022
5.82,-0.01300014032,0.01259944943
5.83,-0.01225351933,0.01296021287
5.84,-0.01150056094,0.01327717051
5.85,-0.01074383617,0.01355055704
5.86,-0.009985874062,0.01378075849
5.87,-0.009229152836,0.01396830826
5.88,-0.008476091216,0.01411388271
5.89,-0.007729040186,0.01421829615
5.9,-0.006990275102,0.01428249538
5.91,-0.006261988208,0.01430755381
5.92,-0.005546281583,0.01429466515
5.93,-0.004845160545,0.01424513666
5.94,-0.004160527527,0.01416038213
5.95,-0.003494176449,0.01404191443
5.96,-0.002847787604,0.01389133785
5.97,-0.002222923065,0.01371034015
5.98,-0.001621022638,0.01350068438
5.99,-0.001043400358,0.01326420054
6,-0.0004912415436,0.01300277705
