"Freq [GHz]","re(S(Tx_p1,Tx_p1)) []","im(S(Tx_p1,Tx_p1)) []"
1,0.03865251324,-0.1439307925
1.01,0.03453089487,-0.1441314644
1.02,0.03040239097,-0.1442181957
1.03,0.02627169805,-0.1441895459
1.04,0.0221435631,-0.1440443747
1.05,0.01802276713,-0.1437818376
1.06,0.01391410933,-0.1434013809
1.07,0.009822391739,-0.1429027362
1.08,0.005752404411,-0.1422859152
1.09,0.001708911159,-0.1415512026
1.1,-0.002303364187,-0.1406991495
1.11,-0.006279750948,-0.1397305667
1.12,-0.01021564421,-0.1386465165
1.13,-0.01410651685,-0.137448305
1.14,-0.01794793105,-0.1361374736
1.15,-0.02173554913,-0.1347157906
1.16,-0.02546514387,-0.1331852419
1.17,-0.02913260822,-0.1315480219
1.18,-0.03273396439,-0.1298065237
1.19,-0.03626537238,-0.1279633295
1.2,-0.03972313786,-0.1260212008
1.21,-0.04310371951,-0.1239830674
1.22,-0.04640373569,-0.121852018
1.23,-0.04961997051,-0.119631289
1.24,-0.05274937941,-0.1173242542
1.25,-0.05578909395,-0.1149344139
1.26,-0.0587364262,-0.1124653843
1.27,-0.06158887238,-0.1099208864
1.28,-0.06434411604,-0.1073047357
1.29,-0.06700003057,-0.1046208309
1.3,-0.06955468119,-0.1018731433
1.31,-0.0720063264,-0.0990657062
1.32,-0.07435341879,-0.09620260432
1.33,-0.07659460544,-0.09328796315
1.34,-0.07872872767,-0.09032593875
1.35,-0.08075482036,-0.08732070749
1.36,-0.08267211075,-0.08427645609
1.37,-0.08448001671,-0.08119737184
1.38,-0.08617814463,-0.07808763295
1.39,-0.08776628678,-0.07495139929
1.4,-0.08924441825,-0.07179280329
1.41,-0.09061269352,-0.06861594115
1.42,-0.09187144257,-0.06542486434
1.43,-0.09302116664,-0.0622235714
1.44,-0.09406253365,-0.05901600011
1.45,-0.09499637323,-0.05580601993
1.46,-0.09582367148,-0.05259742485
1.47,-0.0965455654,-0.04939392655
1.48,-0.09716333707,-0.04619914801
1.49,-0.09767840756,-0.04301661738
1.5,-0.09809233058,-0.03984976238
1.51,-0.098406786,-0.03670190496
1.52,-0.09862357311,-0.03357625649
1.53,-0.09874460372,-0.03047591326
1.54,-0.09877189515,-0.02740385243
1.55,-0.09870756309,-0.02436292838
1.56,-0.09855381434,-0.0213558695
1.57,-0.09831293948,-0.01838527537
1.58,-0.09798730554,-0.01545361435
1.59,-0.09757934851,-0.01256322158
1.6,-0.09709156601,-0.009716297434
1.61,-0.09652650981,-0.006914906297
1.62,-0.09588677848,-0.004160975823
1.63,-0.09517501004,-0.001456296532
1.64,-0.09439387473,0.001197478187
1.65,-0.09354606781,0.003798831694
1.66,-0.0926343025,0.00634638335
1.67,-0.09166130306,0.008838887405
1.68,-0.09062979799,0.01127523154
1.69,-0.08954251337,0.01365443508
1.7,-0.08840216644,0.01597564684
1.71,-0.08721145932,0.01823814271
1.72,-0.08597307292,0.02044132292
1.73,-0.08468966115,0.02258470899
1.74,-0.08336384529,0.02466794046
1.75,-0.08199820858,0.0266907713
1.76,-0.08059529121,0.02865306613
1.77,-0.07915758537,0.0305547962
1.78,-0.07768753077,0.03239603516
1.79,-0.07618751029,0.03417695462
1.8,-0.07465984602,0.03589781953
1.81,-0.07310679557,0.03755898346
1.82,-0.07153054866,0.03916088369
1.83,-0.06993322404,0.04070403615
1.84,-0.06831686673,0.04218903032
1.85,-0.06668344555,0.043616524
1.86,-0.06503485097,0.04498723802
1.87,-0.06337289333,0.04630195092
1.88,-0.06169930126,0.04756149351
1.89,-0.06001572056,0.04876674355
1.9,-0.05832371329,0.04991862032
1.91,-0.05662475721,0.05101807924
1.92,-0.05492024551,0.05206610652
1.93,-0.0532114869,0.05306371391
1.94,-0.05149970589,0.05401193343
1.95,-0.04978604349,0.05491181223
1.96,-0.0480715581,0.05576440758
1.97,-0.04635722669,0.0565707819
1.98,-0.04464394631,0.05733199799
1.99,-0.04293253578,0.05804911433
2,-0.04122373769,0.0587231806
2.01,-0.03951822059,0.05935523333
2.02,-0.03781658146,0.05994629174
2.03,-0.03611934833,0.06049735376
2.04,-0.03442698317,0.06100939227
2.05,-0.03273988494,0.06148335153
2.06,-0.03105839279,0.06192014387
2.07,-0.02938278948,0.06232064652
2.08,-0.02771330491,0.06268569881
2.09,-0.0260501198,0.06301609947
2.1,-0.02439336947,0.06331260432
2.11,-0.02274314777,0.06357592405
2.12,-0.02109951104,0.06380672245
2.13,-0.01946248221,0.06400561472
2.14,-0.01783205489,0.06417316619
2.15,-0.01620819756,0.06430989118
2.16,-0.01459085776,0.06441625226
2.17,-0.01297996633,0.06449265963
2.18,-0.01137544156,0.06453947093
2.19,-0.009777193429,0.06455699113
2.2,-0.008185127743,0.06454547286
2.21,-0.006599150243,0.06450511688
2.22,-0.005019170654,0.06443607285
2.23,-0.003445106655,0.06433844032
2.24,-0.001876887752,0.06421227004
2.25,-0.0003144590539,0.06405756537
2.26,0.001242215076,0.06387428409
2.27,0.002793147495,0.06366234028
2.28,0.004338324901,0.06342160648
2.29,0.00587770461,0.06315191609
2.3,0.007411211496,0.0628530659
2.31,0.008938735111,0.06252481881
2.32,0.01046012699,0.06216690676
2.33,0.01197519816,0.0617790338
2.34,0.01348371683,0.06136087931
2.35,0.01498540632,0.06091210133
2.36,0.01647994324,0.06043234007
2.37,0.01796695577,0.05992122148
2.38,0.01944602234,0.05937836091
2.39,0.02091667045,0.05880336693
2.4,0.02237837571,0.0581958451
2.41,0.0238305612,0.0575554019
2.42,0.02527259703,0.05688164863
2.43,0.02670380016,0.05617420537
2.44,0.02812343447,0.05543270493
2.45,0.02953071107,0.05465679681
2.46,0.03092478887,0.05384615112
2.47,0.0323047754,0.0530004625
2.48,0.03366972785,0.05211945394
2.49,0.0350186544,0.05120288059
2.5,0.03635051574,0.05025053347
2.51,0.03766422681,0.04926224308
2.52,0.03895865886,0.04823788289
2.53,0.04023264158,0.04717737279
2.54,0.04148496562,0.04608068232
2.55,0.04271438514,0.0449478338
2.56,0.04391962069,0.04377890531
2.57,0.0450993622,0.04257403349
2.58,0.04625227218,0.04133341614
2.59,0.0473769891,0.04005731473
2.6,0.04847213085,0.03874605658
2.61,0.04953629848,0.03740003693
2.62,0.0505680799,0.03601972077
2.63,0.05156605387,0.03460564445
2.64,0.05252879397,0.03315841705
2.65,0.05345487273,0.03167872152
2.66,0.05434286583,0.03016731563
2.67,0.05519135631,0.02862503259
2.68,0.05599893897,0.02705278148
2.69,0.05676422463,0.02545154744
2.7,0.05748584453,0.02382239158
2.71,0.05816245476,0.02216645061
2.72,0.05879274054,0.02048493632
2.73,0.05937542066,0.01877913465
2.74,0.05990925176,0.01705040469
2.75,0.06039303262,0.01530017725
2.76,0.06082560834,0.01352995332
2.77,0.0612058745,0.01174130225
2.78,0.0615327812,0.009935859606
2.79,0.06180533696,0.008115324939
2.8,0.06202261259,0.00628145921
2.81,0.06218374483,0.004436082045
2.82,0.06228793992,0.002581068767
2.83,0.06233447699,0.0007183472213
2.84,0.06232271125,-0.001150105594
2.85,0.06225207709,-0.003022267085
2.86,0.06212209085,-0.004896072795
2.87,0.06193235357,-0.006769420305
2.88,0.06168255338,-0.008640173285
2.89,0.06137246775,-0.0105061657
2.9,0.06100196549,-0.01236520612
2.91,0.06057100853,-0.01421508221
2.92,0.06007965348,-0.01605356521
2.93,0.05952805291,-0.01787841465
2.94,0.05891645637,-0.01968738304
2.95,0.05824521123,-0.02147822066
2.96,0.0575147632,-0.02324868039
2.97,0.05672565661,-0.0249965226
2.98,0.05587853441,-0.02671952005
2.99,0.05497413795,-0.02841546274
3,0.05401330649,-0.0300821629
3.01,0.05299697638,-0.03171745976
3.02,0.05192618008,-0.03331922445
3.03,0.05080204489,-0.03488536478
3.04,0.04962579134,-0.03641382994
3.05,0.04839873148,-0.03790261515
3.06,0.04712226682,-0.03934976625
3.07,0.04579788602,-0.04075338406
3.08,0.04442716244,-0.04211162879
3.09,0.04301175137,-0.04342272419
3.1,0.04155338708,-0.04468496161
3.11,0.04005387964,-0.04589670389
3.12,0.03851511158,-0.04705638912
3.13,0.03693903432,-0.04816253414
3.14,0.03532766437,-0.04921373793
3.15,0.0336830795,-0.05020868477
3.16,0.03200741459,-0.05114614721
3.17,0.03030285742,-0.0520249888
3.18,0.0285716443,-0.0528441666
3.19,0.0268160556,-0.0536027335
3.2,0.0250384111,-0.05429984025
3.21,0.02324106531,-0.05493473727
3.22,0.02142640267,-0.05550677624
3.23,0.0195968327,-0.05601541139
3.24,0.01775478506,-0.05646020058
3.25,0.01590270456,-0.05684080609
3.26,0.01404304621,-0.05715699518
3.27,0.01217827019,-0.05740864037
3.28,0.01031083678,-0.05759571947
3.29,0.00844320142,-0.05771831535
3.3,0.006577809697,-0.05777661546
3.31,0.004717092396,-0.05777091108
3.32,0.002863460619,-0.05770159633
3.33,0.00101930096,-0.05756916693
3.34,-0.0008130292405,-0.0573742187
3.35,-0.002631206551,-0.05711744586
3.36,-0.004432945993,-0.05679963906
3.37,-0.006216005475,-0.05642168317
3.38,-0.00797819009,-0.05598455494
3.39,-0.009717356284,-0.05548932033
3.4,-0.01143141586,-0.05493713171
3.41,-0.01311833984,-0.05432922485
3.42,-0.01477616211,-0.05366691575
3.43,-0.01640298298,-0.05295159721
3.44,-0.01799697242,-0.05218473536
3.45,-0.01955637323,-0.05136786594
3.46,-0.02107950393,-0.05050259046
3.47,-0.02256476145,-0.04959057228
3.48,-0.02401062359,-0.04863353251
3.49,-0.02541565136,-0.04763324582
3.5,-0.02677849089,-0.04659153618
3.51,-0.02809787535,-0.0455102725
3.52,-0.02937262643,-0.04439136422
3.53,-0.0306016557,-0.04323675678
3.54,-0.03178396573,-0.04204842717
3.55,-0.03291865089,-0.04082837933
3.56,-0.03400489801,-0.0395786396
3.57,-0.03504198672,-0.03830125218
3.58,-0.03602928961,-0.03699827452
3.59,-0.03696627212,-0.03567177282
3.6,-0.03785249222,-0.03432381755
3.61,-0.03868759982,-0.03295647896
3.62,-0.03947133603,-0.03157182271
3.63,-0.04020353208,-0.03017190556
3.64,-0.04088410819,-0.02875877112
3.65,-0.04151307204,-0.02733444572
3.66,-0.0420905172,-0.02590093439
3.67,-0.04261662125,-0.02446021693
3.68,-0.04309164379,-0.0230142441
3.69,-0.0435159242,-0.02156493402
3.7,-0.0438898793,-0.0201141686
3.71,-0.04421400077,-0.01866379021
3.72,-0.04448885249,-0.0172155985
3.73,-0.04471506768,-0.01577134734
3.74,-0.04489334591,-0.01433274197
3.75,-0.04502445005,-0.01290143635
3.76,-0.04510920302,-0.01147903065
3.77,-0.04514848449,-0.01006706897
3.78,-0.04514322748,-0.008667037222
3.79,-0.04509441488,-0.007280361255
3.8,-0.04500307588,-0.005908405129
3.81,-0.04487028239,-0.004552469633
3.82,-0.04469714539,-0.003213790992
3.83,-0.04448481121,-0.001893539789
3.84,-0.04423445787,-0.0005928200829
3.85,-0.04394729134,0.000687331258
3.86,-0.04362454183,0.00194594502
3.87,-0.04326746009,0.003182119905
3.88,-0.04287731374,0.00439502259
3.89,-0.04245538362,0.005583887584
3.9,-0.0420029602,0.006748016897
3.91,-0.04152134006,0.007886779512
3.92,-0.04101182238,0.008999610672
3.93,-0.04047570557,0.01008601099
3.94,-0.03991428395,0.01114554537
3.95,-0.03932884455,0.01217784179
3.96,-0.038720664,0.01318258986
3.97,-0.03809100551,0.01415953933
3.98,-0.03744111599,0.01510849832
3.99,-0.03677222333,0.01602933151
4,-0.03608553378,0.01692195816
4.01,-0.03538222942,0.01778635002
4.02,-0.03466346589,0.01862252908
4.03,-0.0339303702,0.0194305653
4.04,-0.03318403866,0.02021057415
4.05,-0.03242553508,0.02096271417
4.06,-0.03165588904,0.02168718433
4.07,-0.03087609435,0.02238422142
4.08,-0.0300871077,0.02305409736
4.09,-0.02928984748,0.02369711643
4.1,-0.02848519272,0.02431361252
4.11,-0.0276739823,0.02490394631
4.12,-0.02685701423,0.02546850243
4.13,-0.02603504517,0.0260076867
4.14,-0.0252087901,0.02652192321
4.15,-0.02437892215,0.0270116516
4.16,-0.02354607263,0.02747732425
4.17,-0.02271083115,0.0279194035
4.18,-0.02187374605,0.02833835898
4.19,-0.02103532479,0.02873466497
4.2,-0.02019603466,0.02910879775
4.21,-0.01935630355,0.02946123314
4.22,-0.01851652089,0.029792444
4.23,-0.01767703874,0.0301028979
4.24,-0.01683817298,0.03039305486
4.25,-0.01600020466,0.03066336516
4.26,-0.01516338145,0.03091426728
4.27,-0.01432791918,0.03114618596
4.28,-0.01349400355,0.03135953037
4.29,-0.01266179186,0.03155469241
4.3,-0.01183141487,0.0317320451
4.31,-0.01100297877,0.03189194117
4.32,-0.01017656712,0.03203471174
4.33,-0.009352242978,0.03216066514
4.34,-0.008530050983,0.03227008589
4.35,-0.007710019546,0.03236323385
4.36,-0.006892163046,0.03244034342
4.37,-0.006076484065,0.03250162304
4.38,-0.005262975637,0.03254725466
4.39,-0.004451623507,0.03257739354
4.4,-0.003642408398,0.03259216806
4.41,-0.002835308257,0.03259167973
4.42,-0.002030300497,0.03257600338
4.43,-0.001227364198,0.03254518744
4.44,-0.0004264822919,0.03249925436
4.45,0.0003723563137,0.03243820124
4.46,0.001169154649,0.03236200053
4.47,0.001963905663,0.03227060086
4.48,0.002756590266,0.03216392808
4.49,0.003547175448,0.03204188627
4.5,0.004335612482,0.03190435908
4.51,0.005121835207,0.03175121096
4.52,0.005905758413,0.03158228868
4.53,0.006687276323,0.03139742283
4.54,0.007466261185,0.03119642949
4.55,0.008242561966,0.03097911193
4.56,0.009016003176,0.03074526247
4.57,0.009786383803,0.03049466429
4.58,0.01055347637,0.03022709346
4.59,0.01131702615,0.02994232088
4.6,0.01207675045,0.0296401144
4.61,0.01283233811,0.02932024088
4.62,0.01358344906,0.02898246834
4.63,0.01432971408,0.02862656813
4.64,0.01507073467,0.02825231711
4.65,0.01580608304,0.02785949982
4.66,0.01653530228,0.02744791071
4.67,0.01725790665,0.02701735629
4.68,0.01797338202,0.0265676573
4.69,0.01868118643,0.0260986509
4.7,0.01938075078,0.02561019271
4.71,0.0200714797,0.02510215895
4.72,0.02075275254,0.02457444841
4.73,0.0214239244,0.02402698446
4.74,0.02208432744,0.02345971693
4.75,0.02273327217,0.02287262394
4.76,0.02337004895,0.02226571369
4.77,0.02399392955,0.02163902607
4.78,0.02460416884,0.02099263431
4.79,0.02520000657,0.02032664641
4.8,0.02578066929,0.01964120654
4.81,0.02634537227,0.01893649629
4.82,0.02689332158,0.01821273586
4.83,0.02742371624,0.01747018506
4.84,0.02793575039,0.01670914426
4.85,0.02842861558,0.01592995511
4.86,0.0289015031,0.01513300128
4.87,0.02935360629,0.01431870892
4.88,0.02978412303,0.01348754704
4.89,0.0301922581,0.01264002779
4.9,0.0305772257,0.01177670656
4.91,0.03093825191,0.01089818187
4.92,0.03127457716,0.01000509529
4.93,0.03158545874,0.009098131046
4.94,0.03187017325,0.008178015545
4.95,0.03212801907,0.007245516801
4.96,0.0323583188,0.006301443647
4.97,0.03256042165,0.005346644848
4.98,0.0327337058,0.004382008064
4.99,0.0328775807,0.003408458674
5,0.03299148932,0.002426958471
5.01,0.03307491035,0.001438504225
5.02,0.03312736029,0.0004441261151
5.03,0.03314839549,-0.0005551139538
5.04,0.03313761413,-0.00155812416
5.05,0.033094658,-0.002563784682
5.06,0.03301921432,-0.003570949729
5.07,0.03291101734,-0.004578449669
5.08,0.03276984994,-0.00558509326
5.09,0.03259554495,-0.006589669961
5.1,0.03238798655,-0.007590952343
5.11,0.03214711135,-0.008587698563
5.12,0.03187290951,-0.009578654917
5.13,0.03156542558,-0.01056255845
5.14,0.03122475928,-0.01153813963
5.15,0.03085106615,-0.01250412505
5.16,0.03044455801,-0.01345924021
5.17,0.03000550327,-0.01440221228
5.18,0.02953422715,-0.01533177294
5.19,0.02903111171,-0.01624666117
5.2,0.0284965957,-0.01714562611
5.21,0.02793117433,-0.01802742992
5.22,0.02733539883,-0.01889085055
5.23,0.02670987589,-0.01973468458
5.24,0.02605526695,-0.02055775002
5.25,0.0253722873,-0.02135888902
5.26,0.02466170512,-0.0221369706
5.27,0.02392434027,-0.02289089333
5.28,0.02316106305,-0.02361958787
5.29,0.0223727927,-0.02432201956
5.3,0.0215604959,-0.02499719088
5.31,0.02072518502,-0.02564414378
5.32,0.01986791631,-0.02626196203
5.33,0.01898978796,-0.02684977342
5.34,0.01809193806,-0.02740675181
5.35,0.01717554239,-0.02793211919
5.36,0.01624181215,-0.02842514752
5.37,0.01529199162,-0.02888516049
5.38,0.01432735566,-0.02931153522
5.39,0.01334920719,-0.02970370371
5.4,0.01235887453,-0.03006115423
5.41,0.01135770872,-0.03038343262
5.42,0.01034708077,-0.03067014332
5.43,0.009328378822,-0.03092095039
5.44,0.008303005282,-0.0311355783
5.45,0.007272373937,-0.03131381261
5.46,0.006237907004,-0.03145550046
5.47,0.005201032174,-0.03156055098
5.48,0.004163179631,-0.03162893548
5.49,0.003125779075,-0.0316606875
5.5,0.002090256735,-0.03165590272
5.51,0.001058032399,-0.03161473874
5.52,3.051645793E-05,-0.03153741465
5.53,-0.0009908930267,-0.0314242105
5.54,-0.002004813216,-0.03127546657
5.55,-0.003009879351,-0.03109158258
5.56,-0.004004747557,-0.03087301662
5.57,-0.004988097592,-0.03062028411
5.58,-0.005958635532,-0.03033395643
5.59,-0.006915096383,-0.0300146596
5.6,-0.007856246613,-0.02966307268
5.61,-0.008780886604,-0.02927992617
5.62,-0.009687853004,-0.02886600014
5.63,-0.01057602099,-0.02842212244
5.64,-0.01144430641,-0.02794916658
5.65,-0.01229166785,-0.0274480497
5.66,-0.01311710853,-0.02691973034
5.67,-0.01391967816,-0.0263652061
5.68,-0.01469847456,-0.0257855113
5.69,-0.01545264529,-0.02518171449
5.7,-0.01618138902,-0.02455491592
5.71,-0.01688395684,-0.02390624494
5.72,-0.01755965339,-0.02323685736
5.73,-0.01820783791,-0.02254793271
5.74,-0.01882792508,-0.02184067155
5.75,-0.01941938571,-0.02111629263
5.76,-0.01998174738,-0.02037603016
5.77,-0.02051459482,-0.01962113092
5.78,-0.02101757021,-0.01885285149
5.79,-0.02149037332,-0.01807245541
5.8,-0.02193276148,-0.01728121032
5.81,-0.02234454942,-0.0164803852
5.82,-0.022725609,-0.01567124759
5.83,-0.02307586873,-0.01485506079
5.84,-0.02339531322,-0.01403308117
5.85,-0.02368398243,-0.01320655553
5.86,-0.02394197082,-0.01237671842
5.87,-0.02416942639,-0.01154478964
5.88,-0.02436654954,-0.0107119717
5.89,-0.02453359183,-0.009879447433
5.9,-0.02467085466,-0.00904837764
5.91,-0.02477868776,-0.008219898827
5.92,-0.02485748766,-0.007395121051
5.93,-0.02490769596,-0.006575125841
5.94,-0.02492979759,-0.005760964231
5.95,-0.02492431895,-0.004953654902
5.96,-0.02489182592,-0.004154182419
5.97,-0.02483292187,-0.0033634956
5.98,-0.02474824553,-0.00258250599
5.99,-0.02463846883,-0.001812086464
6,-0.02450429469,-0.001053069948
