"Freq [GHz]","re(S(Tx_p1,Tx_p1)) []","im(S(Tx_p1,Tx_p1)) []"
1,-0.04024837162,-0.02542762702
1.01,-0.04104877806,-0.0232428263
1.02,-0.04173343782,-0.02103202738
1.03,-0.04230126541,-0.01880165606
1.04,-0.04275156552,-0.01655819009
1.05,-0.0430840343,-0.01430813419
1.06,-0.04329875923,-0.01205799513
1.07,-0.04339621735,-0.009814257016
1.08,-0.04337727198,-0.007583356863
1.09,-0.04324316801,-0.005371660555
1.1,-0.04299552559,-0.003185439243
1.11,-0.04263633249,-0.001030846307
1.12,-0.04216793506,0.001086105056
1.13,-0.0415930278,0.003159563536
1.14,-0.04091464167,0.005183860621
1.15,-0.0401361312,0.007153530647
1.16,-0.03926116035,0.009063329919
1.17,-0.0382936873,0.01090825483
1.18,-0.03723794825,0.01268355892
1.19,-0.03609844014,0.01438476883
1.2,-0.03487990259,0.01600769906
1.21,-0.03358729892,0.01754846554
1.22,-0.03222579653,0.01900349791
1.23,-0.03080074657,0.02036955052
1.24,-0.02931766301,0.0216437121
1.25,-0.02778220133,0.02282341407
1.26,-0.02620013672,0.02390643743
1.27,-0.02457734196,0.02489091833
1.28,-0.02291976523,0.02577535217
1.29,-0.02123340756,0.0265585963
1.3,-0.01952430046,0.02723987132
1.31,-0.01779848343,0.02781876097
1.32,-0.01606198172,0.0282952106
1.33,-0.01432078422,0.02866952431
1.34,-0.01258082171,0.02894236068
1.35,-0.0108479455,0.0291147272
1.36,-0.009127906502,0.02918797339
1.37,-0.00742633487,0.02916378264
1.38,-0.005748720267,0.02904416291
1.39,-0.004100392819,0.02883143611
1.4,-0.002486504835,0.02852822651
1.41,-0.0009120133579,0.02813744797
1.42,0.0006183363908,0.02766229023
1.43,0.002100026618,0.02710620418
1.44,0.003528781561,0.02647288632
1.45,0.00490058103,0.02576626231
1.46,0.006211672861,0.02499046991
1.47,0.007458584222,0.02414984109
1.48,0.008638131743,0.02324888363
1.49,0.009747430448,0.02229226222
1.5,0.01078390144,0.02128477905
1.51,0.01174527837,0.02023135407
1.52,0.01262961257,0.01913700498
1.53,0.01343527698,0.01800682696
1.54,0.01416096877,0.01684597241
1.55,0.01480571064,0.01565963046
1.56,0.0153688509,0.0144530067
1.57,0.01585006224,0.01323130293
1.58,0.01624933926,0.01199969713
1.59,0.01656699479,0.01076332372
1.6,0.01680365495,0.009527254176
1.61,0.01696025308,0.008296478058
1.62,0.01703802249,0.007075884534
1.63,0.01703848814,0.005870244493
1.64,0.0169634572,0.004684193267
1.65,0.01681500867,0.003522214071
1.66,0.01659548194,0.00238862218
1.67,0.01630746448,0.001287549936
1.68,0.0159537787,0.0002229326056
1.69,0.01553746795,-0.0008015048377
1.7,0.01506178185,-0.001782259977
1.71,0.01453016082,-0.002716064214
1.72,0.01394622022,-0.003599892998
1.73,0.01331373369,-0.004430974984
1.74,0.01263661625,-0.005206800095
1.75,0.0119189069,-0.005925126474
1.76,0.01116475087,-0.006583986289
1.77,0.01037838167,-0.0071816904
1.78,0.009564103003,-0.007716831859
1.79,0.008726270474,-0.008188288254
1.8,0.007869273351,-0.008595222891
1.81,0.006997516348,-0.008937084819
1.82,0.006115401519,-0.009213607714
1.83,0.005227310355,-0.009424807622
1.84,0.004337586132,-0.009570979603
1.85,0.003450516592,-0.009652693277
1.86,0.002570317015,-0.009670787314
1.87,0.001701113758,-0.009626362889
1.88,0.0008469283031,-0.009520776151
1.89,1.166190236E-05,-0.009355629727
1.9,-0.0008009191532,-0.009132763323
1.91,-0.001587197566,-0.008854243453
1.92,-0.002343718323,-0.008522352351
1.93,-0.003067201203,-0.008139576119
1.94,-0.003754552443,-0.007708592166
1.95,-0.004402875544,-0.007232255989
1.96,-0.005009481159,-0.006713587365
1.97,-0.005571896049,-0.006155756005
1.98,-0.006087871065,-0.005562066741
1.99,-0.006555388151,-0.004935944305
2,-0.006972666319,-0.004280917768
2.01,-0.007338166619,-0.003600604703
2.02,-0.007650596055,-0.00289869514
2.03,-0.007908910472,-0.002178935384
2.04,-0.008112316388,-0.001445111749
2.05,-0.00826027179,-0.000701034296
2.06,-0.008352485891,4.947938113E-05
2.07,-0.008388917857,0.000802620238
2.08,-0.00836977453,0.001554603678
2.09,-0.008295507149,0.002301685201
2.1,-0.008166807105,0.003040175733
2.11,-0.007984600748,0.003766456595
2.12,-0.007750043283,0.004476994028
2.13,-0.00746451178,0.005168353248
2.14,-0.007129597335,0.005837211953
2.15,-0.006747096435,0.006480373248
2.16,-0.006319001546,0.007094777927
2.17,-0.005847490996,0.00767751609
2.18,-0.005334918178,0.008225838021
2.19,-0.004783800137,0.008737164323
2.2,-0.004196805584,0.00920909525
2.21,-0.003576742404,0.00963941922
2.22,-0.002926544698,0.01002612047
2.23,-0.002249259427,0.01036738586
2.24,-0.001548032713,0.01066161073
2.25,-0.0008260958569,0.01090740391
2.26,-8.675112665E-05,0.01110359176
2.27,0.0006666426099,0.01124922131
2.28,0.001430684363,0.01134356244
2.29,0.002201945539,0.01138610912
2.3,0.002976984444,0.01137657977
2.31,0.003752360711,0.01131491663
2.32,0.004524649593,0.01120128425
2.33,0.005290456067,0.01103606708
2.34,0.006046428687,0.01081986614
2.35,0.006789273142,0.01055349492
2.36,0.007515765448,0.01023797433
2.37,0.008222764754,0.009874526911
2.38,0.008907225669,0.009464570294
2.39,0.009566210115,0.009009709837
2.4,0.01019689861,0.008511730622
2.41,0.010796601,0.007972588761
2.42,0.0113627665,0.00739440208
2.43,0.01189299319,0.006779440227
2.44,0.01238503669,0.006130114243
2.45,0.0128368182,0.005448965643
2.46,0.01324643175,0.004738655069
2.47,0.01361215073,0.004001950546
2.48,0.01393243353,0.003241715406
2.49,0.01420592853,0.002460895938
2.5,0.01443147808,0.001662508791
2.51,0.01460812183,0.0008496282202
2.52,0.01473509912,2.537319969E-05
2.53,0.01481185054,-0.000807105529
2.54,0.01483801872,-0.001644638422
2.55,0.01481344823,-0.002484050057
2.56,0.01473818469,-0.003322171972
2.57,0.01461247302,-0.004155855352
2.58,0.01443675499,-0.004981983525
2.59,0.01421166591,-0.005797484216
2.6,0.01393803057,-0.006599341507
2.61,0.0136168585,-0.00738460746
2.62,0.01324933848,-0.008150413358
2.63,0.01283683237,-0.008893980521
2.64,0.01238086835,-0.009612630656
2.65,0.01188313346,-0.01030379571
2.66,0.01134546564,-0.01096502717
2.67,0.0107698452,-0.01159400481
2.68,0.01015838582,-0.01218854483
2.69,0.009513325056,-0.01274660736
2.7,0.008837014463,-0.01326630333
2.71,0.00813190935,-0.0137459006
2.72,0.007400558205,-0.01418382952
2.73,0.006645591852,-0.01457868766
2.74,0.005869712382,-0.01492924386
2.75,0.005075681897,-0.01523444159
2.76,0.004266311135,-0.01549340151
2.77,0.003444447998,-0.0157054233
2.78,0.002612966056,-0.01586998681
2.79,0.001774753059,-0.0159867524
2.8,0.0009326995015,-0.01605556057
2.81,8.968730683E-05,-0.01607643091
2.82,-0.0007514213513,-0.01604956024
2.83,-0.001587795024,-0.01597532019
2.84,-0.00241664373,-0.01585425397
2.85,-0.003235229409,-0.01568707258
2.86,-0.00404087607,-0.01547465031
2.87,-0.004830979567,-0.01521801972
2.88,-0.005603016989,-0.01491836593
2.89,-0.006354555617,-0.01457702041
2.9,-0.007083261425,-0.0141954543
2.91,-0.007786907082,-0.01377527114
2.92,-0.008463379443,-0.0133181992
2.93,-0.009110686492,-0.01282608341
2.94,-0.009726963719,-0.01230087687
2.95,-0.01031047991,-0.01174463205
2.96,-0.01085964235,-0.01115949166
2.97,-0.01137300135,-0.01054767932
2.98,-0.01184925425,-0.009911489917
2.99,-0.01228724865,-0.009253279903
3,-0.01268598511,-0.008575457351
3.01,-0.01304461915,-0.007880471988
3.02,-0.01336246257,-0.007170805164
3.03,-0.0136389842,-0.006448959803
3.04,-0.01387380993,-0.005717450398
3.05,-0.01406672213,-0.004978793086
3.06,-0.0142176585,-0.004235495831
3.07,-0.01432671018,-0.003490048769
3.08,-0.01439411938,-0.002744914743
3.09,-0.01442027638,-0.002002520072
3.1,-0.01440571596,-0.001265245586
3.11,-0.01435111329,-0.0005354179632
3.12,-0.01425727932,0.0001846986062
3.13,-0.01412515566,0.0008929103832
3.14,-0.013955809,0.001587101657
3.15,-0.01375042512,0.0022652419
3.16,-0.01351030243,0.00292539248
3.17,-0.01323684521,0.003565712903
3.18,-0.01293155645,0.004184466577
3.19,-0.01259603044,0.004780026057
3.2,-0.01223194501,0.005350877782
3.21,-0.01184105364,0.005895626275
3.22,-0.01142517726,0.006412997793
3.23,-0.01098619596,0.006901843428
3.24,-0.01052604057,0.007361141651
3.25,-0.0100466841,0.007790000288
3.26,-0.009550133183,0.008187657935
3.27,-0.009038419498,0.008553484809
3.28,-0.008513591171,0.008886983045
3.29,-0.007977704279,0.009187786433
3.3,-0.007432814428,0.009455659613
3.31,-0.006880968466,0.009690496744
3.32,-0.006324196348,0.009892319635
3.33,-0.005764503202,0.01006127539
3.34,-0.005203861617,0.01019763354
3.35,-0.004644204186,0.01030178273
3.36,-0.004087416332,0.01037422695
3.37,-0.003535329441,0.01041558129
3.38,-0.002989714339,0.01042656739
3.39,-0.002452275115,0.01040800839
3.4,-0.001924643333,0.01036082365
3.41,-0.001408372642,0.01028602304
3.42,-0.0009049338031,0.01018470098
3.43,-0.0004157101467,0.01005803025
3.44,5.800651647E-05,0.009907255483
3.45,0.0005150195318,0.009733686505
3.46,0.0009542305661,0.009538691511
3.47,0.001374642299,0.009323690064
3.48,0.001775360634,0.009090146012
3.49,0.002155596422,0.008839560311
3.5,0.002514666712,0.008573463818
3.51,0.002851995503,0.008293410066
3.52,0.003167114028,0.008000968054
3.53,0.003459660561,0.007697715098
3.54,0.003729379756,0.007385229754
3.55,0.00397612153,0.007065084858
3.56,0.004199839497,0.006738840707
3.57,0.004400588976,0.006408038401
3.58,0.004578524572,0.00607419339
3.59,0.004733897362,0.00573878924
3.6,0.004867051697,0.005403271638
3.61,0.004978421635,0.005069042677
3.62,0.005068527035,0.004737455419
3.63,0.005137969333,0.004409808784
3.64,0.005187427012,0.004087342753
3.65,0.005217650804,0.003771233927
3.66,0.005229458647,0.003462591442
3.67,0.00522373041,0.003162453264
3.68,0.005201402435,0.002871782861
3.69,0.005163461899,0.00259146628
3.7,0.005110941043,0.00232230962
3.71,0.005044911287,0.002065036915
3.72,0.004966477259,0.001820288437
3.73,0.004876770766,0.001588619402
3.74,0.004776944744,0.0013704991
3.75,0.004668167198,0.001166310438
3.76,0.004551615174,0.0009763498867
3.77,0.004428468785,0.0008008278367
3.78,0.004299905319,0.000639869353
3.79,0.004167093445,0.0004935153151
3.8,0.004031187562,0.0003617239368
3.81,0.003893322293,0.0002443726528
3.82,0.003754607166,0.0001412603574
3.83,0.003616121486,5.210998214E-05
3.84,0.003478909441,-2.342860597E-05
3.85,0.003343975433,-8.577540083E-05
3.86,0.003212279685,-0.0001354167687
3.87,0.003084734109,-0.0001729016937
3.88,0.002962198479,-0.0001988377781
3.89,0.0028454769,-0.0002138870192
3.9,0.002735314598,-0.0002187613847
3.91,0.002632395041,-0.0002142182101
3.92,0.002537337399,-0.0002010554415
3.93,0.002450694341,-0.0001801067475
3.94,0.002372950195,-0.0001522365243
3.95,0.002304519458,-0.0001183348193
3.96,0.002245745665,-7.931219736E-05
3.97,0.002196900616,-3.609457365E-05
3.98,0.002158183969,1.038196161E-05
3.99,0.002129723176,5.917630263E-05
4,0.002111573787,0.0001093474481
4.01,0.002103720089,0.0001599595582
4.02,0.002106076091,0.0002100869259
4.03,0.002118486839,0.0002588188398
4.04,0.002140730052,0.0003052643184
4.05,0.002172518069,0.0003485566933
4.06,0.002213500093,0.0003878580233
4.07,0.00226326472,0.0004223633193
4.08,0.002321342738,0.0004513045638
4.09,0.002387210174,0.0004739545069
4.1,0.002460291585,0.0004896302246
4.11,0.002539963561,0.0004976964249
4.12,0.00262555843,0.0004975684893
4.13,0.002716368139,0.000488715237
4.14,0.002811648308,0.0004706614038
4.15,0.002910622404,0.0004429898256
4.16,0.003012486049,0.0004053433191
4.17,0.003116411425,0.0003574262558
4.18,0.003221551739,0.0002990058225
4.19,0.003327045767,0.0002299129679
4.2,0.003432022405,0.0001500430323
4.21,0.003535605253,5.935606125E-05
4.22,0.003636917174,-4.212319504E-05
4.23,0.003735084827,-0.0001543055942
4.24,0.003829243149,-0.0002770382209
4.25,0.003918539762,-0.0004101053082
4.26,0.004002139285,-0.0005532294518
4.27,0.004079227544,-0.0007060731118
4.28,0.004149015643,-0.0008682403896
4.29,0.004210743887,-0.001039279071
4.3,0.004263685548,-0.001218682921
4.31,0.004307150446,-0.001405894227
4.32,0.004340488333,-0.001600306553
4.33,0.00436309207,-0.001801267727
4.34,0.004374400584,-0.002008083007
4.35,0.004373901586,-0.002220018437
4.36,0.004361134051,-0.002436304363
4.37,0.00433569044,-0.002656139094
4.38,0.004297218662,-0.002878692698
4.39,0.00424542377,-0.003103110891
4.4,0.004180069381,-0.003328519035
4.41,0.004100978816,-0.003554026197
4.42,0.004008035967,-0.003778729259
4.43,0.003901185874,-0.004001717067
4.44,0.003780435026,-0.00422207459
4.45,0.003645851374,-0.004438887076
4.46,0.00349756407,-0.004651244181
4.47,0.003335762932,-0.00485824406
4.48,0.00316069763,-0.005058997392
4.49,0.002972676621,-0.005252631332
4.5,0.002772065809,-0.00543829336
4.51,0.002559286972,-0.00561515503
4.52,0.002334815941,-0.005782415578
4.53,0.002099180546,-0.005939305394
4.54,0.00185295835,-0.006085089336
4.55,0.001596774176,-0.006219069871
4.56,0.001331297432,-0.006340590032
4.57,0.001057239267,-0.006449036185
4.58,0.0007753495543,-0.006543840583
4.59,0.0004864137243,-0.006624483707
4.6,0.0001912494642,-0.006690496386
4.61,-0.0001092967028,-0.006741461681
4.62,-0.0004143529423,-0.006777016536
4.63,-0.0007230257196,-0.00679685318
4.64,-0.00103440348,-0.006800720286
4.65,-0.001347560383,-0.006788423883
4.66,-0.001661560071,-0.006759828007
4.67,-0.001975459459,-0.006714855112
4.68,-0.002288312526,-0.006653486216
4.69,-0.002599174088,-0.006575760814
4.7,-0.002907103544,-0.006481776524
4.71,-0.003211168575,-0.006371688507
4.72,-0.003510448773,-0.006245708641
4.73,-0.003804039203,-0.006104104464
4.74,-0.004091053859,-0.005947197888
4.75,-0.004370629024,-0.005775363706
4.76,-0.004641926496,-0.005589027878
4.77,-0.004904136696,-0.00538866563
4.78,-0.005156481611,-0.005174799353
4.79,-0.005398217599,-0.004947996335
4.8,-0.005628638006,-0.00470886632
4.81,-0.005847075625,-0.004458058919
4.82,-0.00605290495,-0.004196260878
4.83,-0.006245544249,-0.003924193224
4.84,-0.006424457431,-0.003642608288
4.85,-0.006589155701,-0.003352286643
4.86,-0.006739199016,-0.003054033952
4.87,-0.006874197311,-0.002748677741
4.88,-0.006993811515,-0.00243706413
4.89,-0.007097754344,-0.002120054514
4.9,-0.007185790875,-0.001798522226
4.91,-0.007257738897,-0.001473349189
4.92,-0.007313469043,-0.001145422568
4.93,-0.007352904702,-0.0008156314526
4.94,-0.007376021725,-0.0004848635633
4.95,-0.007382847913,-0.0001540020102
4.96,-0.007373462301,0.0001760778866
4.97,-0.007347994246,0.000504511704
4.98,-0.007306622322,0.0008304489341
4.99,-0.007249573026,0.001153055905
5,-0.007177119313,0.001471518589
5.01,-0.007089578958,0.001785045294
5.02,-0.006987312765,0.002092869218
5.03,-0.006870722625,0.002394250865
5.04,-0.006740249433,0.002688480317
5.05,-0.00659637089,0.002974879342
5.06,-0.006439599176,0.003252803343
5.07,-0.006270478535,0.003521643132
5.08,-0.006089582759,0.003780826539
5.09,-0.005897512598,0.004029819829
5.1,-0.005694893109,0.00426812895
5.11,-0.005482370949,0.004495300582
5.12,-0.005260611624,0.004710923009
5.13,-0.005030296726,0.004914626801
5.14,-0.004792121142,0.005106085308
5.15,-0.004546790268,0.005285014966
5.16,-0.00429501724,0.005451175422
5.17,-0.004037520178,0.005604369473
5.18,-0.003775019477,0.005744442833
5.19,-0.003508235137,0.005871283717
5.2,-0.00323788416,0.005984822266
5.21,-0.002964678008,0.006085029801
5.22,-0.002689320146,0.006171917923
5.23,-0.002412503679,0.006245537468
5.24,-0.002134909076,0.00630597731
5.25,-0.001857202009,0.006353363041
5.26,-0.001580031312,0.006387855519
5.27,-0.001304027049,0.006409649303
5.28,-0.001029798722,0.006418970984
5.29,-0.000757933612,0.006416077417
5.3,-0.0004889952522,0.006401253866
5.31,-0.0002235220557,0.006374812079
5.32,3.797391732E-05,0.006337088296
5.33,0.0002950080388,0.006288441199
5.34,0.000547124041,0.006229249831
5.35,0.0007938947912,0.006159911469
5.36,0.001034922913,0.006080839487
5.37,0.001269841256,0.005992461205
5.38,0.001498313208,0.005895215741
5.39,0.001720032868,0.00578955187
5.4,0.001934725058,0.00567592591
5.41,0.002142145204,0.00555479964
5.42,0.002342079066,0.005426638252
5.43,0.002534342341,0.005291908365
5.44,0.00271878013,0.005151076088
5.45,0.002895266282,0.00500460516
5.46,0.003063702623,0.00485295516
5.47,0.003224018072,0.004696579805
5.48,0.00337616765,0.004535925332
5.49,0.003520131399,0.004371428987
5.5,0.003655913205,0.004203517603
5.51,0.003783539554,0.0040326063
5.52,0.003903058202,0.003859097283
5.53,0.004014536796,0.003683378764
5.54,0.004118061432,0.003505824
5.55,0.004213735181,0.003326790452
5.56,0.004301676567,0.003146619066
5.57,0.004382018035,0.002965633672
5.58,0.004454904389,0.002784140523
5.59,0.004520491235,0.002602427934
5.6,0.004578943424,0.002420766062
5.61,0.004630433501,0.002239406799
5.62,0.004675140183,0.002058583782
5.63,0.004713246863,0.001878512518
5.64,0.00474494015,0.001699390626
5.65,0.004770408456,0.001521398178
5.66,0.004789840634,0.001344698148
5.67,0.00480342468,0.001169436959
5.68,0.004811346498,0.0009957451165
5.69,0.004813788739,0.0008237379323
5.7,0.004810929718,0.0006535163259
5.71,0.004802942416,0.0004851676971
5.72,0.004789993569,0.0003187668643
5.73,0.004772242847,0.0001543770606
5.74,0.004749842138,-7.949021694E-06
5.75,0.004722934916,-0.0001681681435
5.76,0.004691655724,-0.0003262453985
5.77,0.004656129746,-0.0004821530673
5.78,0.004616472497,-0.0006358694536
5.79,0.004572789604,-0.0007873777123
5.8,0.004525176693,-0.000936664676
5.81,0.004473719387,-0.00108371969
5.82,0.004418493394,-0.001228533459
5.83,0.004359564699,-0.001371096927
5.84,0.004296989854,-0.00151140017
5.85,0.004230816354,-0.001649431348
5.86,0.004161083112,-0.001785175687
5.87,0.004087821014,-0.00191861452
5.88,0.004011053548,-0.002049724382
5.89,0.003930797521,-0.002178476175
5.9,0.003847063838,-0.002304834401
5.91,0.00375985834,-0.002428756466
5.92,0.003669182709,-0.002550192069
5.93,0.00357503542,-0.002669082673
5.94,0.003477412728,-0.002785361067
5.95,0.003376309704,-0.002898951008
5.96,0.003271721293,-0.003009766971
5.97,0.003163643391,-0.003117713983
5.98,0.003052073941,-0.003222687557
5.99,0.002937014033,-0.003324573723
6,0.002818468997,-0.00342324916
