"Freq [GHz]","re(S(Tx_p1,Tx_p1)) []","im(S(Tx_p1,Tx_p1)) []"
1,0.06193688737,-0.1070915729
1.01,0.0594147553,-0.1073650537
1.02,0.05690178651,-0.1075986118
1.03,0.0543994084,-0.1077917596
1.04,0.0519090504,-0.1079441782
1.05,0.04943213268,-0.1080557104
1.06,0.04697005553,-0.1081263529
1.07,0.04452418949,-0.108156248
1.08,0.04209586617,-0.1081456759
1.09,0.03968636975,-0.1080950461
1.1,0.03729692922,-0.1080048885
1.11,0.03492871124,-0.1078758451
1.12,0.03258281378,-0.1077086606
1.13,0.03026026035,-0.107504174
1.14,0.02796199497,-0.107263309
1.15,0.02568887775,-0.1069870655
1.16,0.02344168118,-0.1066765098
1.17,0.02122108702,-0.1063327661
1.18,0.01902768383,-0.1059570071
1.19,0.01686196517,-0.1055504451
1.2,0.01472432832,-0.1051143234
1.21,0.01261507372,-0.1046499072
1.22,0.01053440486,-0.104158475
1.23,0.008482428796,-0.1036413107
1.24,0.006459157228,-0.1030996948
1.25,0.00446450806,-0.1025348968
1.26,0.002498307485,-0.1019481674
1.27,0.0005602925543,-0.1013407311
1.28,-0.001349885799,-0.1007137793
1.29,-0.003232659296,-0.1000684629
1.3,-0.005088538433,-0.09940588656
1.31,-0.006918108215,-0.09872710238
1.32,-0.008722023535,-0.09803310404
1.33,-0.0105010042,-0.09732482169
1.34,-0.01225582968,-0.09660311704
1.35,-0.01398733354,-0.09586877885
1.36,-0.01569639763,-0.09512251899
1.37,-0.0173839461,-0.09436496877
1.38,-0.01905093913,-0.09359667592
1.39,-0.02069836659,-0.09281810185
1.4,-0.02232724152,-0.0920296195
1.41,-0.02393859347,-0.0912315116
1.42,-0.02553346186,-0.09042396944
1.43,-0.0271128892,-0.08960709206
1.44,-0.02867791434,-0.08878088595
1.45,-0.03022956576,-0.08794526519
1.46,-0.0317688548,-0.08710005209
1.47,-0.0332967691,-0.08624497825
1.48,-0.03481426603,-0.08537968605
1.49,-0.03632226627,-0.08450373065
1.5,-0.03782164759,-0.08361658234
1.51,-0.03931323874,-0.08271762931
1.52,-0.04079781355,-0.08180618091
1.53,-0.04227608533,-0.08088147117
1.54,-0.04374870142,-0.07994266278
1.55,-0.04521623805,-0.07898885136
1.56,-0.0466791955,-0.07801907013
1.57,-0.04813799355,-0.07703229482
1.58,-0.04959296729,-0.07602744891
1.59,-0.05104436319,-0.07500340915
1.6,-0.05249233565,-0.07395901131
1.61,-0.05393694377,-0.07289305613
1.62,-0.0553781487,-0.07180431554
1.63,-0.05681581115,-0.07069153897
1.64,-0.05824968952,-0.06955345988
1.65,-0.05967943829,-0.06838880238
1.66,-0.06110460693,-0.06719628795
1.67,-0.06252463914,-0.06597464225
1.68,-0.06393887258,-0.06472260196
1.69,-0.06534653903,-0.06343892165
1.7,-0.06674676492,-0.06212238067
1.71,-0.06813857232,-0.06077178991
1.72,-0.06952088039,-0.05938599866
1.73,-0.07089250716,-0.05796390125
1.74,-0.07225217179,-0.05650444364
1.75,-0.07359849722,-0.0550066299
1.76,-0.07493001317,-0.05346952847
1.77,-0.0762451596,-0.05189227831
1.78,-0.07754229048,-0.05027409479
1.79,-0.07881967792,-0.0486142754
1.8,-0.08007551671,-0.04691220521
1.81,-0.08130792909,-0.045167362
1.82,-0.08251496991,-0.04337932121
1.83,-0.08369463208,-0.04154776054
1.84,-0.08484485222,-0.03967246417
1.85,-0.08596351668,-0.03775332678
1.86,-0.08704846768,-0.0357903571
1.87,-0.08809750978,-0.03378368116
1.88,-0.08910841645,-0.03173354515
1.89,-0.09007893685,-0.02964031791
1.9,-0.09100680276,-0.02750449298
1.91,-0.09188973561,-0.02532669034
1.92,-0.09272545369,-0.02310765764
1.93,-0.09351167929,-0.02084827109
1.94,-0.09424614603,-0.01854953591
1.95,-0.09492660618,-0.01621258633
1.96,-0.09555083791,-0.01383868527
1.97,-0.09611665264,-0.01142922348
1.98,-0.09662190227,-0.008985718353
1.99,-0.09706448632,-0.006509812274
2,-0.09744235909,-0.004003270607
2.01,-0.09775353653,-0.001467979251
2.02,-0.09799610317,0.001094058192
2.03,-0.09816821873,0.00368072362
2.04,-0.09826812464,0.006289788021
2.05,-0.09829415029,0.008918915417
2.06,-0.09824471917,0.01156566716
2.07,-0.0981183546,0.01422750655
2.08,-0.09791368538,0.01690180381
2.09,-0.09762945101,0.01958584133
2.1,-0.09726450672,0.02227681921
2.11,-0.09681782815,0.02497186106
2.12,-0.09628851569,0.0276680201
2.13,-0.09567579852,0.03036228545
2.14,-0.09497903827,0.03305158863
2.15,-0.09419773234,0.03573281027
2.16,-0.09333151685,0.038402787
2.17,-0.09238016919,0.04105831847
2.18,-0.0913436102,0.04369617454
2.19,-0.09022190597,0.04631310249
2.2,-0.08901526924,0.04890583441
2.21,-0.08772406038,0.05147109461
2.22,-0.08634878797,0.05400560705
2.23,-0.08489010904,0.05650610284
2.24,-0.08334882881,0.05896932768
2.25,-0.08172590012,0.06139204932
2.26,-0.08002242241,0.06377106492
2.27,-0.07823964035,0.06610320838
2.28,-0.07637894202,0.06838535756
2.29,-0.07444185681,0.07061444141
2.3,-0.07243005284,0.0727874469
2.31,-0.0703453341,0.07490142589
2.32,-0.06818963721,0.07695350177
2.33,-0.06596502784,0.07894087588
2.34,-0.06367369678,0.08086083379
2.35,-0.06131795577,0.08271075134
2.36,-0.05890023292,0.08448810038
2.37,-0.05642306794,0.08619045431
2.38,-0.05388910704,0.08781549332
2.39,-0.05130109763,0.08936100939
2.4,-0.04866188272,0.09082491092
2.41,-0.04597439514,0.09220522708
2.42,-0.04324165156,0.09350011191
2.43,-0.04046674633,0.09470784796
2.44,-0.03765284511,0.09582684972
2.45,-0.03480317843,0.09685566661
2.46,-0.03192103507,0.09779298571
2.47,-0.02900975537,0.09863763406
2.48,-0.02607272438,0.09938858062
2.49,-0.0231133651,0.1000449379
2.5,-0.02013513149,0.1006059634
2.51,-0.01714150157,0.10107106
2.52,-0.01413597051,0.101439777
2.53,-0.01112204369,0.1017118103
2.54,-0.008103229782,0.1018870018
2.55,-0.005083033983,0.1019653391
2.56,-0.002064951191,0.1019469549
2.57,0.0009475406496,0.1018321254
2.58,0.003950987121,0.101621269
2.59,0.006941963785,0.1013149442
2.6,0.00991708249,0.1009138478
2.61,0.01287299753,0.1004188122
2.62,0.01580641163,0.09983080249
2.63,0.01871408173,0.09915091375
2.64,0.02159282465,0.0983803675
2.65,0.02443952238,0.09752050821
2.66,0.02725112737,0.09657279946
2.67,0.03002466738,0.09553881992
2.68,0.03275725021,0.09442025909
2.69,0.03544606816,0.09321891287
2.7,0.03808840218,0.09193667887
2.71,0.04068162581,0.0905755517
2.72,0.04322320881,0.08913761791
2.73,0.04571072051,0.08762505097
2.74,0.04814183292,0.08604010607
2.75,0.05051432347,0.08438511474
2.76,0.05282607755,0.08266247951
2.77,0.05507509071,0.08087466845
2.78,0.05725947054,0.07902420957
2.79,0.05937743832,0.07711368536
2.8,0.06142733034,0.07514572713
2.81,0.06340759895,0.07312300946
2.82,0.06531681328,0.07104824459
2.83,0.06715365973,0.0689241769
2.84,0.06891694218,0.06675357738
2.85,0.07060558186,0.06453923815
2.86,0.07221861703,0.0622839671
2.87,0.07375520237,0.05999058253
2.88,0.07521460809,0.05766190795
2.89,0.07659621886,0.05530076701
2.9,0.07789953242,0.05290997841
2.91,0.07912415802,0.0504923511
2.92,0.08026981466,0.04805067954
2.93,0.08133632903,0.0455877391
2.94,0.08232363336,0.04310628165
2.95,0.08323176302,0.0406090313
2.96,0.08406085397,0.03809868032
2.97,0.08481114001,0.03557788523
2.98,0.08548294994,0.0330492631
2.99,0.08607670454,0.030515388
3,0.08659291341,0.02797878772
3.01,0.08703217172,0.02544194059
3.02,0.08739515689,0.02290727262
3.03,0.08768262506,0.02037715473
3.04,0.08789540763,0.01785390028
3.05,0.08803440766,0.01533976277
3.06,0.08810059616,0.01283693376
3.07,0.08809500847,0.01034754097
3.08,0.08801874049,0.007873646652
3.09,0.08787294497,0.005417246089
3.1,0.08765882773,0.002980266378
3.11,0.08737764393,0.0005645653559
3.12,0.08703069432,-0.001828069246
3.13,0.08661932156,-0.004195920464
3.14,0.0861449065,-0.006537342569
3.15,0.08560886459,-0.008850761353
3.16,0.08501264225,-0.01113467423
3.17,0.0843577134,-0.01338765016
3.18,0.08364557597,-0.01560832943
3.19,0.08287774853,-0.01779542322
3.2,0.082055767,-0.01994771309
3.21,0.08118118143,-0.02206405025
3.22,0.08025555295,-0.02414335471
3.23,0.07928045068,-0.02618461436
3.24,0.07825744888,-0.02818688379
3.25,0.07718812416,-0.03014928314
3.26,0.07607405281,-0.03207099675
3.27,0.07491680821,-0.03395127173
3.28,0.07371795843,-0.03578941646
3.29,0.07247906394,-0.03758479896
3.3,0.07120167538,-0.03933684524
3.31,0.06988733151,-0.04104503755
3.32,0.06853755733,-0.04270891256
3.33,0.06715386226,-0.04432805948
3.34,0.06573773842,-0.04590211822
3.35,0.06429065919,-0.04743077739
3.36,0.06281407772,-0.04891377236
3.37,0.06130942567,-0.05035088326
3.38,0.05977811207,-0.05174193296
3.39,0.05822152224,-0.05308678507
3.4,0.05664101694,-0.05438534192
3.41,0.05503793152,-0.05563754255
3.42,0.05341357526,-0.05684336069
3.43,0.05176923081,-0.05800280279
3.44,0.05010615374,-0.05911590603
3.45,0.04842557215,-0.06018273641
3.46,0.04672868648,-0.06120338683
3.47,0.0450166693,-0.0621779752
3.48,0.04329066532,-0.06310664265
3.49,0.04155179134,-0.06398955168
3.5,0.03980113647,-0.06482688448
3.51,0.03803976226,-0.06561884118
3.52,0.03626870299,-0.06636563827
3.53,0.03448896604,-0.06706750695
3.54,0.03270153233,-0.06772469168
3.55,0.03090735674,-0.06833744864
3.56,0.02910736871,-0.06890604438
3.57,0.02730247284,-0.06943075447
3.58,0.0254935495,-0.06991186218
3.59,0.02368145556,-0.07034965733
3.6,0.02186702512,-0.07074443512
3.61,0.02005107029,-0.07109649501
3.62,0.018234382,-0.07140613977
3.63,0.01641773083,-0.0716736745
3.64,0.01460186791,-0.07189940575
3.65,0.01278752581,-0.07208364068
3.66,0.01097541942,-0.07222668638
3.67,0.00916624691,-0.0723288491
3.68,0.007360690664,-0.07239043368
3.69,0.00555941824,-0.07241174297
3.7,0.003763083331,-0.07239307736
3.71,0.001972326725,-0.0723347343
3.72,0.0001877772837,-0.07223700796
3.73,-0.001589947093,-0.07210018889
3.74,-0.003360238499,-0.07192456378
3.75,-0.005122498059,-0.07171041523
3.76,-0.006876134969,-0.07145802165
3.77,-0.008620565556,-0.0711676571
3.78,-0.01035521233,-0.07083959129
3.79,-0.01207950307,-0.0704740896
3.8,-0.01379286989,-0.0700714131
3.81,-0.01549474838,-0.06963181871
3.82,-0.01718457669,-0.06915555928
3.83,-0.01886179466,-0.06864288389
3.84,-0.02052584303,-0.06809403804
3.85,-0.02217616255,-0.06750926393
3.86,-0.02381219323,-0.06688880087
3.87,-0.02543337351,-0.06623288556
3.88,-0.02703913956,-0.06554175263
3.89,-0.02862892452,-0.06481563499
3.9,-0.03020215779,-0.06405476441
3.91,-0.03175826436,-0.06325937204
3.92,-0.03329666417,-0.06242968899
3.93,-0.0348167715,-0.06156594693
3.94,-0.03631799435,-0.0606683788
3.95,-0.03779973393,-0.05973721944
3.96,-0.03926138409,-0.05877270635
3.97,-0.04070233089,-0.05777508047
3.98,-0.04212195211,-0.05674458694
3.99,-0.04351961687,-0.05568147594
4,-0.04489468523,-0.05458600356
4.01,-0.04624650789,-0.05345843269
4.02,-0.04757442591,-0.05229903394
4.03,-0.04887777043,-0.05110808661
4.04,-0.05015586251,-0.04988587962
4.05,-0.05140801298,-0.04863271257
4.06,-0.05263352237,-0.04734889676
4.07,-0.05383168079,-0.04603475621
4.08,-0.05500176805,-0.04469062879
4.09,-0.05614305365,-0.04331686727
4.1,-0.05725479694,-0.04191384048
4.11,-0.05833624729,-0.0404819344
4.12,-0.05938664437,-0.03902155335
4.13,-0.06040521844,-0.03753312109
4.14,-0.06139119073,-0.03601708207
4.15,-0.06234377391,-0.03447390254
4.16,-0.06326217256,-0.03290407172
4.17,-0.06414558384,-0.03130810305
4.18,-0.06499319805,-0.02968653529
4.19,-0.06580419948,-0.02803993372
4.2,-0.0665777671,-0.02636889132
4.21,-0.06731307557,-0.02467402987
4.22,-0.0680092961,-0.02295600111
4.23,-0.06866559758,-0.02121548783
4.24,-0.06928114765,-0.01945320494
4.25,-0.06985511394,-0.01766990055
4.26,-0.07038666532,-0.01586635696
4.27,-0.07087497332,-0.01404339161
4.28,-0.0713192135,-0.01220185804
4.29,-0.07171856706,-0.01034264675
4.3,-0.07207222236,-0.008466686016
4.31,-0.07237937665,-0.006574942654
4.32,-0.07263923783,-0.004668422707
4.33,-0.07285102622,-0.002748172071
4.34,-0.07301397654,-0.0008152770308
4.35,-0.07312733981,0.001129135269
4.36,-0.07319038542,0.003083896454
4.37,-0.07320240323,0.005047796641
4.38,-0.07316270568,0.007019584247
4.39,-0.07307063008,0.008997965911
4.4,-0.07292554079,0.01098160652
4.41,-0.07272683158,0.01296912936
4.42,-0.07247392795,0.01495911633
4.43,-0.07216628953,0.01695010837
4.44,-0.07180341249,0.01894060594
4.45,-0.07138483195,0.02092906963
4.46,-0.07091012448,0.02291392099
4.47,-0.07037891052,0.02489354333
4.48,-0.06979085685,0.02686628287
4.49,-0.06914567907,0.02883044984
4.5,-0.06844314404,0.03078431983
4.51,-0.0676830723,0.03272613529
4.52,-0.06686534045,0.0346541071
4.53,-0.06598988354,0.03656641639
4.54,-0.0650566974,0.0384612164
4.55,-0.06406584082,0.04033663457
4.56,-0.06301743784,0.04219077478
4.57,-0.06191167983,0.04402171966
4.58,-0.0607488275,0.04582753309
4.59,-0.05952921293,0.04760626292
4.6,-0.05825324133,0.04935594365
4.61,-0.05692139286,0.05107459943
4.62,-0.0555342242,0.0527602471
4.63,-0.05409237007,0.05441089934
4.64,-0.05259654457,0.05602456801
4.65,-0.05104754244,0.05759926757
4.66,-0.04944624006,0.05913301858
4.67,-0.0477935964,0.0606238514
4.68,-0.04609065371,0.06206980987
4.69,-0.04433853814,0.06346895517
4.7,-0.04253846003,0.06481936969
4.71,-0.04069171415,0.06611916106
4.72,-0.03879967966,0.06736646613
4.73,-0.0368638199,0.06855945511
4.74,-0.03488568195,0.06969633566
4.75,-0.03286689601,0.0707753571
4.76,-0.03080917451,0.07179481456
4.77,-0.02871431109,0.07275305316
4.78,-0.02658417923,0.07364847225
4.79,-0.02442073076,0.07447952951
4.8,-0.02222599412,0.07524474516
4.81,-0.02000207233,0.075942706
4.82,-0.01775114083,0.07657206948
4.83,-0.01547544498,0.07713156772
4.84,-0.01317729746,0.07762001131
4.85,-0.01085907532,0.0780362932
4.86,-0.008523216902,0.07837939234
4.87,-0.006172218482,0.0786483773
4.88,-0.00380863075,0.07884240965
4.89,-0.001435055035,0.07896074732
4.9,0.0009458606402,0.07900274768
4.91,0.003331425714,0.07896787052
4.92,0.005718911429,0.07885568083
4.93,0.008105555343,0.07866585138
4.94,0.01048856603,0.07839816509
4.95,0.0128651279,0.07805251719
4.96,0.01523240626,0.07762891712
4.97,0.01758755236,0.07712749024
4.98,0.01992770874,0.07654847927
4.99,0.02225001454,0.07589224544
5,0.02455161104,0.0751592694
5.01,0.02682964716,0.0743501519
5.02,0.02908128512,0.07346561409
5.03,0.03130370613,0.07250649764
5.04,0.03349411612,0.07147376449
5.05,0.03564975149,0.07036849632
5.06,0.03776788489,0.06919189378
5.07,0.03984583096,0.06794527531
5.08,0.04188095209,0.06663007577
5.09,0.04387066406,0.06524784471
5.1,0.04581244176,0.06380024429
5.11,0.04770382468,0.06228904701
5.12,0.04954242242,0.06071613305
5.13,0.05132592003,0.05908348734
5.14,0.05305208326,0.05739319633
5.15,0.05471876364,0.05564744454
5.16,0.05632390344,0.05384851069
5.17,0.05786554038,0.0519987637
5.18,0.05934181225,0.05010065836
5.19,0.06075096122,0.04815673072
5.2,0.06209133802,0.0461695933
5.21,0.0633614058,0.04414193
5.22,0.06455974382,0.04207649085
5.23,0.06568505079,0.03997608652
5.24,0.06673614802,0.03784358261
5.25,0.06771198218,0.0356818938
5.26,0.06861162789,0.03349397785
5.27,0.06943428988,0.03128282939
5.28,0.07017930488,0.02905147363
5.29,0.07084614319,0.02680295991
5.3,0.0714344099,0.02454035524
5.31,0.07194384577,0.02226673765
5.32,0.07237432776,0.01998518954
5.33,0.07272586923,0.01769879101
5.34,0.07299861972,0.01541061315
5.35,0.07319286446,0.01312371127
5.36,0.07330902346,0.01084111826
5.37,0.07334765029,0.008565837927
5.38,0.0733094304,0.006300838356
5.39,0.07319517924,0.004049045447
5.4,0.07300583993,0.001813336474
5.41,0.07274248054,-0.0004034662077
5.42,0.07240629119,-0.00259860131
5.43,0.07199858064,-0.004769374612
5.44,0.0715207727,-0.006913164769
5.45,0.0709744022,-0.009027428937
5.46,0.07036111077,-0.01110970817
5.47,0.06968264225,-0.0131576326
5.48,0.06894083787,-0.01516892635
5.49,0.0681376311,-0.01714141216
5.5,0.06727504235,-0.01907301583
5.51,0.06635517334,-0.02096177022
5.52,0.06538020127,-0.02280581906
5.53,0.06435237287,-0.02460342038
5.54,0.06327399816,-0.02635294964
5.55,0.06214744409,-0.02805290246
5.56,0.06097512809,-0.02970189705
5.57,0.05975951138,-0.03129867627
5.58,0.05850309228,-0.03284210929
5.59,0.05720839939,-0.0343311929
5.6,0.05587798475,-0.03576505242
5.61,0.05451441687,-0.03714294228
5.62,0.05312027388,-0.0384642461
5.63,0.05169813657,-0.0397284765
5.64,0.0502505815,-0.0409352745
5.65,0.04878017419,-0.04208440842
5.66,0.04728946233,-0.04317577259
5.67,0.04578096914,-0.04420938553
5.68,0.04425718679,-0.04518538779
5.69,0.04272057,-0.04610403948
5.7,0.0411735298,-0.04696571738
5.71,0.03961842746,-0.04777091175
5.72,0.03805756858,-0.04852022276
5.73,0.03649319751,-0.0492143566
5.74,0.03492749188,-0.04985412134
5.75,0.03336255747,-0.0504404224
5.76,0.03180042335,-0.05097425781
5.77,0.03024303728,-0.05145671316
5.78,0.02869226141,-0.05188895633
5.79,0.02714986837,-0.05227223196
5.8,0.0256175376,-0.05260785575
5.81,0.02409685209,-0.05289720854
5.82,0.02258929547,-0.05314173018
5.83,0.02109624943,-0.05334291336
5.84,0.01961899158,-0.05350229722
5.85,0.01815869361,-0.05362146084
5.86,0.01671641992,-0.05370201676
5.87,0.01529312657,-0.05374560432
5.88,0.01388966069,-0.05375388302
5.89,0.01250676024,-0.05372852587
5.9,0.01114505421,-0.05367121275
5.91,0.009805063153,-0.05358362376
5.92,0.008487200174,-0.0534674327
5.93,0.007191772293,-0.05332430061
5.94,0.005918982168,-0.05315586934
5.95,0.004668930223,-0.05296375538
5.96,0.003441617127,-0.05274954373
5.97,0.002236946647,-0.05251478199
5.98,0.00105472884,-0.05226097464
5.99,-0.0001053164144,-0.05198957755
6,-0.00124355556,-0.05170199268
