"Freq [GHz]","re(S(Tx_p1,Tx_p1)) []","im(S(Tx_p1,Tx_p1)) []"
1,-0.009639067637,-0.04521654498
1.01,-0.01077079505,-0.04392076757
1.02,-0.01182651019,-0.04260190965
1.03,-0.01280543156,-0.04126404775
1.04,-0.01370703775,-0.03991131491
1.05,-0.01453106968,-0.03854788189
1.06,-0.01527753165,-0.03717793852
1.07,-0.01594669115,-0.03580567513
1.08,-0.01653907748,-0.03443526436
1.09,-0.01705547917,-0.03307084316
1.1,-0.01749694029,-0.03171649521
1.11,-0.01786475562,-0.03037623378
1.12,-0.01816046478,-0.02905398509
1.13,-0.01838584528,-0.02775357221
1.14,-0.01854290462,-0.02647869956
1.15,-0.01863387146,-0.02523293813
1.16,-0.01866118586,-0.02401971135
1.17,-0.01862748872,-0.02284228179
1.18,-0.01853561038,-0.0217037386
1.19,-0.01838855861,-0.02060698584
1.2,-0.01818950577,-0.01955473169
1.21,-0.01794177552,-0.01854947857
1.22,-0.01764882891,-0.01759351421
1.23,-0.01731424997,-0.01668890368
1.24,-0.01694173098,-0.01583748244
1.25,-0.01653505728,-0.01504085036
1.26,-0.0160980919,-0.0143003668
1.27,-0.01563475991,-0.01361714671
1.28,-0.01514903265,-0.01299205774
1.29,-0.01464491188,-0.01242571843
1.3,-0.01412641393,-0.01191849741
1.31,-0.01359755386,-0.01147051358
1.32,-0.01306232976,-0.01108163742
1.33,-0.01252470728,-0.01075149316
1.34,-0.01198860429,-0.01047946203
1.35,-0.01145787597,-0.01026468642
1.36,-0.01093630013,-0.01010607494
1.37,-0.01042756307,-0.01000230847
1.38,-0.009935245834,-0.009951846961
1.39,-0.00946281097,-0.009952937159
1.4,-0.009013589937,-0.01000362105
1.41,-0.008590771058,-0.01010174508
1.42,-0.008197388158,-0.01024497009
1.43,-0.007836309899,-0.01043078186
1.44,-0.007510229837,-0.01065650232
1.45,-0.007221657257,-0.01091930124
1.46,-0.006972908799,-0.0112162085
1.47,-0.006766100898,-0.01154412675
1.48,-0.00660314308,-0.01189984445
1.49,-0.006485732103,-0.01228004934
1.5,-0.006415346992,-0.01268134205
1.51,-0.006393244943,-0.01310025006
1.52,-0.006420458132,-0.01353324172
1.53,-0.006497791419,-0.01397674046
1.54,-0.006625820948,-0.01442713895
1.55,-0.006804893635,-0.01488081338
1.56,-0.007035127551,-0.01533413754
1.57,-0.007316413175,-0.01578349685
1.58,-0.007648415501,-0.01622530224
1.59,-0.008030576997,-0.01665600373
1.6,-0.008462121378,-0.01707210377
1.61,-0.008942058178,-0.01747017025
1.62,-0.00946918809,-0.01784684915
1.63,-0.01004210905,-0.01819887671
1.64,-0.01065922302,-0.01852309121
1.65,-0.01131874346,-0.01881644418
1.66,-0.0120187034,-0.01907601112
1.67,-0.01275696416,-0.01929900159
1.68,-0.01353122457,-0.01948276873
1.69,-0.01433903074,-0.0196248181
1.7,-0.01517778625,-0.01972281592
1.71,-0.01604476286,-0.01977459651
1.72,-0.01693711145,-0.01977816915
1.73,-0.01785187339,-0.01973172407
1.74,-0.01878599217,-0.01963363783
1.75,-0.01973632524,-0.01948247787
1.76,-0.02069965601,-0.01927700629
1.77,-0.02167270602,-0.01901618292
1.78,-0.02265214718,-0.0186991676
1.79,-0.02363461403,-0.01832532166
1.8,-0.02461671597,-0.01789420869
1.81,-0.02559504946,-0.01740559454
1.82,-0.0265662101,-0.01685944659
1.83,-0.02752680454,-0.01625593228
1.84,-0.02847346218,-0.01559541692
1.85,-0.02940284667,-0.01487846088
1.86,-0.03031166711,-0.01410581602
1.87,-0.03119668888,-0.01327842153
1.88,-0.03205474423,-0.01239739916
1.89,-0.03288274232,-0.01146404783
1.9,-0.03367767898,-0.01047983773
1.91,-0.03443664591,-0.009446403858
1.92,-0.03515683945,-0.008365539059
1.93,-0.03583556887,-0.00723918667
1.94,-0.03647026402,-0.006069432692
1.95,-0.03705848253,-0.004858497603
1.96,-0.03759791644,-0.003608727836
1.97,-0.03808639814,-0.002322586947
1.98,-0.03852190585,-0.00100264653
1.99,-0.03890256843,0.0003484230924
2,-0.03922666954,0.001727862353
2.01,-0.03949265127,0.003132832067
2.02,-0.03969911709,0.004560423159
2.03,-0.0398448342,0.006007666441
2.04,-0.03992873531,0.007471542414
2.05,-0.03994991974,0.008948991056
2.06,-0.03990765399,0.01043692154
2.07,-0.0398013717,0.01193222187
2.08,-0.03963067303,0.01343176839
2.09,-0.03939532353,0.0149324351
2.1,-0.03909525241,0.01643110282
2.11,-0.03873055033,0.01792466811
2.12,-0.03830146675,0.01941005191
2.13,-0.03780840664,0.02088420792
2.14,-0.03725192699,0.02234413068
2.15,-0.03663273265,0.02378686329
2.16,-0.03595167197,0.02520950479
2.17,-0.03520973197,0.02660921716
2.18,-0.03440803319,0.02798323194
2.19,-0.03354782429,0.02932885644
2.2,-0.03263047631,0.0306434795
2.21,-0.03165747673,0.03192457687
2.22,-0.03063042328,0.03316971613
2.23,-0.02955101764,0.03437656114
2.24,-0.02842105891,0.03554287606
2.25,-0.02724243702,0.03666652898
2.26,-0.02601712604,0.03774549497
2.27,-0.02474717742,0.03877785881
2.28,-0.02343471324,0.03976181721
2.29,-0.02208191944,0.04069568058
2.3,-0.02069103908,0.04157787448
2.31,-0.01926436567,0.04240694048
2.32,-0.01780423658,0.04318153679
2.33,-0.0163130266,0.04390043839
2.34,-0.01479314155,0.04456253682
2.35,-0.01324701215,0.04516683961
2.36,-0.01167708798,0.04571246937
2.37,-0.01008583167,0.04619866256
2.38,-0.008475713339,0.04662476795
2.39,-0.006849205211,0.04699024482
2.4,-0.005208776481,0.04729466089
2.41,-0.003556888464,0.04753768998
2.42,-0.001895989986,0.04771910955
2.43,-0.0002285130541,0.04783879797
2.44,0.001443131194,0.04789673161
2.45,0.003116556257,0.04789298191
2.46,0.004789403752,0.04782771217
2.47,0.006459346606,0.04770117438
2.48,0.008124091964,0.0475137059
2.49,0.009781383814,0.04726572611
2.5,0.01142900533,0.04695773309
2.51,0.01306478093,0.04659030016
2.52,0.0146865781,0.04616407262
2.53,0.01629230894,0.04567976433
2.54,0.01787993146,0.04513815454
2.55,0.01944745062,0.04454008458
2.56,0.02099291922,0.04388645486
2.57,0.02251443851,0.04317822178
2.58,0.02401015862,0.04241639487
2.59,0.02547827886,0.04160203404
2.6,0.02691704778,0.04073624691
2.61,0.02832476318,0.03982018641
2.62,0.02969977188,0.03885504838
2.63,0.03104046951,0.03784206946
2.64,0.0323453001,0.03678252509
2.65,0.03361275567,0.03567772768
2.66,0.03484137571,0.03452902499
2.67,0.0360297467,0.03333779861
2.68,0.03717650152,0.03210546269
2.69,0.03828031896,0.03083346277
2.7,0.03933992316,0.02952327482
2.71,0.04035408316,0.02817640438
2.72,0.04132161241,0.02679438591
2.73,0.04224136847,0.02537878225
2.74,0.04311225266,0.02393118417
2.75,0.04393320992,0.02245321011
2.76,0.04470322868,0.02094650596
2.77,0.0454213409,0.01941274497
2.78,0.04608662223,0.01785362771
2.79,0.04669819228,0.0162708821
2.8,0.04725521508,0.01466626351
2.81,0.04775689962,0.01304155483
2.82,0.04820250062,0.0113985666
2.83,0.04859131936,0.009739137134
2.84,0.04892270476,0.008065132588
2.85,0.04919605454,0.006378447007
2.86,0.0494108166,0.004681002315
2.87,0.04956649047,0.002974748225
2.88,0.04966262895,0.001261662049
2.89,0.04969883991,-0.0004562515868
2.9,0.04967478817,-0.002176961171
2.91,0.0495901975,-0.003898408863
2.92,0.04944485278,-0.005618511218
2.93,0.04923860221,-0.007335160071
2.94,0.04897135962,-0.009046223617
2.95,0.04864310681,-0.01074954768
2.96,0.04825389602,-0.01244295719
2.97,0.04780385237,-0.01412425789
2.98,0.04729317631,-0.01579123822
2.99,0.04672214614,-0.01744167151
3,0.04609112044,-0.01907331836
3.01,0.04540054045,-0.02068392926
3.02,0.04465093249,-0.02227124744
3.03,0.04384291017,-0.02383301208
3.04,0.04297717658,-0.02536696155
3.05,0.04205452631,-0.02687083711
3.06,0.04107584736,-0.02834238672
3.07,0.04004212286,-0.0297793691
3.08,0.03895443263,-0.03117955803
3.09,0.03781395444,-0.03254074689
3.1,0.03662196521,-0.03386075334
3.11,0.03537984178,-0.03513742421
3.12,0.03408906153,-0.03636864063
3.13,0.03275120267,-0.03755232324
3.14,0.03136794427,-0.03868643754
3.15,0.02994106591,-0.03976899947
3.16,0.02847244703,-0.04079808097
3.17,0.02696406599,-0.04177181566
3.18,0.02541799864,-0.04268840464
3.19,0.0238364167,-0.04354612226
3.2,0.02222158559,-0.04434332191
3.21,0.02057586204,-0.04507844184
3.22,0.01890169116,-0.04575001089
3.23,0.01720160326,-0.04635665418
3.24,0.0154782102,-0.0468970987
3.25,0.01373420134,-0.0473701788
3.26,0.01197233916,-0.0477748415
3.27,0.01019545447,-0.04811015164
3.28,0.00840644121,-0.04837529682
3.29,0.006608250962,-0.04856959215
3.3,0.004803887013,-0.04869248465
3.31,0.002996398138,-0.04874355746
3.32,0.001188872031,-0.04872253371
3.33,-0.0006155715806,-0.04862927998
3.34,-0.00241378811,-0.04846380955
3.35,-0.004202615566,-0.04822628512
3.36,-0.005978882256,-0.04791702118
3.37,-0.007739414726,-0.04753648601
3.38,-0.009481045898,-0.04708530312
3.39,-0.01120062339,-0.04656425231
3.4,-0.01289501799,-0.04597427023
3.41,-0.01456113224,-0.04531645045
3.42,-0.01619590912,-0.04459204297
3.43,-0.01779634078,-0.0438024533
3.44,-0.01935947732,-0.04294924096
3.45,-0.02088243553,-0.04203411745
3.46,-0.02236240763,-0.04105894367
3.47,-0.02379666989,-0.04002572687
3.48,-0.02518259116,-0.03893661697
3.49,-0.02651764129,-0.0377939024
3.5,-0.02779939927,-0.03660000542
3.51,-0.02902556129,-0.03535747684
3.52,-0.03019394842,-0.03406899034
3.53,-0.03130251409,-0.03273733618
3.54,-0.03234935125,-0.0313654145
3.55,-0.03333269907,-0.02995622811
3.56,-0.03425094944,-0.02851287484
3.57,-0.03510265287,-0.02703853943
3.58,-0.0358865241,-0.0255364851
3.59,-0.03660144709,-0.02401004462
3.6,-0.03724647966,-0.02246261113
3.61,-0.03782085749,-0.02089762855
3.62,-0.03832399761,-0.01931858176
3.63,-0.03875550135,-0.01772898651
3.64,-0.03911515663,-0.01613237903
3.65,-0.03940293975,-0.01453230557
3.66,-0.03961901641,-0.01293231169
3.67,-0.03976374224,-0.01133593148
3.68,-0.03983766259,-0.009746676662
3.69,-0.0398415117,-0.008168025737
3.7,-0.03977621123,-0.006603413035
3.71,-0.03964286807,-0.005056217884
3.72,-0.03944277153,-0.003529753836
3.73,-0.03917738991,-0.00202725803
3.74,-0.03884836629,-0.0005518807242
3.75,-0.03845751383,0.0008933249587
3.76,-0.03800681028,0.002305413031
3.77,-0.03749839201,0.003681554346
3.78,-0.03693454734,0.005019045968
3.79,-0.03631770932,0.006315320166
3.8,-0.03565044789,0.007567953003
3.81,-0.03493546163,0.008774672462
3.82,-0.0341755688,0.009933366105
3.83,-0.03337369808,0.0110420882
3.84,-0.03253287872,0.01209906628
3.85,-0.03165623037,0.0131027072
3.86,-0.03074695238,0.01405160246
3.87,-0.02980831293,0.01494453298
3.88,-0.02884363769,0.01578047323
3.89,-0.0278562983,0.01655859459
3.9,-0.02684970056,0.0172782681
3.91,-0.02582727251,0.01793906643
3.92,-0.02479245227,0.01854076518
3.93,-0.02374867584,0.01908334336
3.94,-0.02269936485,0.01956698323
3.95,-0.02164791429,0.01999206927
3.96,-0.02059768028,0.02035918646
3.97,-0.01955196793,0.02066911782
3.98,-0.01851401936,0.02092284115
3.99,-0.01748700184,0.02112152504
4,-0.01647399627,0.02126652418
4.01,-0.0154779858,0.02135937394
4.02,-0.01450184493,0.02140178416
4.03,-0.0135483288,0.02139563239
4.04,-0.01262006307,0.0213429564
4.05,-0.01171953411,0.02124594598
4.06,-0.01084907979,0.0211069343
4.07,-0.01001088071,0.02092838851
4.08,-0.009206952101,0.02071289989
4.09,-0.008439136233,0.02046317347
4.1,-0.007709095543,0.02018201717
4.11,-0.007018306389,0.01987233049
4.12,-0.006368053516,0.01953709278
4.13,-0.005759425249,0.01917935126
4.14,-0.005193309425,0.01880220859
4.15,-0.004670390107,0.01840881029
4.16,-0.004191145069,0.01800233188
4.17,-0.003755844092,0.0175859659
4.18,-0.003364548065,0.01716290879
4.19,-0.003017108908,0.01673634771
4.2,-0.002713170318,0.01630944734
4.21,-0.002452169342,0.01588533674
4.22,-0.002233338774,0.01546709628
4.23,-0.00205571037,0.01505774474
4.24,-0.00191811888,0.01466022656
4.25,-0.001819206867,0.01427739939
4.26,-0.001757430327,0.01391202188
4.27,-0.001731065067,0.01356674188
4.28,-0.001738213829,0.01324408496
4.29,-0.00177681414,0.01294644343
4.3,-0.001844646854,0.01267606581
4.31,-0.001939345363,0.01243504689
4.32,-0.002058405433,0.01222531824
4.33,-0.002199195646,0.01204863951
4.34,-0.002358968392,0.0119065902
4.35,-0.002534871384,0.01180056226
4.36,-0.002723959651,0.0117317533
4.37,-0.002923207954,0.01170116064
4.38,-0.003129523591,0.01170957608
4.39,-0.003339759537,0.0117575815
4.4,-0.003550727871,0.01184554525
4.41,-0.00375921343,0.01197361942
4.42,-0.003961987653,0.01214173796
4.43,-0.004155822546,0.01234961564
4.44,-0.004337504723,0.0125967479
4.45,-0.004503849467,0.01288241164
4.46,-0.004651714747,0.01320566679
4.47,-0.004778015151,0.01356535881
4.48,-0.004879735669,0.01396012214
4.49,-0.004953945267,0.01438838436
4.5,-0.004997810214,0.01484837136
4.51,-0.005008607092,0.01533811326
4.52,-0.004983735443,0.01585545116
4.53,-0.004920730005,0.01639804474
4.54,-0.004817272479,0.01696338054
4.55,-0.004671202783,0.0175487811
4.56,-0.004480529754,0.01815141471
4.57,-0.004243441233,0.01876830589
4.58,-0.003958313512,0.01939634648
4.59,-0.00362372009,0.02003230739
4.6,-0.00323843971,0.0206728508
4.61,-0.002801463628,0.021314543
4.62,-0.002312002094,0.02195386757
4.63,-0.00176949002,0.02258723908
4.64,-0.001173591786,0.02321101708
4.65,-0.0005242051901,0.02382152042
4.66,0.0001785354955,0.02441504189
4.67,0.0009342573756,0.02498786293
4.68,0.001742347698,0.02553626864
4.69,0.002601953546,0.02605656274
4.7,0.003511982466,0.02654508268
4.71,0.00447110403,0.0269982146
4.72,0.005477752324,0.02741240835
4.73,0.006530129373,0.02778419221
4.74,0.007626209481,0.02811018757
4.75,0.008763744474,0.02838712318
4.76,0.009940269841,0.02861184927
4.77,0.01115311174,0.02878135113
4.78,0.01239939483,0.02889276242
4.79,0.01367605101,0.02894337786
4.8,0.01497982881,0.02893066552
4.81,0.01630730367,0.02885227846
4.82,0.01765488888,0.02870606578
4.83,0.0190188472,0.02849008298
4.84,0.02039530317,0.02820260164
4.85,0.02178025598,0.02784211834
4.86,0.02316959289,0.02740736279
4.87,0.02455910318,0.02689730515
4.88,0.02594449258,0.0263111625
4.89,0.027321398,0.02564840442
4.9,0.02868540274,0.0249087577
4.91,0.03003205189,0.02409221009
4.92,0.031356868,0.02319901316
4.93,0.032655367,0.02222968412
4.94,0.03392307407,0.02118500679
4.95,0.03515553975,0.02006603152
4.96,0.03634835595,0.01887407414
4.97,0.03749717191,0.01761071399
4.98,0.03859771008,0.01627779091
4.99,0.03964578179,0.01487740131
5,0.04063730266,0.01341189333
5.01,0.0415683078,0.01188386096
5.02,0.04243496657,0.01029613734
5.03,0.04323359698,0.008651787136
5.04,0.04396067961,0.006954098017
5.05,0.04461287104,0.005206571361
5.06,0.04518701669,0.003412912092
5.07,0.04568016304,0.001577017777
5.08,0.04608956924,-0.0002970330183
5.09,0.04641271798,-0.002204993059
5.1,0.0466473256,-0.004142459427
5.11,0.04679135145,-0.006104887106
5.12,0.04684300643,-0.008087603114
5.13,0.04680076066,-0.01008582115
5.14,0.04666335028,-0.01209465669
5.15,0.04642978334,-0.01410914247
5.16,0.04609934477,-0.0161242443
5.17,0.04567160037,-0.01813487723
5.18,0.04514639992,-0.02013592182
5.19,0.04452387917,-0.02212224073
5.2,0.04380446099,-0.02408869524
5.21,0.04298885545,-0.02603016203
5.22,0.04207805892,-0.02794154971
5.23,0.04107335217,-0.02981781551
5.24,0.03997629757,-0.03165398166
5.25,0.03878873516,-0.03344515169
5.26,0.03751277791,-0.03518652641
5.27,0.03615080599,-0.03687341964
5.28,0.03470546006,-0.03850127352
5.29,0.03317963372,-0.04006567347
5.3,0.03157646511,-0.04156236263
5.31,0.02989932761,-0.04298725576
5.32,0.02815181974,-0.04433645266
5.33,0.02633775435,-0.04560625084
5.34,0.02446114699,-0.04679315763
5.35,0.02252620366,-0.04789390156
5.36,0.02053730789,-0.04890544292
5.37,0.01849900719,-0.04982498369
5.38,0.016415999,-0.05064997644
5.39,0.01429311613,-0.05137813262
5.4,0.01213531169,-0.05200742974
5.41,0.009947643717,-0.05253611785
5.42,0.007735259408,-0.05296272494
5.43,0.005503379081,-0.05328606151
5.44,0.003257279914,-0.05350522412
5.45,0.001002279516,-0.053619598
5.46,-0.001256280605,-0.05362885868
5.47,-0.003513051635,-0.05353297268
5.48,-0.00576269403,-0.05333219714
5.49,-0.007999894024,-0.05302707855
5.5,-0.01021938002,-0.05261845051
5.51,-0.01241593877,-0.05210743052
5.52,-0.01458443138,-0.0514954158
5.53,-0.01671980893,-0.05078407822
5.54,-0.01881712782,-0.04997535838
5.55,-0.02087156468,-0.04907145867
5.56,-0.02287843081,-0.04807483564
5.57,-0.02483318618,-0.04698819145
5.58,-0.02673145277,-0.04581446454
5.59,-0.02856902748,-0.04455681958
5.6,-0.0303418942,-0.04321863674
5.61,-0.03204623538,-0.04180350016
5.62,-0.03367844277,-0.04031518595
5.63,-0.03523512748,-0.03875764949
5.64,-0.0367131292,-0.03713501225
5.65,-0.03810952464,-0.03545154813
5.66,-0.03942163515,-0.03371166931
5.67,-0.04064703343,-0.03191991177
5.68,-0.0417835494,-0.03008092046
5.69,-0.0428292752,-0.0281994342
5.7,-0.04378256916,-0.02628027033
5.71,-0.04464205904,-0.02432830925
5.72,-0.04540664419,-0.02234847877
5.73,-0.04607549684,-0.0203457385
5.74,-0.0466480625,-0.01832506414
5.75,-0.04712405939,-0.01629143192
5.76,-0.04750347697,-0.01424980306
5.77,-0.0477865736,-0.01220510851
5.78,-0.04797387326,-0.01016223377
5.79,-0.04806616145,-0.008126004077
5.8,-0.04806448022,-0.006101169911
5.81,-0.04797012237,-0.00409239281
5.82,-0.04778462485,-0.002104231659
5.83,-0.04750976142,-0.0001411294155
5.84,-0.04714753453,0.001792599647
5.85,-0.04670016655,0.00369278215
5.86,-0.04617009024,0.005555397237
5.87,-0.04555993872,0.007376587569
5.88,-0.04487253474,0.009152669662
5.89,-0.04411087946,0.01088014354
5.9,-0.04327814076,0.01255570166
5.91,-0.042377641,0.01417623709
5.92,-0.04141284448,0.01573885095
5.93,-0.04038734445,0.01724085899
5.94,-0.03930484993,0.01867979747
5.95,-0.0381691721,0.02005342812
5.96,-0.03698421068,0.02135974231
5.97,-0.03575393998,0.02259696441
5.98,-0.03448239497,0.02376355429
5.99,-0.03317365722,0.02485820891
6,-0.03183184089,0.0258798632
