"Freq [GHz]","re(S(Tx_p1,Tx_p1)) []","im(S(Tx_p1,Tx_p1)) []"
1,-0.04142824995,-0.05495127371
1.01,-0.04323695926,-0.05230641083
1.02,-0.04490549285,-0.04959619028
1.03,-0.04643056688,-0.04682797965
1.04,-0.04780933012,-0.0440093507
1.05,-0.04903937537,-0.04114805163
1.06,-0.05011874922,-0.03825197884
1.07,-0.05104596013,-0.03532914825
1.08,-0.05181998461,-0.03238766633
1.09,-0.05244027183,-0.02943570087
1.1,-0.05290674628,-0.02648145163
1.11,-0.05321980876,-0.02353312096
1.12,-0.05338033554,-0.02059888446
1.13,-0.0533896758,-0.01768686193
1.14,-0.05324964723,-0.01480508842
1.15,-0.05296253,-0.01196148582
1.16,-0.05253105891,-0.009163834808
1.17,-0.05195841399,-0.0064197475
1.18,-0.05124820933,-0.00373664065
1.19,-0.05040448042,-0.001121709711
1.2,-0.04943166988,0.001418096269
1.21,-0.04833461178,0.003876098793
1.22,-0.04711851443,0.006245913013
1.23,-0.04578894193,0.008521469703
1.24,-0.04435179436,0.01069703603
1.25,-0.04281328676,0.01276723502
1.26,-0.04117992705,0.01472706376
1.27,-0.03945849287,0.01657191004
1.28,-0.03765600748,0.01829756766
1.29,-0.03577971476,0.01990025016
1.3,-0.03383705357,0.02137660297
1.31,-0.03183563132,0.02272371394
1.32,-0.02978319708,0.02393912227
1.33,-0.02768761419,0.02502082573
1.34,-0.02555683253,0.02596728617
1.35,-0.02339886055,0.02677743338
1.36,-0.02122173718,0.02745066716
1.37,-0.0190335037,0.02798685772
1.38,-0.01684217564,0.02838634436
1.39,-0.01465571498,0.02864993243
1.4,-0.01248200249,0.02877888864
1.41,-0.01032881058,0.02877493466
1.42,-0.008203776539,0.02864023916
1.43,-0.006114376455,0.02837740819
1.44,-0.004067899731,0.02798947412
1.45,-0.002071424417,0.02747988295
1.46,-0.0001317933908,0.02685248027
1.47,0.001744408522,0.02611149584
1.48,0.003550876402,0.0252615268
1.49,0.005281605999,0.02430751966
1.5,0.006930913319,0.02325475113
1.51,0.008493452982,0.0221088078
1.52,0.009964235292,0.02087556487
1.53,0.01133864195,0.01956116389
1.54,0.01261244036,0.01817198969
1.55,0.01378179654,0.01671464649
1.56,0.01484328649,0.01519593343
1.57,0.01579390607,0.01362281944
1.58,0.01663107936,0.01200241766
1.59,0.01735266546,0.01034195949
1.6,0.01795696365,0.008648768336
1.61,0.01844271707,0.006930233111
1.62,0.01880911472,0.005193781712
1.63,0.0190557919,0.003446854436
1.64,0.01918282914,0.0016968775
1.65,0.01919074941,-4.876326063E-05
1.66,0.019080514,-0.001782748419
1.67,0.01885351663,-0.003497850628
1.68,0.01851157629,-0.005186959836
1.69,0.01805692849,-0.006843107973
1.7,0.0174922151,-0.00845949301
1.71,0.01682047285,-0.01002950233
1.72,0.01604512052,-0.0115467353
1.73,0.01516994475,-0.01300502503
1.74,0.01419908473,-0.01439845918
1.75,0.01313701569,-0.01572139977
1.76,0.01198853128,-0.01696850199
1.77,0.01075872493,-0.01813473181
1.78,0.009452970208,-0.01921538254
1.79,0.008076900379,-0.02020609003
1.8,0.006636387029,-0.02110284675
1.81,0.005137518028,-0.02190201443
1.82,0.003586574802,-0.02260033547
1.83,0.001990009025,-0.02319494289
1.84,0.000354418821,-0.0236833689
1.85,-0.001313475461,-0.02406355203
1.86,-0.003006855791,-0.02433384285
1.87,-0.004718831252,-0.02449300817
1.88,-0.006442462998,-0.02454023378
1.89,-0.00817078927,-0.02447512577
1.9,-0.009896850418,-0.02429771027
1.91,-0.01161371381,-0.02400843184
1.92,-0.01331449855,-0.02360815028
1.93,-0.01499239995,-0.02309813607
1.94,-0.01664071365,-0.0224800644
1.95,-0.01825285925,-0.02175600771
1.96,-0.01982240349,-0.02092842696
1.97,-0.02134308284,-0.0200001615
1.98,-0.02280882533,-0.01897441767
1.99,-0.02421377175,-0.0178547561
2,-0.02555229599,-0.01664507791
2.01,-0.02681902443,-0.0153496096
2.02,-0.0280088545,-0.01397288695
2.03,-0.02911697211,-0.01251973787
2.04,-0.03013886814,-0.01099526418
2.05,-0.03107035362,-0.009404822595
2.06,-0.03190757394,-0.007754004762
2.07,-0.03264702168,-0.006048616581
2.08,-0.03328554823,-0.004294656803
2.09,-0.0338203741,-0.002498295004
2.1,-0.0342490979,-0.0006658490218
2.11,-0.03456970392,0.001196238081
2.12,-0.03478056835,0.00308142143
2.13,-0.03488046407,0.00498307805
2.14,-0.034868564,0.006894530788
2.15,-0.03474444303,0.008809072372
2.16,-0.03450807852,0.0107199895
2.17,-0.03415984933,0.01262058687
2.18,-0.03370053345,0.01450421115
2.19,-0.03313130416,0.0163642746
2.2,-0.03245372485,0.01819427853
2.21,-0.03166974241,0.01998783629
2.22,-0.03078167926,0.02173869582
2.23,-0.02979222411,0.02344076161
2.24,-0.02870442134,0.02508811614
2.25,-0.02752165924,0.02667504049
2.26,-0.02624765698,0.02819603424
2.27,-0.0248864504,0.02964583454
2.28,-0.02344237683,0.03101943423
2.29,-0.02192005874,0.03231209898
2.3,-0.02032438647,0.03351938345
2.31,-0.01866050006,0.03463714627
2.32,-0.01693377025,0.03566156398
2.33,-0.01514977862,0.03658914368
2.34,-0.0133142972,0.03741673452
2.35,-0.01143326728,0.03814153787
2.36,-0.009512777833,0.03876111622
2.37,-0.007559043396,0.03927340075
2.38,-0.005578381599,0.03967669749
2.39,-0.003577190407,0.03996969217
2.4,-0.001561925159,0.04015145366
2.41,0.0004609245244,0.04022143603
2.42,0.002484857862,0.04017947915
2.43,0.004503385991,0.04002580802
2.44,0.006510054909,0.03976103061
2.45,0.008498468202,0.03938613435
2.46,0.01046230948,0.03890248132
2.47,0.0123953644,0.03831180207
2.48,0.01429154233,0.03761618812
2.49,0.01614489732,0.03681808325
2.5,0.01794964861,0.03592027352
2.51,0.0197002004,0.0349258761
2.52,0.02139116085,0.03383832702
2.53,0.0230173603,0.03266136771
2.54,0.02457386862,0.03139903065
2.55,0.02605601157,0.03005562392
2.56,0.02745938623,0.0286357149
2.57,0.02877987536,0.02714411305
2.58,0.03001366066,0.02558585203
2.59,0.03115723497,0.02396617093
2.6,0.03220741317,0.02229049497
2.61,0.033161342,0.0205644156
2.62,0.03401650862,0.0187936701
2.63,0.03477074786,0.0169841207
2.64,0.03542224824,0.01514173346
2.65,0.03596955673,0.01327255677
2.66,0.03641158211,0.01138269974
2.67,0.03674759714,0.009478310456
2.68,0.03697723936,0.007565554155
2.69,0.03710051057,0.005650591527
2.7,0.03711777507,0.003739557073
2.71,0.03702975659,0.001838537692
2.72,0.03683753395,-4.644846689E-05
2.73,0.0365425355,-0.001909472802
2.74,0.03614653232,-0.003744716635
2.75,0.03565163027,-0.005546491103
2.76,0.03506026086,-0.00730925648
2.77,0.03437517101,-0.009027640888
2.78,0.03359941178,-0.01069645831
2.79,0.032736326,-0.01231072586
2.8,0.031789535,-0.01386568023
2.81,0.0307629244,-0.01535679334
2.82,0.02966062898,-0.01677978696
2.83,0.02848701681,-0.01813064649
2.84,0.0272466726,-0.01940563371
2.85,0.02594438032,-0.02060129838
2.86,0.02458510528,-0.02171448896
2.87,0.02317397561,-0.02274236203
2.88,0.02171626321,-0.02368239066
2.89,0.02021736437,-0.02453237163
2.9,0.01868277998,-0.0252904314
2.91,0.01711809545,-0.02595503097
2.92,0.01552896049,-0.02652496939
2.93,0.0139210687,-0.02699938623
2.94,0.01230013713,-0.02737776266
2.95,0.01067188582,-0.02765992142
2.96,0.009042017506,-0.02784602552
2.97,0.007416197356,-0.02793657574
2.98,0.005800033061,-0.02793240696
2.99,0.004199055149,-0.02783468328
3,0.002618697686,-0.02764489202
3.01,0.001064279421,-0.02736483658
3.02,-0.0004590145845,-0.02699662818
3.03,-0.001946150748,-0.0265426766
3.04,-0.003392264147,-0.0260056798
3.05,-0.004792675004,-0.02538861264
3.06,-0.006142904439,-0.02469471463
3.07,-0.007438689426,-0.02392747675
3.08,-0.008675996903,-0.02309062749
3.09,-0.009851036992,-0.02218811805
3.1,-0.01096027528,-0.02122410684
3.11,-0.01200044414,-0.02020294327
3.12,-0.012968553,-0.01912915097
3.13,-0.01386189761,-0.01800741042
3.14,-0.01467806819,-0.01684254109
3.15,-0.01541495653,-0.01563948321
3.16,-0.01607076188,-0.01440327913
3.17,-0.01664399582,-0.01313905444
3.18,-0.01713348585,-0.01185199883
3.19,-0.0175383779,-0.01054734685
3.2,-0.01785813765,-0.00923035856
3.21,-0.01809255065,-0.007906300215
3.22,-0.01824172137,-0.006580424987
3.23,-0.01830607094,-0.005257953827
3.24,-0.01828633391,-0.003944056553
3.25,-0.01818355377,-0.002643833193
3.26,-0.01799907742,-0.001362295683
3.27,-0.01773454853,-0.0001043499663
3.28,-0.01739189986,0.001125221431
3.29,-0.01697334455,0.002321776293
3.3,-0.01648136647,0.003480829014
3.31,-0.01591870955,0.00459806624
3.32,-0.01528836627,0.005669361818
3.33,-0.01459356525,0.006690790971
3.34,-0.01383775811,0.00765864368
3.35,-0.01302460546,0.008569437201
3.36,-0.01215796232,0.009419927701
3.37,-0.01124186278,0.01020712095
3.38,-0.01028050418,0.01092828203
3.39,-0.009278230689,0.0115809441
3.4,-0.008239516484,0.01216291605
3.41,-0.007168948501,0.01267228916
3.42,-0.006071208872,0.0131074427
3.43,-0.0049510571,0.01346704837
3.44,-0.003813312036,0.01375007375
3.45,-0.002662833733,0.01395578453
3.46,-0.001504505241,0.01408374572
3.47,-0.0003432144108,0.01413382173
3.48,0.0008161642318,0.01410617531
3.49,0.00196878746,0.01400126547
3.5,0.003109861119,0.01381984426
3.51,0.004234657625,0.0135629525
3.52,0.005338533124,0.01323191455
3.53,0.006416944265,0.01282833193
3.54,0.007465464501,0.01235407607
3.55,0.008479799891,0.01181128004
3.56,0.009455804321,0.01120232943
3.57,0.01038949411,0.01052985227
3.58,0.01127706194,0.009796708189
3.59,0.01211489007,0.009005976731
3.6,0.01289956277,0.008160944956
3.61,0.013627878,0.007265094337
3.62,0.01429685815,0.006322087018
3.63,0.01490376002,0.005335751483
3.64,0.0154460838,0.004310067693
3.65,0.01592158113,0.003249151749
3.66,0.01632826227,0.002157240143
3.67,0.01666440215,0.001038673644
3.68,0.01692854559,-0.0001021190987
3.69,0.01711951137,-0.001260638194
3.7,0.01723639535,-0.002432329314
3.71,0.01727857256,-0.003612600612
3.72,0.01724569821,-0.004796839686
3.73,0.0171377078,-0.005980430521
3.74,0.01695481605,-0.007158770366
3.75,0.01669751495,-0.008327286468
3.76,0.01636657075,-0.009481452606
3.77,0.01596302,-0.01061680537
3.78,0.01548816459,-0.01172896015
3.79,0.01494356592,-0.01281362669
3.8,0.01433103812,-0.01386662433
3.81,0.01365264037,-0.01488389663
3.82,0.01291066841,-0.01586152561
3.83,0.01210764527,-0.01679574533
3.84,0.01124631111,-0.01768295484
3.85,0.01032961248,-0.01851973055
3.86,0.009360690765,-0.0193028378
3.87,0.008342870071,-0.02002924175
3.88,0.007279644453,-0.02069611749
3.89,0.006174664641,-0.02130085929
3.9,0.00503172425,-0.02184108909
3.91,0.003854745544,-0.02231466407
3.92,0.002647764817,-0.02271968334
3.93,0.001414917439,-0.02305449373
3.94,0.0001604226116,-0.02331769472
3.95,-0.001111432089,-0.02350814229
3.96,-0.002396306342,-0.02362495199
3.97,-0.003689822818,-0.02366750096
3.98,-0.004987582974,-0.02363542901
3.99,-0.006285182839,-0.02352863881
4,-0.007578228735,-0.02334729504
4.01,-0.008862352893,-0.0230918227
4.02,-0.01013322888,-0.02276290438
4.03,-0.01138658681,-0.02236147677
4.04,-0.01261822827,-0.0218887261
4.05,-0.0138240409,-0.02134608284
4.06,-0.01500001263,-0.02073521551
4.07,-0.0161422454,-0.02005802361
4.08,-0.01724696851,-0.01931662984
4.09,-0.01831055132,-0.01851337151
4.1,-0.0193295155,-0.01765079123
4.11,-0.02030054654,-0.01673162692
4.12,-0.02122050474,-0.01575880114
4.13,-0.02208643542,-0.01473540986
4.14,-0.02289557842,-0.01366471062
4.15,-0.02364537688,-0.01255011021
4.16,-0.02433348523,-0.01139515182
4.17,-0.02495777633,-0.01020350187
4.18,-0.02551634786,-0.008978936324
4.19,-0.02600752778,-0.007725326854
4.2,-0.02642987901,-0.006446626581
4.21,-0.02678220313,-0.0051468557
4.22,-0.02706354331,-0.003830086905
4.23,-0.02727318628,-0.002500430725
4.24,-0.02741066339,-0.001162020793
4.25,-0.02747575086,0.0001810008681
4.26,-0.02746846905,0.00152449851
4.27,-0.02738908089,0.00286435721
4.28,-0.02723808948,0.004196497258
4.29,-0.02701623472,0.005516888329
4.3,-0.02672448924,0.006821563384
4.31,-0.02636405338,0.008106632258
4.32,-0.02593634948,0.009368294878
4.33,-0.02544301534,0.01060285407
4.34,-0.02488589692,0.01180672792
4.35,-0.02426704039,0.01297646159
4.36,-0.02358868348,0.01410873866
4.37,-0.02285324613,0.01520039183
4.38,-0.02206332064,0.01624841303
4.39,-0.02122166119,0.01724996286
4.4,-0.02033117284,0.01820237942
4.41,-0.01939490008,0.01910318627
4.42,-0.01841601496,0.01995009985
4.43,-0.0173978048,0.02074103599
4.44,-0.0163436596,0.02147411571
4.45,-0.01525705913,0.02214767019
4.46,-0.01414155986,0.02276024498
4.47,-0.0130007816,0.02331060333
4.48,-0.01183839408,0.02379772875
4.49,-0.01065810345,0.02422082669
4.5,-0.009463638739,0.0245793254
4.51,-0.008258738299,0.02487287601
4.52,-0.007047136381,0.02510135172
4.53,-0.005832549801,0.02526484623
4.54,-0.00461866478,0.02536367129
4.55,-0.003409124014,0.0253983536
4.56,-0.002207514003,0.02536963078
4.57,-0.001017352697,0.02527844669
4.58,0.0001579224967,0.02512594602
4.59,0.001314966316,0.02491346817
4.6,0.002450536796,0.02464254038
4.61,0.003561505944,0.02431487038
4.62,0.0046448699,0.02393233829
4.63,0.005697758545,0.02349698801
4.64,0.006717444528,0.02301101807
4.65,0.007701351677,0.02247677196
4.66,0.008647062774,0.02189672807
4.67,0.009552326666,0.02127348911
4.68,0.01041506469,0.02060977123
4.69,0.01123337639,0.01990839283
4.7,0.01200554451,0.01917226304
4.71,0.0127300393,0.01840436997
4.72,0.01340552199,0.01760776877
4.73,0.01403084757,0.01678556959
4.74,0.01460506683,0.01594092541
4.75,0.01512742761,0.01507701979
4.76,0.0155973753,0.01419705467
4.77,0.01601455258,0.01330423819
4.78,0.01637879844,0.01240177259
4.79,0.01669014645,0.01149284229
4.8,0.01694882232,0.01058060206
4.81,0.0171552407,0.009668165538
4.82,0.0173100014,0.008758593863
4.83,0.01741388478,0.007854884748
4.84,0.01746784669,0.00695996182
4.85,0.01747301259,0.006076664359
4.86,0.01743067122,0.005207737467
4.87,0.01734226762,0.004355822673
4.88,0.01720939568,0.003523449034
4.89,0.0170337901,0.002713024744
4.9,0.01681731797,0.001926829288
4.91,0.01656196986,0.001167006165
4.92,0.01626985055,0.0004355562008
4.93,0.01594316935,-0.0002656685257
4.94,0.01558423019,-0.0009349701231
4.95,0.01519542131,-0.001570809682
4.96,0.01477920485,-0.002171811409
4.97,0.01433810613,-0.002736766086
4.98,0.01387470286,-0.00326463385
4.99,0.0133916142,-0.003754546291
5,0.01289148971,-0.004205807848
5.01,0.01237699842,-0.00461789653
5.02,0.01185081774,-0.004990463937
5.03,0.01131562256,-0.005323334605
5.04,0.0107740744,-0.005616504669
5.05,0.01022881069,-0.005870139861
5.06,0.009682434292,-0.006084572856
5.07,0.00913750318,-0.006260299977
5.08,0.008596520425,-0.00639797727
5.09,0.008061924461,-0.006498415988
5.1,0.007536079692,-0.006562577478
5.11,0.007021267466,-0.00659156752
5.12,0.006519677452,-0.006586630125
5.13,0.006033399451,-0.006549140832
5.14,0.005564415668,-0.006480599522
5.15,0.005114593479,-0.006382622791
5.16,0.004685678707,-0.006256935904
5.17,0.004279289442,-0.006105364373
5.18,0.00389691042,-0.005929825187
5.19,0.003539887981,-0.005732317736
5.2,0.003209425621,-0.005514914461
5.21,0.002906580159,-0.005279751269
5.22,0.002632258522,-0.005029017762
5.23,0.002387215159,-0.004764947301
5.24,0.002172050103,-0.004489806965
5.25,0.001987207667,-0.004205887424
5.26,0.001832975785,-0.003915492792
5.27,0.001709486003,-0.003620930477
5.28,0.001616714109,-0.003324501075
5.29,0.001554481392,-0.003028488363
5.3,0.001522456539,-0.002735149407
5.31,0.001520158144,-0.002446704835
5.32,0.001546957819,-0.00216532932
5.33,0.001602083895,-0.001893142296
5.34,0.001684625705,-0.001632198952
5.35,0.0017935384,-0.001384481535
5.36,0.001927648314,-0.001151890999
5.37,0.002085658825,-0.0009362390278
5.38,0.002266156701,-0.0007392404642
5.39,0.002467618901,-0.000562506174
5.4,0.002688419797,-0.0004075363716
5.41,0.002926838793,-0.0002757144313
5.42,0.00318106831,-0.0001683012084
5.43,0.003449222088,-8.642989041E-05
5.44,0.003729343798,-3.110139618E-05
5.45,0.004019415895,-3.180340864E-06
5.46,0.004317368709,-3.391579562E-06
5.47,0.00462108971,-3.231734194E-05
5.48,0.004928432923,-9.039496711E-05
5.49,0.005237228452,-0.0001779152456
5.5,0.005545292074,-0.0002950213731
5.51,0.005850434861,-0.000441708518
5.52,0.006150472795,-0.000617824002
5.53,0.006443236342,-0.0008230680915
5.54,0.006726579932,-0.001056995395
5.55,0.006998391324,-0.001319016855
5.56,0.007256600809,-0.001608402335
5.57,0.007499190212,-0.001924283773
5.58,0.007724201674,-0.0022656589
5.59,0.007929746155,-0.002631395506
5.6,0.008114011645,-0.003020236228
5.61,0.008275271044,-0.003430803841
5.62,0.008411889676,-0.003861607036
5.63,0.008522332418,-0.004311046652
5.64,0.008605170404,-0.004777422341
5.65,0.00865908729,-0.005258939637
5.66,0.008682885053,-0.005753717396
5.67,0.008675489297,-0.006259795584
5.68,0.008635954048,-0.006775143372
5.69,0.008563466034,-0.007297667514
5.7,0.008457348406,-0.007825220964
5.71,0.008317063918,-0.008355611709
5.72,0.00814221753,-0.008886611771
5.73,0.007932558444,-0.00941596635
5.74,0.00768798155,-0.009941403063
5.75,0.007408528291,-0.01046064126
5.76,0.007094386936,-0.01097140134
5.77,0.006745892268,-0.01147141411
5.78,0.006363524682,-0.01195843003
5.79,0.00594790871,-0.01243022843
5.8,0.00549981096,-0.0128846266
5.81,0.005020137506,-0.01331948869
5.82,0.004509930712,-0.01373273446
5.83,0.003970365527,-0.0141223478
5.84,0.003402745245,-0.01448638499
5.85,0.002808496775,-0.01482298266
5.86,0.002189165407,-0.01513036549
5.87,0.001546409127,-0.01540685344
5.88,0.0008819924818,-0.01565086878
5.89,0.0001977800292,-0.01586094258
5.9,-0.0005042706035,-0.0160357208
5.91,-0.001222116025,-0.01617397
5.92,-0.001953634719,-0.0162745825
5.93,-0.002696634989,-0.01633658112
5.94,-0.00344886318,-0.01635912335
5.95,-0.004208012131,-0.01634150504
5.96,-0.004971729848,-0.01628316354
5.97,-0.005737628348,-0.01618368033
5.98,-0.006503292635,-0.01604278301
5.99,-0.007266289796,-0.01586034685
6,-0.008024178158,-0.01563639565
