"Freq [GHz]","re(S(Tx_p1,Tx_p1)) []","im(S(Tx_p1,Tx_p1)) []"
1,0.0007019177363,-0.06093511832
1.01,-0.001166516434,-0.05993715673
1.02,-0.002976258842,-0.05888219217
1.03,-0.004724767214,-0.05777290729
1.04,-0.006409653833,-0.05661214805
1.05,-0.00802869475,-0.05540291213
1.06,-0.009579838238,-0.05414833711
1.07,-0.01106121246,-0.05285168815
1.08,-0.01247113235,-0.05151634562
1.09,-0.01380810572,-0.05014579232
1.1,-0.01507083853,-0.04874360065
1.11,-0.01625823945,-0.04731341952
1.12,-0.01736942348,-0.04585896123
1.13,-0.01840371495,-0.04438398829
1.14,-0.01936064955,-0.04289230009
1.15,-0.02023997572,-0.04138771973
1.16,-0.02104165517,-0.03987408082
1.17,-0.02176586265,-0.0383552144
1.18,-0.02241298499,-0.03683493593
1.19,-0.02298361934,-0.03531703255
1.2,-0.02347857068,-0.03380525048
1.21,-0.02389884871,-0.03230328263
1.22,-0.0242456639,-0.03081475659
1.23,-0.02452042295,-0.02934322286
1.24,-0.02472472356,-0.02789214341
1.25,-0.02486034863,-0.02646488073
1.26,-0.02492925973,-0.02506468716
1.27,-0.02493359012,-0.02369469475
1.28,-0.02487563712,-0.02235790556
1.29,-0.02475785403,-0.02105718249
1.3,-0.02458284149,-0.01979524058
1.31,-0.02435333845,-0.0185746389
1.32,-0.02407221265,-0.01739777303
1.33,-0.02374245074,-0.01626686805
1.34,-0.02336714806,-0.01518397223
1.35,-0.02294949805,-0.01415095131
1.36,-0.02249278141,-0.01316948337
1.37,-0.022000355,-0.01224105448
1.38,-0.02147564058,-0.01136695484
1.39,-0.02092211324,-0.01054827575
1.4,-0.0203432899,-0.009785907194
1.41,-0.01974271752,-0.009080536043
1.42,-0.0191239614,-0.008432645062
1.43,-0.01849059337,-0.007842512509
1.44,-0.01784618007,-0.007310212459
1.45,-0.01719427123,-0.006835615788
1.46,-0.0165383881,-0.006418391831
1.47,-0.01588201196,-0.006058010709
1.48,-0.0152285729,-0.005753746297
1.49,-0.01458143868,-0.005504679846
1.5,-0.01394390392,-0.005309704213
1.51,-0.01331917957,-0.005167528716
1.52,-0.01271038266,-0.005076684574
1.53,-0.01212052639,-0.005035530914
1.54,-0.01155251062,-0.005042261339
1.55,-0.01100911279,-0.005094911012
1.56,-0.0104929792,-0.005191364246
1.57,-0.0100066168,-0.005329362579
1.58,-0.009552385485,-0.005506513277
1.59,-0.009132490871,-0.005720298278
1.6,-0.008748977597,-0.005968083514
1.61,-0.008403723208,-0.006247128587
1.62,-0.008098432598,-0.00655459678
1.63,-0.00783463304,-0.006887565355
1.64,-0.007613669827,-0.007243036107
1.65,-0.007436702529,-0.007617946142
1.66,-0.00730470188,-0.008009178843
1.67,-0.007218447298,-0.008413574981
1.68,-0.007178525059,-0.00882794395
1.69,-0.007185327118,-0.009249075066
1.7,-0.007239050579,-0.009673748915
1.71,-0.007339697824,-0.0100987487
1.72,-0.007487077295,-0.01052087154
1.73,-0.007680804924,-0.01093693974
1.74,-0.007920306205,-0.01134381188
1.75,-0.008204818909,-0.01173839382
1.76,-0.008533396417,-0.01211764952
1.77,-0.008904911678,-0.01247861156
1.78,-0.009318061762,-0.01281839156
1.79,-0.009771373002,-0.01313419013
1.8,-0.0102632067,-0.01342330668
1.81,-0.01079176541,-0.01368314872
1.82,-0.01135509969,-0.0139112409
1.83,-0.01195111541,-0.01410523356
1.84,-0.01257758156,-0.01426291088
1.85,-0.01323213843,-0.01438219853
1.86,-0.0139123063,-0.01446117086
1.87,-0.01461549449,-0.01449805757
1.88,-0.0153390108,-0.01449124978
1.89,-0.01608007122,-0.01443930564
1.9,-0.01683581007,-0.01434095526
1.91,-0.01760329027,-0.01419510514
1.92,-0.01837951395,-0.0140008419
1.93,-0.0191614332,-0.01375743545
1.94,-0.01994596101,-0.0134643415
1.95,-0.02072998233,-0.01312120344
1.96,-0.02151036521,-0.01272785352
1.97,-0.02228397202,-0.01228431349
1.98,-0.02304767062,-0.01179079444
1.99,-0.02379834558,-0.01124769609
2,-0.02453290931,-0.01065560539
2.01,-0.02524831304,-0.01001529447
2.02,-0.02594155774,-0.009327717929
2.03,-0.02660970479,-0.008594009543
2.04,-0.02724988651,-0.007815478285
2.05,-0.02785931637,-0.006993603774
2.06,-0.02843529895,-0.006130031126
2.07,-0.02897523959,-0.005226565211
2.08,-0.02947665365,-0.004285164368
2.09,-0.02993717541,-0.003307933569
2.1,-0.03035456658,-0.002297117083
2.11,-0.03072672428,-0.001255090634
2.12,-0.0310516886,-0.0001843531127
2.13,-0.03132764969,0.0009124821587
2.14,-0.03155295426,0.002032696557
2.15,-0.03172611152,0.003173475665
2.16,-0.03184579864,0.004331919121
2.17,-0.03191086551,0.005505050766
2.18,-0.03192033893,0.006689829069
2.19,-0.03187342623,0.007883157781
2.2,-0.03176951811,0.00908189679
2.21,-0.03160819103,0.01028287313
2.22,-0.03138920874,0.01148289211
2.23,-0.03111252324,0.01267874853
2.24,-0.03077827512,0.01386723792
2.25,-0.03038679311,0.01504516781
2.26,-0.02993859302,0.01620936893
2.27,-0.02943437605,0.01735670633
2.28,-0.02887502635,0.01848409042
2.29,-0.02826160795,0.0195884878
2.3,-0.02759536111,0.02066693193
2.31,-0.02687769795,0.02171653352
2.32,-0.0261101975,0.02273449068
2.33,-0.02529460014,0.02371809878
2.34,-0.02443280143,0.02466475986
2.35,-0.02352684547,0.02557199181
2.36,-0.02257891758,0.02643743697
2.37,-0.02159133659,0.02725887039
2.38,-0.02056654659,0.02803420758
2.39,-0.0195071082,0.02876151174
2.4,-0.01841568948,0.02943900046
2.41,-0.01729505638,0.03006505187
2.42,-0.01614806289,0.03063821017
2.43,-0.01497764082,0.03115719056
2.44,-0.01378678932,0.03162088363
2.45,-0.01257856415,0.03202835894
2.46,-0.01135606675,0.0323788681
2.47,-0.01012243309,0.03267184709
2.48,-0.008880822485,0.03290691793
2.49,-0.00763440625,0.03308388965
2.5,-0.006386356338,0.03320275859
2.51,-0.005139833978,0.03326370795
2.52,-0.003897978357,0.03326710673
2.53,-0.002663895379,0.03321350791
2.54,-0.001440646553,0.03310364597
2.55,-0.0002312380572,0.03293843372
2.56,0.0009613899954,0.0327189585
2.57,0.002134374037,0.03244647766
2.58,0.003284937232,0.03212241347
2.59,0.004410399334,0.03174834736
2.6,0.005508186177,0.03132601359
2.61,0.006575838756,0.03085729236
2.62,0.007611021875,0.03034420231
2.63,0.008611532309,0.02978889255
2.64,0.009575306472,0.02919363417
2.65,0.01050042754,0.02856081132
2.66,0.01138513202,0.02789291184
2.67,0.01222781569,0.02719251746
2.68,0.013027039,0.02646229372
2.69,0.01378153176,0.02570497955
2.7,0.01449019719,0.02492337651
2.71,0.01515211535,0.02412033788
2.72,0.0157665458,0.02329875749
2.73,0.01633292962,0.02246155846
2.74,0.0168508907,0.02161168176
2.75,0.01732023633,0.02075207478
2.76,0.01774095704,0.01988567983
2.77,0.01811322578,0.01901542268
2.78,0.01843739629,0.01814420117
2.79,0.01871400087,0.01727487395
2.8,0.01894374736,0.01641024938
2.81,0.01912751547,0.01555307459
2.82,0.01926635241,0.01470602485
2.83,0.01936146785,0.01387169319
2.84,0.01941422829,0.01305258039
2.85,0.01942615072,0.01225108526
2.86,0.01939889574,0.01146949545
2.87,0.01933426008,0.01070997861
2.88,0.0192341686,0.009974574073
2.89,0.01910066574,0.009265185084
2.9,0.01893590652,0.008583571513
2.91,0.01874214706,0.007931343215
2.92,0.01852173473,0.007309953958
2.93,0.0182770979,0.006720696004
2.94,0.01801073537,0.006164695343
2.95,0.0177252055,0.005642907603
2.96,0.01742311515,0.005156114656
2.97,0.01710710828,0.004704921941
2.98,0.01677985459,0.004289756501
2.99,0.01644403787,0.003910865761
3,0.01610234441,0.00356831704
3.01,0.01575745132,0.003261997811
3.02,0.0154120149,0.002991616698
3.03,0.01506865912,0.002756705223
3.04,0.01472996418,0.002556620278
3.05,0.01439845526,0.002390547337
3.06,0.0140765915,0.002257504374
3.07,0.01376675521,0.002156346486
3.08,0.01347124142,0.002085771208
3.09,0.01319224777,0.002044324476
3.1,0.0129318648,0.002030407254
3.11,0.01269206664,0.002042282759
3.12,0.01247470221,0.002078084282
3.13,0.01228148695,0.002135823573
3.14,0.01211399501,0.002213399739
3.15,0.01197365212,0.002308608642
3.16,0.01186172901,0.002419152746
3.17,0.01177933545,0.002542651376
3.18,0.01172741506,0.002676651356
3.19,0.01170674064,0.00281863797
3.2,0.01171791039,0.002966046214
3.21,0.01176134471,0.003116272282
3.22,0.01183728384,0.003266685256
3.23,0.01194578618,0.003414638932
3.24,0.01208672746,0.003557483751
3.25,0.01225980055,0.003692578772
3.26,0.01246451619,0.003817303655
3.27,0.01270020438,0.003929070586
3.28,0.01296601658,0.004025336103
3.29,0.01326092867,0.004103612782
3.3,0.01358374465,0.004161480717
3.31,0.0139331011,0.004196598765
3.32,0.01430747233,0.004206715486
3.33,0.01470517625,0.004189679761
3.34,0.01512438091,0.004143451015
3.35,0.01556311173,0.004066109021
3.36,0.01601925931,0.003955863232
3.37,0.01649058785,0.003811061606
3.38,0.01697474417,0.003630198888
3.39,0.01746926723,0.003411924308
3.4,0.01797159812,0.003155048661
3.41,0.01847909054,0.002858550745
3.42,0.01898902169,0.00252158312
3.43,0.01949860349,0.002143477169
3.44,0.02000499417,0.001723747431
3.45,0.02050531009,0.001262095194
3.46,0.02099663782,0.0007584113184
3.47,0.02147604637,0.0002127782955
3.48,0.02194059959,-0.0003745284911
3.49,0.02238736857,-0.001003040293
3.5,0.0228134442,-0.001672095326
3.51,0.02321594952,-0.002380839897
3.52,0.02359205219,-0.003128230333
3.53,0.02393897667,-0.0039130357
3.54,0.02425401635,-0.004733841309
3.55,0.02453454532,-0.005589052986
3.56,0.02477803,-0.006476902115
3.57,0.02498204036,-0.007395451403
3.58,0.02514426077,-0.008342601374
3.59,0.02526250047,-0.00931609755
3.6,0.02533470352,-0.0103135383
3.61,0.02535895832,-0.01133238333
3.62,0.02533350652,-0.01236996275
3.63,0.02525675137,-0.01342348677
3.64,0.02512726543,-0.01449005583
3.65,0.02494379769,-0.0155666713
3.66,0.02470527993,-0.01665024662
3.67,0.02441083239,-0.01773761878
3.68,0.02405976873,-0.01882556024
3.69,0.02365160022,-0.01991079107
3.7,0.0231860391,-0.02098999145
3.71,0.02266300123,-0.02205981429
3.72,0.02208260787,-0.02311689806
3.73,0.02144518664,-0.02415787974
3.74,0.02075127173,-0.02517940773
3.75,0.02000160318,-0.0261781549
3.76,0.01919712543,-0.02715083148
3.77,0.01833898495,-0.02809419791
3.78,0.01742852719,-0.02900507748
3.79,0.01646729256,-0.02988036878
3.8,0.01545701177,-0.03071705797
3.81,0.01439960034,-0.03151223056
3.82,0.01329715232,-0.03226308305
3.83,0.01215193333,-0.03296693395
3.84,0.01096637293,-0.03362123455
3.85,0.009743056233,-0.03422357899
3.86,0.008484714966,-0.03477171397
3.87,0.00719421787,-0.03526354778
3.88,0.005874560566,-0.03569715871
3.89,0.004528854892,-0.03607080286
3.9,0.003160317753,-0.03638292123
3.91,0.001772259542,-0.03663214608
3.92,0.0003680721611,-0.03681730658
3.93,-0.001048783287,-0.0369374337
3.94,-0.002474789111,-0.03699176426
3.95,-0.003906383879,-0.03697974422
3.96,-0.005339975457,-0.03690103112
3.97,-0.006771954183,-0.03675549575
3.98,-0.008198706128,-0.03654322288
3.99,-0.009616626383,-0.03626451124
4,-0.01102213232,-0.03591987263
4.01,-0.01241167678,-0.03551003015
4.02,-0.01378176112,-0.03503591564
4.03,-0.01512894809,-0.0344986663
4.04,-0.01644987444,-0.03389962046
4.05,-0.01774126328,-0.03324031261
4.06,-0.01899993608,-0.03252246757
4.07,-0.02022282424,-0.03174799403
4.08,-0.02140698029,-0.03091897724
4.09,-0.02254958861,-0.03003767111
4.1,-0.0236479755,-0.02910648957
4.11,-0.02469961887,-0.02812799733
4.12,-0.02570215716,-0.02710490008
4.13,-0.02665339769,-0.02604003407
4.14,-0.02755132437,-0.02493635527
4.15,-0.02839410456,-0.02379692796
4.16,-0.02918009538,-0.02262491302
4.17,-0.02990784907,-0.02142355574
4.18,-0.03057611771,-0.02019617342
4.19,-0.03118385706,-0.0189461426
4.2,-0.03173022956,-0.01767688612
4.21,-0.0322146066,-0.01639186007
4.22,-0.03263656979,-0.01509454053
4.23,-0.03299591156,-0.01378841031
4.24,-0.03329263474,-0.01247694574
4.25,-0.03352695144,-0.01116360339
4.26,-0.03369928096,-0.009851807044
4.27,-0.03381024699,-0.008544934719
4.28,-0.03386067388,-0.007246305981
4.29,-0.03385158216,-0.005959169495
4.3,-0.03378418328,-0.004686690905
4.31,-0.03365987356,-0.003431941083
4.32,-0.03348022743,-0.002197884807
4.33,-0.0332469899,-0.0009873698998
4.34,-0.03296206844,0.0001968831224
4.35,-0.03262752416,0.00135229084
4.36,-0.03224556238,0.002476416127
4.37,-0.03181852268,0.003566976718
4.38,-0.03134886838,0.004621853102
4.39,-0.03083917553,0.005639095719
4.4,-0.03029212154,0.006616931421
4.41,-0.02971047337,0.007553769183
4.42,-0.02909707536,0.008448205027
4.43,-0.02845483685,0.00929902615
4.44,-0.02778671949,0.01010521423
4.45,-0.02709572445,0.01086594792
4.46,-0.02638487943,0.01158060446
4.47,-0.02565722568,0.01224876049
4.48,-0.02491580493,0.012870192
4.49,-0.0241636464,0.01344487339
4.5,-0.02340375392,0.01397297577
4.51,-0.02263909317,0.01445486435
4.52,-0.02187257914,0.01489109503
4.53,-0.02110706385,0.0152824102
4.54,-0.02034532438,0.01562973372
4.55,-0.01959005126,0.01593416516
4.56,-0.01884383723,0.01619697326
4.57,-0.01810916657,0.01641958874
4.58,-0.01738840479,0.01660359632
4.59,-0.01668378896,0.01675072622
4.6,-0.01599741861,0.01686284494
4.61,-0.01533124726,0.01694194551
4.62,-0.01468707456,0.01699013724
4.63,-0.01406653921,0.01700963489
4.64,-0.01347111256,0.01700274753
4.65,-0.01290209295,0.01697186688
4.66,-0.01236060086,0.0169194554
4.67,-0.01184757486,0.01684803403
4.68,-0.01136376831,0.01676016974
4.69,-0.01090974702,0.01665846284
4.7,-0.01048588759,0.01654553421
4.71,-0.01009237674,0.01642401243
4.72,-0.009729211422,0.0162965209
4.73,-0.009396199756,0.01616566498
4.74,-0.009092962886,0.01603401925
4.75,-0.008818937623,0.01590411487
4.76,-0.008573379931,0.01577842722
4.77,-0.008355369232,0.01565936368
4.78,-0.008163813496,0.01554925183
4.79,-0.007997455117,0.01545032794
4.8,-0.007854877526,0.01536472592
4.81,-0.007734512542,0.01529446664
4.82,-0.007634648395,0.01524144787
4.83,-0.007553438425,0.01520743469
4.84,-0.007488910381,0.01519405048
4.85,-0.007438976322,0.0152027686
4.86,-0.007401443039,0.0152349047
4.87,-0.007374022978,0.01529160974
4.88,-0.007354345618,0.01537386372
4.89,-0.007339969234,0.01548247019
4.9,-0.007328393023,0.01561805158
4.91,-0.007317069519,0.01578104523
4.92,-0.007303417258,0.0159717004
4.93,-0.007284833629,0.01619007594
4.94,-0.007258707868,0.01643603902
4.95,-0.007222434122,0.01670926448
4.96,-0.007173424545,0.01700923529
4.97,-0.007109122357,0.01733524366
4.98,-0.00702701482,0.01768639315
4.99,-0.00692464606,0.01806160161
5,-0.006799629698,0.01845960487
5.01,-0.006649661223,0.01887896142
5.02,-0.006472530056,0.01931805772
5.03,-0.006266131253,0.01977511451
5.04,-0.006028476798,0.02024819366
5.05,-0.005757706432,0.02073520594
5.06,-0.005452097978,0.02123391943
5.07,-0.005110077102,0.02174196859
5.08,-0.00473022649,0.02225686398
5.09,-0.004311294372,0.0227760026
5.1,-0.00385220238,0.02329667879
5.11,-0.003352052687,0.02381609557
5.12,-0.002810134406,0.02433137658
5.13,-0.002225929208,0.02483957828
5.14,-0.001599116145,0.02533770268
5.15,-0.000929575648,0.02582271022
5.16,-0.0002173926758,0.02629153306
5.17,0.0005371409892,0.02674108848
5.18,0.001333525322,0.02716829247
5.19,0.002171051518,0.02757007341
5.2,0.00304880234,0.02794338579
5.21,0.00396565336,0.0282852239
5.22,0.00492027508,0.02859263543
5.23,0.005911135946,0.02886273501
5.24,0.006936506221,0.02909271745
5.25,0.007994462728,0.02927987081
5.26,0.009082894433,0.02942158918
5.27,0.01019950885,0.029515385
5.28,0.01134183923,0.02955890113
5.29,0.01250725259,0.02954992229
5.3,0.01369295835,0.02948638616
5.31,0.01489601786,0.02936639377
5.32,0.01611335442,0.02918821941
5.33,0.01734176407,0.02895031983
5.34,0.01857792693,0.02865134276
5.35,0.01981841903,0.02829013473
5.36,0.02105972475,0.02786574817
5.37,0.02229824961,0.02737744758
5.38,0.02353033358,0.0268247151
5.39,0.02475226458,0.02620725504
5.4,0.02596029246,0.02552499766
5.41,0.02715064308,0.02477810203
5.42,0.02831953264,0.02396695802
5.43,0.02946318214,0.02309218735
5.44,0.03057783186,0.02215464374
5.45,0.03165975595,0.02115541217
5.46,0.03270527685,0.02009580714
5.47,0.03371077972,0.01897737014
5.48,0.03467272662,0.01780186608
5.49,0.03558767055,0.01657127894
5.5,0.03645226912,0.01528780643
5.51,0.03726329798,0.0139538539
5.52,0.03801766382,0.01257202729
5.53,0.03871241691,0.01114512539
5.54,0.03934476319,0.009676131169
5.55,0.03991207583,0.008168202499
5.56,0.04041190611,0.006624662028
5.57,0.0408419938,0.005048986451
5.58,0.04120027678,0.003444795104
5.59,0.04148489994,0.001815837964
5.6,0.04169422339,0.0001659831035
5.61,0.04182682982,-0.001500796377
5.62,0.04188153109,-0.003180435857
5.63,0.04185737393,-0.004868793117
5.64,0.04175364485,-0.006561662608
5.65,0.04156987402,-0.008254790013
5.66,0.04130583841,-0.009943887053
5.67,0.04096156388,-0.01162464647
5.68,0.04053732641,-0.01329275713
5.69,0.04003365232,-0.01494391921
5.7,0.03945131765,-0.01657385935
5.71,0.03879134652,-0.01817834581
5.72,0.03805500854,-0.01975320344
5.73,0.03724381539,-0.02129432858
5.74,0.03635951638,-0.02279770361
5.75,0.03540409316,-0.02425941129
5.76,0.03437975357,-0.02567564877
5.77,0.03328892456,-0.02704274115
5.78,0.03213424432,-0.02835715462
5.79,0.03091855368,-0.0296155091
5.8,0.02964488656,-0.03081459031
5.81,0.02831645991,-0.03195136126
5.82,0.02693666272,-0.0330229731
5.83,0.02550904461,-0.03402677525
5.84,0.0240373036,-0.03496032484
5.85,0.02252527347,-0.03582139541
5.86,0.02097691053,-0.03660798471
5.87,0.01939627993,-0.0373183218
5.88,0.01778754158,-0.03795087322
5.89,0.0161549357,-0.03850434828
5.9,0.01450276808,-0.0389777035
5.91,0.01283539505,-0.03937014608
5.92,0.01115720836,-0.03968113647
5.93,0.009472619813,-0.03991038999
5.94,0.007786045896,-0.04005787751
5.95,0.006101892404,-0.04012382515
5.96,0.004424539082,-0.04010871311
5.97,0.002758324395,-0.04001327344
5.98,0.001107530453,-0.03983848701
5.99,-0.0005236318353,-0.03958557943
6,-0.002131037323,-0.03925601617
