"Freq [GHz]","re(S(Tx_p1,Tx_p1)) []","im(S(Tx_p1,Tx_p1)) []"
1,-0.01850678807,-0.1072361179
1.01,-0.02216091365,-0.1059648674
1.02,-0.02576255768,-0.1045603091
1.03,-0.02930555711,-0.1030243815
1.04,-0.03278386941,-0.1013593659
1.05,-0.03619159011,-0.09956787469
1.06,-0.03952296969,-0.09765284063
1.07,-0.04277242962,-0.09561750448
1.08,-0.0459345777,-0.09346540228
1.09,-0.04900422244,-0.09120035213
1.1,-0.05197638675,-0.08882644026
1.11,-0.05484632063,-0.08634800671
1.12,-0.05760951312,-0.08376963047
1.13,-0.06026170322,-0.0810961142
1.14,-0.06279889004,-0.07833246862
1.15,-0.06521734192,-0.07548389651
1.16,-0.0675136047,-0.07255577641
1.17,-0.06968450901,-0.06955364615
1.18,-0.07172717665,-0.06648318607
1.19,-0.07363902606,-0.0633502022
1.2,-0.07541777678,-0.06016060923
1.21,-0.07706145301,-0.0569204135
1.22,-0.07856838628,-0.05363569595
1.23,-0.07993721713,-0.05031259506
1.24,-0.08116689591,-0.04695728997
1.25,-0.08225668266,-0.04357598363
1.26,-0.08320614617,-0.04017488612
1.27,-0.08401516202,-0.0367601983
1.28,-0.08468390996,-0.03333809554
1.29,-0.08521287026,-0.0299147119
1.3,-0.08560281943,-0.02649612456
1.31,-0.08585482499,-0.02308833864
1.32,-0.08597023961,-0.01969727246
1.33,-0.08595069445,-0.01632874321
1.34,-0.08579809181,-0.01298845316
1.35,-0.08551459711,-0.009681976308
1.36,-0.08510263023,-0.006414745636
1.37,-0.08456485626,-0.003192040929
1.38,-0.08390417565,-1.897717448E-05
1.39,-0.08312371387,0.003099506392
1.4,-0.08222681056,0.006158656599
1.41,-0.08121700816,0.009153915978
1.42,-0.08009804026,0.01208093172
1.43,-0.07887381944,0.0149355639
1.44,-0.07754842487,0.01771389307
1.45,-0.07612608955,0.02041222696
1.46,-0.07461118732,0.02302710663
1.47,-0.0730082197,0.02555531173
1.48,-0.0713218025,0.02799386506
1.49,-0.06955665232,0.03034003642
1.5,-0.067717573,0.03259134561
1.51,-0.06580944199,0.03474556476
1.52,-0.06383719671,0.03680071987
1.53,-0.061805821,0.03875509161
1.54,-0.05972033158,0.04060721544
1.55,-0.05758576468,0.0423558809
1.56,-0.05540716276,0.04400013027
1.57,-0.05318956154,0.04553925654
1.58,-0.05093797711,0.04697280065
1.59,-0.04865739341,0.04830054809
1.6,-0.04635274995,0.04952252487
1.61,-0.0440289299,0.05063899287
1.62,-0.04169074851,0.05165044454
1.63,-0.03934294192,0.05255759713
1.64,-0.0369901564,0.05336138626
1.65,-0.03463693803,0.05406295905
1.66,-0.03228772283,0.05466366676
1.67,-0.02994682741,0.05516505689
1.68,-0.02761844011,0.05556886494
1.69,-0.02530661266,0.05587700575
1.7,-0.02301525244,0.0560915644
1.71,-0.02074811521,0.05621478694
1.72,-0.01850879853,0.05624907062
1.73,-0.01630073564,0.05619695402
1.74,-0.01412719008,0.05606110687
1.75,-0.01199125077,0.0558443197
1.76,-0.009895827799,0.0555494933
1.77,-0.007843648795,0.0551796281
1.78,-0.005837255896,0.05473781342
1.79,-0.003879003354,0.05422721673
1.8,-0.001971055741,0.05365107275
1.81,-0.0001153867634,0.05301267275
1.82,0.001686221323,0.05231535374
1.83,0.003432177704,0.05156248783
1.84,0.005121082415,0.05075747165
1.85,0.006751725178,0.04990371593
1.86,0.008323083682,0.0490046353
1.87,0.009834321311,0.04806363819
1.88,0.01128478436,0.04708411705
1.89,0.01267399871,0.04606943882
1.9,0.01400166607,0.0450229356
1.91,0.01526765966,0.04394789578
1.92,0.01647201954,0.04284755531
1.93,0.01761494744,0.04172508953
1.94,0.01869680124,0.04058360521
1.95,0.01971808899,0.03942613307
1.96,0.02067946272,0.0382556207
1.97,0.02158171174,0.03707492587
1.98,0.02242575582,0.03588681037
1.99,0.02321263796,0.03469393418
2,0.02394351699,0.03349885023
2.01,0.02461965994,0.03230399955
2.02,0.02524243423,0.03111170696
2.03,0.02581329966,0.02992417719
2.04,0.02633380033,0.02874349156
2.05,0.02680555643,0.02757160514
2.06,0.02723025598,0.02641034434
2.07,0.02760964648,0.02526140512
2.08,0.02794552661,0.02412635157
2.09,0.02823973791,0.02300661509
2.1,0.02849415655,0.02190349398
2.11,0.02871068505,0.02081815354
2.12,0.02889124426,0.01975162663
2.13,0.02903776536,0.01870481472
2.14,0.02915218204,0.01767848937
2.15,0.02923642282,0.0166732941
2.16,0.02929240367,0.01568974678
2.17,0.02932202068,0.01472824236
2.18,0.02932714314,0.013789056
2.19,0.02930960681,0.01287234661
2.2,0.02927120741,0.01197816067
2.21,0.02921369454,0.01110643649
2.22,0.02913876581,0.01025700871
2.23,0.02904806134,0.009429613102
2.24,0.02894315862,0.008623891691
2.25,0.02882556771,0.007839398077
2.26,0.02869672678,0.007075603014
2.27,0.02855799811,0.00633190018
2.28,0.02841066441,0.005607612139
2.29,0.02825592554,0.004901996446
2.3,0.02809489569,0.004214251898
2.31,0.02792860088,0.003543524878
2.32,0.02775797696,0.002888915796
2.33,0.02758386794,0.002249485578
2.34,0.02740702478,0.001624262193
2.35,0.02722810455,0.001012247188
2.36,0.02704767008,0.0004124222072
2.37,0.02686618988,-0.0001762445237
2.38,0.02668403857,-0.0007547917791
2.39,0.02650149768,-0.001324258998
2.4,0.02631875673,-0.001885680055
2.41,0.02613591485,-0.002440077164
2.42,0.02595298262,-0.002988454925
2.43,0.02576988435,-0.003531794545
2.44,0.02558646062,-0.004071048249
2.45,0.02540247123,-0.0046071339
2.46,0.02521759838,-0.005140929836
2.47,0.0250314502,-0.00567326996
2.48,0.02484356453,-0.006204939082
2.49,0.02465341295,-0.006736668534
2.5,0.02446040508,-0.007269132073
2.51,0.02426389311,-0.007802942079
2.52,0.02406317645,-0.008338646063
2.53,0.02385750669,-0.008876723498
2.54,0.02364609265,-0.009417582973
2.55,0.02342810553,-0.009961559685
2.56,0.02320268431,-0.01050891327
2.57,0.02296894111,-0.011059826
2.58,0.02272596676,-0.01161440129
2.59,0.0224728363,-0.0121726626
2.6,0.02220861462,-0.01273455265
2.61,0.02193236207,-0.01329993306
2.62,0.02164314007,-0.01386858426
2.63,0.02134001668,-0.01444020578
2.64,0.02102207217,-0.01501441693
2.65,0.02068840444,-0.01559075777
2.66,0.02033813444,-0.01616869042
2.67,0.01997041144,-0.01674760073
2.68,0.01958441815,-0.01732680026
2.69,0.01917937576,-0.01790552855
2.7,0.01875454874,-0.01848295571
2.71,0.01830924955,-0.0190581853
2.72,0.01784284305,-0.01963025749
2.73,0.01735475079,-0.02019815247
2.74,0.01684445503,-0.02076079415
2.75,0.01631150251,-0.02131705403
2.76,0.01575550801,-0.02186575534
2.77,0.0151761576,-0.02240567741
2.78,0.01457321164,-0.02293556014
2.79,0.01394650748,-0.02345410873
2.8,0.01329596191,-0.02395999852
2.81,0.01262157322,-0.02445187998
2.82,0.01192342303,-0.0249283838
2.83,0.01120167778,-0.02538812607
2.84,0.01045658989,-0.02582971362
2.85,0.009688498627,-0.02625174929
2.86,0.008897830595,-0.02665283736
2.87,0.008085099958,-0.02703158893
2.88,0.007250908304,-0.02738662733
2.89,0.006395944188,-0.0277165935
2.9,0.00552098236,-0.02802015136
2.91,0.004626882671,-0.02829599309
2.92,0.003714588662,-0.02854284436
2.93,0.002785125842,-0.0287594695
2.94,0.001839599675,-0.02894467645
2.95,0.0008791932519,-0.02909732174
2.96,-9.483530434E-05,-0.02921631521
2.97,-0.001081155727,-0.02930062461
2.98,-0.002078368754,-0.02934928002
2.99,-0.003085009533,-0.02936137811
3,-0.004099551276,-0.02933608613
3.01,-0.005120409138,-0.02927264579
3.02,-0.006145944327,-0.02917037676
3.03,-0.007174468403,-0.02902868008
3.04,-0.008204247782,-0.02884704122
3.05,-0.009233508408,-0.0286250329
3.06,-0.01026044058,-0.02836231766
3.07,-0.01128320394,-0.02805865013
3.08,-0.01229993255,-0.02771387901
3.09,-0.01330874014,-0.02732794875
3.1,-0.01430772538,-0.02690090095
3.11,-0.01529497727,-0.02643287546
3.12,-0.01626858059,-0.02592411113
3.13,-0.01722662135,-0.0253749463
3.14,-0.01816719232,-0.02478581892
3.15,-0.0190883985,-0.02415726645
3.16,-0.01998836262,-0.02348992535
3.17,-0.02086523062,-0.02278453032
3.18,-0.02171717702,-0.02204191319
3.19,-0.02254241029,-0.02126300159
3.2,-0.02333917808,-0.0204488172
3.21,-0.02410577241,-0.01960047381
3.22,-0.02484053472,-0.01871917507
3.23,-0.02554186071,-0.01780621188
3.24,-0.02620820519,-0.01686295965
3.25,-0.02683808663,-0.01589087518
3.26,-0.0274300916,-0.01489149334
3.27,-0.02798287901,-0.01386642352
3.28,-0.02849518411,-0.01281734578
3.29,-0.02896582234,-0.01174600691
3.3,-0.02939369292,-0.01065421613
3.31,-0.02977778217,-0.00954384072
3.32,-0.03011716663,-0.008416801432
3.33,-0.03041101591,-0.007275067706
3.34,-0.03065859526,-0.006120652787
3.35,-0.03085926791,-0.004955608684
3.36,-0.03101249702,-0.003782021012
3.37,-0.03111784751,-0.002602003739
3.38,-0.03117498746,-0.001417693841
3.39,-0.0311836893,-0.0002312458915
3.4,-0.03114383062,0.0009551734006
3.41,-0.0310553948,0.002139390693
3.42,-0.03091847121,0.003319231529
3.43,-0.03073325523,0.004492525858
3.44,-0.03050004785,0.005657113545
3.45,-0.0302192551,0.006810849846
3.46,-0.02989138708,0.007951610839
3.47,-0.02951705674,0.009077298791
3.48,-0.02909697839,0.01018584745
3.49,-0.0286319659,0.01127522722
3.5,-0.02812293065,0.01234345029
3.51,-0.02757087917,0.01338857553
3.52,-0.02697691059,0.01440871337
3.53,-0.02634221372,0.01540203043
3.54,-0.02566806407,0.01636675403
3.55,-0.02495582041,0.01730117652
3.56,-0.02420692135,0.01820365943
3.57,-0.02342288146,0.01907263734
3.58,-0.02260528743,0.01990662167
3.59,-0.02175579386,0.02070420411
3.6,-0.02087611897,0.0214640599
3.61,-0.01996804013,0.02218495089
3.62,-0.01903338925,0.02286572822
3.63,-0.01807404801,0.02350533493
3.64,-0.017091943,0.02410280814
3.65,-0.01608904076,0.02465728103
3.66,-0.01506734271,0.02516798462
3.67,-0.01402888002,0.02563424911
3.68,-0.01297570843,0.0260555051
3.69,-0.01190990305,0.02643128443
3.7,-0.01083355303,0.02676122078
3.71,-0.009748756372,0.02704504996
3.72,-0.008657614653,0.02728260996
3.73,-0.007562227766,0.02747384069
3.74,-0.006464688739,0.02761878342
3.75,-0.005367078582,0.02771758002
3.76,-0.0042714612,0.02777047182
3.77,-0.003179878392,0.02777779832
3.78,-0.002094344945,0.02773999556
3.79,-0.001016843826,0.02765759426
3.8,5.067848531E-05,0.02753121771
3.81,0.001106316549,0.02736157945
3.82,0.002148210357,0.02714948066
3.83,0.00317454957,0.02689580737
3.84,0.004183577584,0.02660152747
3.85,0.005173595415,0.02626768749
3.86,0.006142965395,0.02589540918
3.87,0.007090114659,0.02548588596
3.88,0.008013538432,0.02504037914
3.89,0.008911803094,0.02456021405
3.9,0.009783549013,0.02404677595
3.91,0.01062749316,0.02350150592
3.92,0.01144243148,0.0229258965
3.93,0.01222724099,0.02232148735
3.94,0.01298088171,0.02168986074
3.95,0.01370239825,0.02103263703
3.96,0.01439092118,0.02035146999
3.97,0.01504566819,0.01964804221
3.98,0.0156659449,0.01892406038
3.99,0.01625114551,0.01818125057
4,0.01680075313,0.01742135352
4.01,0.01731433983,0.01664611996
4.02,0.01779156657,0.01585730591
4.03,0.01823218271,0.01505666808
4.04,0.01863602537,0.01424595921
4.05,0.01900301855,0.01342692366
4.06,0.01933317197,0.01260129286
4.07,0.0196265797,0.01177078105
4.08,0.01988341858,0.01093708099
4.09,0.02010394637,0.01010185983
4.1,0.02028849975,0.009266755159
4.11,0.02043749211,0.008433371071
4.12,0.02055141105,0.007603274505
4.13,0.02063081587,0.006777991671
4.14,0.0206763347,0.005959004663
4.15,0.02068866163,0.005147748251
4.16,0.02066855356,0.004345606854
4.17,0.02061682696,0.003553911706
4.18,0.02053435452,0.002773938222
4.19,0.02042206166,0.002006903562
4.2,0.02028092291,0.001253964419
4.21,0.02011195824,0.0005162150056
4.22,0.01991622926,-0.000205314729
4.23,0.01969483542,-0.000909660665
4.24,0.01944891008,-0.001595925853
4.25,0.01917961658,-0.00226328163
4.26,0.01888814428,-0.002910968504
4.27,0.01857570454,-0.003538296818
4.28,0.01824352677,-0.004144647182
4.29,0.01789285443,-0.004729470682
4.3,0.01752494106,-0.005292288865
4.31,0.01714104638,-0.005832693503
4.32,0.01674243238,-0.006350346136
4.33,0.0163303595,-0.006844977413
4.34,0.01590608291,-0.007316386205
4.35,0.01547084881,-0.007764438538
4.36,0.01502589084,-0.008189066305
4.37,0.01457242665,-0.008590265805
4.38,0.01411165449,-0.008968096089
4.39,0.01364474999,-0.009322677135
4.4,0.01317286307,-0.009654187848
4.41,0.01269711494,-0.009962863909
4.42,0.01221859531,-0.01024899547
4.43,0.01173835971,-0.0105129247
4.44,0.01125742701,-0.01075504322
4.45,0.01077677708,-0.01097578941
4.46,0.01029734864,-0.01117564559
4.47,0.0098200373,-0.01135513512
4.48,0.009345693779,-0.0115148194
4.49,0.00887512229,-0.01165529481
4.5,0.008409079154,-0.0117771896
4.51,0.007948271592,-0.01188116063
4.52,0.007493356711,-0.01196789023
4.53,0.007044940694,-0.01203808288
4.54,0.006603578187,-0.01209246196
4.55,0.006169771883,-0.01213176643
4.56,0.005743972307,-0.01215674762
4.57,0.005326577789,-0.01216816591
4.58,0.00491793464,-0.0121667875
4.59,0.004518337508,-0.01215338124
4.6,0.004128029935,-0.0121287155
4.61,0.003747205081,-0.01209355501
4.62,0.003376006638,-0.01204865795
4.63,0.00301452991,-0.01199477293
4.64,0.002662823065,-0.01193263621
4.65,0.00232088854,-0.01186296892
4.66,0.00198868461,-0.01178647447
4.67,0.001666127092,-0.01170383599
4.68,0.001353091194,-0.01161571397
4.69,0.00104941349,-0.01152274401
4.7,0.0007548940239,-0.01142553469
4.71,0.0004692985106,-0.01132466561
4.72,0.0001923606546,-0.01122068555
4.73,-7.621544652E-05,-0.01111411085
4.74,-0.0003367528145,-0.01100542389
4.75,-0.0005895990287,-0.01089507174
4.76,-0.0008351236038,-0.01078346503
4.77,-0.001073715314,-0.01067097695
4.78,-0.001305779478,-0.01055794241
4.79,-0.001531735212,-0.01044465745
4.8,-0.001752012664,-0.01033137871
4.81,-0.001967050237,-0.0102183232
4.82,-0.002177291821,-0.01010566814
4.83,-0.002383184028,-0.009993551079
4.84,-0.002585173454,-0.009882070072
4.85,-0.00278370398,-0.009771284139
4.86,-0.00297921411,-0.009661213813
4.87,-0.00317213436,-0.009551841893
4.88,-0.003362884724,-0.009443114346
4.89,-0.003551872196,-0.009334941361
4.9,-0.003739488388,-0.009227198563
4.91,-0.003926107229,-0.009119728368
4.92,-0.004112082771,-0.009012341475
4.93,-0.004297747099,-0.00890481849
4.94,-0.004483408351,-0.008796911684
4.95,-0.004669348873,-0.008688346854
4.96,-0.00485582349,-0.008578825305
4.97,-0.005043057918,-0.00846802593
4.98,-0.005231247314,-0.00835560738
4.99,-0.005420554978,-0.008241210319
5,-0.005611111196,-0.008124459756
5.01,-0.005803012245,-0.008004967438
5.02,-0.00599631955,-0.007882334299
5.03,-0.006191059005,-0.007756152955
5.04,-0.006387220454,-0.007626010235
5.05,-0.006584757342,-0.007491489735
5.06,-0.006783586521,-0.007352174387
5.07,-0.006983588232,-0.007207649034
5.08,-0.007184606246,-0.007057503003
5.09,-0.007386448169,-0.006901332652
5.1,-0.007588885918,-0.006738743902
5.11,-0.007791656345,-0.006569354732
5.12,-0.007994462032,-0.006392797618
5.13,-0.008196972234,-0.006208721935
5.14,-0.008398823973,-0.006016796279
5.15,-0.008599623284,-0.005816710723
5.16,-0.008798946596,-0.00560817899
5.17,-0.008996342259,-0.005390940534
5.18,-0.009191332192,-0.005164762526
5.19,-0.009383413662,-0.004929441724
5.2,-0.009572061178,-0.004684806244
5.21,-0.009756728498,-0.004430717192
5.22,-0.009936850736,-0.004167070186
5.23,-0.01011184656,-0.003893796731
5.24,-0.0102811205,-0.003610865463
5.25,-0.01044406529,-0.003318283243
5.26,-0.01060006432,-0.00301609611
5.27,-0.01074849412,-0.002704390074
5.28,-0.01088872694,-0.002383291757
5.29,-0.01102013327,-0.002052968874
5.3,-0.01114208456,-0.001713630554
5.31,-0.01125395575,-0.001365527497
5.32,-0.01135512799,-0.001008951969
5.33,-0.01144499128,-0.0006442376287
5.34,-0.01152294711,-0.000271759198
5.35,-0.01158841109,0.0001080680396
5.36,-0.01164081551,0.0004947888969
5.37,-0.01167961199,0.0008879091037
5.38,-0.01170427387,0.001286896284
5.39,-0.01171429878,0.001691181089
5.4,-0.01170921096,0.002100158479
5.41,-0.01168856358,0.002513189154
5.42,-0.01165194098,0.002929601129
5.43,-0.01159896083,0.00334869144
5.44,-0.01152927611,0.003769727985
5.45,-0.01144257707,0.004191951494
5.46,-0.01133859306,0.004614577607
5.47,-0.01121709416,0.005036799079
5.48,-0.0110778928,0.005457788073
5.49,-0.01092084514,0.00587669856
5.5,-0.01074585237,0.006292668804
5.51,-0.01055286183,0.006704823924
5.52,-0.01034186801,0.007112278534
5.53,-0.01011291337,0.007514139436
5.54,-0.009866088989,0.007909508372
5.55,-0.00960153511,0.008297484817
5.56,-0.009319441455,0.008677168802
5.57,-0.009020047409,0.00904766377
5.58,-0.008703642027,0.009408079434
5.59,-0.008370563877,0.00975753465
5.6,-0.008021200708,0.01009516027
5.61,-0.007655988959,0.01042010201
5.62,-0.007275413092,0.01073152324
5.63,-0.006880004764,0.01102860779
5.64,-0.006470341841,0.01131056267
5.65,-0.006047047239,0.01157662078
5.66,-0.005610787622,0.01182604353
5.67,-0.005162271936,0.01205812334
5.68,-0.004702249802,0.01227218616
5.69,-0.00423150976,0.01246759382
5.7,-0.003750877378,0.01264374631
5.71,-0.003261213227,0.01280008393
5.72,-0.00276341073,0.01293608936
5.73,-0.002258393892,0.01305128959
5.74,-0.001747114918,0.01314525771
5.75,-0.001230551726,0.01321761458
5.76,-0.0007097053636,0.01326803036
5.77,-0.0001855973399,0.01329622586
5.78,0.0003407331296,0.01330197382
5.79,0.0008682319419,0.01328509991
5.8,0.00139583299,0.01324548368
5.81,0.001922461098,0.01318305932
5.82,0.002447035,0.01309781617
5.83,0.002968470348,0.01298979921
5.84,0.00348568275,0.01285910924
5.85,0.003997590814,0.01270590296
5.86,0.004503119199,0.01253039289
5.87,0.005001201661,0.01233284705
5.88,0.005490784078,0.01211358855
5.89,0.005970827453,0.01187299492
5.9,0.006440310878,0.01161149737
5.91,0.006898234452,0.01132957981
5.92,0.007343622148,0.01102777774
5.93,0.007775524607,0.01070667693
5.94,0.008193021868,0.01036691204
5.95,0.008595226007,0.010009165
5.96,0.00898128369,0.009634163282
5.97,0.009350378623,0.009242678008
5.98,0.009701733899,0.008835521957
5.99,0.01003461422,0.008413547413
6,0.01034832802,0.007977643902
