"Freq [GHz]","re(S(Tx_p1,Tx_p1)) []","im(S(Tx_p1,Tx_p1)) []"
1,-0.006025028586,-0.07648568951
1.01,-0.008410152857,-0.07567670718
1.02,-0.01075638674,-0.07479111356
1.03,-0.01306043042,-0.0738305577
1.04,-0.01531909677,-0.07279687454
1.05,-0.01752932059,-0.07169207492
1.06,-0.0196881671,-0.07051833517
1.07,-0.02179283972,-0.06927798664
1.08,-0.02384068713,-0.06797350483
1.09,-0.02582920963,-0.06660749853
1.1,-0.0277560648,-0.06518269872
1.11,-0.02961907244,-0.06370194738
1.12,-0.03141621878,-0.06216818632
1.13,-0.03314566002,-0.06058444586
1.14,-0.03480572524,-0.05895383362
1.15,-0.03639491851,-0.0572795233
1.16,-0.03791192043,-0.05556474356
1.17,-0.03935558904,-0.05381276696
1.18,-0.04072495996,-0.05202689911
1.19,-0.04201924609,-0.05021046793
1.2,-0.04323783659,-0.04836681314
1.21,-0.04438029528,-0.04649927596
1.22,-0.04544635857,-0.04461118907
1.23,-0.04643593275,-0.04270586687
1.24,-0.04734909084,-0.040786596
1.25,-0.04818606889,-0.03885662623
1.26,-0.04894726185,-0.03691916171
1.27,-0.04963321901,-0.03497735251
1.28,-0.05024463898,-0.03303428665
1.29,-0.05078236433,-0.03109298248
1.3,-0.05124737584,-0.02915638149
1.31,-0.05164078646,-0.02722734152
1.32,-0.05196383491,-0.02530863053
1.33,-0.05221787907,-0.02340292066
1.34,-0.05240438907,-0.02151278291
1.35,-0.05252494022,-0.01964068219
1.36,-0.05258120573,-0.01778897289
1.37,-0.05257494925,-0.01595989494
1.38,-0.05250801738,-0.01415557032
1.39,-0.05238233191,-0.01237800006
1.4,-0.05219988223,-0.01062906178
1.41,-0.05196271746,-0.008910507602
1.42,-0.05167293873,-0.007223962634
1.43,-0.05133269144,-0.005570923875
1.44,-0.05094415751,-0.003952759588
1.45,-0.05050954775,-0.002370709139
1.46,-0.05003109432,-0.0008258832612
1.47,-0.04951104328,0.0006807352341
1.48,-0.04895164729,0.002148290334
1.49,-0.04835515848,0.00357605129
1.5,-0.04772382152,0.004963410701
1.51,-0.04705986682,0.006309882204
1.52,-0.04636550405,0.007615097823
1.53,-0.04564291584,0.00887880496
1.54,-0.04489425174,0.01010086307
1.55,-0.04412162245,0.01128124004
1.56,-0.04332709436,0.01242000824
1.57,-0.0425126844,0.01351734037
1.58,-0.0416803551,0.014573505
1.59,-0.04083201011,0.01558886192
1.6,-0.03996948997,0.01656385729
1.61,-0.03909456821,0.01749901858
1.62,-0.03820894782,0.01839494935
1.63,-0.03731425807,0.01925232393
1.64,-0.03641205169,0.02007188193
1.65,-0.03550380235,0.02085442268
1.66,-0.03459090257,0.02160079959
1.67,-0.03367466196,0.02231191445
1.68,-0.0327563058,0.02298871173
1.69,-0.03183697398,0.02363217279
1.7,-0.0309177203,0.02424331019
1.71,-0.02999951215,0.02482316196
1.72,-0.02908323044,0.02537278597
1.73,-0.02816966996,0.02589325431
1.74,-0.02725954004,0.02638564779
1.75,-0.02635346548,0.02685105057
1.76,-0.02545198786,0.02729054482
1.77,-0.02455556711,0.02770520565
1.78,-0.02366458341,0.02809609603
1.79,-0.02277933929,0.02846426205
1.8,-0.02190006208,0.02881072824
1.81,-0.02102690656,0.0291364931
1.82,-0.02015995791,0.02944252491
1.83,-0.01929923477,0.02972975769
1.84,-0.01844469265,0.02999908741
1.85,-0.01759622744,0.03025136845
1.86,-0.01675367912,0.0304874103
1.87,-0.01591683567,0.03070797456
1.88,-0.01508543707,0.03091377209
1.89,-0.01425917951,0.03110546062
1.9,-0.01343771959,0.03128364241
1.91,-0.01262067878,0.03144886244
1.92,-0.01180764781,0.03160160662
1.93,-0.01099819125,0.03174230055
1.94,-0.01019185201,0.03187130835
1.95,-0.009388155996,0.03198893193
1.96,-0.008586616685,0.03209541047
1.97,-0.007786739754,0.03219092022
1.98,-0.006988027655,0.03227557456
1.99,-0.006189984173,0.03234942441
2,-0.005392118922,0.03241245882
2.01,-0.004593951779,0.03246460591
2.02,-0.003795017228,0.03250573406
2.03,-0.002994868614,0.03253565337
2.04,-0.002193082275,0.03255411735
2.05,-0.001389261554,0.03256082486
2.06,-0.0005830406641,0.03255542237
2.07,0.0002259115941,0.03253750632
2.08,0.001037888288,0.03250662581
2.09,0.001853140984,0.03246228543
2.1,0.002671876568,0.03240394834
2.11,0.003494254266,0.03233103952
2.12,0.004320382883,0.03224294917
2.13,0.005150318247,0.03213903631
2.14,0.0059840609,0.03201863254
2.15,0.006821554012,0.03188104583
2.16,0.007662681544,0.03172556462
2.17,0.008507266664,0.03155146183
2.18,0.009355070412,0.03135799913
2.19,0.01020579063,0.03114443113
2.2,0.01105906117,0.0309100098
2.21,0.01191445133,0.0306539888
2.22,0.01277146561,0.0303756279
2.23,0.0136295437,0.03007419744
2.24,0.01448806078,0.02974898274
2.25,0.01534632805,0.02939928851
2.26,0.01620359353,0.02902444327
2.27,0.01705904321,0.02862380368
2.28,0.01791180234,0.02819675882
2.29,0.01876093709,0.02774273437
2.3,0.0196054564,0.02726119679
2.31,0.02044431413,0.02675165724
2.32,0.02127641143,0.02621367555
2.33,0.02210059933,0.02564686392
2.34,0.02291568165,0.02505089054
2.35,0.02372041799,0.02442548302
2.36,0.02451352711,0.02377043167
2.37,0.02529369033,0.02308559256
2.38,0.02605955528,0.0223708904
2.39,0.02680973975,0.02162632123
2.4,0.02754283572,0.02085195483
2.41,0.02825741357,0.02004793693
2.42,0.02895202641,0.01921449121
2.43,0.02962521459,0.018351921
2.44,0.03027551025,0.01746061074
2.45,0.03090144204,0.01654102717
2.46,0.03150153989,0.01559372026
2.47,0.0320743399,0.01461932386
2.48,0.03261838918,0.01361855607
2.49,0.0331322509,0.01259221927
2.5,0.03361450917,0.01154119998
2.51,0.0340637741,0.0104664683
2.52,0.03447868673,0.009369077128
2.53,0.03485792398,0.008250161096
2.54,0.03520020358,0.007110935161
2.55,0.0355042889,0.005952692952
2.56,0.0357689937,0.004776804808
2.57,0.03599318686,0.003584715542
2.58,0.03617579687,0.002377941923
2.59,0.03631581632,0.001158069882
2.6,0.03641230618,-7.324854347E-05
2.61,0.03646439994,-0.001314298525
2.62,0.03647130757,-0.002563306011
2.63,0.03643231929,-0.003818441539
2.64,0.03634680917,-0.005077824267
2.65,0.03621423844,-0.00633952624
2.66,0.03603415866,-0.007601576855
2.67,0.03580621456,-0.008861967522
2.68,0.0355301467,-0.01011865651
2.69,0.03520579384,-0.01136957397
2.7,0.03483309498,-0.01261262707
2.71,0.0344120912,-0.01384570533
2.72,0.03394292717,-0.01506668604
2.73,0.03342585231,-0.01627343978
2.74,0.03286122172,-0.01746383601
2.75,0.03224949675,-0.01863574882
2.76,0.03159124527,-0.01978706261
2.77,0.03088714158,-0.02091567788
2.78,0.03013796604,-0.02201951701
2.79,0.02934460433,-0.02309653006
2.8,0.02850804645,-0.02414470048
2.81,0.02762938528,-0.02516205089
2.82,0.02670981492,-0.02614664868
2.83,0.02575062866,-0.02709661158
2.84,0.02475321661,-0.0280101132
2.85,0.02371906307,-0.02888538831
2.86,0.02264974356,-0.02972073808
2.87,0.02154692153,-0.03051453517
2.88,0.02041234479,-0.03126522859
2.89,0.01924784172,-0.0319713484
2.9,0.01805531709,-0.03263151023
2.91,0.0168367477,-0.03324441953
2.92,0.01559417778,-0.0338088756
2.93,0.0143297141,-0.03432377537
2.94,0.01304552086,-0.03478811692
2.95,0.01174381447,-0.03520100269
2.96,0.010426858,-0.03556164244
2.97,0.009096955566,-0.03586935585
2.98,0.007756446531,-0.03612357486
2.99,0.006407699528,-0.03632384564
3,0.005053106421,-0.03646983026
3.01,0.00369507614,-0.036561308
3.02,0.002336028439,-0.03659817631
3.03,0.0009783876017,-0.03658045146
3.04,-0.0003754238969,-0.03650826874
3.05,-0.001722991743,-0.03638188244
3.06,-0.003061916132,-0.03620166531
3.07,-0.004389818096,-0.03596810784
3.08,-0.005704345777,-0.03568181698
3.09,-0.007003180644,-0.03534351471
3.1,-0.008284043612,-0.0349540361
3.11,-0.009544701058,-0.03451432709
3.12,-0.01078297071,-0.03402544195
3.13,-0.01199672736,-0.03348854036
3.14,-0.01318390849,-0.03290488417
3.15,-0.01434251956,-0.03227583391
3.16,-0.01547063928,-0.0316028449
3.17,-0.01656642448,-0.03088746316
3.18,-0.01762811484,-0.03013132097
3.19,-0.01865403738,-0.02933613221
3.2,-0.01964261058,-0.02850368748
3.21,-0.02059234827,-0.02763584888
3.22,-0.02150186327,-0.02673454473
3.23,-0.02236987062,-0.02580176395
3.24,-0.02319519053,-0.02483955035
3.25,-0.02397675099,-0.02384999676
3.26,-0.02471359008,-0.02283523898
3.27,-0.02540485784,-0.02179744964
3.28,-0.02604981785,-0.02073883197
3.29,-0.02664784842,-0.01966161348
3.3,-0.02719844342,-0.01856803963
3.31,-0.02770121275,-0.01746036738
3.32,-0.02815588241,-0.01634085885
3.33,-0.02856229422,-0.01521177489
3.34,-0.02892040519,-0.01407536878
3.35,-0.02923028647,-0.0129338799
3.36,-0.02949212198,-0.01178952755
3.37,-0.0297062067,-0.01064450485
3.38,-0.02987294456,-0.009500972733
3.39,-0.029992846,-0.008361054155
3.4,-0.03006652526,-0.007226828394
3.41,-0.03009469726,-0.00610032558
3.42,-0.03007817425,-0.004983521415
3.43,-0.03001786209,-0.003878332119
3.44,-0.02991475633,-0.002786609607
3.45,-0.02976993796,-0.001710136932
3.46,-0.02958456895,-0.0006506239917
3.47,-0.02935988753,0.0003902964756
3.48,-0.02909720329,0.001411072598
3.49,-0.02879789205,0.002410236767
3.5,-0.02846339057,0.003386408711
3.51,-0.02809519114,0.004338298239
3.52,-0.02769483594,0.005264707643
3.53,-0.02726391143,0.00616453376
3.54,-0.0268040425,0.007036769674
3.55,-0.02631688669,0.007880506064
3.56,-0.02580412821,0.008694932198
3.57,-0.02526747213,0.00947933656
3.58,-0.02470863837,0.01023310712
3.59,-0.02412935583,0.01095573124
3.6,-0.02353135657,0.01164679524
3.61,-0.02291636997,0.01230598358
3.62,-0.02228611705,0.01293307772
3.63,-0.02164230488,0.01352795465
3.64,-0.0209866211,0.01409058505
3.65,-0.0203207286,0.01462103119
3.66,-0.0196462604,0.0151194444
3.67,-0.01896481462,0.01558606242
3.68,-0.0182779498,0.0160212063
3.69,-0.01758718032,0.01642527711
3.7,-0.0168939721,0.01679875236
3.71,-0.01619973856,0.01714218223
3.72,-0.01550583683,0.01745618551
3.73,-0.0148135643,0.01774144538
3.74,-0.01412415532,0.017998705
3.75,-0.01343877837,0.0182287629
3.76,-0.01275853343,0.01843246824
3.77,-0.01208444971,0.018610716
3.78,-0.01141748366,0.01876444194
3.79,-0.0107585174,0.01889461761
3.8,-0.0101083574,0.01900224519
3.81,-0.009467733501,0.01908835237
3.82,-0.008837298338,0.01915398714
3.83,-0.00821762702,0.01920021263
3.84,-0.007609217193,0.01922810198
3.85,-0.007012489419,0.01923873317
3.86,-0.006427787876,0.01923318405
3.87,-0.005855381385,0.01921252735
3.88,-0.005295464747,0.01917782581
3.89,-0.004748160384,0.0191301275
3.9,-0.004213520271,0.01907046122
3.91,-0.003691528155,0.01899983207
3.92,-0.003182102042,0.01891921724
3.93,-0.002685096944,0.01882956195
3.94,-0.002200307865,0.01873177567
3.95,-0.00172747302,0.01862672843
3.96,-0.001266277261,0.01851524758
3.97,-0.0008163557005,0.01839811458
3.98,-0.0003772975145,0.01827606222
3.99,5.135010167E-05,0.01814977204
4,0.0004700778322,0.01801987206
4.01,0.000879410021,0.01788693475
4.02,0.00127990035,0.01775147539
4.03,0.00167212744,0.01761395063
4.04,0.002056690384,0.01747475744
4.05,0.002434204247,0.0173342323
4.06,0.002805295547,0.01719265076
4.07,0.003170597728,0.01705022728
4.08,0.003530746667,0.01690711533
4.09,0.003886376209,0.0167634079
4.1,0.004238113775,0.01661913821
4.11,0.004586576043,0.01647428077
4.12,0.004932364734,0.01632875268
4.13,0.005276062508,0.01618241529
4.14,0.005618229007,0.016035076
4.15,0.005959397039,0.01588649047
4.16,0.006300068943,0.01573636495
4.17,0.006640713127,0.01558435889
4.18,0.006981760815,0.01543008783
4.19,0.007323602998,0.01527312637
4.2,0.007666587619,0.01511301145
4.21,0.008011016988,0.01494924573
4.22,0.008357145445,0.01478130119
4.23,0.008705177285,0.01460862277
4.24,0.009055264938,0.01443063229
4.25,0.009407507429,0.01424673229
4.26,0.009761949108,0.01405631011
4.27,0.01011857867,0.01385874199
4.28,0.01047732843,0.01365339712
4.29,0.01083807395,0.01343964192
4.3,0.01120063387,0.01321684413
4.31,0.01156477007,0.01298437701
4.32,0.01193018813,0.01274162347
4.33,0.012296538,0.01248798018
4.34,0.01266341508,0.01222286157
4.35,0.01303036137,0.01194570379
4.36,0.01339686711,0.01165596856
4.37,0.01376237247,0.01135314688
4.38,0.01412626964,0.01103676262
4.39,0.01448790506,0.010706376
4.4,0.01484658192,0.01036158682
4.41,0.01520156285,0.01000203758
4.42,0.01555207284,0.009627416407
4.43,0.01589730232,0.009237459734
4.44,0.01623641038,0.008831954801
4.45,0.01656852826,0.008410741919
4.46,0.01689276284,0.007973716498
4.47,0.01720820033,0.007520830839
4.48,0.0175139101,0.007052095662
4.49,0.01780894851,0.006567581399
4.5,0.0180923629,0.006067419205
4.51,0.01836319555,0.005551801726
4.52,0.0186204878,0.005020983579
4.53,0.01886328406,0.004475281586
4.54,0.01909063589,0.003915074725
4.55,0.01930160608,0.003340803822
4.56,0.01949527267,0.002752970977
4.57,0.01967073291,0.00215213873
4.58,0.01982710718,0.001538928972
4.59,0.01996354283,0.0009140216055
4.6,0.0200792179,0.0002781529579
4.61,0.02017334475,-0.0003678860348
4.62,0.02024517353,-0.001023251876
4.63,0.02029399553,-0.001687050773
4.64,0.02031914642,-0.002358341108
4.65,0.0203200092,-0.003036136106
4.66,0.02029601712,-0.003719406684
4.67,0.02024665627,-0.004407084477
4.68,0.02017146808,-0.005098065017
4.69,0.02007005154,-0.005791211055
4.7,0.01994206523,-0.006485356021
4.71,0.01978722916,-0.007179307585
4.72,0.01960532626,-0.007871851334
4.73,0.01939620381,-0.008561754517
4.74,0.01915977447,-0.009247769873
4.75,0.01889601714,-0.009928639499
4.76,0.01860497763,-0.01060309877
4.77,0.01828676893,-0.01126988024
4.78,0.01794157142,-0.01192771765
4.79,0.01756963267,-0.01257534976
4.8,0.01717126714,-0.01321152431
4.81,0.01674685553,-0.01383500188
4.82,0.01629684396,-0.01444455966
4.83,0.01582174292,-0.01503899521
4.84,0.01532212597,-0.01561713007
4.85,0.01479862823,-0.01617781338
4.86,0.01425194469,-0.01671992523
4.87,0.01368282829,-0.01724238005
4.88,0.01309208782,-0.01774412974
4.89,0.01248058567,-0.01822416674
4.9,0.01184923537,-0.01868152688
4.91,0.01119899897,-0.0191152921
4.92,0.01053088433,-0.01952459302
4.93,0.009845942202,-0.01990861127
4.94,0.009145263275,-0.02026658164
4.95,0.008429975022,-0.0205977941
4.96,0.007701238521,-0.02090159556
4.97,0.006960245166,-0.02117739144
4.98,0.006208213312,-0.02142464704
4.99,0.005446384872,-0.02164288868
5,0.004676021866,-0.02183170469
5.01,0.003898402948,-0.0219907461
5.02,0.003114819921,-0.02211972721
5.03,0.002326574243,-0.02221842588
5.04,0.001534973557,-0.02228668363
5.05,0.0007413282336,-0.0223244056
5.06,-5.305203358E-05,-0.02233156021
5.07,-0.000846861597,-0.02230817868
5.08,-0.001638802154,-0.02225435437
5.09,-0.002427585974,-0.02217024189
5.1,-0.00321193905,-0.0220560561
5.11,-0.003990604142,-0.02191207086
5.12,-0.004762343736,-0.02173861769
5.13,-0.005525942874,-0.02153608419
5.14,-0.006280211879,-0.02130491245
5.15,-0.007023988942,-0.02104559717
5.16,-0.007756142584,-0.02075868375
5.17,-0.008475573967,-0.02044476626
5.18,-0.009181219075,-0.02010448525
5.19,-0.009872050728,-0.01973852551
5.2,-0.01054708046,-0.01934761372
5.21,-0.01120536021,-0.01893251608
5.22,-0.01184598392,-0.01849403577
5.23,-0.01246808886,-0.01803301048
5.24,-0.01307085694,-0.01755030979
5.25,-0.01365351569,-0.01704683259
5.26,-0.01421533925,-0.01652350446
5.27,-0.01475564906,-0.01598127501
5.28,-0.01527381448,-0.01542111528
5.29,-0.01576925323,-0.01484401508
5.3,-0.01624143162,-0.01425098038
5.31,-0.01668986477,-0.01364303075
5.32,-0.01711411651,-0.01302119682
5.33,-0.01751379931,-0.01238651771
5.34,-0.01788857394,-0.01174003869
5.35,-0.01823814908,-0.01108280868
5.36,-0.01856228078,-0.010415878
5.37,-0.01886077183,-0.009740296074
5.38,-0.01913347095,-0.009057109291
5.39,-0.019380272,-0.008367358882
5.4,-0.01960111296,-0.007672078933
5.41,-0.01979597492,-0.006972294471
5.42,-0.01996488093,-0.006269019646
5.43,-0.02010789485,-0.005563256013
5.44,-0.02022512004,-0.004855990916
5.45,-0.02031669805,-0.004148195969
5.46,-0.0203828073,-0.003440825648
5.47,-0.02042366159,-0.002734815977
5.48,-0.02043950874,-0.002031083326
5.49,-0.02043062906,-0.001330523311
5.5,-0.02039733389,-0.0006340097911
5.51,-0.02033996407,5.760602603E-05
5.52,-0.02025888847,0.0007434963855
5.53,-0.02015450246,0.001422857686
5.54,-0.02002722638,0.002094911089
5.55,-0.01987750409,0.002758903035
5.56,-0.01970580149,0.003414105674
5.57,-0.01951260503,0.00405981721
5.58,-0.01929842033,0.004695362171
5.59,-0.01906377077,0.005320091594
5.6,-0.01880919611,0.005933383149
5.61,-0.0185352512,0.006534641189
5.62,-0.01824250465,0.007123296744
5.63,-0.01793153767,0.007698807453
5.64,-0.0176029428,0.008260657447
5.65,-0.0172573228,0.008808357183
5.66,-0.01689528955,0.00934144324
5.67,-0.01651746302,0.00985947807
5.68,-0.01612447022,0.01036204973
5.69,-0.0157169443,0.01084877155
5.7,-0.01529552364,0.01131928185
5.71,-0.01486085097,0.01177324356
5.72,-0.0144135726,0.01221034385
5.73,-0.01395433765,0.01263029379
5.74,-0.01348379732,0.01303282794
5.75,-0.01300260425,0.01341770399
5.76,-0.01251141183,0.01378470235
5.77,-0.0120108737,0.0141336258
5.78,-0.01150164309,0.01446429908
5.79,-0.01098437236,0.01477656856
5.8,-0.01045971247,0.01507030183
5.81,-0.009928312541,0.01534538741
5.82,-0.00939081936,0.01560173437
5.83,-0.008847877,0.01583927204
5.84,-0.008300126385,0.01605794968
5.85,-0.007748204904,0.01625773619
5.86,-0.007192746025,0.01643861986
5.87,-0.006634378919,0.01660060806
5.88,-0.006073728093,0.01674372705
5.89,-0.005511413019,0.01686802168
5.9,-0.00494804777,0.01697355522
5.91,-0.004384240651,0.01706040913
5.92,-0.003820593823,0.01712868282
5.93,-0.003257702926,0.01717849353
5.94,-0.002696156688,0.01720997606
5.95,-0.00213653653,0.01722328265
5.96,-0.001579416153,0.01721858272
5.97,-0.001025361122,0.01719606276
5.98,-0.0004749284279,0.01715592609
5.99,7.133395871E-05,0.01709839267
6,0.000612887546,0.01702369888
