"Freq [GHz]","re(S(Tx_p1,Tx_p1)) []","im(S(Tx_p1,Tx_p1)) []"
3,9.714771977E-05,-8.591291088E-05
3.014,8.240135226E-05,-9.770963958E-05
3.028,6.633660358E-05,-0.0001070991341
3.042,4.933073885E-05,-0.0001139539802
3.056,3.176956932E-05,-0.0001182038123
3.07,1.403910944E-05,-0.0001198350636
3.084,-3.482514523E-06,-0.0001188895367
3.098,-2.043274294E-05,-0.0001154618592
3.112,-3.647170088E-05,-0.0001096959148
3.126,-5.128862447E-05,-0.0001017803538
3.14,-6.4607483E-05,-9.194330667E-05
3.154,-7.619170452E-05,-8.044643559E-05
3.168,-8.584793431E-05,-6.757846852E-05
3.182,-9.342877803E-05,-5.364836657E-05
3.196,-9.883450407E-05,-3.897827851E-05
3.21,-0.0001020137021,-2.389643559E-05
3.224,-0.000102962917,-8.730136376E-06
3.238,-0.0001017252968,6.201035507E-06
3.252,-9.838831489E-05,2.059162721E-05
3.266,-9.308064164E-05,3.415624436E-05
3.28,-8.596825678E-05,4.663488306E-05
3.294,-7.724990746E-05,5.779757436E-05
3.308,-6.715202574E-05,6.744826672E-05
3.322,-5.592322766E-05,7.542788982E-05
3.336,-4.382852047E-05,8.16165623E-05
3.35,-3.114334644E-05,8.593492445E-05
3.364,-1.814759117E-05,8.834459577E-05
3.378,-5.119680568E-06,8.884777532E-05
3.392,7.669114978E-06,8.748601973E-05
3.406,1.99600588E-05,8.433824948E-05
3.42,3.15119083E-05,7.951804847E-05
3.434,4.210536897E-05,7.317033386E-05
3.448,5.154696675E-05,6.546748385E-05
3.462,5.96722778E-05,5.66050192E-05
3.476,6.634846987E-05,4.679694E-05
3.49,7.14761246E-05,3.627082348E-05
3.504,7.499032618E-05,2.526278937E-05
3.518,7.686101657E-05,1.401243915E-05
3.532,7.709263268E-05,2.757872272E-06
3.546,7.572305479E-05,-8.269122338E-06
3.56,7.28219081E-05,-1.884760781E-05
3.574,6.848827155E-05,-2.877169062E-05
3.588,6.284785751E-05,-3.785428806E-05
3.602,5.604973495E-05,-4.59304088E-05
3.616,4.826267529E-05,-5.285989581E-05
3.63,3.96712052E-05,-5.85295924E-05
3.644,3.047145374E-05,-6.285490554E-05
3.658,2.086688248E-05,-6.578075282E-05
3.672,1.106398705E-05,-6.728189242E-05
3.686,1.268056069E-06,-6.736264727E-05
3.7,-8.320930068E-06,-6.605604634E-05
3.714,-1.751218365E-05,-6.34224168E-05
3.728,-2.612770666E-05,-5.954747022E-05
3.742,-3.40055377E-05,-5.45399348E-05
3.756,-4.100259457E-05,-4.852879287E-05
3.77,-4.699706808E-05,-4.166018863E-05
3.784,-5.189033209E-05,-3.409407591E-05
3.798,-5.560834579E-05,-2.600067838E-05
3.812,-5.810253416E-05,-1.755683652E-05
3.826,-5.93501432E-05,-8.942315534E-06
3.84,-5.935407689E-05,-3.361471168E-07
3.854,-5.814223204E-05,8.086924537E-06
3.868,-5.576635705E-05,1.615982615E-05
3.882,-5.230046836E-05,2.37263068E-05
3.896,-4.783886633E-05,3.064380197E-05
3.91,-4.249379863E-05,3.678596174E-05
3.924,-3.639282485E-05,4.204480235E-05
3.938,-2.967594017E-05,4.633244813E-05
3.952,-2.249251934E-05,4.958243995E-05
3.966,-1.499814396E-05,5.175059453E-05
3.98,-7.351376906E-06,5.281540812E-05
3.994,2.894526998E-07,5.277800686E-05
4.008,7.769392278E-06,5.166165428E-05
4.022,1.493987724E-05,4.951083503E-05
4.036,2.166155574E-05,4.638994107E-05
4.05,2.780687613E-05,4.238159371E-05
4.064,3.326239183E-05,3.758464122E-05
4.078,3.793074471E-05,3.21118767E-05
4.092,4.17322948E-05,2.608752575E-05
4.106,4.46063714E-05,1.964455659E-05
4.12,4.651212832E-05,1.292186792E-05
4.134,4.742899377E-05,6.061410986E-06
4.148,4.735671312E-05,-7.946972412E-07
4.162,4.631499073E-05,-7.507013739E-06
4.176,4.434274436E-05,-1.394150763E-05
4.19,4.149699293E-05,-1.997214537E-05
4.204,3.785140507E-05,-2.548327506E-05
4.218,3.349454199E-05,-3.037176663E-05
4.232,2.852783346E-05,-3.454886962E-05
4.246,2.306333059E-05,-3.794175672E-05
4.26,1.722128239E-05,-4.049472712E-05
4.274,1.112758626E-05,-4.217005108E-05
4.288,4.91116422E-06,-4.294844384E-05
4.302,-1.298682478E-06,-4.282916487E-05
4.316,-7.374887928E-06,-4.182974514E-05
4.33,-1.319515396E-05,-3.998535278E-05
4.344,-1.864435129E-05,-3.734781435E-05
4.358,-2.361674338E-05,-3.398431522E-05
4.372,-2.80179909E-05,-2.997580911E-05
4.386,-3.17668995E-05,-2.541517181E-05
4.4,-3.479687888E-05,-2.040513912E-05
4.414,-3.705708749E-05,-1.505607276E-05
4.428,-3.851324321E-05,-9.483601189E-06
4.442,-3.914808771E-05,-3.806184136E-06
4.456,-3.896149886E-05,1.857349053E-06
4.47,-3.797025278E-05,7.390237262E-06
4.484,-3.620744433E-05,1.268015242E-05
4.498,-3.37215814E-05,1.762144403E-05
4.512,-3.057537493E-05,2.211721899E-05
4.526,-2.684425284E-05,2.608121598E-05
4.54,-2.261463087E-05,2.943943822E-05
4.554,-1.79819788E-05,3.213151376E-05
4.568,-1.304872353E-05,3.411175802E-05
4.582,-7.922034387E-06,3.534992002E-05
4.596,-2.711537311E-06,3.583160015E-05
4.61,2.47299384E-06,3.555833417E-05
4.624,7.523920755E-06,3.454734549E-05
4.638,1.233795172E-05,3.283097409E-05
4.652,1.681823494E-05,3.045579777E-05
4.666,2.087629171E-05,2.748146696E-05
4.68,2.443375071E-05,2.397928095E-05
4.694,2.742384916E-05,2.003053785E-05
4.708,2.979267206E-05,1.572469572E-05
4.722,3.150010603E-05,1.115738528E-05
4.736,3.252049108E-05,6.428318134E-06
4.75,3.284295984E-05,1.639135466E-06
4.764,3.247146059E-05,-3.108756276E-06
4.778,3.142446726E-05,-7.716316941E-06
4.792,2.973438631E-05,-1.208892651E-05
4.806,2.74466764E-05,-1.613831851E-05
4.82,2.461870334E-05,-1.978435327E-05
4.834,2.131835767E-05,-2.295659514E-05
4.848,1.762246742E-05,-2.559566249E-05
4.862,1.361504247E-05,-2.765432435E-05
4.876,9.385390292E-06,-2.909832348E-05
4.89,5.026144919E-06,-2.990691172E-05
4.904,6.31252792E-07,-3.007308989E-05
4.918,-3.706040895E-06,-2.960355098E-05
4.932,-7.895161964E-06,-2.851833174E-05
4.946,-1.185009137E-05,-2.685018438E-05
4.96,-1.549112426E-05,-2.464368542E-05
4.974,-1.874646786E-05,-2.195410495E-05
4.988,-2.155364588E-05,-1.884606383E-05
5.002,-2.386068212E-05,-1.539201111E-05
5.016,-2.562704078E-05,-1.167055707E-05
5.03,-2.682430684E-05,-7.764700085E-06
5.044,-2.743659584E-05,-3.759987399E-06
5.058,-2.746068814E-05,2.573495175E-07
5.072,-2.690588939E-05,4.202244166E-06
5.086,-2.579362427E-05,7.992589007E-06
5.1,-2.415677682E-05,1.155093626E-05
5.114,-2.20387958E-05,1.480607019E-05
5.128,-1.949258831E-05,1.769441892E-05
5.142,-1.657922924E-05,2.0161278E-05
5.156,-1.336651783E-05,2.216182227E-05
5.17,-9.927415109E-06,2.366188791E-05
5.184,-6.3383983E-06,2.463851179E-05
5.198,-2.677769333E-06,2.508022079E-05
5.212,9.760450804E-07,2.498706927E-05
5.226,4.546164821E-06,2.437042873E-05
5.24,7.958863533E-06,2.325253877E-05
5.254,1.114507804E-05,2.166583357E-05
5.268,1.404178924E-05,1.965206285E-05
5.282,1.659324714E-05,1.726123038E-05
5.296,1.875201666E-05,1.455037642E-05
5.31,2.047982526E-05,1.158223378E-05
5.324,2.174819804E-05,8.423788774E-06
5.338,2.253887116E-05,5.144780255E-06
5.352,2.284397918E-05,1.81617026E-06
5.366,2.266601712E-05,-1.491380237E-06
5.38,2.201758291E-05,-4.708997798E-06
5.394,2.092091041E-05,-7.771014155E-06
5.408,1.94072077E-05,-1.061628611E-05
5.422,1.75158191E-05,-1.318939161E-05
5.436,1.529323274E-05,-1.544167923E-05
5.45,1.279195835E-05,-1.733215192E-05
5.464,1.006930227E-05,-1.882817007E-05
5.478,7.18606794E-06,-1.990596296E-05
5.492,4.205211367E-06,-2.055094239E-05
5.506,1.190481061E-06,-2.075781633E-05
5.52,-1.794928414E-06,-2.053050502E-05
5.534,-4.689681142E-06,-1.988186605E-05
5.548,-7.435536335E-06,-1.883323875E-05
5.562,-9.978492248E-06,-1.741382195E-05
5.576,-1.226981581E-05,-1.565990222E-05
5.59,-1.426693924E-05,-1.361395242E-05
5.604,-1.593420822E-05,-1.132362269E-05
5.618,-1.724346979E-05,-8.840647451E-06
5.632,-1.817449178E-05,-6.219693427E-06
5.646,-1.871520935E-05,-3.517173843E-06
5.66,-1.886179794E-05,-7.900543144E-07
5.674,-1.861857556E-05,1.905324853E-06
5.688,-1.799774083E-05,4.514386148E-06
5.702,-1.701895634E-05,6.985389879E-06
5.716,-1.570878982E-05,9.270426414E-06
5.73,-1.410002811E-05,1.132630758E-05
5.744,-1.223088129E-05,1.311534176E-05
5.758,-1.014409567E-05,1.460598003E-05
5.772,-7.885996027E-06,1.577332365E-05
5.786,-5.505478105E-06,1.659948635E-05
5.8,-3.052972718E-06,1.707380782E-05
5.814,-5.794029302E-07,1.719291811E-05
5.828,1.864844879E-06,1.696065532E-05
5.842,4.230916049E-06,1.638784208E-05
5.856,6.472430039E-06,1.549192871E-05
5.87,8.546353024E-06,1.429651356E-05
5.884,1.041378538E-05,1.283075269E-05
5.898,1.204065083E-05,1.11286735E-05
5.912,1.339827629E-05,9.228407649E-06
5.926,1.446385383E-05,7.171360205E-06
5.94,1.522077881E-05,5.001332553E-06
5.954,1.565886038E-05,2.763616873E-06
5.968,1.577440359E-05,5.040802184E-07
5.982,1.557016419E-05,-1.731744147E-06
5.996,1.505518005E-05,-3.899541104E-06
6.01,1.424448498E-05,-5.95705753E-06
6.024,1.315871288E-05,-7.864890624E-06
6.038,1.182360196E-05,-9.587207082E-06
6.052,1.026941039E-05,-1.109238106E-05
6.066,8.530255961E-06,-1.235354065E-05
6.08,6.643393537E-06,-1.334901444E-05
6.094,4.648444946E-06,-1.406267177E-05
6.108,2.586596308E-06,-1.448415226E-05
6.122,4.997782755E-07,-1.460898231E-05
6.136,-1.570155436E-06,-1.443857829E-05
6.15,-3.582236072E-06,-1.398013823E-05
6.164,-5.49715976E-06,-1.324642564E-05
6.178,-7.278025415E-06,-1.225545099E-05
6.192,-8.891017655E-06,-1.103005819E-05
6.206,-1.030602293E-05,-9.597424816E-06
6.22,-1.149716839E-05,-7.98848636E-06
6.234,-1.244327443E-05,-6.237295916E-06
6.248,-1.312821367E-05,-4.380331759E-06
6.262,-1.354117056E-05,-2.455766072E-06
6.276,-1.367679793E-05,-5.027086015E-07
6.29,-1.353526823E-05,1.439560593E-06
6.304,-1.312221969E-05,3.332355079E-06
6.318,-1.244859879E-05,5.13832857E-06
6.332,-1.15304028E-05,6.822190334E-06
6.346,-1.038832778E-05,8.351376354E-06
6.36,-9.047328875E-06,9.696663998E-06
6.374,-7.536101689E-06,1.083271895E-05
6.388,-5.886494642E-06,1.17385644E-05
6.402,-4.132863574E-06,1.239796397E-05
6.416,-2.311380952E-06,1.279971126E-05
6.43,-4.593128024E-07,1.293782087E-05
6.444,1.385722808E-06,1.281161726E-05
6.458,3.186501603E-06,1.242571994E-05
6.472,4.906928938E-06,1.178992532E-05
6.486,6.512751494E-06,1.091898739E-05
6.5,7.972231067E-06,9.832301624E-06
6.514,9.256767346E-06,8.553497939E-06
6.528,1.034145749E-05,7.109950739E-06
6.542,1.120558144E-05,5.532215384E-06
6.556,1.183300333E-05,3.853402106E-06
6.57,1.221248082E-05,2.108499595E-06
6.584,1.233787614E-05,3.336615645E-07
6.598,1.220826429E-05,-1.43452957E-06
6.612,1.182793595E-05,-3.159807218E-06
6.626,1.120629487E-05,-4.806958402E-06
6.64,1.035765145E-05,-6.342539887E-06
6.654,9.300916247E-06,-7.735558058E-06
6.668,8.059199682E-06,-8.95809859E-06
6.682,6.659325456E-06,-9.985892889E-06
6.696,5.131267705E-06,-1.079880945E-05
6.71,3.507523095E-06,-1.138125978E-05
6.724,1.822430725E-06,-1.172251026E-05
6.738,1.114537825E-07,-1.181689308E-05
6.752,-1.589562154E-06,-1.166391161E-05
6.766,-3.245138724E-06,-1.12682378E-05
6.78,-4.820906565E-06,-1.063960105E-05
6.794,-6.284323598E-06,-9.792570997E-06
6.808,-7.605354564E-06,-8.746238238E-06
6.822,-8.757097297E-06,-7.52379964E-06
6.836,-9.716342251E-06,-6.152056871E-06
6.85,-1.046405321E-05,-4.66083864E-06
6.864,-1.098575873E-05,-3.082358907E-06
6.878,-1.127184568E-05,-1.450524735E-06
6.892,-1.131774855E-05,1.997913501E-07
6.906,-1.112403012E-05,1.833498828E-06
6.92,-1.069635177E-05,3.416040282E-06
6.934,-1.004533391E-05,4.914129816E-06
6.948,-9.186309551E-06,6.296462692E-06
6.962,-8.138976314E-06,7.534380669E-06
6.976,-6.92695455E-06,8.602478494E-06
6.99,-5.57726125E-06,9.47913823E-06
7.004,-4.11971137E-06,1.014697972E-05
7.018,-2.586259815E-06,1.059321733E-05
7.032,-1.010298686E-06,1.080991515E-05
7.046,5.74074606E-07,1.079413524E-05
7.06,2.132802093E-06,1.054797571E-05
7.074,3.632606286E-06,1.007849807E-05
7.088,5.041711038E-06,9.39754569E-06
7.102,6.330526215E-06,8.521457743E-06
7.116,7.472281E-06,7.470685274E-06
7.13,8.443591844E-06,6.269318316E-06
7.144,9.224952592E-06,4.944534958E-06
7.158,9.801136096E-06,3.525985027E-06
7.172,1.016149867E-05,2.045122475E-06
7.186,1.030018104E-05,5.345017379E-07
7.2,1.021620166E-05,-9.729459498E-07
7.214,9.913441085E-06,-2.444639866E-06
7.228,9.400518057E-06,-3.849064317E-06
7.242,8.690561063E-06,-5.156454311E-06
7.256,7.800880967E-06,-6.339437083E-06
7.27,6.752552887E-06,-7.373615256E-06
7.284,5.569917385E-06,-8.238078858E-06
7.298,4.280012876E-06,-8.915835124E-06
7.312,2.91195265E-06,-9.394146977E-06
7.326,1.496261094E-06,-9.664773268E-06
7.34,6.41845049E-08,-9.724106142E-06
7.354,-1.353007604E-06,-9.573203338E-06
7.368,-2.724714772E-06,-9.217715654E-06
7.382,-4.021675748E-06,-8.66771223E-06
7.396,-5.216601522E-06,-7.937408655E-06
7.41,-6.284757228E-06,-7.044805069E-06
7.424,-7.204480219E-06,-6.011243476E-06
7.438,-7.957623243E-06,-4.860895228E-06
7.452,-8.529913489E-06,-3.620191152E-06
7.466,-8.911220336E-06,-2.317207968E-06
7.48,-9.095726823E-06,-9.810254974E-07
7.494,-9.082002157E-06,3.589303268E-07
7.508,-8.8729749E-06,1.673543523E-06
7.522,-8.475808763E-06,2.934648271E-06
7.536,-7.9016852E-06,4.115638915E-06
7.55,-7.165499044E-06,5.192036318E-06
7.564,-6.285475394E-06,6.141998322E-06
7.578,-5.282717632E-06,6.946763527E-06
7.592,-4.18069791E-06,7.591019344E-06
7.606,-3.004702579E-06,8.063187148E-06
7.62,-1.781245886E-06,8.355619377E-06
7.634,-5.374657798E-07,8.464705585E-06
7.648,6.994841804E-07,8.39088656E-06
7.662,1.903032948E-06,8.138577799E-06
7.676,3.047766776E-06,7.71600567E-06
7.69,4.109968083E-06,7.134961556E-06
7.704,5.068106865E-06,6.410481058E-06
7.718,5.903274458E-06,5.560456938E-06
7.732,6.599550971E-06,4.605195796E-06
7.746,7.144299407E-06,3.566929623E-06
7.76,7.528381328E-06,2.46929411E-06
7.774,7.746290821E-06,1.33678616E-06
7.788,7.796205471E-06,1.942132165E-07
7.802,7.679954966E-06,-9.338530535E-07
7.816,7.402909826E-06,-2.02360657E-06
7.83,6.973794534E-06,-3.052508656E-06
7.844,6.404430935E-06,-3.999751277E-06
7.858,5.70941924E-06,-4.846672254E-06
7.872,4.905765198E-06,-5.577114334E-06
7.886,4.012463009E-06,-6.177721462E-06
7.9,3.050044295E-06,-6.638167217E-06
7.914,2.040103968E-06,-6.951312001E-06
7.928,1.004814035E-06,-7.113287316E-06
7.942,-3.35636242E-08,-7.12350711E-06
7.956,-1.053154758E-06,-6.984607828E-06
7.97,-2.032930308E-06,-6.702320361E-06
7.984,-2.953134548E-06,-6.285278499E-06
7.998,-3.795675235E-06,-5.744769807E-06
8.012,-4.54446834E-06,-5.094435898E-06
8.026,-5.185731111E-06,-4.349930046E-06
8.04,-5.708218603E-06,-3.528540738E-06
8.054,-6.103400178E-06,-2.648790267E-06
8.068,-6.365573911E-06,-1.730017713E-06
8.082,-6.491918277E-06,-7.919557309E-07
8.096,-6.482481879E-06,1.456896615E-07
8.11,-6.340113288E-06,1.063647418E-06
8.124,-6.070334299E-06,1.943469642E-06
8.138,-5.681161034E-06,2.767892021E-06
8.152,-5.182878245E-06,3.52115981E-06
8.166,-4.58777303E-06,4.189313611E-06
8.18,-3.909834781E-06,4.760430275E-06
8.194,-3.164428663E-06,5.224815352E-06
8.208,-2.36795023E-06,5.575144685E-06
8.222,-1.537468853E-06,5.806553882E-06
8.236,-6.903676332E-07,5.91667555E-06
8.25,1.560127925E-07,5.905625239E-06
8.264,9.847194721E-07,5.775938081E-06
8.278,1.779514835E-06,5.532459025E-06
8.292,2.525180901E-06,5.182190412E-06
8.306,3.207794758E-06,4.734101321E-06
8.32,3.814970851E-06,4.198903737E-06
8.334,4.336066439E-06,3.588801014E-06
8.348,4.762347481E-06,2.917214447E-06
8.362,5.087113055E-06,2.198493968E-06
8.376,5.305777324E-06,1.447619022E-06
8.39,5.41590889E-06,6.798956261E-07
8.404,5.417228198E-06,-8.934454004E-08
8.418,5.311564418E-06,-8.45037458E-07
8.432,5.102773903E-06,-1.572667316E-06
8.446,4.796622965E-06,-2.258529517E-06
8.46,4.400638232E-06,-2.889971912E-06
8.474,3.923928296E-06,-3.455610557E-06
8.488,3.376980732E-06,-3.945516919E-06
8.502,2.771438837E-06,-4.351374028E-06
8.516,2.119862619E-06,-4.666599746E-06
8.53,1.435478672E-06,-4.886435922E-06
8.544,7.319235716E-07,-5.008002818E-06
8.558,2.298540718E-08,-5.0303188E-06
8.572,-6.776521029E-07,-4.954285848E-06
8.586,-1.35665862E-06,-4.782641968E-06
8.6,-2.001295283E-06,-4.519882077E-06
8.614,-2.599638154E-06,-4.172149408E-06
8.628,-3.14078359E-06,-3.747099829E-06
8.642,-3.615032494E-06,-3.253741891E-06
8.656,-4.014050799E-06,-2.702255661E-06
8.67,-4.331003936E-06,-2.103793683E-06
8.684,-4.560663498E-06,-1.470267601E-06
8.698,-4.699484728E-06,-8.14124134E-07
8.712,-4.745653942E-06,-1.481141805E-07
8.726,-4.699105426E-06,5.149411028E-07
8.74,-4.561507827E-06,1.162383404E-06
8.754,-4.336220482E-06,1.781945745E-06
8.768,-4.028220605E-06,2.361972647E-06
8.782,-3.644002644E-06,2.891628395E-06
8.796,-3.191451564E-06,3.361090025E-06
8.81,-2.679692203E-06,3.761721856E-06
8.824,-2.118917199E-06,4.086228681E-06
8.838,-1.520196347E-06,4.328785043E-06
8.852,-8.952705514E-07,4.485138352E-06
8.866,-2.563338107E-07,4.552684026E-06
8.88,3.841931231E-07,4.530511225E-06
8.894,1.01389355E-06,4.41941824E-06
8.908,1.620586144E-06,4.221897044E-06
8.922,2.192552742E-06,3.942087051E-06
8.936,2.718758582E-06,3.585698623E-06
8.95,3.189060988E-06,3.15990739E-06
8.964,3.59440266E-06,2.673220993E-06
8.978,3.926985914E-06,2.135320326E-06
8.992,4.180424464E-06,1.556877911E-06
9.006,4.349869712E-06,9.493564371E-07
9.02,4.432108866E-06,3.247909599E-07
9.034,4.425632702E-06,-3.044413784E-07
9.048,4.330671298E-06,-9.258599457E-07
9.062,4.149196614E-06,-1.527123112E-06
9.076,3.884891426E-06,-2.09627005E-06
9.09,3.543084741E-06,-2.621957182E-06
9.104,3.130654484E-06,-3.093684593E-06
9.118,2.65589889E-06,-3.502007853E-06
9.132,2.128378695E-06,-3.838730865E-06
9.146,1.558732855E-06,-4.097075647E-06
9.16,9.584710818E-07,-4.271825335E-06
9.174,3.397470541E-07,-4.359437164E-06
9.188,-2.848833947E-07,-4.358122729E-06
9.202,-9.027143913E-07,-4.267893441E-06
9.216,-1.501147435E-06,-4.090569784E-06
9.23,-2.067948884E-06,-3.829753692E-06
9.244,-2.591502209E-06,-3.49076415E-06
9.258,-3.061049689E-06,-3.080536859E-06
9.272,-3.466918405E-06,-2.607489621E-06
9.286,-3.800725583E-06,-2.081355834E-06
9.3,-4.05555872E-06,-1.512989218E-06
9.314,-4.226126396E-06,-9.141435591E-07
9.328,-4.308876242E-06,-2.972318517E-07
9.342,-4.302077176E-06,3.249302503E-07
9.356,-4.205863768E-06,9.39391371E-07
9.37,-4.022241399E-06,1.533336119E-06
9.384,-3.755051696E-06,2.094355765E-06
9.398,-3.409898603E-06,2.610712044E-06
9.412,-2.994036328E-06,3.071588306E-06
9.426,-2.516221248E-06,3.467322441E-06
9.44,-1.986530694E-06,3.789616372E-06
9.454,-1.416152283E-06,4.031717333E-06
9.468,-8.171481926E-07,4.188566756E-06
9.482,-2.021993402E-07,4.25691325E-06
9.496,4.156650366E-07,4.235386953E-06
9.51,1.023346554E-06,4.124533343E-06
9.524,1.6079595E-06,3.926805514E-06
9.538,2.157109083E-06,3.646514844E-06
9.552,2.659159934E-06,3.28974091E-06
9.566,3.103488845E-06,2.864202452E-06
9.58,3.480716063E-06,2.379092047E-06
9.594,3.782909904E-06,1.844878036E-06
9.608,4.003759998E-06,1.273077968E-06
9.622,4.138715219E-06,6.760085278E-07
9.636,4.185083071E-06,6.651745309E-08
9.65,4.142088229E-06,-5.42296617E-07
9.664,4.0108888E-06,-1.13737011E-06
9.678,3.794549863E-06,-1.705959913E-06
9.692,3.497974812E-06,-2.235921783E-06
9.706,3.127795981E-06,-2.71597551E-06
9.72,2.692226969E-06,-3.135950871E-06
9.734,2.200879983E-06,-3.487008818E-06
9.748,1.664552275E-06,-3.761832921E-06
9.762,1.094986515E-06,-3.954786767E-06
9.776,5.046105019E-07,-4.062033767E-06
9.79,-9.373790403E-08,-4.081616728E-06
9.804,-6.870943888E-07,-4.01349542E-06
9.818,-1.26265393E-06,-3.859541372E-06
9.832,-1.80805222E-06,-3.623490102E-06
9.846,-2.311636414E-06,-3.310851941E-06
9.86,-2.762719128E-06,-2.928783602E-06
9.874,-3.151809986E-06,-2.485923485E-06
9.888,-3.470819559E-06,-1.992194593E-06
9.902,-3.7132312E-06,-1.458579607E-06
9.916,-3.874237006E-06,-8.968733346E-07
9.93,-3.950834996E-06,-3.194182259E-07
9.944,-3.941885494E-06,2.611709941E-07
9.958,-3.848125644E-06,8.322872837E-07
9.972,-3.672141959E-06,1.381609488E-06
9.986,-3.418301755E-06,1.897372507E-06
10,-3.092645279E-06,2.368623373E-06
