"Freq [GHz]","re(S(Antenna1_1_1,Antenna1_1_1)) []","im(S(Antenna1_1_1,Antenna1_1_1)) []"
3,-0.198874305066988,-0.172985204063854
3.0175,-0.208647548451741,-0.157977062377055
3.035,-0.217191406829963,-0.14218008336583
3.0525,-0.224419883304331,-0.125682789070896
3.07,-0.230249129765012,-0.108587582629446
3.0875,-0.234600641590989,-0.0910119392047975
3.105,-0.237404827145426,-0.0730887793857804
3.1225,-0.238604763807745,-0.0549659540230005
3.14,-0.238159943036347,-0.0368047993082188
3.1575,-0.236049795796814,-0.018777752462432
3.175,-0.23227677807823,-0.0010650560324069
3.1925,-0.226868788111123,0.0161493741520208
3.21,-0.219880688148221,0.0326827849174012
3.2275,-0.211379299708511,0.0483667431260196
3.245,-0.20146760596729,0.0630227451297954
3.2625,-0.190299424401007,0.0764893196848415
3.28,-0.178037889996105,0.0886428003145899
3.2975,-0.164861453356634,0.0993899775831963
3.315,-0.150956458098858,0.108670778098929
3.3325,-0.136509062074745,0.116458858876342
3.35,-0.121697126546919,0.122759916243408
3.3675,-0.106682766603695,0.12760770257826
3.385,-0.0916062627978418,0.131057963303211
3.4025,-0.0765819689441355,0.133180729862177
3.42,-0.0616967124972683,0.134051607647802
3.4375,-0.0470109783300926,0.133742856225606
3.455,-0.0326219216282905,0.13244990496843
3.4725,-0.018407199732226,0.130107580894217
3.49,-0.00437361455978298,0.126695726444356
3.5075,0.00945303803138698,0.122168557739578
3.525,0.023017797544434,0.116462966138414
3.5425,0.0362294847984025,0.10951008529893
3.56,0.0489577587158998,0.101249014977111
3.5775,0.0610348922375331,0.0916412950322893
3.595,0.0722624013094108,0.0806845585863399
3.6125,0.0824221439040211,0.0684237880004511
3.63,0.0912910000182814,0.054958761567196
3.6475,0.0986578039477514,0.040446604704984
3.665,0.104340878490042,0.0250988210563373
3.6825,0.108204358486361,0.00917273391466458
3.7,0.110171514861226,-0.00704213804443375
3.7175,0.110233507649461,-0.0232416767487643
3.735,0.108452394300259,-0.0391271548457204
3.7525,0.104957764646111,-0.0544257019634811
3.77,0.099937015122443,-0.0689091760461631
3.7875,0.0936199482672832,-0.082409429201821
3.805,0.0862590183112708,-0.0948282358621161
3.8225,0.0781070699129024,-0.106140628524296
3.84,0.069394772886782,-0.116391021592261
3.8575,0.0603100946465075,-0.125682236833101
3.875,0.0509820486952044,-0.134158301091828
3.8925,0.0417591306967907,-0.142191824754682
3.91,0.0321906749710696,-0.149894797897081
3.9275,0.0221319559415918,-0.157317920869842
3.945,0.011420634232734,-0.164437119207088
3.9625,-9.56390425932725E-05,-0.171151387860884
3.98,-0.0125323264079598,-0.177289939117568
3.9975,-0.0259448210852965,-0.182627966214548
4.015,-0.0403116164566635,-0.186909392612416
4.0325,-0.0555258145298587,-0.189874196040897
4.05,-0.071396084392451,-0.191287362610866
4.0675,-0.0876571730663367,-0.19096630013741
4.085,-0.103989034903423,-0.188803650496446
4.1025,-0.120042691737248,-0.184782882208081
4.12,-0.135470167543551,-0.178984775269212
4.1375,-0.149955343621417,-0.171583857807469
4.155,-0.163242411442467,-0.162834921465633
4.1725,-0.175158784605455,-0.153050818175037
4.19,-0.18562985624615,-0.142573710683468
4.2075,-0.194683804827105,-0.131742707553721
4.225,-0.202445678925807,-0.120861275186208
4.2425,-0.209121125755142,-0.110167929254528
4.26,-0.214971250773131,-0.0998134462076062
4.2775,-0.220281087513521,-0.089847221441657
4.295,-0.225324909710342,-0.0802144910028181
4.3125,-0.230332046351425,-0.0707650174182706
4.33,-0.235830537581773,-0.0612152166900981
4.3475,-0.241436863707822,-0.051121884694946
4.365,-0.246997700471288,-0.040244244717835
4.3825,-0.252274110867959,-0.0284055160769986
4.4,-0.256967298909469,-0.0155179838508264
4.4175,-0.26075105945258,-0.00159837852958748
4.435,-0.263307460701171,0.0132280600768194
4.4525,-0.264361959075378,0.0287352704873418
4.47,-0.263714204815516,0.0446150088735164
4.4875,-0.261261245332963,0.0605044862565523
4.505,-0.257010626394743,0.0760200972642628
4.5225,-0.251081947601628,0.0907936820345558
4.54,-0.243696639874769,0.104507479816698
4.5575,-0.235156974092233,0.11692404980638
4.575,-0.225816453081405,0.127907941620254
4.5925,-0.216044665003589,0.137436744502075
4.61,-0.206190287217117,0.145600245367703
4.6275,-0.196546160366619,0.152587669130304
4.645,-0.18732017551074,0.158664232697652
4.6625,-0.178615147109423,0.164139386567386
4.68,-0.170419936637143,0.169330025556979
4.6975,-0.162612935670459,0.174522526330729
4.715,-0.154977730181961,0.179937650539119
4.7325,-0.147229480804239,0.185702114769698
4.75,-0.139049399961958,0.191829990989816
4.7675,-0.129707659899794,0.198433465935503
4.785,-0.119257543933125,0.204801939513199
4.8025,-0.107643033896062,0.210599805573753
4.82,-0.0949184971589982,0.215482648209066
4.8375,-0.0812451958903232,0.219132617530398
4.855,-0.0668769038826341,0.22129054881837
4.8725,-0.0521363104977593,0.221781609811548
4.89,-0.0373847974169065,0.220531976378505
4.9075,-0.0229888042954634,0.217574993799571
4.925,-0.00928629452292205,0.213046379822985
4.9425,0.00344323340549808,0.207169153949106
4.96,0.0150021587240027,0.200230020805292
4.9775,0.0252892642487669,0.192549789452895
4.995,0.0343040106357032,0.184450990572809
5.0125,0.0421402701643187,0.176226103528314
5.03,0.0489703257238434,0.168109702955589
5.0475,0.0550209422572486,0.160257393151315
5.065,0.0605441253395305,0.152733665593156
5.0825,0.065785713477403,0.145509867271658
5.1,0.0709551544730772,0.138472403202376
5.1175,0.0761996724577098,0.131440225078817
5.135,0.0815855570687738,0.124189689277657
5.1525,0.0870885495111384,0.1164841005738
5.17,0.0925943401770413,0.108104771100122
5.1875,0.0979091280746909,0.098880267244915
5.205,0.102779133017896,0.0887107061811934
5.2225,0.106917006531669,0.077584479529623
5.24,0.110032354171874,0.0655855715563401
5.2575,0.111863136687922,0.0528906226392638
5.275,0.112204607086498,0.039755964784743
5.2925,0.110932678060799,0.0264959140962386
5.31,0.108019176853186,0.0134545360587625
5.3275,0.10353727639809,0.000973806350692408
5.345,0.0976564086725006,-0.0106385018997043
5.3625,0.0906270650706052,-0.0211378084931631
5.38,0.082756956708957,-0.0303654863531549
5.3975,0.0743809343131717,-0.0382628985366789
5.415,0.0658277557170398,-0.0448751008845188
5.4325,0.0573871652186521,-0.0503436600264314
5.45,0.0492807705120975,-0.05488916942416
5.4675,0.0416398627104609,-0.0587851354381681
5.485,0.0344926530464059,-0.0623258383874329
5.5025,0.0277624604008081,-0.0657914519793718
5.52,0.0212772690721708,-0.0694140547289988
5.5375,0.0147898979316497,-0.0733481477975753
5.555,0.00800689974699297,-0.0776489007165906
5.5725,0.000623359112361319,-0.0822606134871621
5.59,-0.0076399207235886,-0.0870168792153988
5.6075,-0.0170006833438457,-0.0916527532454835
5.625,-0.0275847224204906,-0.0958279994635684
5.6425,-0.0397641277229649,-0.0990844940658052
5.66,-0.0529901735032872,-0.100894083221015
5.6775,-0.0669336272404448,-0.10095208591157
5.695,-0.0811818148750668,-0.0990627447922513
5.7125,-0.095277001237585,-0.0951603044003282
5.73,-0.108759462683393,-0.0893168293541664
5.7475,-0.121210812711685,-0.0817359680416428
5.765,-0.13229312013728,-0.072733307962887
5.7825,-0.141779791834842,-0.062705342365477
5.8,-0.149575034203245,-0.0520902354555537
5.8175,-0.155719873846371,-0.0413244174993269
5.835,-0.160384091243798,-0.0307994761094345
5.8525,-0.163821146254672,-0.0208843025300511
5.87,-0.166442375793607,-0.0117877348752958
5.8875,-0.168680059934759,-0.00348725804785771
5.905,-0.170900510757569,0.004123443443131
5.9225,-0.173403267663272,0.0112687763201628
5.94,-0.176386486207245,0.0182627648456231
5.9575,-0.179923248870135,0.0254710402704955
5.975,-0.183951248664464,0.0332672466671396
5.9925,-0.188276925516582,0.0419883845175322
6.01,-0.192593655727586,0.0518937222505361
6.0275,-0.196512157137534,0.0631315453884054
6.045,-0.199600020155305,0.0757172195259496
6.0625,-0.201426334164442,0.0895248974267576
6.08,-0.201444589259603,0.104478923715265
6.0975,-0.199422703837982,0.119901228508446
6.115,-0.195245487441242,0.135298123112332
6.1325,-0.188949824129429,0.150162108004554
6.15,-0.180720705522903,0.164020354373084
6.1675,-0.17087214297846,0.176479204842508
6.185,-0.159815058628699,0.187260139213916
6.2025,-0.148015572022565,0.196223562212095
6.22,-0.135948058864544,0.203378044012564
6.2375,-0.124047867271971,0.208874150066478
6.255,-0.112668586921704,0.212983581202874
6.2725,-0.102048279309025,0.216065848180292
6.29,-0.0922881448333929,0.218525976433875
6.3075,-0.0833458200352221,0.220767649414616
6.325,-0.0750439965087821,0.223146662542867
6.3425,-0.0670934825194626,0.225929528795119
6.36,-0.0591283480150717,0.229261555601502
6.3775,-0.0507495508004293,0.233147753475943
6.395,-0.0415725615349073,0.23744863634511
6.4125,-0.0312740757975458,0.241891461496125
6.43,-0.0196329665313613,0.246095884519541
6.4475,-0.00656118432913748,0.249611528922371
6.465,0.00787869767535922,0.251963738188831
6.4825,0.0234712701248117,0.252702914415454
6.5,0.0398618452680205,0.25145243946397
6.5175,0.0567456039415447,0.247505340737987
6.535,0.0731373966328673,0.241133581504649
6.5525,0.0884723782884357,0.232518172788384
6.57,0.102269472909866,0.221997371490072
6.5875,0.114175641153381,0.210031160495559
6.605,0.123996336832174,0.197153822453774
6.6225,0.13170919121866,0.183919640781499
6.64,0.137459708569403,0.170847406927902
6.6575,0.141539605586499,0.158369478957547
6.675,0.14435019602491,0.146790621638938
6.6925,0.146354733831536,0.136260819645534
6.71,0.148024734511199,0.126764799827185
6.7275,0.149785887623976,0.118129275342128
6.745,0.15196919677802,0.110047105712079
6.7625,0.15477243735812,0.102115836002046
6.78,0.158235963272829,0.0938866063323411
6.7975,0.162235428413977,0.0849183573371236
6.815,0.166492263576664,0.074831702799057
6.8325,0.170600936525557,0.0633568532419351
6.85,0.174070302826156,0.0503705529467786
6.8675,0.176374898743825,0.0359180813321576
6.885,0.1770109810681,0.0202178610565618
6.9025,0.17555158775606,0.00364796382512862
6.92,0.171694933021581,-0.0132843626655227
6.9375,0.165301061234758,-0.0299872866571899
6.955,0.155877068358998,-0.0455573121838639
6.9725,0.144409592136701,-0.0593814183438994
6.99,0.131418513600507,-0.0710744202780476
7.0075,0.117503360112633,-0.0804284984507592
7.025,0.10328314576153,-0.0874269548753887
7.0425,0.089335470007602,-0.0922382530567474
7.06,0.0761410964235828,-0.0951912426866299
7.0775,0.0640396045131783,-0.0967343606112541
7.095,0.053200525856651,-0.0973831913887621
7.1125,0.04361276435477,-0.0976619098163569
7.13,0.0350932202078249,-0.0980447043918495
7.1475,0.0273135776218918,-0.0989032421052363
7.165,0.0198423715412337,-0.100465587968967
7.1825,0.0121979004537183,-0.102790804280845
7.2,0.00390645471825208,-0.10576184425679
7.2175,-0.0054402100735925,-0.109097483039962
7.235,-0.016134153412273,-0.112382082793576
7.2525,-0.0283126062384388,-0.115110160124401
7.27,-0.0419355105766099,-0.116741197113741
7.2875,-0.0567817155888831,-0.116759063116624
7.305,-0.0724644102995851,-0.114729903340502
7.3225,-0.0884644096210968,-0.110352455302222
7.34,-0.10417807003046,-0.103495469805505
7.3575,-0.118975079652335,-0.0942181718884839
7.375,-0.132260299196691,-0.082771379609719
7.3925,-0.142961761872451,-0.0694493775073693
7.41,-0.151270665260008,-0.0553034334760417
7.4275,-0.157182654292705,-0.0409646065777112
7.445,-0.160880398674914,-0.0270203764940384
7.4625,-0.162708341935805,-0.0139591573468135
7.48,-0.16313153232213,-0.00212597620061895
7.4975,-0.1626829255288,0.00830633065548914
7.515,-0.161904667018931,0.0173476567343544
7.5325,-0.161289421030176,0.025182021629471
7.55,-0.161227762188192,0.0321408899688653
7.5675,-0.161966992022144,0.0386613049839336
7.585,-0.163585553473036,0.0452332565312344
7.6025,-0.165985612101815,0.0523417817830334
7.62,-0.168904512587423,0.0604098191189684
7.6375,-0.17194389035673,0.069747750301123
7.655,-0.174613411787215,0.0805148811588803
7.6725,-0.176384614791419,0.0926968943295355
7.69,-0.176749274412955,0.106101680227282
7.7075,-0.175276232587485,0.120374074912652
7.725,-0.171660758373303,0.135028095067708
7.7425,-0.165761234901458,0.149493452785157
7.76,-0.15761923307532,0.163171641243267
7.7775,-0.14746070585868,0.1754958569456
7.795,-0.135677955954233,0.185988573222165
7.8125,-0.122794003046627,0.194310753146717
7.83,-0.109613674710274,0.199867269608163
7.8475,-0.0968071428362543,0.203279614384927
7.865,-0.0848679362735875,0.204866739491635
7.8825,-0.0741551097145492,0.205073535471444
7.9,-0.0648620419284017,0.204420709869855
7.9175,-0.0570028333891139,0.20344773391819
7.935,-0.0504175004923749,0.20265477555696
7.9525,-0.0447952440296439,0.202449590485646
7.97,-0.0397132362009179,0.203104794268866
7.9875,-0.0346868044564344,0.204729845372871
8.005,-0.0292257491130776,0.207260543762878
8.0225,-0.0228909273240957,0.210467045581015
8.04,-0.0153452282610131,0.213979495074758
8.0575,-0.00639365291642353,0.217328570134549
8.075,0.00399166282027329,0.219996710027799
8.0925,0.0156640953223037,0.221474696943222
8.11,0.0283136487429013,0.22131770768415
8.1275,0.041495438143892,0.219194995210264
8.145,0.0546726474570081,0.21492799859385
8.1625,0.0672695675118586,0.208512851609314
8.18,0.0787292588601772,0.200124847798907
8.1975,0.0885698756632435,0.190104265207898
8.215,0.0964337840965537,0.178924870568657
8.2325,0.102124306151249,0.167148218172009
8.25,0.105626149557947,0.155368348958215
8.2675,0.106822870603908,0.144493218326846
8.285,0.106569569081555,0.134807082638593
8.3025,0.105379392908764,0.126541683524347
8.32,0.103796900806936,0.119748202846664
8.3375,0.102338559613965,0.114298809925823
8.355,0.101437248293097,0.109906989960524
8.3725,0.101396470138333,0.106164316067635
8.39,0.102358921195356,0.102589664801166
8.4075,0.104292546174339,0.0986856334503704
8.425,0.106995389250329,0.0939962193481911
8.4425,0.110118603000665,0.0881597336393183
8.46,0.113205111562188,0.0809514494181063
8.4775,0.115739822140072,0.0723115705062534
8.495,0.117206103761367,0.0623556395069731
8.5125,0.117142620763368,0.05136632510353
8.53,0.115194583513145,0.0397674539610632
8.5475,0.111154061080716,0.0280829854580183
8.565,0.104985130682643,0.0168851829338315
8.5825,0.0968312005497067,0.00673735516817648
8.6,0.0870036790326797,-0.00186288730016307
8.6175,0.0759530864455703,-0.00853395282767047
8.635,0.0642255221754047,-0.013048898987217
8.6525,0.05240892419683,-0.0153582873484974
8.67,0.0410746350076958,-0.0155947817185293
8.6875,0.0307203068500384,-0.0140588748505085
8.705,0.0222250055919121,-0.0111342812486491
8.7225,0.0152797132623259,-0.00771465131592561
8.74,0.0097736337344789,-0.00432910170468874
8.7575,0.00543414841176643,-0.00142485522133421
8.775,0.00186388364305057,0.00067912710263413
8.7925,-0.00140978866317276,0.0018238932455785
8.81,-0.00487816923790392,0.00202457380493586
8.8275,-0.00899356756296309,0.00146558777591226
8.845,-0.0141165843380904,0.000477740012847491
8.8625,-0.0204737844002935,-0.000500176417689923
8.88,-0.0281300723251272,-0.000971095248047781
8.8975,-0.0369785239937601,-0.000435408254726188
8.915,-0.0467486025156096,0.00155315979421521
8.9325,-0.0570317839629356,0.00533737264574518
8.95,-0.0673218288383515,0.011117212446301
8.9675,-0.0770654409787691,0.0189255743499142
8.985,-0.0857180042485053,0.0286214186126109
9.0025,-0.0927985836734429,0.0399010636158775
9.02,-0.0979384693427191,0.0523264303612842
9.0375,-0.100918216817082,0.065367304047918
9.055,-0.101689326780532,0.0784532360353415
9.0725,-0.100378287639233,0.0910297156755418
9.09,-0.097272517388198,0.102612795447388
9.1075,-0.0927896022769051,0.112836499047379
9.125,-0.0874329513076738,0.121488066519953
9.1425,-0.0820331493789128,0.128158247885399
9.16,-0.0770032930198468,0.133566555404405
9.1775,-0.0726622142891513,0.138077633055604
9.195,-0.0691803776141001,0.142129223687343
9.2125,-0.0665664485463015,0.146179855204958
9.23,-0.0646711879061763,0.150655527286427
9.2475,-0.0632079474078125,0.155900884209546
9.265,-0.0617873752782529,0.162139812229423
9.2825,-0.0599625392131836,0.169449366548149
9.3,-0.0572796737563129,0.177749523670192
9.3175,-0.0533292540859739,0.186809614612653
9.335,-0.0477921315375149,0.196270590098917
9.3525,-0.0404760281042347,0.205680669778361
9.37,-0.0313387153491678,0.214540592894999
9.3875,-0.0204955906220799,0.222353746420415
9.405,-0.00821096779446274,0.228675989167401
9.4225,0.00512593981296805,0.233160057580162
9.44,0.0190378167682779,0.235590019971602
9.4575,0.0330050091183773,0.235902279042689
9.475,0.0465155439232102,0.234191002639461
9.4925,0.0591142750755444,0.230697449474339
9.51,0.070446123098718,0.225784292611433
9.5275,0.0802889790556487,0.219897564806574
9.545,0.0885728887443445,0.213520106338663
9.5625,0.0953835188871433,0.207121263095656
9.58,0.100809294599033,0.201338050937794
9.5975,0.105488476772484,0.196306649086374
9.615,0.109859219420774,0.19211769187496
9.6325,0.114356053426987,0.188704800962939
9.65,0.119359316276425,0.18585501378337
9.6675,0.125150679119785,0.183234665105989
9.685,0.131879292883873,0.180427971119626
9.7025,0.139541975326443,0.176984301819805
9.72,0.147979426895609,0.172469272170365
9.7375,0.156888839140639,0.166514417104298
9.755,0.165851606471232,0.158860373334777
9.7725,0.174373332653965,0.149389153887605
9.79,0.18191548364623,0.138024034488466
9.8075,0.187873631055082,0.125000347513663
9.825,0.191829948164465,0.110848538970727
9.8425,0.193527609803536,0.096083854609388
9.86,0.192874686840064,0.0812744484090974
9.8775,0.189951606374746,0.0669869067980855
9.895,0.185000988431801,0.0537324476596126
9.9125,0.178401033171624,0.0419193137112895
9.93,0.170625300944733,0.0318162168061021
9.9475,0.162193101829925,0.0235305409536428
9.965,0.153615655475684,0.017003494411863
9.9825,0.145343604362884,0.0120226667049236
10,0.137721322903714,0.00825066835016487
