"Freq [GHz]","re(S(Antenna1_1_1,Antenna1_1_1)) []","im(S(Antenna1_1_1,Antenna1_1_1)) []"
3,-0.196812833608988,-0.172268495484134
3.0175,-0.206492454927741,-0.158084806819955
3.035,-0.215252882243963,-0.14308013272583
3.0525,-0.222972119956331,-0.127232734812896
3.07,-0.229493336658212,-0.110556166604446
3.0875,-0.234638489863189,-0.0931120820077975
3.105,-0.238225679501026,-0.0750176662137804
3.1225,-0.240088189376745,-0.0564467673950005
3.14,-0.240093001841347,-0.0376245482772188
3.1575,-0.238156654834814,-0.018816225669332
3.175,-0.23425663742523,-0.000311137081646899
3.1925,-0.228437047621123,0.0175961085554208
3.21,-0.220807900199221,0.0346253306244012
3.2275,-0.211512735548511,0.0505294592820196
3.245,-0.20077095034989,0.0650855703067954
3.2625,-0.188866819453007,0.0781486770968415
3.28,-0.176069153990805,0.0896503799335899
3.2975,-0.162634832511634,0.0995875798901963
3.315,-0.148790616265858,0.108012994686929
3.3325,-0.134719376052745,0.115020549038242
3.35,-0.120552096936919,0.120727439221718
3.3675,-0.106366342194695,0.12525499412016
3.385,-0.0921911155658418,0.128710530106211
3.4025,-0.0780173466945355,0.131172223734177
3.42,-0.0638126179472683,0.132678631664802
3.4375,-0.0495383162341426,0.133223922818606
3.455,-0.0351422203062906,0.13293856531043
3.4725,-0.020541504167226,0.131522138444217
3.49,-0.00580227912378298,0.128819831582956
3.5075,0.00894531099538698,0.124683069027778
3.525,0.023511816375434,0.118991838138914
3.5425,0.0376602905794025,0.11167389918493
3.56,0.0511236123192998,0.102718812944111
3.5775,0.0636252089165331,0.0921854010952893
3.595,0.0749007964240108,0.0802020512493399
3.6125,0.0847187585290211,0.0669600963684511
3.63,0.0928970571182814,0.052701243885196
3.6475,0.0993150553387514,0.037700624059484
3.665,0.103919270709042,0.0222474128053373
3.6825,0.106722780768361,0.00662513211866458
3.7,0.107798693865226,-0.00890635945743375
3.7175,0.107268697612861,-0.0241254764777643
3.735,0.105288147397359,-0.0388588726027204
3.7525,0.102029418764811,-0.0529860853664811
3.77,0.097665306447443,-0.0664387786861631
3.7875,0.0923541189092832,-0.079195061527821
3.805,0.0862278213122708,-0.0912698259152161
3.8225,0.0793841678799024,-0.102702375686296
3.84,0.071883291542782,-0.113542786318861
3.8575,0.0637487408785075,-0.123838443295101
3.875,0.0549725227842044,-0.133622067476828
3.8925,0.0456057337318107,-0.143136064389682
3.91,0.0353766889700696,-0.152147478185081
3.9275,0.0242426132784918,-0.160537579215842
3.945,0.012194801282734,-0.168161900174088
3.9625,-0.000734872754593273,-0.174862388683584
3.98,-0.0144715255919598,-0.180480453043268
3.9975,-0.0288987623402965,-0.184869681067648
4.015,-0.0438636353296635,-0.187907194830416
4.0325,-0.0591843808658587,-0.189502845873897
4.05,-0.074660126418451,-0.189605719762866
4.0675,-0.0900817213831367,-0.18820767499041
4.085,-0.105242871318823,-0.185343867754446
4.1025,-0.119950826980248,-0.181090399783081
4.12,-0.134035974977551,-0.175559369889212
4.1375,-0.147359780914417,-0.168891717454169
4.155,-0.159820639362467,-0.161248327924633
4.1725,-0.171357286831455,-0.152799937467037
4.19,-0.18194953851515,-0.143716433762468
4.2075,-0.191616225772105,-0.134156204678721
4.225,-0.200410347800307,-0.124256231429208
4.2425,-0.208411613506942,-0.114123646819528
4.26,-0.215716737638131,-0.103829466897606
4.2775,-0.222428060207521,-0.093405139286657
4.295,-0.228641262788342,-0.0828424201128181
4.3125,-0.234433134902425,-0.0720968867254406
4.33,-0.240039559773773,-0.0610342281130981
4.3475,-0.245231412164822,-0.049515976626946
4.365,-0.249927217499288,-0.037470579608835
4.3825,-0.254010979681959,-0.0248528903849986
4.4,-0.257341348088179,-0.0116551372288264
4.4175,-0.25976409455558,0.00208517523041252
4.435,-0.261126895623171,0.0162814561428194
4.4525,-0.261295083629378,0.0307990027693418
4.47,-0.260166811295516,0.0454610084532164
4.4875,-0.257686006856963,0.0600593385975523
4.505,-0.253851604159743,0.0743692755632628
4.5225,-0.248721818979628,0.0881669426105558
4.54,-0.242412691479769,0.101247730278698
4.5575,-0.235090686748633,0.11344382004038
4.575,-0.226959783887405,0.124638869108254
4.5925,-0.218244120045589,0.134778105454075
4.61,-0.209167815246117,0.143872477850703
4.6275,-0.199934016765619,0.151996080716304
4.645,-0.19070541090874,0.159276773437552
4.6625,-0.181588418269423,0.165880666053386
4.68,-0.172623004691143,0.171991864547979
4.6975,-0.163779522006459,0.177789475162729
4.715,-0.154963285701961,0.183424282193119
4.7325,-0.146026771311239,0.188997679825698
4.75,-0.136788454879958,0.194545323412816
4.7675,-0.126794355835794,0.200194722177503
4.785,-0.116048437891125,0.205487665878199
4.8025,-0.104502077786062,0.210210580036053
4.82,-0.0921783607119982,0.214133032521066
4.8375,-0.0791743478853232,0.217031780763398
4.855,-0.0656554668986341,0.21871429546537
4.8725,-0.0518426089387593,0.219039241236548
4.89,-0.0379933040050065,0.217931715373505
4.9075,-0.0243789872124634,0.215391606430571
4.925,-0.011260795346922,0.211494174482985
4.9425,0.00113350444349808,0.206382795316106
4.96,0.0126289714620027,0.200254659932292
4.9775,0.0231172412597669,0.193340986308095
4.995,0.0325630946457032,0.185883898319809
5.0125,0.0410031529013187,0.178112491495314
5.03,0.0485368645808434,0.170220696117589
5.0475,0.0553107916121186,0.162349354389315
5.065,0.0614979369285305,0.154574470241156
5.0825,0.067274401984403,0.146902916923658
5.1,0.0727959600230772,0.139276071777376
5.1175,0.0781771467227098,0.131580977854817
5.135,0.0834752010507738,0.123667803220157
5.1525,0.0886806642051384,0.1153716712208
5.17,0.0937157196430413,0.106536445319122
5.1875,0.0984405105526909,0.097037824452915
5.205,0.102666794440396,0.0868031651621935
5.2225,0.106177482977669,0.075825789676623
5.24,0.108749957482874,0.0641721288973401
5.2575,0.110180618636922,0.0519808228642638
5.275,0.110307971324498,0.039453776042743
5.2925,0.109031680674799,0.0268400462548386
5.31,0.106325450461186,0.0144142389557625
5.3275,0.10224222721309,0.00245169651669241
5.345,0.0969110537135006,-0.00879685283070431
5.3625,0.0905257969685052,-0.0191284318541631
5.38,0.083326861745957,-0.0284061896831549
5.3975,0.0755777760191717,-0.0365709528356789
5.415,0.0675391151050398,-0.0436446012365188
5.4325,0.0594425528536521,-0.0497247841574314
5.45,0.0514678542820975,-0.05497141912716
5.4675,0.0437253487474609,-0.0595863088991681
5.485,0.0362458723564059,-0.0637879725084329
5.5025,0.0289793983478082,-0.0677843338293718
5.52,0.0218026637461708,-0.0717461847169988
5.5375,0.0145351443316497,-0.0757843076145753
5.555,0.00696182809599297,-0.0799328042785906
5.5725,-0.00113951459263868,-0.0841405648031621
5.59,-0.0099693872575886,-0.0882719852633988
5.6075,-0.0196790064328458,-0.0921170865351835
5.625,-0.0303470970894906,-0.0954101992825684
5.6425,-0.0422373108499649,-0.0977882128718052
5.66,-0.0549050265942872,-0.098859539109015
5.6775,-0.0680797959354448,-0.0983989319485702
5.695,-0.0814302678261268,-0.0962673944692513
5.7125,-0.094594296185585,-0.0924271401793282
5.73,-0.107212168163393,-0.0869461932911665
5.7475,-0.118959499223685,-0.0799922076626428
5.765,-0.12957639844928,-0.071816197442887
5.7825,-0.138889911562842,-0.062727906484977
5.8,-0.146827456090245,-0.0530653940325537
5.8175,-0.153419898820371,-0.0431619963223269
5.835,-0.158793993624798,-0.0333140807054345
5.8525,-0.163140581814672,-0.0237983249890511
5.87,-0.166761938524607,-0.0147665301602958
5.8875,-0.169967676004759,-0.00619952322285771
5.905,-0.173017872815569,0.001981380682131
5.9225,-0.176120161496272,0.00993994138416283
5.94,-0.179405060162245,0.0179027751213231
5.9575,-0.182909732454135,0.0261304940914955
5.975,-0.186571815989464,0.0348852193381396
5.9925,-0.190233926942582,0.0443978339645322
6.01,-0.193658361685586,0.0548383548665361
6.0275,-0.196550484299234,0.0662924734684054
6.045,-0.198588412981305,0.0787466843509496
6.0625,-0.199455984887442,0.0920835496537576
6.08,-0.198755977909603,0.106216994261265
6.0975,-0.196330988836982,0.120634373222446
6.115,-0.192106791251242,0.134956227290332
6.1325,-0.186121677493429,0.148795806688554
6.15,-0.178522680075903,0.161794375059084
6.1675,-0.16955091114946,0.173653344371508
6.185,-0.159517620785599,0.184160005021916
6.2025,-0.148773495767565,0.193204292962095
6.22,-0.137674381124544,0.200784961821564
6.2375,-0.126546944574971,0.207004608800478
6.255,-0.115657788845704,0.212054131107874
6.2725,-0.105189152802025,0.216188253638792
6.29,-0.0952236672383929,0.219694664373875
6.3075,-0.0857397130362221,0.222859934494616
6.325,-0.0766178589077821,0.225935723635867
6.3425,-0.0676577386234626,0.229108746003119
6.36,-0.0586036728090717,0.232477602955502
6.3775,-0.0491764514904293,0.236038908366943
6.395,-0.0391080578799073,0.23968421030711
6.4125,-0.0281757943195458,0.243208136084125
6.43,-0.0162323006403613,0.246327061824241
6.4475,-0.00322833250013748,0.248706542366371
6.465,0.0107741416723592,0.249994836898831
6.4825,0.0256000266348117,0.249859219626454
6.5,0.0409707712130205,0.24802143865397
6.5175,0.0566463559690447,0.243961220667987
6.535,0.0718785455738673,0.237877766555649
6.5525,0.0862288380814357,0.229908751301384
6.57,0.0993200533598657,0.220311498558072
6.5875,0.110870118183381,0.209437133836559
6.605,0.120715807357174,0.197695509639774
6.6225,0.12882407292466,0.185514567029499
6.64,0.135289867022403,0.173298349744902
6.6575,0.140320744853499,0.161388013376547
6.675,0.14420988599578,0.150029860588938
6.6925,0.147300359505536,0.139353714350534
6.71,0.149944362462199,0.129363885242185
6.7275,0.152461690884976,0.119943700285128
6.745,0.15510180136802,0.110873167345079
6.7625,0.15801347839812,0.101857990076046
6.78,0.161225367127829,0.0925669606693411
6.7975,0.164639536743977,0.0826738624741236
6.815,0.168038912273664,0.0718995053590571
6.8325,0.171107984461057,0.0600494492919351
6.85,0.173464821110156,0.0470433584467786
6.8675,0.174701200422825,0.0329327362791576
6.885,0.1744267919271,0.0179049456645618
6.9025,0.17231281936606,0.00227280530912862
6.92,0.168130609041581,-0.0135494623490227
6.9375,0.161780867844758,-0.0290817255721899
6.955,0.152896821831998,-0.0435962154598639
6.9725,0.142264583471701,-0.0566065461138994
6.99,0.130309619923507,-0.0678034883680476
7.0075,0.117519722401633,-0.0770214406207592
7.025,0.10439609871253,-0.0842490290053887
7.0425,0.091403981054602,-0.0896235210107474
7.06,0.0789279295135828,-0.0934098166726299
7.0775,0.0672364843031783,-0.0959663851512541
7.095,0.056459812426651,-0.0977018651477621
7.1125,0.04658261203777,-0.0990270071433569
7.13,0.0374529233388249,-0.100307104767849
7.1475,0.0288058167858918,-0.101819993995236
7.165,0.0202993599607337,-0.103724099318967
7.1825,0.0115589686647183,-0.106039937750845
7.2,0.00222535935425208,-0.10864706485679
7.2175,-0.0079990671035925,-0.111296810383962
7.235,-0.019310424772273,-0.113639474307376
7.2525,-0.0317744558184388,-0.115263112360401
7.27,-0.0453117460276099,-0.115739795091741
7.2875,-0.0596987477428831,-0.114674407483624
7.305,-0.0745846447765851,-0.111750754810502
7.3225,-0.0895224093394969,-0.106769989062222
7.34,-0.10401087968046,-0.0996771458455053
7.3575,-0.117543488623335,-0.0905728068994839
7.375,-0.129658525566691,-0.079708451994719
7.3925,-0.139534181222451,-0.0674079628453693
7.41,-0.147389730710008,-0.0544903137290417
7.4275,-0.153267496452705,-0.0414575697007112
7.445,-0.157353808379914,-0.0287594506780384
7.4625,-0.159952794343805,-0.0167517928168135
7.48,-0.16144868474603,-0.00566595518061895
7.4975,-0.1622608073078,0.00440786601548914
7.515,-0.162796131620931,0.0135219532113544
7.5325,-0.163404392081176,0.021857177323471
7.55,-0.164340463378192,0.0296956473258653
7.5675,-0.165737829482144,0.0373830219340996
7.585,-0.167595768418036,0.0452846365642344
7.6025,-0.169781402636815,0.0537401839070334
7.62,-0.172046193913423,0.0630217713929684
7.6375,-0.17405495629843,0.073299762221123
7.655,-0.175424174695215,0.0846199382588803
7.6725,-0.175765480113419,0.0968942987345355
7.69,-0.174729637312955,0.109906358852282
7.7075,-0.172046391927485,0.123330289918652
7.725,-0.167555997183303,0.136761803911108
7.7425,-0.161229140631458,0.149757478668157
7.76,-0.15317322177632,0.161878365210267
7.7775,-0.14362436211768,0.1727333005376
7.795,-0.132926011818233,0.182017405452165
7.8125,-0.121496399561927,0.189541767156717
7.83,-0.109971269648274,0.194971038296163
7.8475,-0.0987628930432543,0.198808488801927
7.865,-0.0881866037445875,0.201322913600635
7.8825,-0.0784494076045492,0.202853316680244
7.9,-0.0696356842284017,0.203770272408855
7.9175,-0.0617058719561139,0.20443531731519
7.935,-0.0545079309403749,0.20516253375696
7.9525,-0.0478001040736439,0.206186163716646
7.97,-0.0412823989742179,0.207637394944866
7.9875,-0.0346334002724344,0.209532470965871
8.005,-0.0275485622410776,0.211773096014878
8.0225,-0.0197760640340957,0.214158856109015
8.04,-0.0111466304780131,0.216410182341758
8.0575,-0.00159439024842353,0.218199357479649
8.075,0.00883321263427329,0.219186308275799
8.0925,0.0199773164653037,0.219055501659222
8.11,0.0315810245739013,0.21755020746115
8.1275,0.043312813566392,0.214500701832264
8.145,0.0547975319920081,0.20984362718585
8.1625,0.0656518299108586,0.203630628834314
8.18,0.0755204520961772,0.196025464450907
8.1975,0.0841097709412435,0.187289924325898
8.215,0.0912152303165537,0.177759998241657
8.2325,0.0967399860882494,0.167814674383009
8.25,0.100702901233947,0.157840468520215
8.2675,0.103066395039908,0.148427216150846
8.285,0.104384894412555,0.139718263444593
8.3025,0.104985301452864,0.131843395628347
8.32,0.105204212304936,0.124819535496664
8.3375,0.105351962228965,0.118555221392823
8.355,0.105680205720097,0.112865980264524
8.3725,0.106356183847333,0.107498884790635
8.39,0.107446133133356,0.102163716109166
8.4075,0.108909367584339,0.0965675447163704
8.425,0.110603507567329,0.0904492454401911
8.4425,0.112300236910665,0.0836105023223183
8.46,0.113709945918228,0.0759402288751063
8.4775,0.114512758757072,0.0674299912672534
8.495,0.114392828908367,0.0581789124929731
8.5125,0.113072473118368,0.04838756972453
8.53,0.110342731691145,0.0383414767950632
8.5475,0.106087289269716,0.0283857670850183
8.565,0.100297333461643,0.0188935617828315
8.5825,0.0930758087307067,0.0102311415011765
8.6,0.0846305575486797,0.00272337391483693
8.6175,0.0752569324805703,-0.00337714762967047
8.635,0.0653115078534047,-0.00791413295821703
8.6525,0.05517941737283,-0.0108423106744974
8.67,0.0452385066556958,-0.0122312404835293
8.6875,0.0358238499010384,-0.0122576905605085
8.705,0.0275268661819121,-0.0111483565717491
8.7225,0.0201716184043259,-0.00947382957792561
8.74,0.0137140840134789,-0.00757028956668874
8.7575,0.00800625096176643,-0.00572728766033421
8.775,0.00281778404205057,-0.00415761032636587
8.7925,-0.00213404563197276,-0.0029756943764215
8.81,-0.00714928774590392,-0.00218671975206414
8.8275,-0.0125087185319631,-0.00168742649808773
8.845,-0.0184394895790904,-0.00127851902115251
8.8625,-0.0250865518992935,-0.000687350816689923
8.88,-0.0324928020301272,0.000401458210952219
8.8975,-0.0405900148957601,0.00231062821527381
8.915,-0.0492015353056096,0.00533370043021522
8.9325,-0.0580565039449356,0.00970117244974518
8.95,-0.0668142132678715,0.015552815330301
8.9675,-0.0750961422917691,0.0229190889609142
8.985,-0.0825224133775053,0.0317136601296109
9.0025,-0.0887489322594429,0.0417379036948775
9.02,-0.0935013671367191,0.0526970424272842
9.0375,-0.0966024085540825,0.064226378327918
9.055,-0.0979894050485325,0.0759250097553415
9.0725,-0.097720428455233,0.0873936240635418
9.09,-0.095967993998198,0.0982724900883877
9.1075,-0.0930009274749051,0.108275701067379
9.125,-0.0891561069316738,0.117218049937953
9.1425,-0.0849930166529128,0.124769118796399
9.16,-0.0808271054328469,0.131386703634405
9.1775,-0.0769003510721513,0.137293609426604
9.195,-0.0733564409971001,0.142771693791843
9.2125,-0.0702281978113015,0.148126183719958
9.23,-0.0674371103301763,0.153648092374427
9.2475,-0.0648048902588125,0.159578675847546
9.265,-0.0620757350702529,0.166079629263423
9.2825,-0.0589468799241836,0.173212103249149
9.3,-0.0551041772853129,0.180926689877192
9.3175,-0.0502589378089739,0.189065378045653
9.335,-0.0441821510285149,0.197375230150917
9.3525,-0.0367324903092347,0.205532313144861
9.37,-0.0278751634151678,0.213173352818999
9.3875,-0.0176896298200799,0.219931779737415
9.405,-0.00636536948346274,0.225474380841401
9.4225,0.00581386485796805,0.229534709034162
9.44,0.0184956773065779,0.231939740509602
9.4575,0.0312918723123773,0.232626971354689
9.475,0.0438150863712102,0.231650139102461
9.4925,0.0557153790235444,0.229172938970339
9.51,0.066712947665718,0.225451356581433
9.5275,0.0766235222706488,0.220806429864574
9.545,0.0853737463323445,0.215590259424663
9.5625,0.0930048827771433,0.210148804559656
9.58,0.0995605443340333,0.204947229163794
9.5975,0.105488197437984,0.200100860158374
9.615,0.111093671244774,0.19568563760996
9.6325,0.116681917536987,0.191662688915939
9.65,0.122519336314425,0.18788564976937
9.6675,0.128800584421785,0.184119661393989
9.685,0.135623330880873,0.180069967325626
9.7025,0.142973573028443,0.175417051808805
9.72,0.150723015371609,0.169854603106365
9.7375,0.158638754463639,0.163126313426298
9.755,0.166404237776232,0.155057667463777
9.7725,0.173649303162965,0.145579406416605
9.79,0.17997532175623,0.134655859214466
9.8075,0.184938704448082,0.122477021098663
9.825,0.188232747800465,0.109446247634727
9.8425,0.189671706541536,0.095956597762408
9.86,0.189192089903064,0.0824376188760974
9.8775,0.186857001079746,0.0693151454070855
9.895,0.182847467407801,0.0569720968146126
9.9125,0.177441838434624,0.0457143470902895
9.93,0.170985554931733,0.0357451619761021
9.9475,0.163854566083925,0.0271507713076428
9.965,0.156416298334684,0.019898461334863
9.9825,0.148992298054884,0.0138472590979236
10,0.141826463607714,0.00876997294226487
