"Freq [GHz]","re(S(Antenna1_1_1,Antenna1_1_1)) []","im(S(Antenna1_1_1,Antenna1_1_1)) []"
3,-0.195369111637988,-0.171568025380434
3.0175,-0.204879030963741,-0.157928035631255
3.035,-0.213668069519963,-0.14349815589783
3.0525,-0.221614939793331,-0.128186300180896
3.07,-0.228539190996212,-0.111938964532446
3.0875,-0.234217180863539,-0.0947622450777975
3.105,-0.238404478514026,-0.0767362634847805
3.1225,-0.240862106131745,-0.0580212124080005
3.14,-0.241383584484347,-0.0388542064722188
3.1575,-0.239819655409814,-0.019537185839132
3.175,-0.23609782139523,-0.000417147368246899
3.1925,-0.230234435135123,0.0181391444764207
3.21,-0.222337920386221,0.0357731874764012
3.2275,-0.212565668220511,0.0521609630140196
3.245,-0.20119046837109,0.0670055065297954
3.2625,-0.188584430202007,0.0801195908558415
3.28,-0.175102673161805,0.0914232306375899
3.2975,-0.161087924927634,0.100932232167196
3.315,-0.146841855650858,0.108746965484929
3.3325,-0.132601970249745,0.115032506272342
3.35,-0.118526563066919,0.119992524051718
3.3675,-0.104689296935695,0.12383997321716
3.385,-0.0910838613008418,0.126767969068211
3.4025,-0.0776380190983355,0.128924170642177
3.42,-0.0642352993492683,0.130391558083802
3.4375,-0.0507417490151426,0.131177738987606
3.455,-0.0369894962732905,0.13147463117143
3.4725,-0.022780672648226,0.130827328861217
3.49,-0.00813305091678298,0.128979741037756
3.5075,0.00683304504538698,0.125671942831778
3.525,0.021898510138434,0.120676496674914
3.5425,0.0367611894744025,0.11383107776093
3.56,0.0510614895716998,0.105063705172111
3.5775,0.0644147217535331,0.0944078382722893
3.595,0.0764463593260108,0.0820058349943399
3.6125,0.0868261755210211,0.0681006336504511
3.63,0.0952974786132814,0.053016853364196
3.6475,0.101698328307751,0.037133660359484
3.665,0.105972612402042,0.0208525949343373
3.6825,0.108170060220361,0.00456401303266458
3.7,0.108435526979226,-0.0113841696254338
3.7175,0.106989057810361,-0.0267121210537643
3.735,0.104099203600259,-0.0412255459967204
3.7525,0.100052714377811,-0.0548233595654811
3.77,0.095124019969443,-0.0674951190661631
3.7875,0.0895478061792832,-0.079308884658821
3.805,0.0834975356952708,-0.0903911940640161
3.8225,0.0770720125069024,-0.100901626420296
3.84,0.070291142098782,-0.111004919468861
3.8575,0.0631010091025075,-0.120843753286101
3.875,0.0553873951292044,-0.130515122938828
3.8925,0.0470560358067907,-0.140437425828682
3.91,0.0376377600640696,-0.150177734023081
3.9275,0.0269988266454918,-0.159515515718842
3.945,0.015080975314734,-0.168181736082088
3.9625,0.00191240203040673,-0.175886635129884
3.98,-0.0123908950429598,-0.182348705349568
3.9975,-0.0276329289092965,-0.187321784188648
4.015,-0.0435533225846635,-0.190617604239416
4.0325,-0.0598486338148587,-0.192121807379897
4.05,-0.076196929057151,-0.191802237164866
4.0675,-0.0922829983943367,-0.18970917928741
4.085,-0.107821741443823,-0.185968031344446
4.1025,-0.122577621016248,-0.180765573555081
4.12,-0.136378615821551,-0.174331526126612
4.1375,-0.149123735408417,-0.166917385913469
4.155,-0.160783818607467,-0.158774629166933
4.1725,-0.171395956492455,-0.150134264484037
4.19,-0.18105241078415,-0.141189453729468
4.2075,-0.189885303261605,-0.132082532405721
4.225,-0.198048612969806,-0.122897302696208
4.2425,-0.205699133455942,-0.113656988556528
4.26,-0.212978022539131,-0.104327773128606
4.2775,-0.219994441452521,-0.094827415805657
4.295,-0.226812552790342,-0.0850380911547181
4.3125,-0.233442852239425,-0.0748223174312706
4.33,-0.240036961210773,-0.0638631126020981
4.3475,-0.246171688888822,-0.052114676759946
4.365,-0.251660093756188,-0.039545972911835
4.3825,-0.256301822522959,-0.0261834263119986
4.4,-0.259900659120979,-0.0121128082448264
4.4175,-0.26228187970258,0.00252393820141252
4.435,-0.263308041260171,0.0175367064688194
4.4525,-0.262891914951378,0.0326994917029418
4.47,-0.261005447109516,0.0477659994105164
4.4875,-0.257683892469963,0.0624873882555523
4.505,-0.253024609992743,0.0766307080912628
4.5225,-0.247180427163628,0.0899964586985558
4.54,-0.240347938971819,0.102433677734698
4.5575,-0.232751578179633,0.11385108617438
4.575,-0.224624731325405,0.124223083012254
4.5925,-0.216189533734589,0.133589781061075
4.61,-0.207637211244117,0.142050788905703
4.6275,-0.199110908204619,0.149753031161804
4.645,-0.19069282552574,0.156873507290552
4.6625,-0.182397181718423,0.163598456389386
4.68,-0.174170018155143,0.170100857265979
4.6975,-0.165896232932159,0.176518490064729
4.715,-0.157413502036961,0.182934870991119
4.7325,-0.148532003408239,0.189365217843698
4.75,-0.139058179069958,0.195749208603816
4.7675,-0.128490197953794,0.202015776361503
4.785,-0.117021323100125,0.207694322121199
4.8025,-0.104687601332062,0.212541959869253
4.82,-0.0915998349509982,0.216327790408066
4.8375,-0.0779365703203232,0.218855903330398
4.855,-0.0639301456346341,0.21998501772837
4.8725,-0.0498472095848593,0.219642709102548
4.89,-0.0359657171375065,0.217832721151505
4.9075,-0.0225507968284634,0.214634580216571
4.925,-0.00983202008492205,0.210195541936985
4.9425,0.00201553160249808,0.204715717040106
4.96,0.0128844003540027,0.198427957123592
4.9775,0.0227406995547669,0.191574650419895
4.995,0.0316222582437032,0.184383917808809
5.0125,0.0396291867743187,0.177047771108314
5.03,0.0469079107080434,0.169704588745589
5.0475,0.0536304321637186,0.162427798802315
5.065,0.0599711011045305,0.155221985597156
5.0825,0.066083454374403,0.148026826232658
5.1,0.0720796762070772,0.140728406490376
5.1175,0.0780149495427098,0.133176655172117
5.135,0.0838784331357738,0.125206962136657
5.1525,0.0895918731221384,0.1166635823258
5.17,0.0950160190840413,0.107422227858122
5.1875,0.0999641557659909,0.097409335219915
5.205,0.104221277061996,0.0866158559001935
5.2225,0.107566805167669,0.075104017087623
5.24,0.109798363538874,0.0630062686043401
5.2575,0.110753991026922,0.0505164886702638
5.275,0.110330349481498,0.037874370328343
5.2925,0.108494910173799,0.0253446593868386
5.31,0.105290757940186,0.0131934816127625
5.3275,0.10083345443109,0.00166431985669241
5.345,0.0953002655118006,-0.00904375407570431
5.3625,0.0889128886174052,-0.0187932270261631
5.38,0.081915523620957,-0.0275188015501549
5.3975,0.0745506389871717,-0.0352303906276789
5.415,0.0670350393960398,-0.0420081028835188
5.4325,0.0595388147346521,-0.0479897331527314
5.45,0.0521694472270975,-0.05335207978756
5.4675,0.0449628067064609,-0.0582880749881681
5.485,0.0378820330304059,-0.0629821672914329
5.5025,0.0308244677288082,-0.0675865887453718
5.52,0.0236359433813708,-0.0722010539029988
5.5375,0.0161309590086497,-0.0768580838195753
5.555,0.00811664462399297,-0.0815155642345906
5.5725,-0.000581987408638682,-0.0860573952931621
5.59,-0.0100981513775886,-0.0903022498403988
5.6075,-0.0205032754228457,-0.0940196158354834
5.625,-0.0317929962094906,-0.0969515428285684
5.6425,-0.0440938779019649,-0.0987203908418052
5.66,-0.0569355430412872,-0.099089640355015
5.6775,-0.0700336214742448,-0.0979206522635702
5.695,-0.0830729754611668,-0.0951594925502513
5.7125,-0.095735163644585,-0.0908418786863282
5.73,-0.107725847106393,-0.0850893462611664
5.7475,-0.118799431067685,-0.0780971742576428
5.765,-0.12877856441028,-0.070115405485787
5.7825,-0.137566670943842,-0.061424947279777
5.8,-0.145152401591245,-0.0523111785815537
5.8175,-0.151605702464371,-0.0430376866673269
5.835,-0.157066010993798,-0.0338226980484345
5.8525,-0.161716364470972,-0.0248581432750511
5.87,-0.165810266099607,-0.0162240011732958
5.8875,-0.169585861072759,-0.00786393404685771
5.905,-0.173231466956569,0.000318883068130999
5.9225,-0.176882275114272,0.00848082632816283
5.94,-0.180604314858245,0.0168172760472231
5.9575,-0.184385650632135,0.0255382058714955
5.975,-0.188135605699464,0.0348423205741396
5.9925,-0.191692036392582,0.0448922653235322
6.01,-0.194835919922586,0.0557933047415361
6.0275,-0.197311834749434,0.0675775256424054
6.045,-0.198852365915305,0.0801950874689496
6.0625,-0.199204105770442,0.0935133787507576
6.08,-0.198043748885603,0.107434904441265
6.0975,-0.195269938371982,0.121503581246646
6.115,-0.190845013106242,0.135389225742332
6.1325,-0.184824155539429,0.148762547566554
6.15,-0.177350479139903,0.161323146102084
6.1675,-0.16864179015746,0.172824549124508
6.185,-0.158970348971899,0.183093903392916
6.2025,-0.148637613279565,0.192044445175095
6.22,-0.137946416367544,0.199679568392564
6.2375,-0.127173276858971,0.206088106623478
6.255,-0.116543529288704,0.211431280806874
6.2725,-0.106211707536025,0.215922561418592
6.29,-0.0962491271873929,0.219802379766875
6.3075,-0.0866399404562221,0.223310134205616
6.325,-0.0772861374867821,0.226656224867867
6.3425,-0.0680211122820626,0.229996885140119
6.36,-0.0586305777960717,0.233414352042502
6.3775,-0.0488788806064293,0.236904446634943
6.395,-0.0385382013579073,0.24037295785911
6.4125,-0.0274177897455458,0.243641397125125
6.43,-0.0153903097923613,0.246461789902441
6.4475,-0.00241257709613748,0.248539277463371
6.465,0.0114615565403592,0.249560501590831
6.4825,0.0260777105578117,0.249225116548454
6.5,0.0411875377910205,0.24727738197897
6.5175,0.0565854844247447,0.243225822495987
6.535,0.0715733274458673,0.237245009754649
6.5525,0.0857412550854357,0.229451109497384
6.57,0.0987303510568657,0.220072305846072
6.5875,0.110264808560381,0.209427344234559
6.605,0.120175781102174,0.197894953028774
6.6225,0.12841437587766,0.185877212949499
6.64,0.135052373136403,0.173760595469902
6.6575,0.140270493514499,0.161878677297547
6.675,0.14433531337461,0.150480421239938
6.6925,0.147567117085536,0.139707397308534
6.71,0.150301952100199,0.129582445360185
6.7275,0.152851812689976,0.120011132739128
6.745,0.15546714615402,0.110796048516079
6.7625,0.15830571386812,0.101662631154046
6.78,0.161411254686829,0.0922939869123411
6.7975,0.164704439921977,0.0823711533391236
6.815,0.167987366981664,0.071614606253057
6.8325,0.170961435539557,0.0598225772619351
6.85,0.173257027389156,0.0469019776767786
6.8675,0.174472118244825,0.0328884021001576
6.885,0.1742159254301,0.0179527522615618
6.9025,0.17215305513606,0.00239337722012862
6.92,0.168043434631581,-0.0133858648158227
6.9375,0.161773630404758,-0.0289097097981899
6.955,0.152954700884998,-0.0434509268868639
6.9725,0.142367046722701,-0.0565082593738994
6.99,0.130431479252507,-0.0677616275180476
7.0075,0.117635931566633,-0.0770343032707592
7.025,0.10448603740153,-0.0843053824853887
7.0425,0.091454572257602,-0.0897056487937474
7.06,0.0789351715235828,-0.0934973925346299
7.0775,0.0672052639531783,-0.0960404620285541
7.095,0.056402155686651,-0.0977482932137621
7.1125,0.04651477699377,-0.0990387311403569
7.13,0.0373919116438249,-0.100285007925849
7.1475,0.0287659493238918,-0.101772217265236
7.165,0.0202895237447337,-0.103664027168967
7.1825,0.0115810044487183,-0.105983263310845
7.2,0.00227384819925208,-0.10860849401679
7.2175,-0.0079356092735925,-0.111287013810962
7.235,-0.019247181692273,-0.113662843252376
7.2525,-0.0317272146684388,-0.115316727856401
7.27,-0.0452936380946099,-0.115813805872741
7.2875,-0.0597174249238831,-0.114753764816624
7.305,-0.0746404210575851,-0.111818012860502
7.3225,-0.0896077361393968,-0.106808686562222
7.34,-0.10411129871446,-0.0996751708355053
7.3575,-0.117639951509335,-0.0905251307744839
7.375,-0.129730726766691,-0.079618706942719
7.3925,-0.139558553212451,-0.0673007646853693
7.41,-0.147364006410008,-0.0543877925090417
7.4275,-0.153198895142705,-0.0413808898227112
7.445,-0.157257921976914,-0.0287249553180383
7.4625,-0.159850976495805,-0.0167678692568135
7.48,-0.16136433143283,-0.00573117655061895
7.4975,-0.1622151135568,0.00430495712548914
7.515,-0.162804017817931,0.0134013087993544
7.5325,-0.163471295598176,0.021744126955471
7.55,-0.164460582898192,0.0296166376428653
7.5675,-0.165894203162144,0.0373608582280996
7.585,-0.167762291118036,0.0453339880852344
7.6025,-0.169926581018815,0.0538641164420334
7.62,-0.172138147435423,0.0632099531989684
7.6375,-0.17406694166723,0.073528764761123
7.655,-0.175339779478215,0.0848557503088802
7.6725,-0.175582622899419,0.0970968327815355
7.69,-0.174462635022955,0.110035401949282
7.7075,-0.171725598547485,0.123352085891652
7.725,-0.167224853023303,0.136655294362408
7.7425,-0.160938853161458,0.149519205226157
7.76,-0.15297567497732,0.161525157682267
7.7775,-0.14356416555168,0.1723021359976
7.795,-0.133032804142233,0.181562193022165
7.8125,-0.121778576977927,0.189127246006717
7.83,-0.110400782525274,0.194683330752163
7.8475,-0.0992849196892543,0.198697891239927
7.865,-0.0887299228515876,0.201416832902635
7.8825,-0.0789356669845492,0.203151218877444
7.9,-0.0699901058424017,0.204242284043855
7.9175,-0.0618679885831139,0.20502483624519
7.935,-0.0544408857383749,0.20579267819896
7.9525,-0.0474971739666439,0.206769362057646
7.97,-0.0407697170555079,0.208086963952866
7.9875,-0.0339683163854344,0.209774709613871
8.005,-0.0268136395500776,0.211758283577878
8.0225,-0.0190692929720957,0.213869612336015
8.04,-0.0105689743710131,0.215865923623758
8.0575,-0.00123618729742353,0.217456038730449
8.075,0.00890523730227329,0.218331223804799
8.0925,0.0197306650253037,0.218197559256222
8.11,0.0310241233959013,0.21680670754815
8.1275,0.042496681055892,0.213982166912264
8.145,0.0538119033100081,0.20963856489885
8.1625,0.0646159186108586,0.203792223237314
8.18,0.0745692348051772,0.196562049739907
8.1975,0.0833773095862435,0.188160709284898
8.215,0.0908170132635537,0.178876915623157
8.2325,0.0967565079182494,0.169050492707009
8.25,0.101166669267947,0.159042510674215
8.2675,0.103930445923908,0.149396078454846
8.285,0.105544865199555,0.140325301210593
8.3025,0.106297125365864,0.132003517215347
8.32,0.106501432483936,0.124502851627664
8.3375,0.106466229758965,0.117792062384823
8.355,0.106462497611097,0.111744506367524
8.3725,0.106696130271333,0.106155406633635
8.39,0.107287011872356,0.100766740744566
8.4075,0.108256794216339,0.0952973592753704
8.425,0.109526572639329,0.0894754459511911
8.4425,0.110924734950665,0.0830701928253183
8.46,0.112204301822188,0.0759196100671063
8.4775,0.113068170481072,0.0679517208392534
8.495,0.113199899780367,0.0591969829789731
8.5125,0.112297107193368,0.04979058257153
8.53,0.110104243747145,0.0399641917230632
8.5475,0.106441506693716,0.0300277900938183
8.565,0.101226950868643,0.0203431252398316
8.5825,0.0944894494577067,0.0112912381741765
8.6,0.0863709870766797,0.00323712333483694
8.6175,0.0771177719115703,-0.00350504169267047
8.635,0.0670607393198047,-0.00870261688721703
8.6525,0.05658708533583,-0.0122279844024974
8.67,0.0461054110006958,-0.0140722263885293
8.6875,0.0360077806720384,-0.0143473161295085
8.705,0.0269787533319121,-0.0131645558482491
8.7225,0.0189624449923259,-0.0111697087119256
8.74,0.0119951301114789,-0.00873809312068874
8.7575,0.00599106939776643,-0.00622354626933421
8.775,0.000756629971050573,-0.00392073391736587
8.7925,-0.00398435122117276,-0.0020338642944215
8.81,-0.00855651406690392,-0.000655058185064141
8.8275,-0.0132936978839631,0.000245321839912264
8.845,-0.0184984812330904,0.000815276551847491
8.8625,-0.0244047538882935,0.00130493222531008
8.88,-0.0311472818651272,0.00203901063395222
8.8975,-0.0387415616107601,0.00338075100127381
8.915,-0.0470762428596096,0.00569096046221522
8.9325,-0.0559191283299356,0.00928644022874518
8.95,-0.0649363568934515,0.014402176316301
8.9675,-0.0737229878847692,0.0211613720199142
8.985,-0.0818419713465053,0.0295566560046109
9.0025,-0.0888675445524429,0.0394446920358775
9.02,-0.0944285443627191,0.0505550503992842
9.0375,-0.0982470348770825,0.062512713938218
9.055,-0.100168041700532,0.0748721351973415
9.0725,-0.100177028157233,0.0871594896785418
9.09,-0.098402969103198,0.0989188214483877
9.1075,-0.0951063541895051,0.109757259637379
9.125,-0.0906530375246738,0.119384463349953
9.1425,-0.0856525887059128,0.127291895135399
9.16,-0.0805848182068468,0.133959286862405
9.1775,-0.0757991254691513,0.139607461905604
9.195,-0.0715405695641001,0.144552515744343
9.2125,-0.0679255225563015,0.149165896885958
9.23,-0.0649315475461763,0.153828903576427
9.2475,-0.0624025267478125,0.158886459426546
9.265,-0.0600684541212529,0.164605105419423
9.2825,-0.0575777543679736,0.171139700658149
9.3,-0.0545386593773129,0.178512404390192
9.3175,-0.0505652051259739,0.186606212294653
9.335,-0.0453229101835149,0.195173775773917
9.3525,-0.0385692165542347,0.203860605959061
9.37,-0.0301843149091678,0.212240225865999
9.3875,-0.0201889849530799,0.219857547582415
9.405,-0.00874745340346274,0.226275854077401
9.4225,0.00384513651596805,0.231122354530162
9.44,0.0171894058343779,0.234127404291602
9.4575,0.0308198101363773,0.235153126382689
9.475,0.0442500996732102,0.234208275081461
9.4925,0.0570213476975444,0.231447631130339
9.51,0.068747410828718,0.227155859180433
9.5275,0.0791529150956487,0.221717420903674
9.545,0.0880996153343445,0.215575643712663
9.5625,0.0955981783991433,0.209185235554656
9.58,0.101655575704033,0.203162753117794
9.5975,0.106838543978384,0.197716377586374
9.615,0.111542571067774,0.19299135626496
9.6325,0.116180043392987,0.188983875392939
9.65,0.121130086952425,0.18554450125237
9.6675,0.126692340989785,0.182397673244989
9.685,0.133049608063873,0.179175097544566
9.7025,0.140243363866443,0.175459425264805
9.72,0.148164734162609,0.170833520901365
9.7375,0.156561901910639,0.164930047074298
9.755,0.165063166578232,0.157476068334777
9.7725,0.173213224379965,0.148327910427605
9.79,0.18050779773823,0.137388110878466
9.8075,0.186370416533082,0.124845920357663
9.825,0.190382573994465,0.111170039010727
9.8425,0.192274976053536,0.096832221001868
9.86,0.191932065000064,0.0823638262820974
9.8775,0.189402140132746,0.0683037411610855
9.895,0.184890190360801,0.0551460983296126
9.9125,0.178734375911624,0.0432933496012895
9.93,0.171368816489733,0.0330196265961021
9.9475,0.163276768378925,0.0244481946636428
9.965,0.154939258022684,0.017545286099863
9.9825,0.146784686012884,0.0121308519099236
10,0.139144781513714,0.00790498018216487
