"Freq [GHz]","re(S(Antenna1_1_p1,Antenna1_1_p1)) []","im(S(Antenna1_1_p1,Antenna1_1_p1)) []"
3,0.0310748075623872,-0.089723613109587
3.002,0.0305222697029999,-0.0883319444421278
3.004,0.0300585920819265,-0.086958365634213
3.006,0.0296816988055175,-0.0856010784618325
3.008,0.0294108174000517,-0.0842829141560777
3.01,0.0293156800532745,-0.0830697036028913
3.012,0.0291058372359965,-0.0817036883772454
3.014,0.0291494615037069,-0.08056478766384
3.016,0.0292013865281895,-0.079369968193087
3.018,0.0292405407492424,-0.078124215886679
3.02,0.0294445875863935,-0.077025831612505
3.022,0.0297036891706598,-0.075986719179112
3.024,0.0300521671163809,-0.074991603349568
3.026,0.0304564965331175,-0.074036474324792
3.028,0.0309124114775956,-0.073156192766353
3.03,0.0314166904857071,-0.072325904068811
3.032,0.0319816375146373,-0.071576614201385
3.034,0.0326459248150112,-0.07098275234926
3.036,0.0332619458431525,-0.070230373864279
3.038,0.0339635966034368,-0.069681782085175
3.04,0.0347169467007017,-0.069195835777268
3.042,0.035469901182807,-0.068771497791676
3.044,0.03629122956324,-0.068428302084039
3.046,0.0371254756538701,-0.068142446932736
3.048,0.037988280167786,-0.067933582516616
3.05,0.0388685111222692,-0.067795066592254
3.052,0.039770406411858,-0.067732342710705
3.054,0.04067691955155,-0.067747818373839
3.056,0.0415947729701328,-0.067828101870182
3.058,0.0425359010336504,-0.067997721430212
3.06,0.0434344884889762,-0.06836120488134
3.062,0.0443957908375629,-0.068521518222313
3.064,0.0453228032482852,-0.068887563707263
3.066,0.0462373656854716,-0.069358495779194
3.068,0.0471527323490752,-0.069853681073156
3.07,0.0480790995799626,-0.0704456534189
3.072,0.0489649473793754,-0.071103967943082
3.074,0.0498337902127382,-0.071856188891131
3.076,0.0506952516990651,-0.072625343048602
3.078,0.0514592025003133,-0.073614049292142
3.08,0.0522437421572896,-0.074524943560073
3.082,0.0531115551800308,-0.07540569320249
3.084,0.053868742890247,-0.076466353410999
3.086,0.0544845476379667,-0.077669804918127
3.088,0.0552816653624046,-0.078726833176151
3.09,0.0559133791259499,-0.079987872975669
3.092,0.056512794510368,-0.081280922423825
3.094,0.0569907824232107,-0.082675791471958
3.096,0.0576167030544003,-0.083991101133094
3.098,0.0581049269129856,-0.085446510618897
3.1,0.0585406052941464,-0.086935679496316
3.102,0.0589010512563232,-0.08851486025408
3.104,0.0592361335288112,-0.090107275237592
3.106,0.059529711618891,-0.091753896656469
3.108,0.0597833756800803,-0.093410960357813
3.11,0.0599344717799295,-0.095166822641959
3.112,0.0600862016382531,-0.096912322436783
3.114,0.0601498417155584,-0.098722630111964
3.116,0.0601640289917158,-0.100564914412707
3.118,0.0600687961648076,-0.10246581164327
3.12,0.0599839316401886,-0.104353228440144
3.122,0.0597978191498488,-0.106309976254856
3.124,0.0595494049618793,-0.108288493236503
3.126,0.0592316504902858,-0.110282424403957
3.128,0.0588512889249227,-0.112319585227773
3.13,0.0584083454717671,-0.114372667881722
3.132,0.0578519399133201,-0.116455582514102
3.134,0.057268916669284,-0.118555640128731
3.136,0.056490601287521,-0.120625918075617
3.138,0.0558787963351748,-0.122783149561332
3.14,0.0550723601700765,-0.124915486359134
3.142,0.0541786861323442,-0.12707404993681
3.144,0.0531784167663022,-0.129237925964205
3.146,0.0521611709925488,-0.131394048003471
3.148,0.0510011983803658,-0.133564169837098
3.15,0.0498220858102879,-0.135737922062622
3.152,0.048545364026937,-0.137906774670815
3.154,0.047177657592177,-0.14006855515037
3.156,0.0456850279884208,-0.142221163018885
3.158,0.0441746467822343,-0.144365188720539
3.16,0.0425739810081932,-0.146498867451072
3.162,0.040832021932996,-0.148592671172263
3.164,0.0390369917097852,-0.15069060141596
3.166,0.0371870108128009,-0.15277569428377
3.168,0.0352226653522122,-0.154821270812574
3.17,0.0331507151692621,-0.156819724715821
3.172,0.030973191911635,-0.158697993109584
3.174,0.028748932079098,-0.160628992688355
3.176,0.0265012580194096,-0.162645414370713
3.178,0.0241405415944354,-0.164528768904705
3.18,0.0216743011366281,-0.166339126133031
3.182,0.0191069314856593,-0.168084185518046
3.184,0.0164647242253606,-0.169799188336555
3.186,0.0137810012609512,-0.171457117154373
3.188,0.0109863182264767,-0.17304668348075
3.19,0.00807907275256409,-0.174435302572557
3.192,0.00514000954438831,-0.176007333098312
3.194,0.0021410801999424,-0.177420300761998
3.196,-0.000970395331437501,-0.178584193556725
3.198,-0.0041216074202961,-0.179940001668217
3.2,-0.0073552620879762,-0.180965866858068
3.202,-0.0106593374873491,-0.182113221996932
3.204,-0.013998773563184,-0.182951414967445
3.206,-0.0174444367623099,-0.183981792457038
3.208,-0.0209141558634999,-0.184758283840586
3.21,-0.0244602207070784,-0.18539906930289
3.212,-0.0280356158142741,-0.185971394831009
3.214,-0.0316239517562763,-0.186305321046442
3.216,-0.0353236508930783,-0.186800170717167
3.218,-0.0390364119419802,-0.187040614479524
3.22,-0.0427704013348896,-0.187174980760005
3.222,-0.0465423405333105,-0.187192668696815
3.224,-0.0503472922481017,-0.187100333601418
3.226,-0.0541625969169182,-0.18690206367985
3.228,-0.0579758646971161,-0.186538458103954
3.23,-0.0618285634642065,-0.186088560032507
3.232,-0.0655725795234913,-0.185365248942175
3.234,-0.0694978306124804,-0.184761791648403
3.236,-0.073353732955483,-0.183918368416159
3.238,-0.0771910584088185,-0.182950539580569
3.24,-0.0810120418823694,-0.181872456617458
3.242,-0.0848020149699061,-0.180638834633793
3.244,-0.0885666520091684,-0.179291412937981
3.246,-0.092319091906613,-0.177810136900128
3.248,-0.0958824257219803,-0.176136760122137
3.25,-0.0995457503024992,-0.174407033107781
3.252,-0.103292244556923,-0.172640099242633
3.254,-0.106840860459223,-0.170676982143938
3.256,-0.110344195342031,-0.168580119380383
3.258,-0.113787279709864,-0.166367966931805
3.26,-0.117003183942013,-0.163992013348794
3.262,-0.120456544415231,-0.161617942982253
3.264,-0.123655033886102,-0.159069562982867
3.266,-0.126785841783173,-0.156418760500483
3.268,-0.129839191058843,-0.153657863323469
3.27,-0.132772945440925,-0.150794237417985
3.272,-0.13562677874403,-0.147857452787156
3.274,-0.138375405970596,-0.144806332220265
3.276,-0.141004413421741,-0.141675137241829
3.278,-0.143528866577794,-0.138464346240619
3.28,-0.14595915398858,-0.135168314548684
3.282,-0.148244672563474,-0.131828539450279
3.284,-0.150432040671142,-0.128383115830745
3.286,-0.152477527019069,-0.124885887825387
3.288,-0.154228777042811,-0.121387653778274
3.29,-0.156210291254976,-0.117746142121023
3.292,-0.157880545913971,-0.114110620041529
3.294,-0.159420933372459,-0.110420070629683
3.296,-0.160817634425602,-0.106696060952055
3.298,-0.162111748659017,-0.102954280482541
3.3,-0.163227254636485,-0.099176766648777
3.302,-0.164231669057401,-0.0953999738227829
3.304,-0.165101549963971,-0.0915963965584987
3.306,-0.165812471708186,-0.0878080276463946
3.308,-0.166395152538481,-0.0840122700290116
3.31,-0.166848297476183,-0.080220484561678
3.312,-0.167172530661738,-0.0764367059101005
3.314,-0.167330316570602,-0.0726997430708205
3.316,-0.167301464898956,-0.0690843441597823
3.318,-0.167322837329156,-0.0652786936808324
3.32,-0.167006064894918,-0.0617511067642342
3.322,-0.166763810296244,-0.0580168986551902
3.324,-0.166309807384161,-0.0544495097623709
3.326,-0.165743611735144,-0.0509262594464426
3.328,-0.165050500755334,-0.0474844236385907
3.33,-0.164228270314514,-0.0441001498091052
3.332,-0.163295922959803,-0.0407963981458989
3.334,-0.162284296889151,-0.0375427221231291
3.336,-0.161144920714604,-0.0343916774597856
3.338,-0.159916784165247,-0.0313120615982834
3.34,-0.158604072490002,-0.0282899607731442
3.342,-0.157186841440126,-0.0254074816796365
3.344,-0.155683187771499,-0.0225868127524825
3.346,-0.154096956476659,-0.0198598016845703
3.348,-0.152452567786631,-0.0172539841857129
3.35,-0.150729905772474,-0.014736558631455
3.352,-0.148933500476631,-0.0123165898318617
3.354,-0.147103158354032,-0.0101670625304176
3.356,-0.145202970622974,-0.00781197882289619
3.358,-0.143252990925741,-0.0057263908163293
3.36,-0.141270115179048,-0.0037418788479887
3.362,-0.139240887704194,-0.00187685408441711
3.364,-0.137213398837034,-0.0002745890205198
3.366,-0.135083578747697,0.00154501147130839
3.368,-0.132970264871099,0.0030642788219872
3.37,-0.130902690112204,0.0043227537465193
3.372,-0.128690677471098,0.0057898989346838
3.374,-0.126636898960288,0.0068352592916696
3.376,-0.124424656573842,0.00806106095868461
3.378,-0.122379358990772,0.0088844698134412
3.38,-0.12016216746018,0.0099144634206405
3.382,-0.118126827890734,0.0105491517023324
3.384,-0.115947158619887,0.0113307249182556
3.386,-0.113866887263414,0.011875385686065
3.388,-0.111822956346689,0.0123423587715255
3.39,-0.109938385838798,0.0125458116686169
3.392,-0.107963289139399,0.0128383874695237
3.394,-0.105886579855402,0.0131274749146161
3.396,-0.104020590307427,0.0131868214222964
3.398,-0.102156302836031,0.0132067886388007
3.4,-0.100384592577788,0.0130881903078735
3.402,-0.098779670471073,0.0128311776203988
3.404,-0.096955762831757,0.0126654318039165
3.406,-0.095335940548559,0.0123627529420758
3.408,-0.093782123418336,0.01194299832395
3.41,-0.092290561811074,0.0114932028133111
3.412,-0.090876903144713,0.0109593913277845
3.414,-0.089511771839788,0.0103873292579009
3.416,-0.08823333841385,0.0097462796160564
3.418,-0.087193014485692,0.0090279921653919
3.42,-0.086040159849408,0.0083026439485235
3.422,-0.084830948618225,0.0075591202362195
3.424,-0.083831078218167,0.006724600265937
3.426,-0.082932696411508,0.0058738070202775
3.428,-0.082104466890079,0.0049849672553154
3.43,-0.081521286248331,0.0040724640588038
3.432,-0.080688265726248,0.0031302872083076
3.434,-0.080081021102069,0.0021736582691964
3.436,-0.079583403084843,0.0011957031925132
3.438,-0.079144911436747,0.0002034144927546
3.44,-0.078771913505315,-0.0007913297145102
3.442,-0.078521926985395,-0.0018124097050755
3.444,-0.078308551221002,-0.0028189158487369
3.446,-0.078195807766934,-0.00382759707298661
3.448,-0.078167819450294,-0.0048339707488652
3.45,-0.078201708651751,-0.00583859089344775
3.452,-0.078477001206694,-0.00675807925242222
3.454,-0.078648594426179,-0.00773084160134643
3.456,-0.078750584947762,-0.00877842929698083
3.458,-0.079059258356086,-0.00972919555732494
3.46,-0.079467909963375,-0.0106585983406916
3.462,-0.07993217927974,-0.0115529607975298
3.464,-0.080463022033315,-0.0124396943362831
3.466,-0.08105015839024,-0.01329147470846
3.468,-0.081731930944509,-0.0141019997207953
3.47,-0.08245080725762,-0.0148860535895774
3.472,-0.083240951948117,-0.0156222513651271
3.474,-0.08408740348093,-0.0163516333263834
3.476,-0.084975566416626,-0.0170172094256884
3.478,-0.085938071670446,-0.0176488733836532
3.48,-0.086951287131248,-0.0182431082042444
3.482,-0.088040127490277,-0.0187826959799487
3.484,-0.089132607339791,-0.0193034381871627
3.486,-0.090308804511562,-0.0197223250816594
3.488,-0.091518867055227,-0.0201414749242589
3.49,-0.092782981426493,-0.0204813565566426
3.492,-0.094085427565232,-0.0207778006873103
3.494,-0.095439009433395,-0.0210071955477207
3.496,-0.096813730532865,-0.021203735938537
3.498,-0.098246540803101,-0.0213458247861169
3.5,-0.0997374814286953,-0.0212320680990681
3.502,-0.101186875146824,-0.0214240719850349
3.504,-0.102715963494503,-0.0213706961176262
3.506,-0.104289414955821,-0.0212625760034859
3.508,-0.105856005988933,-0.0210787963995658
3.51,-0.107466446733048,-0.0208337627605278
3.512,-0.109089449885218,-0.0205274675563632
3.514,-0.110747728597046,-0.0201316641901
3.516,-0.112413557001291,-0.0197107965257682
3.518,-0.114136036148324,-0.0192052947664669
3.52,-0.115826962512516,-0.0186199014126526
3.522,-0.117544551118488,-0.0179416981805486
3.524,-0.11927945002327,-0.0172348714107851
3.526,-0.120923214998351,-0.0162559951871545
3.528,-0.122752093022635,-0.0155823105955833
3.53,-0.124406768431279,-0.0144623584232655
3.532,-0.126247043841171,-0.0136297536879629
3.534,-0.127990309586063,-0.0125160126875016
3.536,-0.129729646674135,-0.0113454529794465
3.538,-0.131466549655494,-0.010116088490896
3.54,-0.13306299180202,-0.0086389229185778
3.542,-0.134897565703001,-0.0073838912989787
3.544,-0.13661980011631,-0.0059082926087873
3.546,-0.13828325371755,-0.0043526250254104
3.548,-0.139964726949099,-0.0027274030077656
3.55,-0.141583441961067,-0.000994463577156206
3.552,-0.143201896776199,0.0007931837315516
3.554,-0.144791637444678,0.0026422190586826
3.556,-0.146324623368874,0.0045946020982487
3.558,-0.147843548148016,0.0066104835962887
3.56,-0.149336703472794,0.0087148692490024
3.562,-0.150565871309887,0.0109802087907256
3.564,-0.152132454456437,0.0131505043417101
3.566,-0.153467040274482,0.0154762770956854
3.568,-0.15476217013527,0.0178748803172709
3.57,-0.155994039513569,0.0203410711292099
3.572,-0.157171091451901,0.0228869003993531
3.574,-0.158283881024728,0.0255068870775179
3.576,-0.159324224612573,0.0281815007421303
3.578,-0.160293849266098,0.030922848626669
3.58,-0.161205404750155,0.0337507696759463
3.582,-0.161840052387755,0.0366299231721691
3.584,-0.162790859534027,0.039563079360838
3.586,-0.163453250790117,0.0425496051164247
3.588,-0.164065754507043,0.0456068295678896
3.59,-0.164347351479549,0.0486915362339944
3.592,-0.164745541469871,0.0518286774084159
3.594,-0.165264232781522,0.0550533862046786
3.596,-0.165488832433021,0.0583005033308876
3.598,-0.165616213901576,0.0616011089743024
3.6,-0.165641916726798,0.0649238310956428
3.602,-0.165550048554316,0.068278193113311
3.604,-0.165181979779454,0.0715922021473087
3.606,-0.165073279330802,0.0750752482570682
3.608,-0.164671806813851,0.0785259713870054
3.61,-0.164162999784548,0.0819878759949266
3.612,-0.163532624822881,0.0854411932964714
3.614,-0.16279803773643,0.0889237887299679
3.616,-0.161927077393914,0.0924045867355591
3.618,-0.160949761368756,0.095898066515539
3.62,-0.159861421762583,0.0993662544929458
3.622,-0.158645512948812,0.10283773368256
3.624,-0.157306177016141,0.106277310864985
3.626,-0.15571075187212,0.109554333065515
3.628,-0.154272438306685,0.113100667773809
3.63,-0.152590455615703,0.116487803775369
3.632,-0.15078795592454,0.119846357822858
3.634,-0.148852117231614,0.123131848327207
3.636,-0.146796813412009,0.126385753558514
3.638,-0.144636077141026,0.129589362616804
3.64,-0.142350114737843,0.132738361612567
3.642,-0.139968421879116,0.135819737927104
3.644,-0.137467174712646,0.138860736322696
3.646,-0.134860291611053,0.141828647502607
3.648,-0.132067771505477,0.144505767020864
3.65,-0.129326881989315,0.14748739998186
3.652,-0.126346300411975,0.150013904489808
3.654,-0.123377938022655,0.152831332247948
3.656,-0.120263746694194,0.155366691397621
3.658,-0.117051356506905,0.157795876557148
3.66,-0.11375479940248,0.160121730490507
3.662,-0.110377711367944,0.162353105875842
3.664,-0.106923481859604,0.164454459253797
3.666,-0.103394383997095,0.166473564015651
3.668,-0.0998039240374271,0.168355253721292
3.67,-0.0961294105791147,0.170105613107007
3.672,-0.0924139728963519,0.171741082273068
3.674,-0.0886386368931932,0.173263527611169
3.676,-0.0848005266078499,0.174640149961703
3.678,-0.0809261286170144,0.175872690710789
3.68,-0.0770209701602285,0.177007467747218
3.682,-0.0730766072183316,0.177988136649147
3.684,-0.0690993434229687,0.178827955720662
3.686,-0.0650976002591483,0.179530511968165
3.688,-0.061096976685682,0.180114045026555
3.69,-0.0570569988568625,0.180557506335286
3.692,-0.0531805734702549,0.180636837514221
3.694,-0.049024420957515,0.180980673769341
3.696,-0.0449963381353013,0.181002628898246
3.698,-0.0410039745644635,0.180841739935544
3.7,-0.037041716539104,0.18058700257803
3.702,-0.0330704180877052,0.180177008169723
3.704,-0.0291505475493483,0.179622139056724
3.706,-0.0252704761290189,0.178944930721918
3.708,-0.0214332652429834,0.178136875409536
3.71,-0.0176341033642514,0.1771914272795
3.712,-0.0138932667381272,0.176119866571676
3.714,-0.010222209447879,0.174921218259918
3.716,-0.0068016652404147,0.173497101355981
3.718,-0.0030571592221621,0.172155957773269
3.72,0.0003920527650473,0.170601426290434
3.722,0.0038088324379612,0.168915919284807
3.724,0.00707759872579099,0.167143409675697
3.726,0.0102881399940118,0.165254240607529
3.728,0.0134295675280448,0.163260564172823
3.73,0.0162121394368721,0.161131877705062
3.732,0.0193725656164937,0.158998799101342
3.734,0.0221813080433375,0.156745190384959
3.736,0.0248817488175177,0.154396506807801
3.738,0.0274713821660143,0.151962588622591
3.74,0.0299560909557233,0.149475357785037
3.742,0.0323231750164234,0.14690245577579
3.744,0.034562909203595,0.1442839762523
3.746,0.0366981398511423,0.141601780390493
3.748,0.0384547455940168,0.13890259064637
3.75,0.040567086380683,0.136086061967433
3.752,0.0423241777655076,0.133266140153967
3.754,0.0439290640910137,0.130416967620228
3.756,0.0454252164599997,0.127535043892486
3.758,0.0468109222975497,0.124625394298918
3.76,0.0480410003029348,0.121707125474421
3.762,0.0491412414613429,0.118790980380626
3.764,0.0501278065055435,0.115843417870489
3.766,0.0509913923473683,0.112895827084677
3.768,0.0517103286991009,0.109974511121851
3.77,0.0523235789347261,0.107050995596864
3.772,0.0527963088410292,0.104148411911422
3.774,0.0531541285985929,0.101266234992994
3.776,0.0533733932326362,0.098416759360683
3.778,0.0535130285137303,0.095561138631911
3.78,0.0533337099683746,0.092951624552047
3.782,0.0533743718094344,0.090049594643885
3.784,0.0531567009464397,0.087335216617062
3.786,0.0528149856557538,0.08468427090731
3.788,0.0523942056305818,0.082068253675673
3.79,0.0517017719008545,0.079752409797565
3.792,0.0510673777629593,0.077309707451754
3.794,0.0504689487593377,0.074634107409247
3.796,0.0496281604179187,0.072297087442083
3.798,0.0486983538314331,0.070054335842006
3.8,0.0476080278165532,0.068082648869077
3.802,0.0465232218629092,0.065978449550191
3.804,0.045442894261936,0.063703472337454
3.806,0.0441871876955755,0.061765740546585
3.808,0.0428854491348525,0.059914247725074
3.81,0.0415157700782498,0.058146840170413
3.812,0.040057201749983,0.056736918998143
3.814,0.0385914027680902,0.054907543389862
3.816,0.0370417287723718,0.053419424151147
3.818,0.0354698243821842,0.052043024019396
3.82,0.0338474094440711,0.051031945921597
3.822,0.0321680187592572,0.049564706512044
3.824,0.0304923361209409,0.048720932789941
3.826,0.0287291906214711,0.047478784116983
3.828,0.0269759432793591,0.046601439494835
3.83,0.0251943749061134,0.045809985242572
3.832,0.0234100865529344,0.04513875265403
3.834,0.021607984304221,0.044538981435142
3.836,0.0197869486929614,0.044052431061143
3.838,0.0179776160739229,0.043668031973797
3.84,0.0161433116446799,0.043381474668522
3.842,0.0143396516305272,0.043209152861449
3.844,0.0126844474791687,0.043357987046506
3.846,0.010741669647273,0.043104231412342
3.848,0.009118722448873,0.043439969399313
3.85,0.0072288291405855,0.043443204336336
3.852,0.005503467782659,0.04374529081777
3.854,0.0037993764178963,0.044119346750213
3.856,0.0021326543363614,0.044591757049251
3.858,0.0004969999599444,0.045164461206237
3.86,-0.001088553193223,0.045818199864943
3.862,-0.0024550207445496,0.04671878882826
3.864,-0.0041577348509216,0.047367757584821
3.866,-0.0056255275707929,0.048269620195613
3.868,-0.0070380373104554,0.049251508480543
3.87,-0.0081828658504879,0.050417450525022
3.872,-0.0097174034923347,0.051417048286482
3.874,-0.0109386151950929,0.052619666890894
3.876,-0.0121428873324461,0.053875321159267
3.878,-0.0132796908997583,0.05521182761413
3.88,-0.0143570078113648,0.056588374985995
3.882,-0.0150856511479902,0.058117366879816
3.884,-0.0162379998043741,0.059557237511439
3.886,-0.0171153513870257,0.061119848574021
3.888,-0.0178542525521826,0.062742765084479
3.89,-0.0185768417239121,0.064393403479916
3.892,-0.0192163371023912,0.066096733384054
3.894,-0.0197440441623393,0.067857043303631
3.896,-0.0199650896716459,0.06964840590488
3.898,-0.0206149927301306,0.0714729379199227
3.9,-0.0206595668084894,0.073314122883221
3.902,-0.0211346025474188,0.0752268353380452
3.904,-0.0212946186968671,0.0771560641329138
3.906,-0.0210834039654996,0.0790317490080863
3.908,-0.021309515440284,0.0810475320020246
