"Freq [GHz]","re(S(Antenna1_1_p1,Antenna1_1_p1)) []","im(S(Antenna1_1_p1,Antenna1_1_p1)) []"
3,0.109739315952387,-0.087346012473587
3.002,0.109164172243,-0.0896853493511278
3.004,0.108492164071926,-0.092032853612213
3.006,0.107724348625517,-0.0943782949648325
3.008,0.106855161120052,-0.0967136148406777
3.01,0.105900109683274,-0.0990425321783913
3.012,0.104850719775996,-0.101340850889245
3.014,0.103701777563707,-0.10362661171784
3.016,0.102466172788189,-0.105877934674087
3.018,0.101140579109242,-0.108099030176679
3.02,0.0997269351863935,-0.110277518206505
3.022,0.0982240401006598,-0.112409981311112
3.024,0.0966482452263809,-0.114489123536568
3.026,0.0949885460531175,-0.116513604194792
3.028,0.0932495811575956,-0.118490659406353
3.03,0.0914453818357071,-0.120390285648811
3.032,0.0895748320646373,-0.122230873111385
3.034,0.0876342961850112,-0.12400671897926
3.036,0.0856328616631525,-0.125708343874279
3.038,0.0835961880434368,-0.127322734425175
3.04,0.0814917864607017,-0.128861484297268
3.042,0.079346443942807,-0.130334001301676
3.044,0.07717264583324,-0.131710993974039
3.046,0.0749577412638701,-0.133006822882736
3.048,0.072711414772786,-0.134220417746616
3.05,0.0704425151472692,-0.135350944132254
3.052,0.068153666473858,-0.136394464630705
3.054,0.06585640157455,-0.137353265393839
3.056,0.0635400338611328,-0.138233909960182
3.058,0.0612356414996504,-0.139018670190212
3.06,0.0589130162409762,-0.13973065124134
3.062,0.0566099611475629,-0.140357240382313
3.064,0.0543214261479852,-0.140908497377263
3.066,0.0520419529932716,-0.141378141839194
3.068,0.0497775287700752,-0.141777920833156
3.07,0.0475384903799626,-0.1420977049789
3.072,0.0453275002794154,-0.142352877383082
3.074,0.0431472396067382,-0.142535076711131
3.076,0.0409941452910651,-0.142665650538602
3.078,0.0388772265123133,-0.142720358912142
3.08,0.0368014343612896,-0.142738444300073
3.082,0.0347696309880308,-0.14268975844249
3.084,0.032769872928247,-0.142598342400999
3.086,0.0308304700269667,-0.142459998298127
3.088,0.0289192255774046,-0.142282642646151
3.09,0.0270767127559499,-0.142069516075669
3.092,0.025268035530368,-0.141821816233825
3.094,0.0235021417032107,-0.141548506311958
3.096,0.0217856431844003,-0.141244820253094
3.098,0.0201203632629856,-0.140908632822897
3.1,0.0185028873541464,-0.140580638356316
3.102,0.0169408648963232,-0.14022194032408
3.104,0.0154077669988112,-0.139857819260592
3.106,0.013930288228891,-0.139485407120469
3.108,0.0124863829700803,-0.139106815068813
3.11,0.0110915272299295,-0.138733681943959
3.112,0.0097229409882531,-0.138353519941783
3.114,0.0083978148955584,-0.137976423393964
3.116,0.0071087389517158,-0.137597275625707
3.118,0.0058673452548076,-0.13726952326527
3.12,0.0046247473401886,-0.136922237420144
3.122,0.0034326322098488,-0.136591072875856
3.124,0.0022617813418793,-0.136278017497803
3.126,0.0011075198602858,-0.135969985194257
3.128,-2.83152850772996E-05,-0.135692253175273
3.13,-0.0011423088582329,-0.135417853214322
3.132,-0.00224914030667992,-0.135169132808102
3.134,-0.003339373080716,-0.134928748863731
3.136,-0.00443128987247901,-0.134725096054617
3.138,-0.00551561996782517,-0.134524312261332
3.14,-0.0065873743219235,-0.134338267765134
3.142,-0.00766989499765577,-0.13417228513481
3.144,-0.00875127415069778,-0.134022584157205
3.146,-0.00984501205345118,-0.133879387699471
3.148,-0.0109285533756342,-0.133759722565098
3.15,-0.0120442457367121,-0.133646316494622
3.152,-0.013145729457063,-0.133533514943115
3.154,-0.014286719880823,-0.13344040404637
3.156,-0.0154195016195792,-0.133344946095885
3.158,-0.0165833554307657,-0.133255553053539
3.16,-0.0177580539598068,-0.133162871442072
3.162,-0.018939038720004,-0.133076279943263
3.164,-0.0201490144942148,-0.13298470691496
3.166,-0.0213759173021991,-0.13288089186677
3.168,-0.0226108718017878,-0.132769206613574
3.17,-0.0238757742817379,-0.132655000170821
3.172,-0.025154730033365,-0.132521021581584
3.174,-0.026454329620902,-0.132371326049355
3.176,-0.0277655093095904,-0.132217939197713
3.178,-0.0290873551445646,-0.132024630549705
3.18,-0.0304340558783719,-0.131821381583031
3.182,-0.0317926495103407,-0.131599292909046
3.184,-0.0331624320946394,-0.131347352453555
3.186,-0.0345294768990488,-0.131058699652373
3.188,-0.0359269115615233,-0.13075363979875
3.19,-0.0373167966834359,-0.130419811236557
3.192,-0.0387134555446117,-0.130068135008312
3.194,-0.0401172858420576,-0.129656242324998
3.196,-0.0415233699794375,-0.129233264686725
3.198,-0.0429128583252961,-0.128765482790217
3.2,-0.0442908519089762,-0.128279906145068
3.202,-0.0457080415793491,-0.127739930496932
3.204,-0.047082125694184,-0.127173629552445
3.206,-0.0484564889363099,-0.126580286250038
3.208,-0.0498155709884999,-0.125945983969586
3.21,-0.0511601538290784,-0.12529082697589
3.212,-0.0524810811992741,-0.124594618138009
3.214,-0.0537840123112763,-0.123871944930442
3.216,-0.0550610541270783,-0.123128028493167
3.218,-0.0563235520029802,-0.122334209422524
3.22,-0.0575554529358896,-0.121529374313005
3.222,-0.0587589193793105,-0.120692955453815
3.224,-0.0599268454741017,-0.119858694460418
3.226,-0.0610657734119182,-0.11897630726585
3.228,-0.0621773885774161,-0.118073776867954
3.23,-0.0632477738432065,-0.117165709952507
3.232,-0.0642963533854913,-0.116231197053175
3.234,-0.0653047374434804,-0.115290316637403
3.236,-0.066281215756483,-0.114337624489159
3.238,-0.0672104878328185,-0.113377548450569
3.24,-0.0681071367263694,-0.112420606767458
3.242,-0.0689697430089061,-0.111452967853793
3.244,-0.0697940294341684,-0.110483645277981
3.246,-0.070589781729613,-0.109523941130128
3.248,-0.0713298136839803,-0.108567589502137
3.25,-0.0720596420401992,-0.107617007467781
3.252,-0.0727357633989384,-0.106686073692633
3.254,-0.0733846774711231,-0.105752359913938
3.256,-0.0739966206310309,-0.104841504380383
3.258,-0.0745892551728637,-0.103956854681805
3.26,-0.075143240534013,-0.103076908318794
3.262,-0.0756848554672309,-0.102226381622253
3.264,-0.0761829880611025,-0.101393840652867
3.266,-0.0766696655881733,-0.100587016680483
3.268,-0.0771390391328425,-0.099812753033469
3.27,-0.0775801788689247,-0.099050754707985
3.272,-0.07801426621103,-0.098345632037156
3.274,-0.0784230731015963,-0.097642347980265
3.276,-0.0788295226787412,-0.096980753331829
3.278,-0.0792246219977944,-0.096350458870619
3.28,-0.0796161146685796,-0.095749530498684
3.282,-0.0800057792854739,-0.095186537860279
3.284,-0.0803950371811423,-0.094652317120745
3.286,-0.0807860614390687,-0.094141858055387
3.288,-0.0811837553828109,-0.093672706258274
3.29,-0.0815901025649762,-0.093238759008023
3.292,-0.0820159219339712,-0.092832409307529
3.294,-0.0824402384824589,-0.092450799990683
3.296,-0.082884282925602,-0.092093070734055
3.298,-0.0833591058790166,-0.091778198250541
3.3,-0.0838424655464852,-0.091468260988977
3.302,-0.084352060817401,-0.0911961997247829
3.304,-0.084879332783971,-0.0909306398214987
3.306,-0.085449766958186,-0.0907044459583946
3.308,-0.086045783748481,-0.0904894041230116
3.31,-0.086671542586183,-0.090289045583678
3.312,-0.087328668681738,-0.0900993243341005
3.314,-0.088019519040602,-0.0899273161658205
3.316,-0.088757067818956,-0.0897525330673823
3.318,-0.089520841169156,-0.0895910558995324
3.32,-0.090322622524918,-0.0894312591442342
3.322,-0.091163979306244,-0.0892707689841902
3.324,-0.092048677964161,-0.0891056214223709
3.326,-0.092968412775144,-0.0889367464934426
3.328,-0.093918461155334,-0.0887543344535907
3.33,-0.094933421384514,-0.0885589995241052
3.332,-0.095968168209803,-0.0883579452848989
3.334,-0.097049573449151,-0.0881338604931291
3.336,-0.098166979814604,-0.0878878818207856
3.338,-0.099326339985247,-0.0876201558642834
3.34,-0.100513544280002,-0.0873234758031442
3.342,-0.101744079140126,-0.0870007398696365
3.344,-0.103004604971499,-0.0866468715924825
3.346,-0.104290229176659,-0.0862589193645703
3.348,-0.105626152096631,-0.0858281413157129
3.35,-0.106981384142474,-0.085362441121455
3.352,-0.108353765706631,-0.0848633816118617
3.354,-0.109770192334032,-0.0843017726304176
3.356,-0.111201752712974,-0.0837069427328962
3.358,-0.112655926747741,-0.0830617065063293
3.36,-0.114123614768048,-0.0823679054679887
3.362,-0.115606812029194,-0.0816268464244171
3.364,-0.117101440610034,-0.0808297572405198
3.366,-0.118609748404697,-0.0799775093586916
3.368,-0.120122361620099,-0.0790760572980128
3.37,-0.121646265877204,-0.0781118684234807
3.372,-0.123161999987098,-0.0770983181853162
3.374,-0.124680826192788,-0.0760216720483304
3.376,-0.126198709289842,-0.0748905872713154
3.378,-0.127705483895072,-0.0737054806865588
3.38,-0.12920703203258,-0.0724565794893595
3.382,-0.130685024238734,-0.0711571989076676
3.384,-0.132155757091887,-0.0697976421517444
3.386,-0.133600416221414,-0.068376725643935
3.388,-0.135028174736689,-0.0669109940084745
3.39,-0.136428692764798,-0.0653770318413831
3.392,-0.137805461055399,-0.0637969351804763
3.394,-0.139145995298402,-0.0621648011753839
3.396,-0.140454704929427,-0.0604781643277036
3.398,-0.141730283414031,-0.0587523396611993
3.4,-0.142961626977788,-0.0569557540621265
3.402,-0.144154828211073,-0.0551222522696012
3.404,-0.145307423011757,-0.0532417153560835
3.406,-0.146413932678559,-0.0513232576979242
3.408,-0.147469975048336,-0.04935851156605
3.41,-0.148480519301074,-0.0473614833766889
3.412,-0.149438275654713,-0.0453169370622155
3.414,-0.150342196019788,-0.0432488694820991
3.416,-0.15119115060385,-0.0411416498639436
3.418,-0.151989494675692,-0.0390039539746081
3.42,-0.152725045579408,-0.0368449076114765
3.422,-0.153403409168225,-0.0346562805737805
3.424,-0.154019852268167,-0.032444174727063
3.426,-0.154576715371508,-0.0302134583987225
3.428,-0.155073788740079,-0.0279672174146846
3.43,-0.155513207408331,-0.0257100902721962
3.432,-0.155878086026248,-0.0234340736746924
3.434,-0.156194830472069,-0.0211573306978036
3.436,-0.156441497254843,-0.0188687656754868
3.438,-0.156628828946747,-0.0165810738652454
3.44,-0.156755508465315,-0.0142927450545102
3.442,-0.156812154185395,-0.0120055007194755
3.444,-0.156812620671002,-0.0097196683483369
3.446,-0.156752290546934,-0.00744541343298661
3.448,-0.156621901700294,-0.0051849399928652
3.45,-0.156445192011751,-0.00293300356994775
3.452,-0.156197960226694,-0.00069600346342222
3.454,-0.155893990696179,0.00151962380365357
3.456,-0.155542926347762,0.00371766334001917
3.458,-0.155130908216086,0.00589329615767506
3.46,-0.154661722303375,0.00804665268130837
3.462,-0.15414620685974,0.0101680559354702
3.464,-0.153579422153315,0.0122688727087169
3.466,-0.15295635770024,0.01433025658154
3.468,-0.152282968844509,0.0163589357992047
3.47,-0.15156628658762,0.0183567239204226
3.472,-0.150809490008117,0.0203208148748729
3.474,-0.15001013250093,0.0222492077336166
3.476,-0.149170833696626,0.0241358347443116
3.478,-0.148292621880446,0.0259866306963468
3.48,-0.147376796311248,0.0277911226057556
3.482,-0.146427047700277,0.0295425026800513
3.484,-0.145445199709791,0.0312692819728373
3.486,-0.144437539621562,0.0329428529683406
3.488,-0.143399636188227,0.0345754591057411
3.49,-0.142337067736493,0.0361603427433574
3.492,-0.141252715431232,0.0376992507626897
3.494,-0.140148917385395,0.0391882859322793
3.496,-0.139023045091865,0.040639878281463
3.498,-0.137888787544101,0.0420338529138831
3.5,-0.136732990679695,0.0433916334809319
3.502,-0.135573217235824,0.0447029469549651
3.504,-0.134400308739503,0.0459609037423738
3.506,-0.133216411532821,0.0471818221765141
3.508,-0.132038303888533,0.0483472203104342
3.51,-0.130852463097448,0.0494685788294722
3.512,-0.129665862874218,0.0505559207636368
3.514,-0.128474313505046,0.0515989776499
3.516,-0.127294343712291,0.0525913901342318
3.518,-0.126120262905324,0.0535363522635331
3.52,-0.124942362077516,0.0544541816573474
3.522,-0.123789523798488,0.0553283014194514
3.524,-0.12264144490727,0.0561658020192149
3.526,-0.121492058052351,0.0569715179828455
3.528,-0.120363735357635,0.0577317724244167
3.53,-0.119253674087279,0.0584719917367345
3.532,-0.118161841675471,0.0591625303220371
3.534,-0.117081725429063,0.0598311474124984
3.536,-0.116023711000135,0.0604721289605535
3.538,-0.114978616189494,0.061077545829104
3.54,-0.11395662442802,0.0616724690014222
3.542,-0.112953438033001,0.0622300769210213
3.544,-0.11198648671631,0.0627691564212127
3.546,-0.11102179367755,0.0632859315545896
3.548,-0.110088331409099,0.0637811070712344
3.55,-0.109179337471067,0.0642625357538438
3.552,-0.108287576486199,0.0647396007495516
3.554,-0.107416288574678,0.0651888896346826
3.556,-0.106570329538874,0.0656271616592487
3.558,-0.105748635328016,0.0660563410202887
3.56,-0.104959645942794,0.0664819516460024
3.562,-0.104180852039887,0.0668990661337256
3.564,-0.103436709496437,0.0673115774667101
3.566,-0.102697390714482,0.0677280302956854
3.568,-0.10198826875527,0.0681310401042709
3.57,-0.101296713333569,0.0685340246772099
3.572,-0.100627202761901,0.0689404359313531
3.574,-0.099978745284728,0.0693480139655179
3.576,-0.099339546332573,0.0697550932755303
3.578,-0.098720288696098,0.070171168562869
3.58,-0.098112944270155,0.0705902022274463
3.582,-0.097529368247755,0.0710152862349691
3.584,-0.096954490634027,0.071446963328838
3.586,-0.096387528580117,0.0718884597684247
3.588,-0.095844166057043,0.0723372530428896
3.59,-0.095304777379549,0.0727965119949944
3.592,-0.094765464589871,0.0732641624164159
3.594,-0.094237405041522,0.0737474299616786
3.596,-0.093717209913021,0.0742375881868876
3.598,-0.093204804631576,0.0747353061673024
3.6,-0.092696174196798,0.0752480968306428
3.602,-0.092191980514316,0.075771844445311
3.604,-0.091679742429454,0.0763013450853087
3.606,-0.091175875810802,0.0768508163920682
3.608,-0.090663203979851,0.0774083246880054
3.61,-0.0901502256745481,0.0779712077439266
3.612,-0.0896391411398813,0.0785438054932414
3.614,-0.08912129655543,0.0791345950699679
3.616,-0.0885947957119138,0.0797304238015591
3.618,-0.0880616070257556,0.080335136758539
3.62,-0.0875249577885832,0.0809458902729458
3.622,-0.0869742142858115,0.0815624244475597
3.624,-0.0864097875421408,0.0821775425009854
3.626,-0.0858438293191196,0.0828086662555147
3.628,-0.0852697488896849,0.0834463256608085
3.63,-0.0846782365907032,0.0840770155433693
3.632,-0.0840802683755401,0.0847265170038583
3.634,-0.0834689995876142,0.0853591780972071
3.636,-0.0828434717700088,0.0860031689785139
3.638,-0.082213808499026,0.0866496739968041
3.64,-0.0815544848788427,0.0872860626005675
3.642,-0.0809017887371157,0.0879166525981043
3.644,-0.0802255967256463,0.0885529184586958
3.646,-0.0795384527560528,0.0891867391876065
3.648,-0.0788425809384769,0.0898171680378645
3.65,-0.0781355573363152,0.0904332616568599
3.652,-0.0774115356569752,0.091049152005808
3.654,-0.0766902701426551,0.091640482623948
3.656,-0.0759518100651943,0.092237233203621
3.658,-0.0752013894409053,0.092829529679148
3.66,-0.0744453808714804,0.093401304804507
3.662,-0.0736766218499445,0.093971916560842
3.664,-0.0729032646086043,0.094527232417797
3.666,-0.0721264960063947,0.095073944514651
3.668,-0.0713510871916271,0.095604542600292
3.67,-0.0705590963156147,0.096127682404007
3.672,-0.0697702444059519,0.096635582896068
3.674,-0.0689775969812932,0.097136167818169
3.676,-0.0681810513250499,0.097620290186703
3.678,-0.0673784311164144,0.098096271067789
3.68,-0.0665848947939285,0.098556455526218
3.682,-0.0657891071633316,0.099007397991147
3.684,-0.0649966744809687,0.099451638125662
3.686,-0.0642000459291483,0.099879776539165
3.688,-0.063413415474882,0.100296174335555
3.69,-0.0626281216248625,0.100708344086286
3.692,-0.0618491336102549,0.101113496955221
3.694,-0.061077326424515,0.101502010460341
3.696,-0.0603078606003013,0.101893965039246
3.698,-0.0595445133644635,0.102272371777544
3.7,-0.058795326454104,0.10264896552903
3.702,-0.0580453197477052,0.103015465494723
3.704,-0.0573061176413483,0.103385771855724
3.706,-0.0565811842240189,0.103744465710918
3.708,-0.0558504915169834,0.104116864603536
3.71,-0.0551394739612514,0.1044756011525
3.712,-0.0544282026091272,0.104845129372676
3.714,-0.053729890713879,0.105213411006918
3.716,-0.0530427098914147,0.105577612894981
3.718,-0.0523557855681621,0.105954970981269
3.72,-0.0516749443419527,0.106339263155434
3.722,-0.0510023057140388,0.106730721921807
3.724,-0.050330180271209,0.107134440987697
3.726,-0.0496659114159882,0.107537719260529
3.728,-0.0490047057219552,0.107954078874823
3.73,-0.0483466009891279,0.108378333656062
3.732,-0.0476886053205063,0.108818682899342
3.734,-0.0470300417016625,0.109271669465959
3.736,-0.0463711714424823,0.109738720220801
3.738,-0.0457127793539857,0.110218592480591
3.74,-0.0450410408442767,0.110712580222037
3.742,-0.0443683063435766,0.11122210242479
3.744,-0.043677903016405,0.1117492337413
3.746,-0.0429933195188577,0.112289667160493
3.748,-0.0422875885159832,0.11284914721537
3.75,-0.041568096859317,0.113419253395433
3.752,-0.0408425683844924,0.114006773333967
3.754,-0.0401004774089863,0.114609529782228
3.756,-0.0393337401900003,0.115224597984486
3.758,-0.0385502936324503,0.115852265878918
3.76,-0.0377467512770652,0.116491591634421
3.762,-0.0369254441086571,0.117150273721826
3.764,-0.0360673191744565,0.117813420685289
3.766,-0.0351933835026317,0.118489782358077
3.768,-0.0342853344708991,0.119177339812851
3.77,-0.0333494479352739,0.119868136884864
3.772,-0.0323847258889708,0.120566950982422
3.774,-0.0313860118114071,0.121267816902994
3.776,-0.0303485140373638,0.121973916291683
3.778,-0.0292833292462697,0.122679833954911
3.78,-0.0281841254816254,0.123386497049047
3.782,-0.0270369656705656,0.124084488935885
3.784,-0.0258595753935603,0.124779574575062
3.786,-0.0246435841742462,0.12546425583331
3.788,-0.0233848814794181,0.126141078721673
3.79,-0.0220936596691455,0.126805414220565
3.792,-0.0207540403270407,0.127454145028754
3.794,-0.0193784194406623,0.128084580269247
3.796,-0.0179675174620813,0.128696603932083
3.798,-0.0165137821785669,0.129287207562006
3.8,-0.0150230493834468,0.129850322629077
3.802,-0.0134908466670908,0.130383168930191
3.804,-0.011922706638064,0.130887134167454
3.806,-0.0103154208244245,0.131360072826585
3.808,-0.00867581137514746,0.131791410225074
3.81,-0.00699786238675023,0.132192508510413
3.812,-0.00529183822001705,0.132544999788143
3.814,-0.00355236160290983,0.132864394059862
3.816,-0.00178032017662824,0.133129123211147
3.818,1.23158261842293E-05,0.133351106799396
3.82,0.00183643392807112,0.133526742231597
3.822,0.00368130937025717,0.133643240822044
3.824,0.00554875322194094,0.133707030319941
3.826,0.0074331816444711,0.133716924536983
3.828,0.0093357049693591,0.133673910854835
3.83,0.0112490289957134,0.133568909662572
3.832,0.0131687386360344,0.13340361512403
3.834,0.015102792596221,0.133185461565142
3.836,0.0170378810349614,0.132898046771143
3.838,0.0189738865999229,0.132549262103797
3.84,0.0209044072036799,0.132143825008522
3.842,0.0228330719455272,0.131668636011449
3.844,0.0247535449041687,0.131136265356506
3.846,0.026662252407273,0.130537900572342
3.848,0.028554278064873,0.129877920149313
3.85,0.0304262626105855,0.129148710836336
3.852,0.032278622572659,0.12836380725777
3.854,0.0341039577578963,0.127514971380213
3.856,0.0359009341163614,0.126608219949251
3.858,0.0376661288799444,0.125647341266237
3.86,0.039404629796777,0.124623726274943
3.862,0.0410932396854504,0.12354527103826
3.864,0.0427491176190784,0.122412738034821
3.866,0.0443557797792071,0.121222586395613
3.868,0.0459221359795446,0.119991065250543
3.87,0.0474347811895121,0.118709964035022
3.872,0.0488966456076653,0.117385472706482
3.874,0.0503087188849071,0.116019328580894
3.876,0.0516621383475539,0.114611701925267
3.878,0.0529605811502417,0.11315924617013
3.88,0.0541960325486352,0.111686961797995
3.882,0.0553655492620098,0.110179807491816
3.884,0.0564837826656259,0.108647597611439
3.886,0.0575234823429743,0.107083717376021
3.888,0.0585089984478174,0.105512657036479
3.89,0.0594296098460879,0.103916045771916
3.892,0.0602762867776088,0.102305200805054
3.894,0.0610663998176607,0.100690288374851
3.896,0.0617756516883541,0.09906287393488
3.898,0.0624272688798694,0.0974388549259227
3.9,0.0630124265115106,0.095813647781221
3.902,0.0635270312225812,0.0941948424530452
3.904,0.0639776012431329,0.0925810325929138
