"Freq [GHz]","re(S(Tx_p1,Tx_p1)) []","im(S(Tx_p1,Tx_p1)) []"
1,0.09073100955,-0.2066603715
1.01,0.08531040488,-0.2070669559
1.02,0.07989395806,-0.2073512359
1.03,0.07448663731,-0.2075115534
1.04,0.06909346512,-0.2075466511
1.05,0.06371949396,-0.207455663
1.06,0.05836978284,-0.2072381046
1.07,0.05304937498,-0.2068938621
1.08,0.04776327642,-0.2064231808
1.09,0.04251643566,-0.2058266535
1.1,0.03731372433,-0.2051052074
1.11,0.03215991889,-0.2042600911
1.12,0.02705968333,-0.2032928607
1.13,0.022017553,-0.2022053655
1.14,0.01703791941,-0.2009997333
1.15,0.01212501613,-0.1996783551
1.16,0.007282905744,-0.1982438699
1.17,0.002515467898,-0.1966991481
1.18,-0.002173611643,-0.1950472762
1.19,-0.006780850823,-0.1932915399
1.2,-0.01130298007,-0.1914354074
1.21,-0.01573695002,-0.1894825132
1.22,-0.02007993818,-0.1874366407
1.23,-0.02432935454,-0.1853017056
1.24,-0.02848284618,-0.1830817392
1.25,-0.03253830078,-0.1807808713
1.26,-0.03649384926,-0.1784033134
1.27,-0.04034786724,-0.1759533428
1.28,-0.04409897574,-0.1734352852
1.29,-0.04774604072,-0.1708534996
1.3,-0.05128817189,-0.1682123616
1.31,-0.05472472045,-0.1655162486
1.32,-0.05805527608,-0.1627695239
1.33,-0.061279663,-0.1599765227
1.34,-0.06439793529,-0.1571415372
1.35,-0.06741037135,-0.1542688031
1.36,-0.07031746771,-0.1513624861
1.37,-0.07311993202,-0.1484266695
1.38,-0.07581867547,-0.1454653418
1.39,-0.07841480451,-0.1424823849
1.4,-0.080909612,-0.1394815638
1.41,-0.08330456785,-0.136466516
1.42,-0.08560130906,-0.1334407419
1.43,-0.0878016294,-0.1304075963
1.44,-0.08990746862,-0.12737028
1.45,-0.09192090125,-0.1243318327
1.46,-0.09384412516,-0.1212951263
1.47,-0.09567944979,-0.1182628589
1.48,-0.09742928414,-0.1152375502
1.49,-0.09909612458,-0.112221537
1.5,-0.1006825425,-0.1092169696
1.51,-0.102191172,-0.1062258096
1.52,-0.1036246973,-0.1032498276
1.53,-0.1049858403,-0.1002906021
1.54,-0.1062773481,-0.09734951952
1.55,-0.1075019809,-0.09442777445
1.56,-0.1086624994,-0.09152637082
1.57,-0.1097616533,-0.0886461239
1.58,-0.1108021688,-0.08578766298
1.59,-0.1117867379,-0.08295143476
1.6,-0.1127180062,-0.08013770738
1.61,-0.1135985628,-0.07734657518
1.62,-0.1144309293,-0.07457796406
1.63,-0.1152175497,-0.07183163747
1.64,-0.1159607809,-0.06910720296
1.65,-0.1166628831,-0.06640411929
1.66,-0.1173260117,-0.06372170409
1.67,-0.1179522083,-0.06105914198
1.68,-0.1185433938,-0.05841549316
1.69,-0.1191013607,-0.05578970238
1.7,-0.1196277672,-0.05318060835
1.71,-0.1201241307,-0.05058695346
1.72,-0.1205918233,-0.04800739381
1.73,-0.1210320667,-0.04544050949
1.74,-0.1214459284,-0.04288481513
1.75,-0.1218343185,-0.04033877057
1.76,-0.1221979873,-0.03780079176
1.77,-0.122537523,-0.03526926168
1.78,-0.1228533508,-0.03274254134
1.79,-0.1231457324,-0.0302189809
1.8,-0.1234147659,-0.02769693059
1.81,-0.123660387,-0.02517475175
1.82,-0.12388237,-0.02265082768
1.83,-0.1240803305,-0.02012357432
1.84,-0.1242537278,-0.01759145088
1.85,-0.1244018688,-0.0150529701
1.86,-0.1245239113,-0.0125067084
1.87,-0.1246188696,-0.009951315645
1.88,-0.124685619,-0.007385524633
1.89,-0.1247229023,-0.00480816024
1.9,-0.1247293352,-0.002218148152
1.91,-0.1247034143,0.0003854768021
1.92,-0.1246435236,0.003003562761
1.93,-0.1245479426,0.005636833413
1.94,-0.1244148545,0.008285881076
1.95,-0.1242423551,0.01095116029
1.96,-0.1240284614,0.01363298194
1.97,-0.1237711212,0.01633150799
1.98,-0.1234682225,0.01904674669
1.99,-0.1231176037,0.02177854849
2,-0.1227170635,0.02452660247
2.01,-0.1222643713,0.02729043346
2.02,-0.1217572778,0.03006939971
2.03,-0.1211935254,0.03286269125
2.04,-0.1205708587,0.03566932884
2.05,-0.119887036,0.03848816363
2.06,-0.119139839,0.04131787738
2.07,-0.1183270842,0.04415698335
2.08,-0.1174466333,0.04700382785
2.09,-0.1164964037,0.04985659238
2.1,-0.115474379,0.05271329639
2.11,-0.1143786191,0.05557180069
2.12,-0.1132072703,0.05842981144
2.13,-0.1119585748,0.06128488465
2.14,-0.1106308806,0.06413443141
2.15,-0.1092226502,0.06697572348
2.16,-0.1077324699,0.06980589957
2.17,-0.1061590578,0.07262197204
2.18,-0.1045012722,0.07542083409
2.19,-0.102758119,0.07819926748
2.2,-0.1009287592,0.08095395057
2.21,-0.09901251514,0.08368146691
2.22,-0.09700887724,0.08637831409
2.23,-0.09491750929,0.08904091302
2.24,-0.09273825381,0.09166561747
2.25,-0.09047113665,0.09424872397
2.26,-0.088116371,0.09678648191
2.27,-0.08567436087,0.09927510388
2.28,-0.083145704,0.1017107762
2.29,-0.08053119411,0.1040896697
2.3,-0.07783182258,0.1064079503
2.31,-0.07504877951,0.1086617903
2.32,-0.07218345419,0.1108473789
2.33,-0.06923743487,0.1129609335
2.34,-0.06621250806,0.1149987105
2.35,-0.06311065706,0.1169570163
2.36,-0.05993405999,0.1188322181
2.37,-0.05668508717,0.1206207544
2.38,-0.05336629792,0.1223191459
2.39,-0.04998043677,0.1239240056
2.4,-0.04653042912,0.125432049
2.41,-0.04301937632,0.1268401041
2.42,-0.03945055021,0.1281451209
2.43,-0.03582738714,0.1293441807
2.44,-0.03215348152,0.1304345052
2.45,-0.02843257881,0.1314134647
2.46,-0.02466856812,0.1322785871
2.47,-0.02086547431,0.1330275648
2.48,-0.01702744976,0.1336582627
2.49,-0.01315876564,0.1341687246
2.5,-0.009263802877,0.1345571802
2.51,-0.005347042834,0.1348220505
2.52,-0.001413057573,0.1349619534
2.53,0.002533500071,0.1349757086
2.54,0.0064879067,0.1348623418
2.55,0.01044537877,0.1346210887
2.56,0.01440108318,0.134251398
2.57,0.01835014805,0.1337529339
2.58,0.02228767359,0.1331255786
2.59,0.02620874304,0.1323694332
2.6,0.0301084337,0.1314848191
2.61,0.03398182798,0.1304722779
2.62,0.03782402441,0.129332571
2.63,0.04163014864,0.1280666794
2.64,0.04539536435,0.1266758012
2.65,0.04911488404,0.1251613506
2.66,0.05278397975,0.1235249542
2.67,0.05639799348,0.1217684489
2.68,0.05995234757,0.1198938773
2.69,0.06344255475,0.117903484
2.7,0.06686422794,0.1157997103
2.71,0.07021308983,0.1135851896
2.72,0.07348498208,0.1112627411
2.73,0.07667587425,0.1088353636
2.74,0.07978187229,0.106306229
2.75,0.08279922675,0.1036786752
2.76,0.08572434052,0.1009561985
2.77,0.08855377616,0.09814244552
2.78,0.09128426278,0.09524120534
2.79,0.09391270249,0.09225640064
2.8,0.09643617636,0.08919207893
2.81,0.09885194988,0.08605240336
2.82,0.1011574779,0.08284164331
2.83,0.1033504093,0.0795641648
2.84,0.1054285904,0.07622442064
2.85,0.1073900689,0.07282694046
2.86,0.1092330967,0.06937632063
2.87,0.1109561317,0.06587721402
2.88,0.1125578403,0.06233431972
2.89,0.114037098,0.05875237275
2.9,0.1153929905,0.05513613368
2.91,0.1166248138,0.05149037832
2.92,0.1177320735,0.04781988748
2.93,0.1187144842,0.04412943673
2.94,0.119571968,0.04042378635
2.95,0.1203046524,0.03670767133
2.96,0.1209128679,0.0329857916
2.97,0.1213971449,0.0292628024
2.98,0.1217582104,0.0255433049
2.99,0.121996984,0.02183183699
3,0.1221145736,0.01813286446
3.01,0.1221122703,0.0144507723
3.02,0.1219915434,0.01078985644
3.03,0.1217540349,0.007154315774
3.04,0.1214015529,0.003548244509
3.05,0.1209360657,-2.437508782E-05
3.06,0.1203596952,-0.003559679567
3.07,0.1196747093,-0.007053930776
3.08,0.1188835149,-0.01050352192
3.09,0.1179886505,-0.01390498319
3.1,0.1169927779,-0.01725498696
3.11,0.1158986746,-0.02055035253
3.12,0.1147092253,-0.0237880504
3.13,0.1134274134,-0.0269652061
3.14,0.1120563129,-0.03007910348
3.15,0.1105990791,-0.03312718765
3.16,0.1090589406,-0.03610706727
3.17,0.10743919,-0.03901651653
3.18,0.1057431752,-0.04185347651
3.19,0.1039742906,-0.04461605613
3.2,0.1021359684,-0.04730253261
3.21,0.1002316697,-0.04991135146
3.22,0.098264876,-0.05244112597
3.23,0.09623908053,-0.05489063631
3.24,0.09415777981,-0.05725882807
3.25,0.09202446539,-0.05954481051
3.26,0.08984261578,-0.06174785419
3.27,0.08761568844,-0.0638673884
3.28,0.08534711218,-0.06590299799
3.29,0.08304027965,-0.06785441993
3.3,0.08069854015,-0.06972153945
3.31,0.07832519271,-0.07150438586
3.32,0.07592347948,-0.07320312801
3.33,0.07349657942,-0.07481806941
3.34,0.07104760231,-0.07634964309
3.35,0.0685795831,-0.07779840618
3.36,0.06609547665,-0.07916503421
3.37,0.06359815281,-0.08045031518
3.38,0.0610903919,-0.08165514345
3.39,0.0585748805,-0.0827805134
3.4,0.05605420779,-0.08382751292
3.41,0.05353086213,-0.08479731683
3.42,0.05100722814,-0.0856911801
3.43,0.04848558417,-0.08651043098
3.44,0.0459681002,-0.08725646414
3.45,0.04345683609,-0.08793073368
3.46,0.04095374033,-0.08853474612
3.47,0.03846064915,-0.08907005348
3.48,0.03597928605,-0.08953824627
3.49,0.03351126174,-0.0899409466
3.5,0.03105807448,-0.09027980137
3.51,0.0286211108,-0.09055647546
3.52,0.02620164661,-0.09077264518
3.53,0.02380084869,-0.09092999173
3.54,0.02141977654,-0.09103019488
3.55,0.01905938461,-0.09107492681
3.56,0.01672052478,-0.09106584618
3.57,0.01440394927,-0.09100459235
3.58,0.01211031382,-0.09089277988
3.59,0.00984018115,-0.09073199329
3.6,0.007594024699,-0.09052378204
3.61,0.005372232658,-0.09026965583
3.62,0.003175112213,-0.08997108016
3.63,0.001002894022,-0.08962947221
3.64,-0.0011442631,-0.08924619704
3.65,-0.003266267317,-0.08882256415
3.66,-0.00536308874,-0.08835982426
3.67,-0.007434754257,-0.08785916655
3.68,-0.009481342235,-0.08732171624
3.69,-0.01150297713,-0.08674853242
3.7,-0.013499824,-0.08614060635
3.71,-0.01547208299,-0.08549886007
3.72,-0.01741998375,-0.08482414537
3.73,-0.01934377988,-0.08411724314
3.74,-0.02124374333,-0.08337886302
3.75,-0.02312015886,-0.08260964354
3.76,-0.02497331857,-0.08181015243
3.77,-0.02680351646,-0.08098088743
3.78,-0.0286110431,-0.08012227736
3.79,-0.03039618044,-0.07923468359
3.8,-0.03215919669,-0.0783184017
3.81,-0.0339003414,-0.07737366367
3.82,-0.03561984069,-0.07640064014
3.83,-0.03731789268,-0.07539944316
3.84,-0.0389946631,-0.07437012911
3.85,-0.04065028114,-0.07331270188
3.86,-0.04228483552,-0.07222711639
3.87,-0.04389837079,-0.07111328228
3.88,-0.04549088398,-0.06997106781
3.89,-0.04706232136,-0.06880030402
3.9,-0.04861257569,-0.06760078901
3.91,-0.05014148355,-0.0663722925
3.92,-0.05164882316,-0.06511456036
3.93,-0.05313431241,-0.06382731946
3.94,-0.05459760721,-0.06251028252
3.95,-0.05603830019,-0.06116315309
3.96,-0.05745591977,-0.05978563057
3.97,-0.05884992943,-0.05837741533
3.98,-0.06021972748,-0.05693821384
3.99,-0.06156464704,-0.05546774378
4,-0.06288395638,-0.05396573921
4.01,-0.06417685968,-0.05243195564
4.02,-0.06544249798,-0.05086617509
4.03,-0.06667995055,-0.04926821109
4.04,-0.06788823657,-0.04763791356
4.05,-0.0690663171,-0.04597517359
4.06,-0.07021309739,-0.04427992814
4.07,-0.07132742941,-0.04255216451
4.08,-0.07240811483,-0.04079192471
4.09,-0.07345390808,-0.03899930967
4.1,-0.07446351984,-0.03717448317
4.11,-0.07543562069,-0.03531767564
4.12,-0.07636884508,-0.0334291877
4.13,-0.07726179544,-0.03150939343
4.14,-0.07811304657,-0.02955874348
4.15,-0.07892115021,-0.0275777678
4.16,-0.0796846398,-0.02556707814
4.17,-0.08040203536,-0.02352737032
4.18,-0.08107184862,-0.02145942608
4.19,-0.08169258814,-0.01936411475
4.2,-0.0822627647,-0.01724239451
4.21,-0.08278089663,-0.01509531337
4.22,-0.08324551531,-0.01292400986
4.23,-0.08365517073,-0.0107297133
4.24,-0.084008437,-0.008513743829
4.25,-0.084303918,-0.00627751206
4.26,-0.0845402529,-0.004022518387
4.27,-0.08471612174,-0.001750351988
4.28,-0.08483025095,0.0005373105259
4.29,-0.08488141878,0.002838706776
4.3,-0.08486846069,0.005151990622
4.31,-0.08479027461,0.007475234475
4.32,-0.08464582607,0.009806431937
4.33,-0.08443415326,0.01214350074
4.34,-0.08415437182,0.01448428599
4.35,-0.08380567958,0.01682656369
4.36,-0.08338736104,0.01916804457
4.37,-0.08289879164,0.02150637815
4.38,-0.08233944186,0.02383915709
4.39,-0.08170888101,0.02616392176
4.4,-0.08100678087,0.02847816509
4.41,-0.08023291898,0.03077933754
4.42,-0.07938718167,0.03306485238
4.43,-0.07846956686,0.03533209108
4.44,-0.0774801865,0.03757840894
4.45,-0.07641926876,0.03980114075
4.46,-0.0752871598,0.04199760673
4.47,-0.0740843254,0.04416511849
4.48,-0.07281135206,0.04630098512
4.49,-0.07146894791,0.04840251936
4.5,-0.07005794322,0.05046704382
4.51,-0.0685792906,0.05249189725
4.52,-0.06703406478,0.05447444085
4.53,-0.06542346219,0.05641206452
4.54,-0.06374880003,0.0583021932
4.55,-0.06201151513,0.06014229304
4.56,-0.06021316238,0.06192987764
4.57,-0.0583554129,0.06366251414
4.58,-0.05644005178,0.06533782925
4.59,-0.05446897559,0.06695351515
4.6,-0.05244418953,0.06850733528
4.61,-0.05036780421,0.06999712994
4.62,-0.04824203226,0.0714208218
4.63,-0.04606918448,0.07277642117
4.64,-0.04385166584,0.07406203109
4.65,-0.04159197114,0.07527585219
4.66,-0.03929268042,0.07641618735
4.67,-0.03695645412,0.07748144613
4.68,-0.034586028,0.07847014887
4.69,-0.03218420789,0.07938093063
4.7,-0.02975386412,0.08021254474
4.71,-0.02729792588,0.08096386614
4.72,-0.02481937536,0.0816338944
4.73,-0.02232124171,0.08222175642
4.74,-0.01980659487,0.08272670877
4.75,-0.01727853934,0.08314813981
4.76,-0.01474020771,0.08348557138
4.77,-0.01219475428,0.08373866023
4.78,-0.009645348468,0.083907199
4.79,-0.007095168222,0.083991117
4.8,-0.004547393424,0.08399048056
4.81,-0.002005199252,0.08390549302
4.82,0.0005282504419,0.08373649441
4.83,0.003049809719,0.08348396079
4.84,0.005556357108,0.08314850325
4.85,0.00804480208,0.08273086649
4.86,0.01051209146,0.08223192721
4.87,0.01295521572,0.08165269204
4.88,0.01537121517,0.08099429522
4.89,0.01775718598,0.08025799594
4.9,0.02011028614,0.07944517535
4.91,0.02242774109,0.07855733334
4.92,0.02470684937,0.07759608493
4.93,0.02694498787,0.0765631565
4.94,0.02913961705,0.07546038165
4.95,0.03128828577,0.07428969685
4.96,0.033388636,0.07305313687
4.97,0.0354384072,0.07175282995
4.98,0.03743544051,0.07039099274
4.99,0.03937768259,0.06896992511
5,0.04126318921,0.06749200473
5.01,0.04309012857,0.06595968145
5.02,0.04485678427,0.06437547163
5.03,0.04656155801,0.06274195221
5.04,0.04820297195,0.06106175481
5.05,0.04977967079,0.05933755958
5.06,0.05129042348,0.05757208908
5.07,0.05273412461,0.05576810204
5.08,0.05410979552,0.05392838712
5.09,0.055416585,0.05205575658
5.1,0.05665376976,0.05015303999
5.11,0.05782075447,0.04822307795
5.12,0.05891707153,0.04626871579
5.13,0.0599423805,0.04429279737
5.14,0.06089646725,0.0422981589
5.15,0.06177924269,0.04028762285
5.16,0.06259074132,0.03826399195
5.17,0.06333111935,0.03623004336
5.18,0.06400065267,0.03418852284
5.19,0.06459973435,0.03214213918
5.2,0.06512887202,0.03009355876
5.21,0.06558868492,0.02804540023
5.22,0.06597990066,0.02600022942
5.23,0.06630335176,0.02396055448
5.24,0.066559972,0.02192882114
5.25,0.06675079246,0.01990740827
5.26,0.06687693741,0.01789862368
5.27,0.06693961999,0.01590470007
5.28,0.0669401377,0.01392779134
5.29,0.06687986774,0.01196996912
5.3,0.06676026218,0.01003321956
5.31,0.066582843,0.008119440387
5.32,0.06634919702,0.006230438305
5.33,0.0660609707,0.004367926606
5.34,0.06571986488,0.002533523121
5.35,0.06532762945,0.0007287484535
5.36,0.06488605791,-0.001044975493
5.37,0.06439698198,-0.002786326686
5.38,0.06386226611,-0.004494083834
5.39,0.06328380202,-0.006167126964
5.4,0.06266350325,-0.007804437696
5.41,0.06200329973,-0.009405099221
5.42,0.0613051324,-0.010968296
5.43,0.06057094787,-0.01249331314
5.44,0.05980269319,-0.01397953557
5.45,0.05900231067,-0.0154264468
5.46,0.05817173282,-0.01683362757
5.47,0.05731287742,-0.01820075413
5.48,0.05642764272,-0.01952759625
5.49,0.05551790275,-0.02081401511
5.5,0.05458550285,-0.0220599608
5.51,0.05363225532,-0.0232654697
5.52,0.05265993527,-0.02443066161
5.53,0.05167027665,-0.02555573662
5.54,0.05066496854,-0.02664097193
5.55,0.04964565153,-0.02768671834
5.56,0.04861391449,-0.02869339664
5.57,0.0475712914,-0.02966149386
5.58,0.04651925856,-0.03059155935
5.59,0.0454592319,-0.03148420074
5.6,0.04439256471,-0.03234007981
5.61,0.04332054546,-0.03315990825
5.62,0.04224439594,-0.03394444331
5.63,0.04116526975,-0.03469448342
5.64,0.04008425085,-0.03541086376
5.65,0.03900235258,-0.03609445176
5.66,0.03792051684,-0.03674614261
5.67,0.0368396135,-0.03736685475
5.68,0.03576044019,-0.03795752536
5.69,0.03468372222,-0.03851910589
5.7,0.03361011286,-0.0390525576
5.71,0.03254019382,-0.0395588472
5.72,0.03147447598,-0.04003894251
5.73,0.03041340041,-0.0404938082
5.74,0.02935733955,-0.04092440169
5.75,0.02830659869,-0.04133166903
5.76,0.02726141765,-0.04171654104
5.77,0.02622197266,-0.04207992948
5.78,0.02518837849,-0.04242272341
5.79,0.02416069071,-0.04274578566
5.8,0.02313890822,-0.04304994955
5.81,0.02212297589,-0.04333601567
5.82,0.02111278738,-0.04360474893
5.83,0.02010818816,-0.04385687577
5.84,0.01910897863,-0.04409308153
5.85,0.01811491735,-0.04431400814
5.86,0.01712572447,-0.04452025187
5.87,0.01614108515,-0.04471236142
5.88,0.01516065322,-0.0448908362
5.89,0.01418405474,-0.04505612478
5.9,0.01321089181,-0.04520862365
5.91,0.01224074628,-0.04534867618
5.92,0.01127318358,-0.04547657179
5.93,0.01030775658,-0.04559254541
5.94,0.009344009379,-0.04569677714
5.95,0.008381481208,-0.04578939213
5.96,0.007419710209,-0.04587046073
5.97,0.006458237252,-0.04593999889
5.98,0.005496609676,-0.04599796869
5.99,0.004534384983,-0.04604427921
6,0.003571134465,-0.04607878758
