"Freq [GHz]","re(S(Tx_p1,Tx_p1)) []","im(S(Tx_p1,Tx_p1)) []"
1,0.05788994132,-0.1331115188
1.01,0.05460222277,-0.1322881253
1.02,0.05138560908,-0.1314040204
1.03,0.0482426901,-0.1304615954
1.04,0.04517589673,-0.1294635107
1.05,0.04218748323,-0.1284126774
1.06,0.03927951098,-0.1273122379
1.07,0.03645383363,-0.1261655461
1.08,0.03371208376,-0.1249761478
1.09,0.03105566093,-0.1237477595
1.1,0.02848572119,-0.1224842483
1.11,0.02600316802,-0.1211896109
1.12,0.02360864469,-0.119867952
1.13,0.02130252807,-0.1185234638
1.14,0.01908492383,-0.1171604043
1.15,0.01695566302,-0.1157830763
1.16,0.01491430006,-0.1143958064
1.17,0.01296011204,-0.1130029243
1.18,0.01109209943,-0.1116087418
1.19,0.009308987974,-0.1102175327
1.2,0.007609231997,-0.108833513
1.21,0.005991018844,-0.1074608213
1.22,0.004452274591,-0.1061034999
1.23,0.002990670891,-0.1047654763
1.24,0.00160363296,-0.1034505454
1.25,0.0002883486383,-0.1021623524
1.26,-0.0009582215144,-0.1009043767
1.27,-0.002139333141,-0.09967991587
1.28,-0.003258446079,-0.09849207107
1.29,-0.004319211475,-0.09734373325
1.3,-0.005325458088,-0.09623757009
1.31,-0.006281177825,-0.09517601399
1.32,-0.007190510586,-0.09416125105
1.33,-0.008057728473,-0.09319521112
1.34,-0.008887219431,-0.09227955887
1.35,-0.009683470378,-0.0914156859
1.36,-0.01045104991,-0.09060470405
1.37,-0.01119459063,-0.08984743978
1.38,-0.01191877117,-0.0891444297
1.39,-0.01262829799,-0.08849591722
1.4,-0.01332788705,-0.08790185046
1.41,-0.01402224529,-0.08736188117
1.42,-0.01471605222,-0.08687536494
1.43,-0.01541394145,-0.08644136251
1.44,-0.01612048239,-0.08605864222
1.45,-0.01684016214,-0.08572568365
1.46,-0.01757736757,-0.08544068227
1.47,-0.0183363678,-0.08520155536
1.48,-0.01912129702,-0.0850059488
1.49,-0.01993613771,-0.08485124511
1.5,-0.02078470446,-0.08473457234
1.51,-0.02167062829,-0.08465281409
1.52,-0.02259734159,-0.08460262034
1.53,-0.02356806376,-0.08458041932
1.54,-0.02458578758,-0.08458243012
1.55,-0.02565326632,-0.08460467625
1.56,-0.02677300173,-0.08464299984
1.57,-0.02794723284,-0.08469307663
1.58,-0.02917792572,-0.08475043164
1.59,-0.03046676411,-0.08481045542
1.6,-0.03181514116,-0.08486842081
1.61,-0.03322415201,-0.0849195003
1.62,-0.03469458753,-0.08495878371
1.63,-0.03622692911,-0.08498129632
1.64,-0.03782134445,-0.08498201727
1.65,-0.03947768451,-0.08495589818
1.66,-0.04119548159,-0.084897882
1.67,-0.04297394844,-0.08480292192
1.68,-0.04481197854,-0.08466600037
1.69,-0.04670814754,-0.08448214796
1.7,-0.04866071573,-0.08424646232
1.71,-0.05066763167,-0.08395412687
1.72,-0.05272653693,-0.08360042928
1.73,-0.05483477187,-0.08318077969
1.74,-0.05698938254,-0.08269072856
1.75,-0.05918712857,-0.08212598417
1.76,-0.06142449213,-0.08148242959
1.77,-0.06369768781,-0.08075613914
1.78,-0.06600267354,-0.0799433943
1.79,-0.0683351624,-0.07904069892
1.8,-0.07069063527,-0.07804479383
1.81,-0.07306435436,-0.07695267058
1.82,-0.07545137757,-0.07576158454
1.83,-0.07784657354,-0.07446906704
1.84,-0.08024463743,-0.07307293669
1.85,-0.08264010734,-0.0715713098
1.86,-0.08502738134,-0.0699626098
1.87,-0.08740073504,-0.06824557571
1.88,-0.08975433959,-0.06641926956
1.89,-0.0920822802,-0.06448308282
1.9,-0.0943785749,-0.06243674174
1.91,-0.09663719372,-0.06028031155
1.92,-0.09885207802,-0.05801419966
1.93,-0.10101716,-0.05563915768
1.94,-0.1031263824,-0.05315628232
1.95,-0.1051737181,-0.05056701522
1.96,-0.1071531899,-0.04787314157
1.97,-0.1090588898,-0.0450767877
1.98,-0.110884999,-0.04218041745
1.99,-0.1126258065,-0.03918682755
2,-0.1142757282,-0.03609914177
2.01,-0.1158293258,-0.03292080415
2.02,-0.1172813245,-0.02965557103
2.03,-0.1186266313,-0.02630750215
2.04,-0.1198603516,-0.0228809507
2.05,-0.1209778062,-0.01938055244
2.06,-0.1219745473,-0.01581121379
2.07,-0.1228463736,-0.01217809917
2.08,-0.1235893452,-0.008486617346
2.09,-0.124199797,-0.004742407016
2.1,-0.1246743521,-0.0009513216454
2.11,-0.1250099335,0.002880586455
2.12,-0.1252037757,0.006747082704
2.13,-0.1252534346,0.01064176745
2.14,-0.125156797,0.01455809371
2.15,-0.1249120887,0.01848938547
2.16,-0.1245178819,0.02242885638
2.17,-0.123973101,0.02636962881
2.18,-0.1232770283,0.03030475338
2.19,-0.1224293074,0.03422722855
2.2,-0.1214299462,0.03813002056
2.21,-0.120279319,0.04200608348
2.22,-0.1189781666,0.04584837928
2.23,-0.1175275961,0.04964989799
2.24,-0.1159290794,0.05340367773
2.25,-0.1141844499,0.05710282467
2.26,-0.1122958992,0.06074053281
2.27,-0.1102659719,0.0643101035
2.28,-0.1080975594,0.06780496465
2.29,-0.1057938929,0.07121868959
2.3,-0.1033585353,0.07454501548
2.31,-0.1007953718,0.0777778613
2.32,-0.09810860009,0.08091134518
2.33,-0.09530271861,0.08393980126
2.34,-0.09238251504,0.08685779583
2.35,-0.0893530531,0.08966014276
2.36,-0.08621965882,0.09234191825
2.37,-0.08298790595,0.0948984747
2.38,-0.0796636006,0.09732545382
2.39,-0.07625276526,0.09961879879
2.4,-0.07276162207,0.1017747656
2.41,-0.06919657555,0.1037899332
2.42,-0.06556419478,0.1056612131
2.43,-0.06187119506,0.1073858577
2.44,-0.05812441922,0.1089614671
2.45,-0.05433081844,0.110385996
2.46,-0.05049743291,0.1116577585
2.47,-0.04663137211,0.1127754321
2.48,-0.04273979497,0.113738061
2.49,-0.03882988994,0.1145450574
2.5,-0.03490885491,0.115196203
2.51,-0.03098387722,0.1156916478
2.52,-0.02706211367,0.1160319091
2.53,-0.02315067076,0.1162178689
2.54,-0.01925658498,0.1162507699
2.55,-0.01538680347,0.1161322111
2.56,-0.01154816496,0.1158641414
2.57,-0.007747381064,0.1154488533
2.58,-0.00399101802,0.1148889746
2.59,-0.0002854789287,0.1141874595
2.6,0.003363013478,0.113347579
2.61,0.006948433466,0.1123729095
2.62,0.01046496828,0.1112673218
2.63,0.01390703343,0.1100349678
2.64,0.01726928724,0.1086802678
2.65,0.02054664457,0.1072078957
2.66,0.02373428978,0.1056227643
2.67,0.02682768874,0.1039300101
2.68,0.02982260004,0.1021349766
2.69,0.03271508514,0.1002431976
2.7,0.03550151764,0.09826038013
2.71,0.03817859153,0.09619238649
2.72,0.04074332844,0.0940452161
2.73,0.04319308379,0.09182498703
2.74,0.04552555196,0.08953791713
2.75,0.04773877034,0.08719030499
2.76,0.04983112235,0.08478851076
2.77,0.05180133931,0.0823389368
2.78,0.05364850127,0.07984800832
2.79,0.05537203673,0.07732215405
2.8,0.0569717213,0.07476778693
2.81,0.05844767525,0.07219128503
2.82,0.05980036002,0.06959897256
2.83,0.06103057367,0.06699710125
2.84,0.06213944527,0.06439183194
2.85,0.06312842834,0.06178921666
2.86,0.06399929322,0.05919518101
2.87,0.06475411858,0.05661550715
2.88,0.06539528185,0.05405581727
2.89,0.06592544892,0.05152155761
2.9,0.06634756286,0.04901798322
2.91,0.06666483186,0.04655014334
2.92,0.06688071635,0.0441228675
2.93,0.06699891546,0.04174075241
2.94,0.0670233527,0.03940814972
2.95,0.06695816106,0.03712915453
2.96,0.06680766746,0.03490759485
2.97,0.06657637668,0.03274702198
2.98,0.06626895482,0.03065070176
2.99,0.06589021232,0.0286216069
3,0.06544508654,0.02666241019
3.01,0.06493862413,0.0247754788
3.02,0.06437596301,0.02296286957
3.03,0.06376231425,0.02122632533
3.04,0.06310294376,0.01956727227
3.05,0.06240315386,0.01798681838
3.06,0.06166826493,0.01648575294
3.07,0.06090359694,0.01506454699
3.08,0.06011445124,0.01372335495
3.09,0.05930609238,0.01246201724
3.1,0.05848373016,0.01128006385
3.11,0.05765250203,0.01017671904
3.12,0.05681745571,0.009150906961
3.13,0.05598353227,0.008201258258
3.14,0.05515554958,0.007326117616
3.15,0.05433818629,0.00652355224
3.16,0.05353596636,0.00579136121
3.17,0.05275324414,0.005127085699
3.18,0.05199419008,0.004528020001
3.19,0.05126277716,0.003991223351
3.2,0.05056276803,0.003513532475
3.21,0.04989770287,0.003091574845
3.22,0.0492708881,0.002721782579
3.23,0.04868538591,0.002400406949
3.24,0.04814400462,0.00212353344
3.25,0.04764929,0.00188709732
3.26,0.04720351746,0.001686899654
3.27,0.0468086852,0.00151862372
3.28,0.04646650831,0.001377851768
3.29,0.0461784139,0.001260082061
3.3,0.04594553716,0.001160746158
3.31,0.04576871847,0.001075226355
3.32,0.0456485015,0.0009988732538
3.33,0.04558513234,0.0009270233786
3.34,0.04557855964,0.0008550168002
3.35,0.04562843578,0.0007782146945
3.36,0.04573411898,0.000692016788
3.37,0.04589467652,0.0005918786292
3.38,0.04610888884,0.0004733286292
3.39,0.04637525471,0.0003319848175
3.4,0.04669199722,0.0001635712573
3.41,0.04705707085,-3.606593282E-05
3.42,0.0474681693,-0.0002709430026
3.43,0.04792273434,-0.0005449234892
3.44,0.04841796537,-0.0008617036814
3.45,0.04895082988,-0.001224798675
3.46,0.04951807465,-0.001637529064
3.47,0.05011623773,-0.002103008309
3.48,0.05074166103,-0.00262413083
3.49,0.05139050367,-0.003203560849
3.5,0.05205875588,-0.00384372203
3.51,0.05274225344,-0.004546787943
3.52,0.05343669273,-0.005314673381
3.53,0.05413764613,-0.006149026564
3.54,0.05484057791,-0.007051222245
3.55,0.05554086047,-0.008022355746
3.56,0.05623379084,-0.009063237942
3.57,0.0569146075,-0.0101743912
3.58,0.05757850735,-0.0113560463
3.59,0.05822066283,-0.01260814033
3.6,0.05883623912,-0.01393031558
3.61,0.05942041139,-0.0153219194
3.62,0.05996838201,-0.01678200509
3.63,0.06047539767,-0.01830933374
3.64,0.06093676633,-0.01990237706
3.65,0.06134787407,-0.02155932115
3.66,0.06170420154,-0.0232780713
3.67,0.06200134027,-0.02505625765
3.68,0.06223500849,-0.02689124179
3.69,0.06240106661,-0.02878012427
3.7,0.06249553222,-0.03071975298
3.71,0.0625145946,-0.03270673236
3.72,0.06245462866,-0.03473743339
3.73,0.06231220826,-0.03680800444
3.74,0.06208411897,-0.03891438281
3.75,0.06176737002,-0.04105230693
3.76,0.06135920565,-0.04321732931
3.77,0.06085711566,-0.04540483008
3.78,0.06025884512,-0.04761003106
3.79,0.05956240335,-0.04982801041
3.8,0.05876607198,-0.05205371778
3.81,0.05786841214,-0.0542819898
3.82,0.05686827084,-0.05650756607
3.83,0.05576478627,-0.0587251054
3.84,0.05455739237,-0.06092920234
3.85,0.05324582224,-0.06311440396
3.86,0.05183011077,-0.06527522677
3.87,0.05031059621,-0.06740617378
3.88,0.04868792079,-0.06950175161
3.89,0.04696303038,-0.07155648758
3.9,0.04513717315,-0.07356494677
3.91,0.04321189733,-0.07552174903
3.92,0.04118904797,-0.07742158569
3.93,0.03907076273,-0.07925923622
3.94,0.0368594668,-0.08102958448
3.95,0.03455786688,-0.08272763475
3.96,0.03216894427,-0.08434852738
3.97,0.02969594709,-0.08588755394
3.98,0.02714238162,-0.087340172
3.99,0.02451200294,-0.08870201933
4,0.02180880463,-0.08996892758
4.01,0.01903700785,-0.09113693535
4.02,0.01620104963,-0.09220230059
4.03,0.01330557052,-0.09316151234
4.04,0.01035540157,-0.09401130176
4.05,0.007355550769,-0.09474865237
4.06,0.004311188897,-0.09537080956
4.07,0.001227634862,-0.09587528922
4.08,-0.001889659388,-0.0962598856
4.09,-0.005035124375,-0.09652267823
4.1,-0.00820308896,-0.096662038
4.11,-0.01138779652,-0.09667663234
4.12,-0.01458342136,-0.09656542947
4.13,-0.01778408537,-0.0963277017
4.14,-0.02098387479,-0.09596302781
4.15,-0.02417685709,-0.09547129446
4.16,-0.02735709788,-0.09485269673
4.17,-0.03051867782,-0.09410773756
4.18,-0.03365570948,-0.0932372264
4.19,-0.036762354,-0.0922422768
4.2,-0.03983283772,-0.09112430316
4.21,-0.04286146844,-0.08988501649
4.22,-0.04584265147,-0.08852641931
4.23,-0.0487709054,-0.08705079959
4.24,-0.05164087738,-0.08546072398
4.25,-0.05444735809,-0.08375903
4.26,-0.05718529616,-0.08194881755
4.27,-0.0598498121,-0.0800334396
4.28,-0.0624362117,-0.07801649209
4.29,-0.06493999877,-0.07590180314
4.3,-0.0673568873,-0.07369342155
4.31,-0.0696828129,-0.07139560471
4.32,-0.07191394353,-0.06901280578
4.33,-0.07404668954,-0.06654966045
4.34,-0.07607771284,-0.06401097303
4.35,-0.07800393535,-0.06140170221
4.36,-0.0798225466,-0.05872694625
4.37,-0.08153101042,-0.05599192787
4.38,-0.08312707086,-0.0532019788
4.39,-0.08460875717,-0.050362524
4.4,-0.08597438785,-0.04747906568
4.41,-0.08722257384,-0.04455716718
4.42,-0.08835222078,-0.0416024366
4.43,-0.08936253033,-0.03862051049
4.44,-0.09025300055,-0.03561703741
4.45,-0.09102342542,-0.03259766159
4.46,-0.09167389337,-0.02956800663
4.47,-0.0922047849,-0.02653365936
4.48,-0.09261676937,-0.02350015384
4.49,-0.09291080078,-0.02047295565
4.5,-0.0930881128,-0.01745744644
4.51,-0.09315021285,-0.0144589088
4.52,-0.09309887539,-0.01148251153
4.53,-0.09293613435,-0.00853329535
4.54,-0.09266427489,-0.005616159066
4.55,-0.09228582423,-0.00273584624
4.56,-0.09180354192,0.000103067548
4.57,-0.09122040932,0.00289618686
4.58,-0.09053961845,0.005639307921
4.59,-0.08976456024,0.008328429462
4.6,-0.08889881219,0.01095976287
4.61,-0.08794612547,0.01352974157
4.62,-0.0869104116,0.01603502971
4.63,-0.08579572858,0.01847252995
4.64,-0.08460626672,0.02083939055
4.65,-0.08334633405,0.02313301155
4.66,-0.08202034146,0.02535105009
4.67,-0.08063278755,0.02749142493
4.68,-0.07918824335,0.02955232001
4.69,-0.07769133677,0.03153218718
4.7,-0.07614673706,0.03342974802
4.71,-0.07455913914,0.0352439947
4.72,-0.07293324801,0.03697419004
4.73,-0.0712737631,0.0386198666
4.74,-0.06958536286,0.0401808249
4.75,-0.06787268937,0.04165713074
4.76,-0.06614033326,0.04304911169
4.77,-0.06439281882,0.04435735264
4.78,-0.06263458948,0.04558269061
4.79,-0.06086999352,0.04672620866
4.8,-0.05910327034,0.04778922898
4.81,-0.05733853701,0.04877330532
4.82,-0.05557977546,0.04968021455
4.83,-0.05383082006,0.05051194752
4.84,-0.05209534584,0.05127069932
4.85,-0.05037685733,0.05195885877
4.86,-0.04867867799,0.05257899738
4.87,-0.04700394038,0.05313385767
4.88,-0.04535557693,0.05362634101
4.89,-0.0437363116,0.05405949489
4.9,-0.04214865216,0.05443649982
4.91,-0.04059488334,0.05476065578
4.92,-0.0390770608,0.05503536826
4.93,-0.03759700585,0.0552641341
4.94,-0.03615630109,0.05545052696
4.95,-0.03475628689,0.05559818261
4.96,-0.03339805873,0.05571078408
4.97,-0.0320824654,0.05579204667
4.98,-0.03081010814,0.05584570285
4.99,-0.02958134061,0.05587548726
5,-0.02839626975,0.05588512161
5.01,-0.02725475756,0.05587829978
5.02,-0.0261564237,0.05585867298
5.03,-0.025100649,0.05582983517
5.04,-0.02408657975,0.05579530864
5.05,-0.02311313296,0.05575852993
5.06,-0.02217900226,0.05572283606
5.07,-0.02128266475,0.05569145118
5.08,-0.02042238854,0.05566747357
5.09,-0.01959624105,0.05565386319
5.1,-0.01880209804,0.05565342967
5.11,-0.01803765337,0.05566882094
5.12,-0.0173004293,0.05570251234
5.13,-0.01658778753,0.05575679648
5.14,-0.01589694077,0.05583377365
5.15,-0.01522496484,0.055935343
5.16,-0.01456881131,0.05606319442
5.17,-0.01392532057,0.0562188012
5.18,-0.01329123535,0.05640341341
5.19,-0.01266321454,0.05661805211
5.2,-0.01203784744,0.05686350446
5.21,-0.0114116682,0.05714031953
5.22,-0.0107811705,0.05744880507
5.23,-0.01014282247,0.05778902509
5.24,-0.009493081635,0.05816079839
5.25,-0.008828410033,0.05856369784
5.26,-0.008145289305,0.05899705071
5.27,-0.007440235774,0.05945993975
5.28,-0.006709815446,0.05995120521
5.29,-0.005950658891,0.06046944777
5.3,-0.00515947594,0.06101303227
5.31,-0.004333070156,0.06158009233
5.32,-0.003468353033,0.06216853586
5.33,-0.002562357865,0.0627760513
5.34,-0.001612253251,0.06340011478
5.35,-0.0006153561715,0.06403799797
5.36,0.0004308553829,0.06468677677
5.37,0.001528730302,0.06534334065
5.38,0.002680432787,0.06600440281
5.39,0.003887931367,0.0666665109
5.4,0.005152988549,0.06732605842
5.41,0.006477151118,0.06797929679
5.42,0.007861741143,0.06862234783
5.43,0.009307847705,0.06925121697
5.44,0.01081631938,0.06986180672
5.45,0.01238775751,0.07044993077
5.46,0.01402251027,0.07101132836
5.47,0.01572066759,0.07154167906
5.48,0.01748205691,0.0720366178
5.49,0.01930623978,0.07249175023
5.5,0.02119250939,0.07290266817
5.51,0.02313988894,0.07326496534
5.52,0.02514713092,0.07357425304
5.53,0.02721271734,0.07382617606
5.54,0.02933486079,0.0740164284
5.55,0.03151150648,0.07414076908
5.56,0.0337403351,0.07419503778
5.57,0.03601876666,0.07417517033
5.58,0.03834396516,0.07407721399
5.59,0.04071284414,0.0738973425
5.6,0.0431220731,0.0736318708
5.61,0.04556808479,0.07327726939
5.62,0.04804708324,0.07283017831
5.63,0.05055505265,0.07228742066
5.64,0.05308776705,0.07164601562
5.65,0.05564080067,0.07090319095
5.66,0.05820953906,0.07005639488
5.67,0.06078919085,0.06910330745
5.68,0.06337480018,0.06804185111
5.69,0.06596125971,0.06687020068
5.7,0.06854332425,0.0655867926
5.71,0.07111562487,0.06419033334
5.72,0.07367268349,0.06267980714
5.73,0.07620892793,0.06105448283
5.74,0.07871870735,0.05931391989
5.75,0.08119630805,0.05745797364
5.76,0.08363596951,0.05548679946
5.77,0.08603190074,0.0534008563
5.78,0.08837829681,0.05120090908
5.79,0.0906693555,0.04888803034
5.8,0.09289929409,0.04646360084
5.81,0.09506236615,0.04392930932
5.82,0.09715287835,0.04128715129
5.83,0.09916520718,0.03853942688
5.84,0.1010938156,0.0356887378
5.85,0.1029332695,0.03273798334
5.86,0.104678254,0.02969035551
5.87,0.1063235893,0.0265493332
5.88,0.1078642464,0.02331867559
5.89,0.1092953626,0.02000241457
5.9,0.1106122559,0.01660484637
5.91,0.11181044,0.01313052243
5.92,0.112885638,0.009584239358
5.93,0.1138337956,0.005971028217
5.94,0.1146510941,0.002296143065
5.95,0.1153339624,-0.001434951223
5.96,0.115879089,-0.005216591787
5.97,0.1162834319,-0.009042931231
5.98,0.1165442295,-0.01290795167
5.99,0.1166590094,-0.0168054793
6,0.116625597,-0.02072919949
