"Freq [GHz]","re(S(Tx_p1,Tx_p1)) []","im(S(Tx_p1,Tx_p1)) []"
1,0.0364089166,-0.1353342541
1.01,0.03269100729,-0.1351054986
1.02,0.02899551237,-0.1347815265
1.03,0.02532633514,-0.1343626001
1.04,0.02168732971,-0.1338492512
1.05,0.01808228589,-0.1332422704
1.06,0.01451491506,-0.1325426967
1.07,0.01098883687,-0.1317518056
1.08,0.007507566838,-0.130871098
1.09,0.00407450486,-0.1299022877
1.1,0.0006929245546,-0.1288472898
1.11,-0.002634036455,-0.1277082076
1.12,-0.005903385408,-0.1264873202
1.13,-0.009112282391,-0.1251870698
1.14,-0.01225804746,-0.1238100484
1.15,-0.01533816688,-0.1223589852
1.16,-0.0183502986,-0.1208367329
1.17,-0.02129227673,-0.1192462553
1.18,-0.02416211538,-0.1175906136
1.19,-0.02695801158,-0.1158729539
1.2,-0.02967834741,-0.1140964941
1.21,-0.03232169141,-0.1122645111
1.22,-0.03488679919,-0.1103803286
1.23,-0.03737261335,-0.1084473041
1.24,-0.03977826263,-0.1064688177
1.25,-0.04210306047,-0.1044482594
1.26,-0.04434650281,-0.1023890183
1.27,-0.04650826531,-0.100294471
1.28,-0.0485882,-0.09816797123
1.29,-0.05058633127,-0.09601283887
1.3,-0.0525028514,-0.09383235052
1.31,-0.0543381155,-0.09162972969
1.32,-0.05609263607,-0.08940813776
1.33,-0.057767077,-0.0871706654
1.34,-0.05936224721,-0.08492032447
1.35,-0.06087909396,-0.0826600404
1.36,-0.06231869568,-0.08039264511
1.37,-0.06368225463,-0.07812087054
1.38,-0.0649710892,-0.07584734256
1.39,-0.06618662596,-0.0735745756
1.4,-0.06733039158,-0.07130496775
1.41,-0.06840400447,-0.0690407964
1.42,-0.06940916636,-0.06678421452
1.43,-0.07034765375,-0.06453724744
1.44,-0.07122130928,-0.06230179018
1.45,-0.07203203306,-0.06007960541
1.46,-0.07278177401,-0.05787232185
1.47,-0.07347252121,-0.05568143332
1.48,-0.07410629531,-0.05350829825
1.49,-0.07468514001,-0.05135413974
1.5,-0.07521111368,-0.04922004611
1.51,-0.07568628114,-0.04710697198
1.52,-0.07611270551,-0.04501573982
1.53,-0.07649244039,-0.04294704192
1.54,-0.07682752214,-0.04090144287
1.55,-0.07711996249,-0.03887938246
1.56,-0.07737174134,-0.03688117894
1.57,-0.07758479993,-0.03490703273
1.58,-0.07776103419,-0.03295703044
1.59,-0.07790228855,-0.03103114931
1.6,-0.07801034997,-0.02912926189
1.61,-0.0780869424,-0.02725114107
1.62,-0.07813372153,-0.02539646538
1.63,-0.07815226999,-0.02356482453
1.64,-0.07814409288,-0.02175572518
1.65,-0.07811061372,-0.0199685969
1.66,-0.07805317078,-0.01820279835
1.67,-0.07797301385,-0.01645762355
1.68,-0.07787130135,-0.01473230829
1.69,-0.07774909797,-0.01302603671
1.7,-0.07760737257,-0.01133794786
1.71,-0.07744699662,-0.00966714235
1.72,-0.07726874301,-0.008012689064
1.73,-0.07707328521,-0.006373631814
1.74,-0.07686119693,-0.004748996021
1.75,-0.07663295213,-0.003137795331
1.76,-0.07638892538,-0.001539038177
1.77,-0.07612939269,4.826575522E-05
1.78,-0.07585453264,0.001625099154
1.79,-0.07556442792,0.003192430852
1.8,-0.07525906718,0.004751209726
1.81,-0.07493834727,0.006302358775
1.82,-0.07460207575,0.007846769375
1.83,-0.07424997379,0.009385295725
1.84,-0.07388167928,0.01091874952
1.85,-0.07349675032,0.01244789484
1.86,-0.07309466887,0.01397344329
1.87,-0.07267484475,0.0154960494
1.88,-0.07223661985,0.01701630625
1.89,-0.07177927251,0.01853474143
1.9,-0.07130202216,0.02005181328
1.91,-0.07080403412,0.02156790734
1.92,-0.07028442459,0.02308333322
1.93,-0.06974226571,0.02459832169
1.94,-0.06917659087,0.02611302213
1.95,-0.06858640004,0.02762750026
1.96,-0.0679706652,0.02914173624
1.97,-0.06732833593,0.03065562304
1.98,-0.06665834492,0.03216896515
1.99,-0.06595961364,0.03368147763
2,-0.06523105799,0.03519278547
2.01,-0.06447159389,0.03670242325
2.02,-0.063680143,0.03820983516
2.03,-0.06285563827,0.0397143753
2.04,-0.06199702952,0.04121530831
2.05,-0.06110328895,0.04271181028
2.06,-0.06017341651,0.04420297
2.07,-0.05920644533,0.04568779045
2.08,-0.05820144683,0.04716519064
2.09,-0.05715753591,0.04863400764
2.1,-0.05607387589,0.05009299899
2.11,-0.0549496833,0.05154084528
2.12,-0.05378423261,0.052976153
2.13,-0.05257686066,0.05439745767
2.14,-0.05132697102,0.05580322715
2.15,-0.05003403808,0.05719186522
2.16,-0.04869761098,0.05856171532
2.17,-0.04731731731,0.05991106448
2.18,-0.04589286665,0.06123814754
2.19,-0.04442405374,0.06254115139
2.2,-0.04291076159,0.06381821947
2.21,-0.04135296425,0.06506745641
2.22,-0.03975072935,0.06628693276
2.23,-0.03810422037,0.06747468988
2.24,-0.03641369875,0.06862874495
2.25,-0.03467952558,0.06974709603
2.26,-0.03290216319,0.07082772721
2.27,-0.03108217638,0.07186861392
2.28,-0.02922023341,0.07286772815
2.29,-0.02731710671,0.07382304384
2.3,-0.02537367335,0.07473254222
2.31,-0.02339091519,0.07559421724
2.32,-0.02136991885,0.07640608092
2.33,-0.01931187531,0.07716616877
2.34,-0.01721807931,0.07787254516
2.35,-0.01508992844,0.07852330866
2.36,-0.01292892205,0.07911659731
2.37,-0.01073665979,0.07965059387
2.38,-0.008514839993,0.08012353105
2.39,-0.006265257722,0.0805336965
2.4,-0.003989802652,0.08087943789
2.41,-0.001690456647,0.08115916781
2.42,0.0006307088701,0.08137136853
2.43,0.002971535789,0.08151459667
2.44,0.005329782405,0.08158748776
2.45,0.007703126736,0.08158876062
2.46,0.01008917005,0.08151722162
2.47,0.01248544058,0.08137176872
2.48,0.01488939748,0.08115139543
2.49,0.01729843495,0.08085519448
2.5,0.01970988649,0.08048236145
2.51,0.02212102943,0.08003219802
2.52,0.02452908953,0.07950411519
2.53,0.02693124583,0.07889763617
2.54,0.02932463552,0.07821239912
2.55,0.03170635909,0.07744815964
2.56,0.0340734855,0.07660479302
2.57,0.0364230575,0.07568229625
2.58,0.03875209709,0.07468078987
2.59,0.04105761102,0.07360051943
2.6,0.04333659644,0.07244185682
2.61,0.04558604652,0.07120530127
2.62,0.04780295629,0.06989148015
2.63,0.04998432836,0.06850114949
2.64,0.05212717882,0.06703519414
2.65,0.05422854306,0.06549462786
2.66,0.05628548173,0.06388059291
2.67,0.05829508655,0.06219435956
2.68,0.06025448624,0.06043732524
2.69,0.06216085239,0.05861101337
2.7,0.06401140526,0.05671707203
2.71,0.0658034196,0.05475727228
2.72,0.06753423034,0.05273350621
2.73,0.06920123831,0.05064778478
2.74,0.07080191575,0.04850223529
2.75,0.07233381185,0.0462990987
2.76,0.07379455808,0.04404072659
2.77,0.0751818735,0.04172957793
2.78,0.07649356984,0.03936821556
2.79,0.07772755648,0.03695930241
2.8,0.07888184531,0.03450559753
2.81,0.07995455536,0.03200995182
2.82,0.08094391727,0.02947530358
2.83,0.08184827762,0.0269046738
2.84,0.08266610293,0.02430116125
2.85,0.08339598362,0.02166793736
2.86,0.08403663758,0.0190082409
2.87,0.08458691361,0.01632537249
2.88,0.0850457946,0.0136226889
2.89,0.0854124004,0.01090359721
2.9,0.08568599047,0.008171548778
2.91,0.08586596628,0.005430033112
2.92,0.08595187337,0.002682571573
2.93,0.08594340317,-6.728903075E-05
2.94,0.0858403945,-0.002815982954
2.95,0.08564283476,-0.005559932121
2.96,0.08535086082,-0.008295552807
2.97,0.08496475964,-0.01101926239
2.98,0.08448496848,-0.01372748613
2.99,0.08391207487,-0.01641666403
3,0.08324681621,-0.01908325767
3.01,0.08249007906,-0.02172375702
3.02,0.08164289807,-0.02433468734
3.03,0.08070645466,-0.02691261594
3.04,0.07968207523,-0.02945415898
3.05,0.07857122919,-0.0319559881
3.06,0.07737552657,-0.03441483709
3.07,0.07609671531,-0.03682750841
3.08,0.07473667827,-0.03919087956
3.09,0.07329742986,-0.04150190937
3.1,0.07178111244,-0.04375764412
3.11,0.07018999231,-0.04595522352
3.12,0.06852645549,-0.04809188648
3.13,0.06679300318,-0.0501649767
3.14,0.06499224688,-0.05217194801
3.15,0.06312690332,-0.0541103696
3.16,0.06119978907,-0.05597793084
3.17,0.05921381495,-0.05777244598
3.18,0.05717198012,-0.05949185849
3.19,0.05507736602,-0.0611342452
3.2,0.05293313005,-0.06269782006
3.21,0.05074249909,-0.06418093764
3.22,0.04850876279,-0.06558209631
3.23,0.04623526673,-0.06689994105
3.24,0.0439254054,-0.06813326598
3.25,0.0415826151,-0.06928101645
3.26,0.03921036665,-0.07034229092
3.27,0.03681215806,-0.07131634226
3.28,0.03439150709,-0.07220257893
3.29,0.03195194381,-0.07300056553
3.3,0.029497003,-0.07371002319
3.31,0.02703021668,-0.07433082942
3.32,0.02455510653,-0.07486301765
3.33,0.02207517639,-0.07530677638
3.34,0.01959390479,-0.0756624479
3.35,0.01711473753,-0.07593052666
3.36,0.01464108035,-0.07611165726
3.37,0.01217629175,-0.07620663204
3.38,0.009723675857,-0.07621638829
3.39,0.007286475495,-0.07614200516
3.4,0.004867865425,-0.07598470008
3.41,0.002470945743,-0.07574582495
3.42,9.873550257E-05,-0.07542686195
3.43,-0.00224583344,-0.07502941896
3.44,-0.004559922332,-0.07455522474
3.45,-0.006840791173,-0.07400612377
3.46,-0.00908580408,-0.07338407075
3.47,-0.01129243436,-0.07269112494
3.48,-0.01345826925,-0.0719294441
3.49,-0.01558101438,-0.07110127825
3.5,-0.01765849782,-0.07020896324
3.51,-0.01968867384,-0.06925491404
3.52,-0.02166962626,-0.06824161785
3.53,-0.02359957146,-0.06717162711
3.54,-0.02547686095,-0.06604755225
3.55,-0.02729998359,-0.06487205445
3.56,-0.02906756739,-0.06364783812
3.57,-0.03077838091,-0.06237764349
3.58,-0.03243133421,-0.061064239
3.59,-0.03402547944,-0.0597104137
3.6,-0.03556001093,-0.05831896965
3.61,-0.03703426497,-0.05689271432
3.62,-0.03844771905,-0.05543445304
3.63,-0.03979999074,-0.05394698146
3.64,-0.0410908362,-0.05243307816
3.65,-0.04232014817,-0.05089549734
3.66,-0.04348795362,-0.0493369616
3.67,-0.04459441104,-0.04776015497
3.68,-0.04563980726,-0.04616771601
3.69,-0.04662455391,-0.04456223118
3.7,-0.0475491836,-0.0429462284
3.71,-0.04841434561,-0.04132217088
3.72,-0.04922080134,-0.03969245117
3.73,-0.04996941939,-0.03805938554
3.74,-0.05066117035,-0.03642520862
3.75,-0.05129712131,-0.0347920684
3.76,-0.05187843006,-0.03316202154
3.77,-0.05240633907,-0.03153702899
3.78,-0.05288216921,-0.02991895211
3.79,-0.05330731332,-0.028309549
3.8,-0.05368322951,-0.02671047136
3.81,-0.05401143439,-0.02512326167
3.82,-0.05429349603,-0.02354935082
3.83,-0.05453102697,-0.02199005616
3.84,-0.05472567698,-0.02044657995
3.85,-0.05487912588,-0.01892000825
3.86,-0.05499307622,-0.01741131032
3.87,-0.05506924604,-0.0159213383
3.88,-0.05510936157,-0.01445082752
3.89,-0.05511514997,-0.01300039707
3.9,-0.05508833222,-0.01157055093
3.91,-0.05503061598,-0.01016167949
3.92,-0.05494368868,-0.008774061465
3.93,-0.05482921065,-0.007407866265
3.94,-0.05468880849,-0.006063156774
3.95,-0.05452406862,-0.004739892507
3.96,-0.05433653101,-0.003437933169
3.97,-0.05412768318,-0.002157042578
3.98,-0.05389895447,-0.0008968929582
3.99,-0.05365171053,0.0003429304371
4,-0.05338724823,0.001562924364
4.01,-0.05310679077,0.002763662331
4.02,-0.0528114832,0.003945789043
4.03,-0.05250238828,0.005110014594
4.04,-0.05218048275,0.006257108401
4.05,-0.0518466539,0.007387892923
4.06,-0.05150169667,0.008503237189
4.07,-0.05114631104,0.009604050141
4.08,-0.05078109994,0.01069127384
4.09,-0.05040656756,0.01176587653
4.1,-0.05002311804,0.01282884567
4.11,-0.04963105476,0.01388118081
4.12,-0.0492305799,0.01492388646
4.13,-0.04882179461,0.01595796503
4.14,-0.0484046995,0.01698440962
4.15,-0.0479791957,0.01800419703
4.16,-0.04754508632,0.01901828071
4.17,-0.0471020783,0.02002758387
4.18,-0.04664978481,0.02103299272
4.19,-0.04618772801,0.02203534981
4.2,-0.04571534224,0.02303544766
4.21,-0.04523197765,0.02403402247
4.22,-0.04473690418,0.02503174813
4.23,-0.044229316,0.0260292305
4.24,-0.04370833622,0.02702700191
4.25,-0.04317302204,0.02802551605
4.26,-0.04262237019,0.0290251431
4.27,-0.04205532269,0.03002616524
4.28,-0.04147077288,0.03102877257
4.29,-0.04086757178,0.03203305931
4.3,-0.04024453463,0.03303902051
4.31,-0.03960044767,0.03404654913
4.32,-0.03893407516,0.03505543349
4.33,-0.03824416649,0.03606535531
4.34,-0.03752946348,0.03707588802
4.35,-0.03678870781,0.03808649569
4.36,-0.03602064851,0.03909653234
4.37,-0.03522404948,0.04010524173
4.38,-0.03439769708,0.04111175768
4.39,-0.03354040772,0.04211510481
4.4,-0.0326510354,0.04311419981
4.41,-0.03172847916,0.04410785315
4.42,-0.03077169052,0.04509477126
4.43,-0.0297796807,0.04607355928
4.44,-0.02875152778,0.0470427241
4.45,-0.02768638363,0.04800067803
4.46,-0.02658348063,0.04894574277
4.47,-0.02544213822,0.04987615396
4.48,-0.02426176908,0.05079006597
4.49,-0.02304188515,0.05168555728
4.5,-0.02178210324,0.05256063609
4.51,-0.02048215035,0.0534132464
4.52,-0.01914186862,0.05424127437
4.53,-0.01776121994,0.05504255508
4.54,-0.01634029006,0.05581487949
4.55,-0.01487929242,0.05655600179
4.56,-0.01337857142,0.05726364691
4.57,-0.01183860531,0.05793551833
4.58,-0.0102600086,0.05856930601
4.59,-0.008643533968,0.05916269461
4.6,-0.006990073727,0.05971337172
4.61,-0.005300660733,0.06021903629
4.62,-0.00357646883,0.06067740712
4.63,-0.001818812772,0.06108623139
4.64,-2.914762656E-05,0.06144329325
4.65,0.001790932335,0.06174642236
4.66,0.003639695266,0.06199350238
4.67,0.005515273891,0.06218247946
4.68,0.007415668154,0.06231137056
4.69,0.009338748383,0.06237827165
4.7,0.01128225894,0.06238136574
4.71,0.01324382239,0.0623189308
4.72,0.01522094409,0.06218934729
4.73,0.01721101729,0.0619911056
4.74,0.01921132868,0.06172281314
4.75,0.02121906436,0.06138320109
4.76,0.0232313162,0.06097113089
4.77,0.02524508863,0.06048560034
4.78,0.02725730583,0.05992574928
4.79,0.02926481917,0.05929086493
4.8,0.0312644151,0.05858038676
4.81,0.03325282325,0.05779391095
4.82,0.03522672484,0.05693119432
4.83,0.03718276139,0.05599215791
4.84,0.03911754354,0.05497688987
4.85,0.04102766014,0.05388564807
4.86,0.04290968752,0.05271886198
4.87,0.04476019878,0.05147713417
4.88,0.04657577334,0.05016124122
4.89,0.04835300639,0.04877213405
4.9,0.05008851853,0.04731093778
4.91,0.05177896527,0.04577895097
4.92,0.05342104662,0.04417764437
4.93,0.05501151656,0.04250865907
4.94,0.05654719239,0.04077380418
4.95,0.05802496405,0.03897505386
4.96,0.05944180318,0.03711454394
4.97,0.06079477208,0.03519456795
4.98,0.06208103234,0.03321757264
4.99,0.06329785336,0.03118615306
5,0.06444262051,0.02910304707
5.01,0.06551284296,0.02697112946
5.02,0.06650616128,0.02479340563
5.03,0.06742035458,0.02257300476
5.04,0.06825334732,0.02031317262
5.05,0.06900321571,0.01801726409
5.06,0.0696681937,0.01568873512
5.07,0.07024667846,0.01333113454
5.08,0.07073723547,0.0109480955
5.09,0.07113860309,0.008543326581
5.1,0.07144969662,0.006120602718
5.11,0.07166961187,0.003683755891
5.12,0.07179762821,0.001236665601
5.13,0.07183321104,-0.001216750798
5.14,0.0717760138,-0.003672547896
5.15,0.07162587932,-0.006126762135
5.16,0.07138284073,-0.008575421765
5.17,0.07104712173,-0.01101455685
5.18,0.07061913632,-0.01344020926
5.19,0.07009948803,-0.01584844265
5.2,0.0694889685,-0.01823535236
5.21,0.06878855556,-0.02059707522
5.22,0.06799941083,-0.02292979923
5.23,0.06712287665,-0.02522977313
5.24,0.06616047263,-0.02749331565
5.25,0.06511389155,-0.02971682473
5.26,0.06398499491,-0.03189678633
5.27,0.06277580788,-0.03402978305
5.28,0.06148851385,-0.0361125024
5.29,0.06012544848,-0.03814174482
5.3,0.05868909343,-0.04011443127
5.31,0.05718206955,-0.04202761046
5.32,0.0556071298,-0.04387846571
5.33,0.05396715177,-0.04566432136
5.34,0.05226512985,-0.04738264881
5.35,0.05050416715,-0.04903107197
5.36,0.04868746709,-0.0506073724
5.37,0.04681832476,-0.05210949384
5.38,0.0449001181,-0.05353554632
5.39,0.04293629882,-0.05488380972
5.4,0.04093038322,-0.05615273681
5.41,0.03888594282,-0.05734095582
5.42,0.03680659497,-0.0584472724
5.43,0.03469599334,-0.05947067113
5.44,0.03255781834,-0.06041031641
5.45,0.03039576765,-0.0612655529
5.46,0.02821354666,-0.06203590536
5.47,0.02601485901,-0.06272107801
5.48,0.02380339723,-0.06332095332
5.49,0.02158283346,-0.06383559034
5.5,0.01935681038,-0.06426522248
5.51,0.01712893225,-0.06461025482
5.52,0.01490275614,-0.06487126091
5.53,0.01268178348,-0.06504897912
5.54,0.01046945179,-0.06514430859
5.55,0.008269126663,-0.06515830459
5.56,0.006084094167,-0.06509217368
5.57,0.00391755345,-0.06494726824
5.58,0.001772609758,-0.06472508086
5.59,-0.0003477321905,-0.06442723815
5.6,-0.002440574455,-0.06405549438
5.61,-0.004503131712,-0.06361172478
5.62,-0.006532736678,-0.06309791846
5.63,-0.008526845107,-0.06251617125
5.64,-0.01048304033,-0.06186867815
5.65,-0.01239903736,-0.06115772564
5.66,-0.0142726865,-0.06038568386
5.67,-0.01610197654,-0.05955499858
5.68,-0.0178850374,-0.05866818309
5.69,-0.01962014235,-0.05772780997
5.7,-0.02130570974,-0.0567365028
5.71,-0.0229403042,-0.05569692793
5.72,-0.02452263745,-0.0546117861
5.73,-0.02605156855,-0.05348380419
5.74,-0.02752610366,-0.05231572699
5.75,-0.02894539548,-0.05111030903
5.76,-0.03030874203,-0.0498703066
5.77,-0.03161558511,-0.04859846976
5.78,-0.0328655083,-0.04729753465
5.79,-0.03405823454,-0.04597021593
5.8,-0.0351936232,-0.04461919937
5.81,-0.03627166693,-0.04324713478
5.82,-0.03729248795,-0.0418566291
5.83,-0.03825633411,-0.04045023982
5.84,-0.03916357453,-0.03903046864
5.85,-0.04001469493,-0.03759975552
5.86,-0.04081029268,-0.03616047296
5.87,-0.04155107154,-0.03471492071
5.88,-0.04223783615,-0.03326532076
5.89,-0.0428714863,-0.03181381276
5.9,-0.04345301093,-0.0303624498
5.91,-0.04398348203,-0.02891319458
5.92,-0.0444640483,-0.02746791597
5.93,-0.04489592871,-0.02602838598
5.94,-0.04528040593,-0.02459627716
5.95,-0.04561881966,-0.02317316039
5.96,-0.04591255993,-0.02176050309
5.97,-0.04616306037,-0.02035966786
5.98,-0.04637179138,-0.01897191154
5.99,-0.04654025344,-0.01759838463
6,-0.04666997034,-0.01624013121
