"Freq [GHz]","re(S(Tx_p1,Tx_p1)) []","im(S(Tx_p1,Tx_p1)) []"
1,-0.03852023359,-0.04696295192
1.01,-0.03989574591,-0.04449503867
1.02,-0.0411373486,-0.04198649639
1.03,-0.04224330802,-0.03944465956
1.04,-0.04321234128,-0.03687696204
1.05,-0.04404362039,-0.03429090707
1.06,-0.0447367744,-0.03169403738
1.07,-0.0452918897,-0.02909390531
1.08,-0.04570950841,-0.02649804327
1.09,-0.04599062494,-0.02391393449
1.1,-0.04613668075,-0.02134898425
1.11,-0.04614955729,-0.01881049169
1.12,-0.04603156725,-0.01630562221
1.13,-0.04578544418,-0.0138413807
1.14,-0.04541433037,-0.01142458562
1.15,-0.04492176331,-0.009061843954
1.16,-0.04431166059,-0.006759527321
1.17,-0.04358830341,-0.004523749082
1.18,-0.04275631877,-0.002360342716
1.19,-0.04182066041,-0.0002748414413
1.2,-0.04078658858,0.001727540827
1.21,-0.03965964872,0.003641927121
1.22,-0.03844564923,0.005463793606
1.23,-0.03715063828,0.007188984271
1.24,-0.03578087993,0.00881372406
1.25,-0.03434282945,0.01033463043
1.26,-0.03284310818,0.01174872326
1.27,-0.03128847787,0.01305343321
1.28,-0.02968581463,0.01424660825
1.29,-0.0280420827,0.01532651871
1.3,-0.02636430795,0.01629186053
1.31,-0.02465955143,0.01714175686
1.32,-0.02293488294,0.01787575802
1.33,-0.02119735477,0.01849383978
1.34,-0.01945397566,0.01899640004
1.35,-0.01771168521,0.01938425386
1.36,-0.01597732862,0.01965862695
1.37,-0.01425763217,0.01982114765
1.38,-0.01255917915,0.01987383737
1.39,-0.01088838664,0.01981909965
1.4,-0.00925148314,0.01965970778
1.41,-0.007654486975,0.01939879117
1.42,-0.006103185812,0.0190398204
1.43,-0.004603117151,0.01858659111
1.44,-0.003159549959,0.01804320682
1.45,-0.00177746748,0.01741406064
1.46,-0.0004615512851,0.01670381606
1.47,0.0007838333918,0.01591738693
1.48,0.00195465098,0.01505991651
1.49,0.003047207528,0.01413675601
1.5,0.004058161244,0.01315344236
1.51,0.00498453161,0.01211567559
1.52,0.00582370702,0.0110292957
1.53,0.006573450963,0.009900259278
1.54,0.007231906699,0.008734615849
1.55,0.007797600461,0.00753848408
1.56,0.008269443159,0.006318027975
1.57,0.008646730607,0.005079433096
1.58,0.008929142282,0.003828882939
1.59,0.009116738633,0.002572535541
1.6,0.009209956967,0.001316500405
1.61,0.009209605941,6.681584428E-05
1.62,0.009116858699,-0.001170573193
1.63,0.008933244684,-0.002389836714
1.64,0.008660640185,-0.003585280624
1.65,0.008301257656,-0.004751366945
1.66,0.007857633865,-0.005882733228
1.67,0.007332616936,-0.006974211112
1.68,0.006729352342,-0.008020843946
1.69,0.006051267909,-0.009017903428
1.7,0.005302057911,-0.009960905206
1.71,0.004485666318,-0.01084562339
1.72,0.003606269276,-0.01166810391
1.73,0.002668256893,-0.01242467677
1.74,0.001676214409,-0.01311196698
1.75,0.0006349028324,-0.01372690435
1.76,-0.00045076088,-0.014266732
1.77,-0.001575724015,-0.01472901357
1.78,-0.002734818587,-0.01511163915
1.79,-0.003922782028,-0.01541282989
1.8,-0.005134278009,-0.01563114139
1.81,-0.006363917296,-0.01576546566
1.82,-0.007606278582,-0.01581503188
1.83,-0.00885592919,-0.0157794059
1.84,-0.01010744559,-0.01565848835
1.85,-0.01135543364,-0.01545251167
1.86,-0.0125945485,-0.01516203581
1.87,-0.01381951406,-0.0147879428
1.88,-0.015025142,-0.01433143016
1.89,-0.01620635017,-0.01379400322
1.9,-0.01735818043,-0.01317746634
1.91,-0.01847581579,-0.01248391316
1.92,-0.01955459679,-0.01171571586
1.93,-0.02059003714,-0.0108755135
1.94,-0.02157783847,-0.00996619952
1.95,-0.02251390422,-0.008990908465
1.96,-0.02339435263,-0.007953001924
1.97,-0.02421552866,-0.006856053846
1.98,-0.0249740151,-0.005703835228
1.99,-0.02566664246,-0.004500298273
2,-0.02629049791,-0.003249560075
2.01,-0.02684293319,-0.001955885907
2.02,-0.02732157132,-0.0006236721752
2.03,-0.0277243123,0.0007425708909
2.04,-0.02804933773,0.002138236733
2.05,-0.02829511423,0.003558640084
2.06,-0.02846039584,0.004999034644
2.07,-0.02854422533,0.006454630733
2.08,-0.02854593437,0.007920612869
2.09,-0.02846514268,0.00939215719
2.1,-0.02830175615,0.01086444867
2.11,-0.02805596387,0.01233269806
2.12,-0.02772823422,0.01379215848
2.13,-0.02731931,0.01523814164
2.14,-0.02683020258,0.01666603358
2.15,-0.02626218517,0.01807130997
2.16,-0.02561678528,0.01944955075
2.17,-0.02489577631,0.02079645429
2.18,-0.0241011684,0.02210785083
2.19,-0.02323519854,0.02337971527
2.2,-0.02230032005,0.02460817921
2.21,-0.02129919137,0.02578954225
2.22,-0.02023466439,0.02692028254
2.23,-0.01910977213,0.02799706643
2.24,-0.0179277161,0.02901675739
2.25,-0.01669185314,0.02997642399
2.26,-0.01540568201,0.03087334706
2.27,-0.01407282964,0.03170502595
2.28,-0.01269703716,0.03246918389
2.29,-0.01128214577,0.03316377249
2.3,-0.009832082475,0.03378697531
2.31,-0.008350845772,0.03433721055
2.32,-0.006842491344,0.03481313286
2.33,-0.005311117782,0.03521363429
2.34,-0.003760852426,0.03553784429
2.35,-0.002195837356,0.03578512903
2.36,-0.0006202155936,0.0359550897
2.37,0.0009618824494,0.03604756015
2.38,0.002546352213,0.03606260368
2.39,0.004129127889,0.03600050912
2.4,0.005706194937,0.03586178611
2.41,0.007273602168,0.03564715981
2.42,0.008827473363,0.03535756484
2.43,0.0103640184,0.03499413867
2.44,0.01187954383,0.03455821442
2.45,0.01337046294,0.03405131311
2.46,0.01483330515,0.03347513539
2.47,0.0162647249,0.03283155287
2.48,0.0176615098,0.03212259898
2.49,0.01902058823,0.03135045951
2.5,0.02033903623,0.03051746278
2.51,0.02161408368,0.02962606957
2.52,0.02284311991,0.02867886277
2.53,0.02402369851,0.02767853694
2.54,0.02515354148,0.02662788757
2.55,0.02623054278,0.02552980039
2.56,0.02725277105,0.02438724057
2.57,0.02821847174,0.02320324184
2.58,0.02912606861,0.02198089579
2.59,0.02997416443,0.02072334107
2.6,0.03076154119,0.01943375285
2.61,0.03148715957,0.01811533234
2.62,0.03215015787,0.01677129651
2.63,0.03274985031,0.01540486807
2.64,0.03328572479,0.01401926567
2.65,0.03375744005,0.01261769439
2.66,0.03416482243,0.01120333654
2.67,0.034507862,0.009779342842
2.68,0.03478670834,0.008348823944
2.69,0.03500166583,0.006914842321
2.7,0.03515318858,0.005480404613
2.71,0.03524187493,0.004048454378
2.72,0.03526846175,0.002621865299
2.73,0.03523381825,0.001203434844
2.74,0.03513893969,-0.0002041215997
2.75,0.0349849408,-0.001598176111
2.76,0.03477304895,-0.002976193134
2.77,0.03450459726,-0.004335733886
2.78,0.03418101748,-0.005674460278
2.79,0.03380383285,-0.006990138333
2.8,0.03337465087,-0.00828064113
2.81,0.03289515601,-0.009543951248
2.82,0.03236710247,-0.01077816274
2.83,0.03179230693,-0.01198148265
2.84,0.03117264142,-0.01315223205
2.85,0.0305100262,-0.01428884662
2.86,0.02980642279,-0.01538987689
2.87,0.02906382719,-0.0164539879
2.88,0.02828426318,-0.01747995863
2.89,0.02746977588,-0.01846668097
2.9,0.02662242547,-0.01941315831
2.91,0.02574428118,-0.02031850384
2.92,0.02483741547,-0.02118193852
2.93,0.02390389855,-0.02200278875
2.94,0.02294579309,-0.02278048375
2.95,0.02196514928,-0.02351455277
2.96,0.02096400017,-0.02420462197
2.97,0.01994435728,-0.02485041117
2.98,0.01890820658,-0.02545173046
2.99,0.01785750476,-0.02600847656
3,0.01679417581,-0.02652062915
3.01,0.01572010791,-0.02698824707
3.02,0.01463715068,-0.02741146444
3.03,0.0135471127,-0.02779048674
3.04,0.0124517594,-0.02812558687
3.05,0.01135281119,-0.02841710118
3.06,0.0102519419,-0.02866542554
3.07,0.009150777576,-0.02887101146
3.08,0.00805089549,-0.02903436223
3.09,0.006953823418,-0.02915602915
3.1,0.005861039209,-0.02923660791
3.11,0.004773970579,-0.02927673495
3.12,0.003693995125,-0.02927708412
3.13,0.002622440564,-0.02923836329
3.14,0.001560585158,-0.02916131128
3.15,0.000509658325,-0.02904669481
3.16,-0.0005291585936,-0.02889530575
3.17,-0.00155473142,-0.02870795842
3.18,-0.002565972102,-0.02848548717
3.19,-0.003561837564,-0.02822874412
3.2,-0.004541328475,-0.02793859705
3.21,-0.005503487941,-0.02761592754
3.22,-0.006447400145,-0.02726162929
3.23,-0.00737218895,-0.02687660661
3.24,-0.00827701649,-0.02646177312
3.25,-0.009161081754,-0.02601805061
3.26,-0.01002361919,-0.02554636812
3.27,-0.01086389731,-0.02504766115
3.28,-0.01168121743,-0.02452287109
3.29,-0.01247491234,-0.02397294475
3.3,-0.01324434512,-0.02339883403
3.31,-0.01398890809,-0.02280149584
3.32,-0.01470802173,-0.02218189197
3.33,-0.01540113381,-0.02154098925
3.34,-0.01606771857,-0.02087975963
3.35,-0.01670727609,-0.02019918053
3.36,-0.01731933168,-0.01950023512
3.37,-0.01790343554,-0.01878391269
3.38,-0.01845916241,-0.01805120914
3.39,-0.01898611149,-0.01730312739
3.4,-0.01948390638,-0.01654067784
3.41,-0.01995219528,-0.01576487888
3.42,-0.02039065121,-0.01497675731
3.43,-0.02079897244,-0.01417734876
3.44,-0.02117688301,-0.01336769806
3.45,-0.02152413344,-0.01254885954
3.46,-0.02184050145,-0.01172189732
3.47,-0.02212579286,-0.01088788538
3.48,-0.02237984263,-0.01004790769
3.49,-0.02260251588,-0.009203058103
3.5,-0.0227937091,-0.008354440231
3.51,-0.02295335134,-0.007503167105
3.52,-0.02308140556,-0.006650360763
3.53,-0.0231778699,-0.005797151667
3.54,-0.02324277912,-0.004944677974
3.55,-0.02327620591,-0.004094084661
3.56,-0.02327826235,-0.003246522481
3.57,-0.02324910121,-0.002403146772
3.58,-0.02318891738,-0.00156511609
3.59,-0.02309794909,-0.0007335906988
3.6,-0.02297647926,9.026911522E-05
3.61,-0.02282483656,0.0009053048768
3.62,-0.0226433966,0.001710361911
3.63,-0.02243258287,0.002504291479
3.64,-0.0221928676,0.003285953058
3.65,-0.02192477254,0.004054216749
3.66,-0.02162886953,0.004807965819
3.67,-0.02130578094,0.005546099347
3.68,-0.02095617996,0.006267534983
3.69,-0.02058079069,0.006971211797
3.7,-0.02018038806,0.007656093205
3.71,-0.0197557975,0.00832116996
3.72,-0.01930789449,0.008965463201
3.73,-0.01883760383,0.009588027528
3.74,-0.01834589871,0.0101879541
3.75,-0.01783379956,0.01076437376
3.76,-0.01730237269,0.01131646007
3.77,-0.01675272866,0.01184343243
3.78,-0.01618602046,0.01234455905
3.79,-0.01560344145,0.01281915993
3.8,-0.01500622306,0.01326660965
3.81,-0.01439563227,0.01368634021
3.82,-0.01377296892,0.01407784361
3.83,-0.01313956271,0.01444067438
3.84,-0.01249677009,0.01477445193
3.85,-0.01184597092,0.01507886271
3.86,-0.01118856489,0.0153536622
3.87,-0.0105259679,0.01559867674
3.88,-0.009859608102,0.01581380506
3.89,-0.009190921949,0.01599901966
3.9,-0.008521350019,0.01615436787
3.91,-0.007852332749,0.01627997277
3.92,-0.007185306076,0.01637603369
3.93,-0.006521696974,0.0164428266
3.94,-0.005862918944,0.01648070407
3.95,-0.005210367444,0.01649009507
3.96,-0.004565415304,0.01647150435
3.97,-0.003929408126,0.01642551163
3.98,-0.003303659702,0.01635277044
3.99,-0.002689447466,0.01625400662
4,-0.002088008004,0.01613001658
4.01,-0.001500532641,0.01598166523
4.02,-0.0009281631246,0.0158098836
4.03,-0.0003719874307,0.01561566621
4.04,0.0001669642887,0.01540006804
4.05,0.0006877235989,0.01516420141
4.06,0.001189387493,0.01490923237
4.07,0.001671121902,0.014636377
4.08,0.002132164984,0.01434689738
4.09,0.002571830174,0.01404209734
4.1,0.002989508982,0.01372331796
4.11,0.003384673517,0.01339193295
4.12,0.003756878722,0.01304934375
4.13,0.004105764308,0.01269697451
4.14,0.00443105638,0.01233626689
4.15,0.004732568727,0.01196867476
4.16,0.005010203783,0.0115956588
4.17,0.005263953241,0.01121868093
4.18,0.005493898312,0.01083919882
4.19,0.005700209627,0.01045866021
4.2,0.005883146779,0.01007849732
4.21,0.006043057497,0.009700121192
4.22,0.006180376447,0.009324916143
4.23,0.006295623684,0.008954234199
4.24,0.00638940272,0.008589389654
4.25,0.006462398249,0.008231653715
4.26,0.006515373507,0.007882249291
4.27,0.006549167292,0.007542345921
4.28,0.006564690643,0.007213054889
4.29,0.006562923191,0.006895424536
4.3,0.006544909199,0.006590435793
4.31,0.0065117533,0.006298997963
4.32,0.006464615942,0.006021944757
4.33,0.006404708573,0.005760030631
4.34,0.006333288572,0.005513927409
4.35,0.006251653941,0.005284221237
4.36,0.006161137797,0.005071409875
4.37,0.006063102667,0.004875900331
4.38,0.005958934614,0.00469800687
4.39,0.005850037224,0.004537949395
4.4,0.005737825477,0.004395852219
4.41,0.005623719512,0.004271743227
4.42,0.005509138337,0.004165553452
4.43,0.005395493493,0.004077117045
4.44,0.005284182701,0.004006171678
4.45,0.005176583521,0.003952359336
4.46,0.005074047058,0.003915227549
4.47,0.004977891725,0.003894231016
4.48,0.00488939711,0.003888733651
4.49,0.004809797954,0.003898011026
4.5,0.004740278285,0.003921253218
4.51,0.004681965725,0.003957568029
4.52,0.004635925992,0.004005984601
4.53,0.004603157633,0.004065457383
4.54,0.004584587002,0.004134870452
4.55,0.004581063512,0.004213042168
4.56,0.004593355183,0.004298730146
4.57,0.004622144505,0.00439063653
4.58,0.004668024635,0.00448741354
4.59,0.004731495953,0.004587669276
4.6,0.004812962985,0.004689973763
4.61,0.004912731718,0.004792865197
4.62,0.005031007314,0.004894856379
4.63,0.005167892242,0.004994441314
4.64,0.005323384829,0.005090101931
4.65,0.005497378253,0.005180314917
4.66,0.00568965997,0.005263558627
4.67,0.005899911599,0.005338320031
4.68,0.006127709246,0.005403101697
4.69,0.006372524289,0.00545642875
4.7,0.006633724613,0.005496855797
4.71,0.006910576292,0.00552297378
4.72,0.007202245724,0.005533416736
4.73,0.0075078022,0.00552686842
4.74,0.007826220913,0.005502068784
4.75,0.008156386376,0.005457820259
4.76,0.00849709627,0.005392993836
4.77,0.008847065674,0.005306534901
4.78,0.009204931686,0.005197468807
4.79,0.009569258408,0.005064906163
4.8,0.009938542275,0.004908047798
4.81,0.01031121772,0.0047261894
4.82,0.01068566314,0.00451872579
4.83,0.01106020714,0.004285154824
4.84,0.01143313503,0.004025080897
4.85,0.01180269562,0.003738218032
4.86,0.01216710809,0.003424392547
4.87,0.01252456919,0.003083545275
4.88,0.01287326047,0.00271573333
4.89,0.01321135573,0.00232113142
4.9,0.01353702849,0.00190003267
4.91,0.01384845953,0.001452848989
4.92,0.01414384455,0.000980110937
4.93,0.01442140169,0.0004824671207
4.94,0.01467937914,-3.931690379E-05
4.95,0.01491606263,-0.0005843602052
4.96,0.01512978284,-0.001151668533
4.97,0.01531892269,-0.001740136843
4.98,0.01548192449,-0.002348552295
4.99,0.0156172969,-0.002975597699
5,0.01572362163,-0.003619855407
5.01,0.01579956001,-0.00427981164
5.02,0.01584385919,-0.004953861228
5.03,0.01585535809,-0.005640312745
5.04,0.01583299305,-0.00633739403
5.05,0.01577580306,-0.007043258062
5.06,0.01568293476,-0.007755989181
5.07,0.0155536469,-0.008473609613
5.08,0.01538731449,-0.009194086293
5.09,0.01518343251,-0.009915337949
5.1,0.01494161916,-0.01063524243
5.11,0.01466161865,-0.01135164421
5.12,0.01434330356,-0.01206236215
5.13,0.01398667663,-0.01276519732
5.14,0.01359187218,-0.01345794097
5.15,0.01315915696,-0.01413838264
5.16,0.01268893046,-0.01480431827
5.17,0.01218172483,-0.01545355835
5.18,0.01163820417,-0.01608393604
5.19,0.01105916336,-0.01669331534
5.2,0.01044552644,-0.01727959908
5.21,0.009798344413,-0.01784073687
5.22,0.00911879255,-0.01837473288
5.23,0.008408167294,-0.01887965354
5.24,0.007667882606,-0.01935363489
5.25,0.006899465892,-0.01979488988
5.26,0.006104553473,-0.02020171529
5.27,0.005284885624,-0.02057249842
5.28,0.004442301199,-0.02090572349
5.29,0.003578731871,-0.02119997763
5.3,0.00269619599,-0.02145395663
5.31,0.001796792102,-0.02166647018
5.32,0.0008826921368,-0.02183644682
5.33,-4.386569823E-05,-0.02196293839
5.34,-0.0009805843003,-0.02204512409
5.35,-0.001925115295,-0.02208231402
5.36,-0.002875066875,-0.02207395237
5.37,-0.003828011828,-0.02201961997
5.38,-0.004781495716,-0.02191903646
5.39,-0.005733045177,-0.02177206191
5.4,-0.006680176328,-0.02157869794
5.41,-0.007620403215,-0.02133908831
5.42,-0.008551246305,-0.02105351902
5.43,-0.00947024096,-0.02072241787
5.44,-0.01037494589,-0.02034635347
5.45,-0.0112629515,-0.01992603383
5.46,-0.01213188823,-0.0194623043
5.47,-0.01297943459,-0.01895614516
5.48,-0.01380332526,-0.01840866858
5.49,-0.01460135878,-0.01782111521
5.5,-0.01537140513,-0.01719485021
5.51,-0.01611141307,-0.01653135885
5.52,-0.01681941714,-0.01583224174
5.53,-0.01749354438,-0.01509920953
5.54,-0.01813202072,-0.01433407732
5.55,-0.018733177,-0.01353875855
5.56,-0.01929545467,-0.01271525872
5.57,-0.01981741095,-0.01186566861
5.58,-0.02029772376,-0.0109921573
5.59,-0.02073519604,-0.01009696485
5.6,-0.02112875972,-0.009182394774
5.61,-0.0214774792,-0.008250806267
5.62,-0.0217805543,-0.007304606246
5.63,-0.0220373228,-0.006346241229
5.64,-0.02224726241,-0.005378189081
5.65,-0.02240999228,-0.004402950664
5.66,-0.02252527395,-0.003423041419
5.67,-0.02259301184,-0.002440982906
5.68,-0.02261325319,-0.001459294351
5.69,-0.02258618747,-0.0004804842076
5.7,-0.02251214536,0.000492958209
5.71,-0.02239159709,0.001458571005
5.72,-0.02222515042,0.002413927867
5.73,-0.02201354805,0.003356646064
5.74,-0.02175766456,0.004284394272
5.75,-0.0214585029,0.005194900187
5.76,-0.02111719047,0.006085957892
5.77,-0.02073497462,0.006955434966
5.78,-0.02031321796,0.007801279293
5.79,-0.01985339305,0.008621525558
5.8,-0.01935707686,0.0094143014
5.81,-0.01882594481,0.0101778332
5.82,-0.01826176453,0.01091045149
5.83,-0.01766638926,0.01161059597
5.84,-0.01704175098,0.01227682005
5.85,-0.01638985337,0.01290779506
5.86,-0.01571276443,0.01350231392
5.87,-0.01501260896,0.01405929434
5.88,-0.0142915609,0.01457778167
5.89,-0.0135518355,0.01505695112
5.9,-0.0127956814,0.01549610958
5.91,-0.01202537258,0.01589469694
5.92,-0.0112432004,0.0162522869
5.93,-0.01045146547,0.01656858729
5.94,-0.00965246963,0.01684343988
5.95,-0.008848507987,0.01707681978
5.96,-0.008041860959,0.01726883423
5.97,-0.007234786492,0.017419721
5.98,-0.006429512387,0.01752984633
5.99,-0.005628228793,0.01759970232
6,-0.004833080899,0.01762990399
