"Freq [GHz]","re(S(Tx_p1,Tx_p1)) []","im(S(Tx_p1,Tx_p1)) []"
1,0.09603190805,-0.2111997646
1.01,0.09066132363,-0.2104135417
1.02,0.08537335838,-0.209513996
1.03,0.08017315759,-0.2085032327
1.04,0.07506572788,-0.2073838345
1.05,0.07005590635,-0.2061588397
1.06,0.06514833134,-0.2048317209
1.07,0.06034741501,-0.2034063609
1.08,0.05565731756,-0.2018870291
1.09,0.05108192327,-0.2002783559
1.1,0.04662481828,-0.1985853077
1.11,0.0422892702,-0.1968131593
1.12,0.03807820947,-0.1949674677
1.13,0.03399421264,-0.1930540434
1.14,0.03003948735,-0.1910789227
1.15,0.02621585925,-0.1890483388
1.16,0.02252476075,-0.1869686927
1.17,0.01896722151,-0.184846524
1.18,0.01554386093,-0.1826884815
1.19,0.01225488234,-0.1805012935
1.2,0.009100069033,-0.1782917385
1.21,0.00607878218,-0.1760666156
1.22,0.003189960426,-0.1738327155
1.23,0.0004321213166,-0.1715967914
1.24,-0.002196635564,-0.1693655304
1.25,-0.004698623746,-0.1671455256
1.26,-0.00707656336,-0.1649432481
1.27,-0.009333572988,-0.1627650206
1.28,-0.01147315994,-0.1606169904
1.29,-0.01349920896,-0.1585051043
1.3,-0.01541596951,-0.156435084
1.31,-0.01722804152,-0.1544124022
1.32,-0.01894035988,-0.1524422595
1.33,-0.02055817753,-0.1505295636
1.34,-0.02208704732,-0.1486789078
1.35,-0.02353280274,-0.1468945521
1.36,-0.02490153752,-0.145180405
1.37,-0.02619958412,-0.1435400068
1.38,-0.02743349145,-0.1419765137
1.39,-0.02861000147,-0.1404926845
1.4,-0.02973602526,-0.1390908669
1.41,-0.03081861817,-0.1377729875
1.42,-0.03186495444,-0.1365405412
1.43,-0.03288230134,-0.1353945838
1.44,-0.03387799271,-0.1343357249
1.45,-0.03485940232,-0.1333641236
1.46,-0.03583391685,-0.1324794844
1.47,-0.03680890872,-0.1316810561
1.48,-0.03779170885,-0.1309676314
1.49,-0.03878957947,-0.1303375482
1.5,-0.03980968694,-0.1297886931
1.51,-0.04085907481,-0.1293185059
1.52,-0.04194463722,-0.1289239856
1.53,-0.04307309255,-0.1286016988
1.54,-0.04425095762,-0.1283477885
1.55,-0.04548452241,-0.1281579854
1.56,-0.04677982539,-0.1280276199
1.57,-0.0481426296,-0.1279516363
1.58,-0.04957839947,-0.1279246075
1.59,-0.05109227856,-0.1279407519
1.6,-0.05268906819,-0.127993951
1.61,-0.05437320713,-0.1280777686
1.62,-0.05614875238,-0.1281854708
1.63,-0.058019361,-0.1283100475
1.64,-0.05998827331,-0.128444235
1.65,-0.06205829721,-0.128580539
1.66,-0.06423179388,-0.1287112591
1.67,-0.0665106649,-0.1288285137
1.68,-0.06889634067,-0.1289242662
1.69,-0.07138977041,-0.1289903513
1.7,-0.07399141353,-0.1290185022
1.71,-0.07670123265,-0.1290003782
1.72,-0.07951868809,-0.1289275929
1.73,-0.08244273391,-0.1287917424
1.74,-0.08547181567,-0.128584434
1.75,-0.08860386963,-0.1282973152
1.76,-0.0918363237,-0.1279221021
1.77,-0.09516609991,-0.1274506089
1.78,-0.09858961853,-0.1268747761
1.79,-0.1021028038,-0.1261866991
1.8,-0.1057010913,-0.1253786567
1.81,-0.1093794368,-0.1244431388
1.82,-0.1131323266,-0.1233728736
1.83,-0.1169537897,-0.1221608549
1.84,-0.1208374111,-0.120800368
1.85,-0.1247763469,-0.1192850149
1.86,-0.1287633406,-0.1176087398
1.87,-0.1327907405,-0.115765852
1.88,-0.1368505195,-0.1137510494
1.89,-0.1409342945,-0.1115594401
1.9,-0.1450333488,-0.1091865631
1.91,-0.1491386542,-0.1066284079
1.92,-0.1532408951,-0.1038814329
1.93,-0.157330493,-0.1009425826
1.94,-0.161397633,-0.09780930293
1.95,-0.1654322894,-0.09447955594
1.96,-0.169424254,-0.09095183262
1.97,-0.1733631639,-0.08722516429
1.98,-0.1772385305,-0.0832991325
1.99,-0.1810397687,-0.0791738774
2,-0.1847562269,-0.07485010446
2.01,-0.1883772171,-0.07032908967
2.02,-0.1918920456,-0.06561268305
2.03,-0.195290044,-0.06070331047
2.04,-0.1985605993,-0.05560397396
2.05,-0.2016931858,-0.05031825018
2.06,-0.2046773953,-0.04485028738
2.07,-0.2075029679,-0.03920480059
2.08,-0.2101598228,-0.0333870652
2.09,-0.2126380883,-0.02740290893
2.1,-0.2149281314,-0.02125870215
2.11,-0.2170205871,-0.01496134657
2.12,-0.2189063874,-0.008518262461
2.13,-0.2205767887,-0.001937374228
2.14,-0.2220233996,0.004772905436
2.15,-0.2232382071,0.01160369289
2.16,-0.2242136017,0.01854565229
2.17,-0.2249424028,0.02558901569
2.18,-0.2254178813,0.03272360446
2.19,-0.2256337823,0.03993885193
2.2,-0.2255843464,0.04722382729
2.21,-0.2252643291,0.05456726051
2.22,-0.22466902,0.06195756842
2.23,-0.2237942593,0.06938288171
2.24,-0.2226364542,0.07683107287
2.25,-0.2211925929,0.08428978496
2.26,-0.2194602573,0.0917464611
2.27,-0.2174376343,0.09918837473
2.28,-0.2151235259,0.1066026604
2.29,-0.2125173564,0.1139763448
2.3,-0.2096191795,0.1212963792
2.31,-0.2064296829,0.1285496704
2.32,-0.2029501911,0.1357231141
2.33,-0.1991826669,0.1428036268
2.34,-0.195129711,0.1497781781
2.35,-0.1907945604,0.1566338239
2.36,-0.1861810841,0.163357738
2.37,-0.181293778,0.1699372449
2.38,-0.1761377576,0.1763598511
2.39,-0.1707187498,0.1826132773
2.4,-0.1650430817,0.1886854885
2.41,-0.1591176695,0.1945647255
2.42,-0.1529500041,0.2002395338
2.43,-0.1465481369,0.2056987934
2.44,-0.1399206622,0.2109317466
2.45,-0.1330767002,0.2159280258
2.46,-0.1260258768,0.2206776799
2.47,-0.1187783028,0.2251711993
2.48,-0.1113445525,0.2293995411
2.49,-0.1037356395,0.2333541515
2.5,-0.09596299254,0.2370269881
2.51,-0.08803843008,0.2404105404
2.52,-0.07997413324,0.2434978496
2.53,-0.07178261839,0.2462825257
2.54,-0.06347670853,0.2487587647
2.55,-0.05506950395,0.2509213632
2.56,-0.04657435218,0.2527657321
2.57,-0.03800481721,0.2542879084
2.58,-0.02937464817,0.2554845651
2.59,-0.0206977476,0.2563530207
2.6,-0.01198813915,0.2568912453
2.61,-0.003259935175,0.2570978668
2.62,0.005472696089,0.2569721739
2.63,0.01419556334,0.2565141184
2.64,0.02289448515,0.2557243155
2.65,0.03155532284,0.2546040423
2.66,0.04016401325,0.2531552348
2.67,0.04870660122,0.251380483
2.68,0.05716927188,0.2492830247
2.69,0.06553838243,0.2468667374
2.7,0.07380049354,0.2441361283
2.71,0.08194240014,0.2410963234
2.72,0.08995116156,0.2377530547
2.73,0.09781413098,0.2341126455
2.74,0.1055189841,0.230181995
2.75,0.1130537468,0.2259685606
2.76,0.1204068222,0.2214803397
2.77,0.127567016,0.2167258494
2.78,0.1345235617,0.2117141056
2.79,0.141266144,0.2064546002
2.8,0.1477849208,0.2009572775
2.81,0.1540705447,0.1952325099
2.82,0.1601141828,0.1892910717
2.83,0.1659075348,0.1831441128
2.84,0.17144285,0.1768031309
2.85,0.1767129431,0.1702799434
2.86,0.1817112078,0.1635866583
2.87,0.1864316299,0.1567356443
2.88,0.1908687975,0.149739501
2.89,0.1950179108,0.1426110278
2.9,0.1988747897,0.1353631929
2.91,0.2024358802,0.1280091021
2.92,0.2056982583,0.1205619671
2.93,0.2086596334,0.1130350735
2.94,0.2113183492,0.1054417494
2.95,0.2136733833,0.09779533341
2.96,0.2157243453,0.09010914318
2.97,0.217471473,0.08239644386
2.98,0.2189156271,0.0746704171
2.99,0.2200582842,0.06694413026
3,0.2209015286,0.05923050619
3.01,0.2214480422,0.05154229347
3.02,0.2217010931,0.04389203733
3.03,0.2216645227,0.03629205126
3.04,0.221342731,0.02875438936
3.05,0.2207406615,0.02129081956
3.06,0.2198637836,0.01391279775
3.07,0.2187180744,0.006631442876
3.08,0.2173099996,-0.0005424868564
3.09,0.2156464921,-0.007598616774
3.1,0.2137349306,-0.01452697728
3.11,0.2115831169,-0.02131802423
3.12,0.2091992516,-0.02796265799
3.13,0.2065919101,-0.03445224126
3.14,0.2037700162,-0.04077861543
3.15,0.2007428168,-0.04693411565
3.16,0.1975198541,-0.0529115844
3.17,0.1941109387,-0.0587043836
3.18,0.1905261212,-0.06430640528
3.19,0.1867756638,-0.06971208067
3.2,0.1828700114,-0.07491638781
3.21,0.1788197626,-0.07991485763
3.22,0.1746356402,-0.08470357839
3.23,0.1703284622,-0.08927919869
3.24,0.1659091117,-0.09363892881
3.25,0.1613885081,-0.09778054057
3.26,0.1567775776,-0.1017023656
3.27,0.1520872243,-0.1054032921
3.28,0.1473283013,-0.10888276
3.29,0.1425115824,-0.1121407551
3.3,0.1376477345,-0.1151778006
3.31,0.1327472899,-0.1179949487
3.32,0.1278206198,-0.1205937695
3.33,0.1228779081,-0.1229763396
3.34,0.1179291261,-0.1251452282
3.35,0.1129840084,-0.127103483
3.36,0.1080520286,-0.1288546143
3.37,0.1031423774,-0.130402578
3.38,0.09826394067,-0.1317517576
3.39,0.09342527862,-0.1329069451
3.4,0.08863460682,-0.1338733205
3.41,0.08389977768,-0.1346564312
3.42,0.07922826343,-0.1352621695
3.43,0.07462714038,-0.1356967503
3.44,0.07010307434,-0.135966687
3.45,0.06566230754,-0.1360787678
3.46,0.06131064677,-0.1360400307
3.47,0.05705345301,-0.1358577381
3.48,0.05289563244,-0.135539351
3.49,0.04884162883,-0.1350925033
3.5,0.04489541749,-0.1345249747
3.51,0.04106050061,-0.1338446646
3.52,0.03733990402,-0.1330595651
3.53,0.03373617554,-0.1321777343
3.54,0.03025138468,-0.1312072695
3.55,0.02688712385,-0.1301562806
3.56,0.02364451102,-0.1290328633
3.57,0.02052419379,-0.1278450733
3.58,0.01752635488,-0.1266009003
3.59,0.01465071903,-0.1253082424
3.6,0.01189656124,-0.1239748812
3.61,0.009262716335,-0.1226084574
3.62,0.006747589841,-0.1212164472
3.63,0.004349170132,-0.1198061389
3.64,0.002065041764,-0.1183846108
3.65,-0.0001076000037,-0.1169587097
3.66,-0.002171933566,-0.1155350302
3.67,-0.004131494265,-0.1141198953
3.68,-0.005990156666,-0.1127193373
3.69,-0.007752115874,-0.1113390809
3.7,-0.009421867958,-0.1099845262
3.71,-0.01100418954,-0.1086607333
3.72,-0.0125041166,-0.1073724088
3.73,-0.01392692263,-0.106123892
3.74,-0.01527809608,-0.1049191441
3.75,-0.01656331729,-0.1037617373
3.76,-0.01778843496,-0.102654846
3.77,-0.01895944213,-0.1016012389
3.78,-0.02008245186,-0.1006032732
3.79,-0.02116367267,-0.09966288903
3.8,-0.02220938373,-0.09878160611
3.81,-0.02322591,-0.09796052178
3.82,-0.02421959726,-0.09720031004
3.83,-0.02519678728,-0.09650122225
3.84,-0.02616379296,-0.09586308908
3.85,-0.02712687385,-0.09528532399
3.86,-0.02809221173,-0.09476692794
3.87,-0.02906588672,-0.09430649549
3.88,-0.03005385364,-0.09390222228
3.89,-0.031061919,-0.09355191369
3.9,-0.03209571839,-0.09325299488
3.91,-0.03316069465,-0.09300252203
3.92,-0.0342620766,-0.09279719473
3.93,-0.03540485861,-0.09263336959
3.94,-0.03659378088,-0.09250707493
3.95,-0.03783331075,-0.09241402655
3.96,-0.03912762476,-0.09234964451
3.97,-0.04048059183,-0.09230907086
3.98,-0.04189575737,-0.09228718829
3.99,-0.04337632858,-0.09227863965
4,-0.04492516075,-0.09227784821
4.01,-0.04654474482,-0.09227903865
4.02,-0.04823719608,-0.09227625875
4.03,-0.05000424416,-0.09226340166
4.04,-0.05184722423,-0.09223422863
4.05,-0.0537670695,-0.09218239227
4.06,-0.05576430508,-0.09210146017
4.07,-0.05783904312,-0.09198493879
4.08,-0.0599909793,-0.09182629762
4.09,-0.06221939069,-0.09161899351
4.1,-0.06452313496,-0.09135649504
4.11,-0.06690065098,-0.09103230696
4.12,-0.06934996071,-0.09063999451
4.13,-0.07186867256,-0.09017320765
4.14,-0.07445398595,-0.08962570504
4.15,-0.07710269737,-0.08899137779
4.16,-0.07981120755,-0.08826427276
4.17,-0.08257553016,-0.08743861556
4.18,-0.08539130154,-0.08650883293
4.19,-0.08825379184,-0.08546957461
4.2,-0.09115791728,-0.08431573464
4.21,-0.09409825358,-0.08304247181
4.22,-0.09706905059,-0.08164522951
4.23,-0.1000642479,-0.08011975466
4.24,-0.1030774915,-0.0784621158
4.25,-0.1061021516,-0.07666872025
4.26,-0.1091313411,-0.07473633028
4.27,-0.1121579352,-0.07266207823
4.28,-0.1151745918,-0.07044348058
4.29,-0.1181737721,-0.06807845086
4.3,-0.1211477634,-0.06556531145
4.31,-0.1240887002,-0.06290280411
4.32,-0.1269885886,-0.06009009936
4.33,-0.1298393287,-0.05712680449
4.34,-0.132632739,-0.05401297041
4.35,-0.135360581,-0.05074909708
4.36,-0.138014583,-0.04733613768
4.37,-0.1405864659,-0.04377550139
4.38,-0.1430679674,-0.04006905488
4.39,-0.1454508673,-0.03621912237
4.4,-0.1477270129,-0.03222848441
4.41,-0.1498883433,-0.02810037519
4.42,-0.1519269149,-0.02383847861
4.43,-0.1538349254,-0.01944692296
4.44,-0.1556047388,-0.01493027424
4.45,-0.1572289088,-0.01029352822
4.46,-0.1587002026,-0.00554210116
4.47,-0.1600116238,-0.0006818193024
4.48,-0.1611564351,0.004281092894
4.49,-0.1621281798,0.009340025731
4.5,-0.1629207032,0.01448799841
4.51,-0.163528173,0.01971767429
4.52,-0.1639450986,0.0250213773
4.53,-0.1641663499,0.03039110928
4.54,-0.1641871751,0.03581856845
4.55,-0.1640032176,0.04129516871
4.56,-0.1636105312,0.04681205994
4.57,-0.1630055955,0.05236014903
4.58,-0.1621853287,0.05793012174
4.59,-0.1611471005,0.06351246533
4.6,-0.1598887429,0.06909749169
4.61,-0.1584085605,0.07467536125
4.62,-0.1567053387,0.08023610723
4.63,-0.1547783514,0.08576966048
4.64,-0.1526273671,0.09126587465
4.65,-0.1502526533,0.09671455165
4.66,-0.1476549803,0.1021054674
4.67,-0.1448356229,0.1074283977
4.68,-0.1417963611,0.1126731442
4.69,-0.1385394797,0.1178295606
4.7,-0.1350677658,0.1228875783
4.71,-0.1313845058,0.1278372328
4.72,-0.1274934803,0.1326686886
4.73,-0.1233989578,0.1373722653
4.74,-0.119105688,0.1419384622
4.75,-0.114618892,0.1463579833
4.76,-0.1099442531,0.1506217614
4.77,-0.105087905,0.1547209814
4.78,-0.1000564197,0.158647104
4.79,-0.09485679315,0.1623918876
4.8,-0.08949643092,0.16594741
4.81,-0.08398313193,0.1693060894
4.82,-0.07832507143,0.1724607043
4.83,-0.07253078292,0.1754044127
4.84,-0.06660913904,0.1781307702
4.85,-0.06056933158,0.1806337471
4.86,-0.05442085061,0.1829077446
4.87,-0.04817346278,0.1849476095
4.88,-0.04183718888,0.1867486486
4.89,-0.03542228072,0.1883066408
4.9,-0.02893919731,0.1896178487
4.91,-0.02239858062,0.1906790293
4.92,-0.01581123067,0.1914874422
4.93,-0.00918808027,0.1920408578
4.94,-0.00254016945,0.1923375634
4.95,0.004121380515,0.1923763683
4.96,0.01078539322,0.1921566075
4.97,0.01744066344,0.1916781438
4.98,0.02407598351,0.1909413691
4.99,0.03068016966,0.1899472036
5,0.03724208844,0.1886970944
5.01,0.04375068279,0.1871930122
5.02,0.05019499812,0.1854374468
5.03,0.056564208,0.1834334014
5.04,0.06284763949,0.1811843854
5.05,0.06903479815,0.1786944062
5.06,0.07511539251,0.1759679593
5.07,0.08107935801,0.1730100177
5.08,0.0869168803,0.1698260194
5.09,0.09261841797,0.1664218543
5.1,0.09817472445,0.16280385
5.11,0.1035768692,0.158978756
5.12,0.1088162578,0.1549537271
5.13,0.1138846518,0.150736306
5.14,0.1187741869,0.1463344048
5.15,0.1234773903,0.1417562853
5.16,0.1279871974,0.1370105389
5.17,0.1322969672,0.1321060655
5.18,0.136400496,0.1270520518
5.19,0.1402920314,0.1218579482
5.2,0.1439662833,0.1165334466
5.21,0.1474184351,0.1110884561
5.22,0.1506441529,0.1055330789
5.23,0.1536395938,0.099877586
5.24,0.1564014129,0.09413239193
5.25,0.1589267684,0.08830802985
5.26,0.1612133265,0.08241512594
5.27,0.1632592638,0.07646437388
5.28,0.1650632696,0.07046650917
5.29,0.1666245454,0.06443228353
5.3,0.1679428045,0.05837243921
5.31,0.1690182695,0.05229768359
5.32,0.1698516687,0.0462186639
5.33,0.170444231,0.04014594218
5.34,0.1707976799,0.03408997063
5.35,0.1709142263,0.02806106732
5.36,0.1707965594,0.02206939239
5.37,0.1704478369,0.01612492475
5.38,0.1698716745,0.01023743938
5.39,0.169072133,0.004416485247
5.4,0.1680537055,-0.001328636005
5.41,0.1668213032,-0.006988890694
5.42,0.1653802397,-0.01255553287
5.43,0.163736215,-0.01802012324
5.44,0.1618952981,-0.02337454721
5.45,0.1598639093,-0.0286110319
5.46,0.1576488008,-0.03372216224
5.47,0.1552570373,-0.03870089601
5.48,0.1526959759,-0.04354057775
5.49,0.1499732446,-0.04823495165
5.5,0.1470967211,-0.05277817323
5.51,0.1440745105,-0.05716481989
5.52,0.1409149231,-0.06138990028
5.53,0.1376264507,-0.06544886242
5.54,0.1342177441,-0.06933760065
5.55,0.1306975891,-0.07305246128
5.56,0.1270748828,-0.07659024706
5.57,0.1233586097,-0.07994822032
5.58,0.119557818,-0.08312410493
5.59,0.1156815953,-0.08611608692
5.6,0.1117390449,-0.08892281392
5.61,0.1077392617,-0.09154339332
5.62,0.1036913094,-0.09397738918
5.63,0.09960419624,-0.09622481796
5.64,0.09548685281,-0.09828614303
5.65,0.09134810896,-0.100162268
5.66,0.0871966719,-0.1018545288
5.67,0.08304110446,-0.1033646849
5.68,0.07888980407,-0.1046949092
5.69,0.07475098227,-0.1058477768
5.7,0.07063264497,-0.1068262529
5.71,0.06654257337,-0.1076336797
5.72,0.06248830573,-0.1082737626
5.73,0.05847711987,-0.1087505545
5.74,0.05451601665,-0.1090684408
5.75,0.05061170426,-0.1092321221
5.76,0.04677058355,-0.1092465975
5.77,0.04299873424,-0.1091171455
5.78,0.03930190228,-0.1088493065
5.79,0.03568548818,-0.1084488624
5.8,0.0321545364,-0.1079218174
5.81,0.02871372593,-0.1072743774
5.82,0.02536736191,-0.1065129293
5.83,0.02211936844,-0.1056440201
5.84,0.01897328255,-0.1046743352
5.85,0.01593224928,-0.103610677
5.86,0.01299901803,-0.1024599431
5.87,0.01017594001,-0.1012291046
5.88,0.007464966906,-0.09992518389
5.89,0.004867650731,-0.098555233
5.9,0.002385144818,-0.09712631178
5.91,1.82060148E-05,-0.0956454663
5.92,-0.002232801994,-0.0941197074
5.93,-0.004367904221,-0.09255598958
5.94,-0.006387508792,-0.09096119024
5.95,-0.008292400272,-0.08934208922
5.96,-0.01008373191,-0.0877053489
5.97,-0.01176301686,-0.08605749475
5.98,-0.01333211838,-0.08440489645
5.99,-0.01479323904,-0.08275374961
6,-0.016148909,-0.08111005822
