"Freq [GHz]","re(S(Tx_p1,Tx_p1)) []","im(S(Tx_p1,Tx_p1)) []"
1,0.09880077478,-0.1561430863
1.01,0.09524680243,-0.156100839
1.02,0.09173674856,-0.1560135244
1.03,0.08827222119,-0.1558817483
1.04,0.08485476262,-0.1557063716
1.05,0.08148583139,-0.1554884941
1.06,0.07816678567,-0.1552294379
1.07,0.07489886799,-0.1549307308
1.08,0.07168319142,-0.1545940891
1.09,0.06852072701,-0.1542213997
1.1,0.0654122927,-0.1538147031
1.11,0.06235854348,-0.1533761752
1.12,0.05935996291,-0.1529081091
1.13,0.05641685599,-0.1524128976
1.14,0.05352934323,-0.1518930147
1.15,0.05069735604,-0.1513509982
1.16,0.04792063342,-0.1507894311
1.17,0.04519871972,-0.1502109247
1.18,0.04253096379,-0.1496181008
1.19,0.03991651912,-0.1490135744
1.2,0.03735434521,-0.148399937
1.21,0.03484321003,-0.1477797405
1.22,0.03238169355,-0.1471554807
1.23,0.02996819222,-0.1465295818
1.24,0.02760092459,-0.1459043818
1.25,0.02527793773,-0.1452821179
1.26,0.02299711462,-0.1446649126
1.27,0.02075618243,-0.1440547607
1.28,0.01855272154,-0.1434535166
1.29,0.01638417538,-0.1428628833
1.3,0.01424786097,-0.1422844007
1.31,0.01214098011,-0.1417194359
1.32,0.01006063121,-0.1411691739
1.33,0.008003821637,-0.1406346092
1.34,0.005967480589,-0.1401165381
1.35,0.003948472436,-0.1396155524
1.36,0.001943610408,-0.1391320334
1.37,-5.032935475E-05,-0.1386661474
1.38,-0.002036593486,-0.1382178415
1.39,-0.004018436859,-0.1377868414
1.4,-0.005999107893,-0.137372649
1.41,-0.007981833758,-0.1369745417
1.42,-0.00996980554,-0.1365915726
1.43,-0.01196616342,-0.1362225712
1.44,-0.01397398194,-0.1358661459
1.45,-0.01599625537,-0.1355206866
1.46,-0.01803588329,-0.1351843686
1.47,-0.02009565643,-0.1348551577
1.48,-0.02217824277,-0.1345308159
1.49,-0.02428617399,-0.1342089079
1.5,-0.02642183241,-0.1338868085
1.51,-0.02858743826,-0.1335617113
1.52,-0.03078503756,-0.1332306377
1.53,-0.0330164905,-0.1328904467
1.54,-0.03528346043,-0.1325378456
1.55,-0.03758740352,-0.1321694015
1.56,-0.03992955905,-0.1317815532
1.57,-0.04231094047,-0.1313706242
1.58,-0.04473232722,-0.1309328353
1.59,-0.0471942573,-0.1304643189
1.6,-0.04969702073,-0.1299611331
1.61,-0.05224065382,-0.1294192763
1.62,-0.05482493429,-0.1288347022
1.63,-0.05744937741,-0.1282033356
1.64,-0.06011323291,-0.1275210874
1.65,-0.06281548294,-0.126783871
1.66,-0.06555484096,-0.1259876183
1.67,-0.06832975151,-0.1251282954
1.68,-0.07113839109,-0.1242019194
1.69,-0.07397866984,-0.123204574
1.7,-0.07684823436,-0.1221324261
1.71,-0.07974447135,-0.1209817413
1.72,-0.0826645123,-0.1197489001
1.73,-0.08560523908,-0.1184304133
1.74,-0.08856329047,-0.1170229372
1.75,-0.09153506962,-0.1155232884
1.76,-0.09451675236,-0.1139284585
1.77,-0.09750429646,-0.112235628
1.78,-0.1004934516,-0.1104421799
1.79,-0.1034797704,-0.1085457123
1.8,-0.1064586197,-0.1065440515
1.81,-0.1094251934,-0.1044352625
1.82,-0.1123745252,-0.1022176613
1.83,-0.1153015024,-0.09988982383
1.84,-0.1182008802,-0.09745059648
1.85,-0.1210672971,-0.09489910404
1.86,-0.1238952894,-0.0922347577
1.87,-0.1266793081,-0.08945726196
1.88,-0.1294137346,-0.08656662052
1.89,-0.1320928976,-0.08356314138
1.9,-0.1347110901,-0.08044744093
1.91,-0.1372625867,-0.077220447
1.92,-0.1397416611,-0.07388340106
1.93,-0.1421426032,-0.07043785927
1.94,-0.1444597378,-0.06688569266
1.95,-0.1466874412,-0.06322908621
1.96,-0.1488201595,-0.05947053694
1.97,-0.1508524262,-0.05561285101
1.98,-0.1527788791,-0.05165913982
1.99,-0.154594278,-0.04761281504
2,-0.1562935216,-0.04347758283
2.01,-0.1578716637,-0.03925743688
2.02,-0.1593239298,-0.03495665071
2.03,-0.1606457328,-0.03057976891
2.04,-0.1618326884,-0.02613159753
2.05,-0.1628806296,-0.02161719367
2.06,-0.163785621,-0.0170418541
2.07,-0.1645439724,-0.01241110323
2.08,-0.1651522519,-0.007730680186
2.09,-0.1656072973,-0.003006525283
2.1,-0.1659062285,0.001755234266
2.11,-0.1660464572,0.006548299234
2.12,-0.166025697,0.01136621387
2.13,-0.1658419725,0.01620238192
2.14,-0.165493627,0.02105008312
2.15,-0.1649793295,0.0259024902
2.16,-0.1642980811,0.03075268614
2.17,-0.16344922,0.03559368192
2.18,-0.1624324256,0.04041843439
2.19,-0.1612477219,0.04521986451
2.2,-0.1598954793,0.0499908756
2.21,-0.1583764163,0.05472437181
2.22,-0.1566915989,0.05941327662
2.23,-0.1548424405,0.06405055128
2.24,-0.1528306994,0.06862921323
2.25,-0.1506584761,0.0731423544
2.26,-0.1483282095,0.07758315931
2.27,-0.1458426717,0.08194492292
2.28,-0.1432049623,0.08622106825
2.29,-0.1404185016,0.09040516359
2.3,-0.1374870226,0.09449093935
2.31,-0.1344145625,0.09847230447
2.32,-0.131205453,0.1023433623
2.33,-0.1278643098,0.1060984258
2.34,-0.1243960215,0.1097320328
2.35,-0.1208057373,0.1132389593
2.36,-0.1170988545,0.1166142336
2.37,-0.1132810045,0.1198531487
2.38,-0.1093580391,0.1229512743
2.39,-0.1053360152,0.125904468
2.4,-0.1012211797,0.1287088854
2.41,-0.09701995349,0.1313609899
2.42,-0.09273891479,0.1338575609
2.43,-0.08838478249,0.1361957019
2.44,-0.08396439875,0.1383728466
2.45,-0.07948471147,0.1403867652
2.46,-0.07495275634,0.1422355691
2.47,-0.07037563877,0.1439177141
2.48,-0.0657605156,0.1454320042
2.49,-0.06111457672,0.1467775924
2.5,-0.0564450266,0.1479539822
2.51,-0.05175906585,0.1489610269
2.52,-0.04706387286,0.1497989286
2.53,-0.04236658544,0.1504682358
2.54,-0.03767428282,0.1509698403
2.55,-0.03299396767,0.1513049728
2.56,-0.02833254853,0.1514751978
2.57,-0.02369682253,0.1514824075
2.58,-0.01909345848,0.1513288144
2.59,-0.01452898045,0.1510169439
2.6,-0.01000975175,0.1505496246
2.61,-0.005541959529,0.1499299793
2.62,-0.001131599885,0.1491614141
2.63,0.003215536337,0.1482476069
2.64,0.007493877122,0.1471924956
2.65,0.01169808214,0.1460002653
2.66,0.01582305486,0.1446753345
2.67,0.01986395385,0.1432223413
2.68,0.02381620331,0.1416461284
2.69,0.0276755027,0.1399517283
2.7,0.03143783557,0.1381443471
2.71,0.03509947738,0.1362293488
2.72,0.03865700252,0.1342122385
2.73,0.04210729024,0.1320986455
2.74,0.04544752982,0.1298943063
2.75,0.04867522453,0.1276050474
2.76,0.05178819483,0.1252367672
2.77,0.05478458039,0.1227954192
2.78,0.05766284129,0.1202869934
2.79,0.06042175808,0.1177174995
2.8,0.06306043094,0.1150929485
2.81,0.06557827782,0.1124193358
2.82,0.06797503161,0.1097026236
2.83,0.07025073635,0.1069487236
2.84,0.0724057425,0.1041634805
2.85,0.07444070124,0.1013526554
2.86,0.07635655793,0.09852190971
2.87,0.07815454464,0.0956767893
2.88,0.07983617182,0.09282270952
2.89,0.08140321918,0.08996494045
2.9,0.08285772576,0.08710859283
2.91,0.08420197923,0.08425860464
2.92,0.08543850447,0.08141972823
2.93,0.08657005154,0.0785965183
2.94,0.08759958287,0.0757933205
2.95,0.08853026002,0.07301426085
2.96,0.08936542979,0.07026323601
2.97,0.09010860983,0.06754390424
2.98,0.09076347388,0.06485967741
2.99,0.09133383651,0.06221371373
3,0.09182363761,0.05960891146
3.01,0.09223692647,0.05704790352
3.02,0.09257784576,0.05453305307
3.03,0.0928506152,0.05206644995
3.04,0.09305951514,0.04964990813
3.05,0.09320887012,0.04728496412
3.06,0.09330303229,0.04497287633
3.07,0.09334636498,0.04271462535
3.08,0.09334322627,0.0405109152
3.09,0.09329795277,0.03836217556
3.1,0.09321484353,0.03626856488
3.11,0.09309814424,0.0342299744
3.12,0.09295203173,0.03224603314
3.13,0.0927805988,0.03031611368
3.14,0.09258783944,0.02843933886
3.15,0.09237763455,0.02661458926
3.16,0.09215373807,0.02484051155
3.17,0.09191976375,0.02311552751
3.18,0.0916791724,0.02143784393
3.19,0.09143525983,0.01980546302
3.2,0.0911911454,0.0182161937
3.21,0.09094976132,0.01666766334
3.22,0.09071384262,0.01515733015
3.23,0.09048591792,0.01368249614
3.24,0.09026830098,0.01224032053
3.25,0.09006308304,0.01082783358
3.26,0.08987212603,0.009441950917
3.27,0.08969705662,0.0080794881
3.28,0.08953926113,0.006737175558
3.29,0.0893998814,0.005411673741
3.3,0.08927981143,0.004099588486
3.31,0.08917969509,0.002797486512
3.32,0.08909992459,0.001501911017
3.33,0.08904064,0.0002093973089
3.34,0.0890017296,-0.00108351158
3.35,0.08898283117,-0.00238024934
3.36,0.08898333422,-0.003684210951
3.37,0.08900238306,-0.004998737429
3.38,0.08903888079,-0.006327100782
3.39,0.0890914942,-0.007672489245
3.4,0.08915865942,-0.009037992838
3.41,0.08923858852,-0.01042658929
3.42,0.08932927683,-0.01184113039
3.43,0.0894285111,-0.01328432877
3.44,0.08953387838,-0.01475874525
3.45,0.08964277566,-0.01626677664
3.46,0.08975242018,-0.01781064428
3.47,0.08985986035,-0.019392383
3.48,0.08996198742,-0.02101383096
3.49,0.09005554759,-0.02267662
3.5,0.09013715471,-0.02438216689
3.51,0.09020330351,-0.02613166516
3.52,0.09025038325,-0.02792607787
3.53,0.09027469175,-0.02976613111
3.54,0.09027244982,-0.03165230832
3.55,0.09023981599,-0.03358484552
3.56,0.09017290148,-0.03556372736
3.57,0.09006778539,-0.03758868404
3.58,0.08992053007,-0.03965918916
3.59,0.08972719656,-0.04177445845
3.6,0.08948386011,-0.04393344938
3.61,0.08918662571,-0.04613486169
3.62,0.08883164357,-0.04837713882
3.63,0.08841512445,-0.05065847024
3.64,0.08793335495,-0.05297679469
3.65,0.08738271247,-0.05532980423
3.66,0.08675968003,-0.05771494922
3.67,0.08606086072,-0.06012944415
3.68,0.08528299182,-0.06257027426
3.69,0.08442295855,-0.06503420302
3.7,0.08347780734,-0.06751778033
3.71,0.08244475866,-0.07001735157
3.72,0.08132121926,-0.07252906729
3.73,0.08010479391,-0.07504889367
3.74,0.07879329647,-0.0775726236
3.75,0.07738476039,-0.08009588841
3.76,0.07587744844,-0.0826141702
3.77,0.07426986179,-0.08512281468
3.78,0.07256074837,-0.0876170446
3.79,0.07074911034,-0.09009197355
3.8,0.06883421094,-0.09254262025
3.81,0.06681558034,-0.09496392321
3.82,0.06469302081,-0.09735075568
3.83,0.06246661091,-0.09969794094
3.84,0.06013670891,-0.1020002678
3.85,0.05770395523,-0.1042525061
3.86,0.05516927409,-0.1064494228
3.87,0.05253387416,-0.1085857977
3.88,0.04979924842,-0.1106564392
3.89,0.04696717302,-0.1126562007
3.9,0.04403970532,-0.1145799956
3.91,0.04101918097,-0.1164228138
3.92,0.03790821017,-0.1181797367
3.93,0.03470967304,-0.1198459528
3.94,0.0314267141,-0.1214167723
3.95,0.02806273595,-0.1228876424
3.96,0.02462139214,-0.1242541611
3.97,0.02110657918,-0.1255120914
3.98,0.01752242785,-0.1266573745
3.99,0.01387329373,-0.127686143
4,0.01016374702,-0.1285947334
4.01,0.00639856166,-0.1293796976
4.02,0.002582703851,-0.1300378142
4.03,-0.001278680094,-0.1305660991
4.04,-0.00518027643,-0.1309618157
4.05,-0.009116617221,-0.1312224834
4.06,-0.01308209406,-0.1313458865
4.07,-0.01707097222,-0.1313300817
4.08,-0.02107740527,-0.1311734047
4.09,-0.02509544999,-0.1308744767
4.1,-0.02911908159,-0.1304322091
4.11,-0.03314220927,-0.1298458081
4.12,-0.03715869191,-0.1291147781
4.13,-0.04116235399,-0.1282389241
4.14,-0.04514700158,-0.127218354
4.15,-0.04910643841,-0.1260534784
4.16,-0.05303448202,-0.1247450116
4.17,-0.05692497973,-0.12329397
4.18,-0.06077182472,-0.1217016702
4.19,-0.0645689718,-0.1199697268
4.2,-0.06831045313,-0.1181000483
4.21,-0.07199039361,-0.116094833
4.22,-0.07560302609,-0.1139565635
4.23,-0.07914270618,-0.1116880004
4.24,-0.08260392675,-0.1092921762
4.25,-0.08598133193,-0.1067723864
4.26,-0.08926973079,-0.1041321822
4.27,-0.09246411039,-0.1013753606
4.28,-0.09555964839,-0.09850595479
4.29,-0.09855172503,-0.09552822347
4.3,-0.1014359345,-0.09244663985
4.31,-0.1042080958,-0.08926587977
4.32,-0.1068642626,-0.08599080935
4.33,-0.1094007327,-0.0826264722
4.34,-0.111814057,-0.07917807602
4.35,-0.1141010466,-0.07565097886
4.36,-0.1162587808,-0.07205067496
4.37,-0.1182846127,-0.0683827802
4.38,-0.1201761751,-0.06465301732
4.39,-0.1219313849,-0.0608672008
4.4,-0.123548447,-0.05703122161
4.41,-0.1250258573,-0.05315103173
4.42,-0.1263624047,-0.04923262861
4.43,-0.1275571725,-0.04528203953
4.44,-0.1286095385,-0.04130530596
4.45,-0.1295191746,-0.03730846793
4.46,-0.1302860455,-0.03329754854
4.47,-0.1309104065,-0.02927853852
4.48,-0.1313928003,-0.02525738102
4.49,-0.1317340533,-0.0212399566
4.5,-0.1319352704,-0.01723206853
4.51,-0.1319978304,-0.01323942832
4.52,-0.1319233788,-0.009267641728
4.53,-0.1317138213,-0.005322195054
4.54,-0.1313713157,-0.001408441961
4.55,-0.1308982636,0.002468409264
4.56,-0.1302973014,0.006303307905
4.57,-0.1295712901,0.01009137247
4.58,-0.1287233051,0.01382790171
4.59,-0.1277566253,0.01750838511
4.6,-0.1266747216,0.02112851256
4.61,-0.1254812445,0.02468418351
4.62,-0.1241800121,0.0281715153
4.63,-0.122774997,0.0315868508
4.64,-0.1212703129,0.03492676527
4.65,-0.1196702012,0.03818807249
4.66,-0.1179790171,0.04136783
4.67,-0.1162012156,0.04446334366
4.68,-0.1143413366,0.0474721713
4.69,-0.1124039914,0.05039212556
4.7,-0.1103938473,0.05322127592
4.71,-0.1083156135,0.05595794992
4.72,-0.1061740263,0.05860073343
4.73,-0.1039738347,0.06114847027
4.74,-0.1017197858,0.06360026081
4.75,-0.09941661072,0.0659554599
4.76,-0.09706901018,0.06821367394
4.77,-0.09468164086,0.07037475711
4.78,-0.09225910171,0.07243880691
4.79,-0.0898059207,0.07440615885
4.8,-0.0873265419,0.07627738052
4.81,-0.08482531298,0.07805326479
4.82,-0.08230647319,0.07973482247
4.83,-0.07977414176,0.08132327419
4.84,-0.07723230686,0.08282004178
4.85,-0.07468481517,0.08422673889
4.86,-0.07213536189,0.0855451612
4.87,-0.06958748159,0.086777276
4.88,-0.06704453947,0.08792521135
4.89,-0.06450972351,0.08899124472
4.9,-0.06198603716,0.08997779128
4.91,-0.05947629283,0.0908873918
4.92,-0.05698310615,0.0917227002
4.93,-0.05450889086,0.09248647088
4.94,-0.05205585463,0.09318154576
4.95,-0.04962599554,0.09381084115
4.96,-0.04722109941,0.09437733446
4.97,-0.04484273788,0.09488405087
4.98,-0.04249226738,0.09533404985
4.99,-0.04017082877,0.09573041179
5,-0.03787934789,0.09607622455
5.01,-0.03561853685,0.09637457023
5.02,-0.03338889607,0.09662851196
5.03,-0.03119071721,0.09684108093
5.04,-0.02902408672,0.09701526365
5.05,-0.02688889023,0.09715398943
5.06,-0.02478481763,0.09726011822
5.07,-0.02271136889,0.09733642879
5.08,-0.02066786051,0.09738560727
5.09,-0.01865343267,0.09741023616
5.1,-0.01666705703,0.0974127838
5.11,-0.01470754507,0.09739559435
5.12,-0.01277355706,0.09736087826
5.13,-0.01086361155,0.09731070336
5.14,-0.008976095357,0.09724698658
5.15,-0.007109274034,0.09717148618
5.16,-0.00526130276,0.09708579476
5.17,-0.003430237624,0.09699133288
5.18,-0.001614047259,0.09688934337
5.19,0.0001893752066,0.0967808864
5.2,0.001982199945,0.09666683525
5.21,0.003766647988,0.09654787282
5.22,0.005544978616,0.09642448896
5.23,0.007319476605,0.09629697843
5.24,0.009092439386,0.09616543982
5.25,0.01086616416,0.09602977508
5.26,0.01264293502,0.09588968989
5.27,0.0144250101,0.09574469487
5.28,0.01621460882,0.09559410742
5.29,0.0180138993,0.09543705445
5.3,0.01982498587,0.09527247581
5.31,0.02164989692,0.09509912847
5.32,0.02349057291,0.09491559141
5.33,0.02534885472,0.09472027127
5.34,0.02722647241,0.09451140865
5.35,0.02912503425,0.09428708509
5.36,0.03104601625,0.09404523071
5.37,0.03299075219,0.09378363251
5.38,0.03496042404,0.09349994314
5.39,0.03695605299,0.09319169038
5.4,0.03897849105,0.09285628711
5.41,0.04102841317,0.09249104169
5.42,0.04310631007,0.09209316897
5.43,0.04521248164,0.09165980158
5.44,0.0473470311,0.09118800169
5.45,0.04950985976,0.09067477313
5.46,0.05170066255,0.09011707376
5.47,0.05391892428,0.08951182821
5.48,0.05616391663,0.0888559407
5.49,0.0584346959,0.08814630825
5.5,0.06073010153,0.08737983383
5.51,0.06304875543,0.08655343972
5.52,0.065389062,0.08566408095
5.53,0.06774920906,0.08470875861
5.54,0.07012716949,0.08368453331
5.55,0.07252070361,0.08258853839
5.56,0.07492736246,0.08141799312
5.57,0.07734449173,0.08017021566
5.58,0.07976923653,0.07884263586
5.59,0.08219854685,0.07743280775
5.6,0.08462918379,0.07593842178
5.61,0.0870577265,0.07435731667
5.62,0.08948057978,0.07268749093
5.63,0.09189398244,0.07092711392
5.64,0.09429401617,0.06907453645
5.65,0.09667661518,0.0671283009
5.66,0.09903757632,0.06508715084
5.67,0.1013725699,0.06295004
5.68,0.1036771507,0.06071614069
5.69,0.1059467701,0.05838485165
5.7,0.1081767881,0.05595580513
5.71,0.110362486,0.05342887338
5.72,0.1124990793,0.05080417438
5.73,0.1145817313,0.04808207687
5.74,0.1166055667,0.04526320463
5.75,0.1185656855,0.04234844002
5.76,0.1204571773,0.03933892665
5.77,0.1222751355,0.03623607138
5.78,0.1240146718,0.03304154544
5.79,0.125670931,0.02975728477
5.8,0.1272391052,0.02638548952
5.81,0.1287144488,0.0229286228
5.82,0.1300922928,0.01938940854
5.83,0.1313680592,0.01577082858
5.84,0.1325372757,0.01207611892
5.85,0.1335955894,0.008308765256
5.86,0.134538781,0.004472497607
5.87,0.1353627782,0.0005712842701
5.88,0.136063669,-0.003390675036
5.89,0.1366377149,-0.007408956748
5.9,0.1370813633,-0.01147892177
5.91,0.1373912594,-0.01559572444
5.92,0.1375642582,-0.01975432225
5.93,0.1375974352,-0.02394948612
5.94,0.1374880973,-0.02817581135
5.95,0.1372337926,-0.0324277291
5.96,0.1368323196,-0.03669951851
5.97,0.1362817361,-0.04098531925
5.98,0.1355803673,-0.04527914457
5.99,0.1347268127,-0.04957489482
6,0.1337199531,-0.05386637139
