"Freq [GHz]","re(S(Tx_p1,Tx_p1)) []","im(S(Tx_p1,Tx_p1)) []"
1,-0.05227980001,-0.06615706866
1.01,-0.05467975253,-0.06327093852
1.02,-0.05693571782,-0.06028809226
1.03,-0.05904280731,-0.05721589912
1.04,-0.06099656235,-0.05406200905
1.05,-0.06279296887,-0.05083432507
1.06,-0.06442847041,-0.04754097505
1.07,-0.06589997932,-0.04419028295
1.08,-0.06720488629,-0.04079073963
1.09,-0.06834106805,-0.03735097336
1.1,-0.06930689338,-0.03387972008
1.11,-0.07010122731,-0.03038579355
1.12,-0.07072343349,-0.02687805543
1.13,-0.07117337494,-0.02336538546
1.14,-0.07145141289,-0.01985665178
1.15,-0.07155840405,-0.01636068153
1.16,-0.07149569603,-0.01288623178
1.17,-0.07126512121,-0.009441960948
1.18,-0.07086898885,-0.006036400693
1.19,-0.07031007576,-0.002677928515
1.2,-0.06959161524,0.0006252589843
1.21,-0.06871728464,0.003865172007
1.22,-0.06769119142,0.007034052597
1.23,-0.06651785785,0.0101243987
1.24,-0.06520220433,0.01312898722
1.25,-0.06374953152,0.01604089591
1.26,-0.06216550125,0.01885352415
1.27,-0.06045611627,0.02156061246
1.28,-0.05862769907,0.0241562607
1.29,-0.05668686963,0.02663494498
1.3,-0.0546405224,0.02899153312
1.31,-0.05249580243,0.03122129871
1.32,-0.0502600808,0.03331993366
1.33,-0.04794092952,0.03528355928
1.34,-0.04554609583,0.03710873581
1.35,-0.04308347609,0.03879247037
1.36,-0.04056108942,0.04033222339
1.37,-0.03798705099,0.04172591341
1.38,-0.03536954524,0.04297192034
1.39,-0.03271679908,0.04406908703
1.4,-0.03003705503,0.04501671944
1.41,-0.02733854462,0.04581458502
1.42,-0.02462946194,0.04646290973
1.43,-0.02191793752,0.04696237344
1.44,-0.01921201271,0.04731410377
1.45,-0.01651961437,0.04751966862
1.46,-0.01384853038,0.04758106707
1.47,-0.01120638557,0.04750071909
1.48,-0.008600618571,0.04728145372
1.49,-0.006038459405,0.04692649608
1.5,-0.00352690795,0.04643945308
1.51,-0.001072713397,0.04582429802
1.52,0.001317645299,0.04508535394
1.53,0.003637977871,0.04422727608
1.54,0.005882400074,0.04325503326
1.55,0.008045349815,0.04217388836
1.56,0.01012160206,0.04098937799
1.57,0.01210628246,0.03970729143
1.58,0.01399487966,0.03833364882
1.59,0.01578325627,0.03687467881
1.6,0.01746765845,0.03533679573
1.61,0.01904472411,0.03372657623
1.62,0.02051148969,0.03205073569
1.63,0.02186539552,0.03031610434
1.64,0.02310428973,0.02852960313
1.65,0.02422643074,0.02669821966
1.66,0.02523048835,0.024828984
1.67,0.02611554331,0.02292894464
1.68,0.02688108562,0.02100514462
1.69,0.02752701131,0.01906459788
1.7,0.02805361793,0.01711426598
1.71,0.02846159869,0.0151610352
1.72,0.02875203526,0.0132116942
1.73,0.02892638934,0.01127291211
1.74,0.02898649296,0.009351217409
1.75,0.02893453768,0.007452977438
1.76,0.02877306253,0.005584378663
1.77,0.02850494098,0.003751407821
1.78,0.02813336682,0.001959833939
1.79,0.02766183914,0.0002151913075
1.8,0.0270941463,-0.001477236553
1.81,0.02643434919,-0.003112431864
1.82,0.02568676365,-0.004685656478
1.83,0.02485594217,-0.006192464632
1.84,0.02394665502,-0.007628714541
1.85,0.0229638708,-0.008990578784
1.86,0.02191273649,-0.01027455349
1.87,0.02079855716,-0.01147746625
1.88,0.01962677527,-0.01259648282
1.89,0.01840294977,-0.01362911249
1.9,0.01713273504,-0.01457321226
1.91,0.01582185971,-0.01542698964
1.92,0.01447610544,-0.01618900427
1.93,0.01310128583,-0.01685816821
1.94,0.0117032254,-0.01743374502
1.95,0.01028773879,-0.01791534752
1.96,0.008860610265,-0.01830293447
1.97,0.007427573557,-0.01859680592
1.98,0.005994292121,-0.01879759747
1.99,0.004566339891,-0.01890627337
2,0.003149182583,-0.01892411857
2.01,0.001748159611,-0.01885272966
2.02,0.0003684666796,-0.01869400482
2.03,-0.000984860897,-0.01845013285
2.04,-0.002306964096,-0.01812358123
2.05,-0.003593175255,-0.01771708335
2.06,-0.004839032261,-0.01723362494
2.07,-0.00604029183,-0.01667642974
2.08,-0.007192941821,-0.01604894454
2.09,-0.008293212566,-0.01535482349
2.1,-0.009337587174,-0.01459791199
2.11,-0.01032281079,-0.01378222998
2.12,-0.0112458988,-0.01291195486
2.13,-0.01210414389,-0.01199140404
2.14,-0.01289512212,-0.01102501718
2.15,-0.01361669775,-0.01001733829
2.16,-0.01426702706,-0.008972997515
2.17,-0.01484456098,-0.007896693043
2.18,-0.01534804667,-0.006793172826
2.19,-0.01577652793,-0.005667216445
2.2,-0.0161293446,-0.004523617062
2.21,-0.01640613076,-0.003367163559
2.22,-0.01660681198,-0.002202622927
2.23,-0.01673160151,-0.001034722963
2.24,-0.0167809954,0.0001318646691
2.25,-0.0167557667,0.001292540938
2.26,-0.01665695869,0.002442795472
2.27,-0.01648587721,0.003578222042
2.28,-0.01624408211,0.004694533456
2.29,-0.01593337784,0.005787575817
2.3,-0.01555580336,0.006853342104
2.31,-0.01511362116,0.007887985016
2.32,-0.01460930572,0.008887829062
2.33,-0.01404553127,0.009849381851
2.34,-0.01342515902,0.01076934454
2.35,-0.01275122378,0.01164462144
2.36,-0.01202692019,0.01247232871
2.37,-0.0112555885,0.01324980217
2.38,-0.01044070001,0.01397460415
2.39,-0.009585842173,0.01464452946
2.4,-0.00869470355,0.01525761035
2.41,-0.007771058485,0.01581212053
2.42,-0.006818751739,0.01630657824
2.43,-0.00584168303,0.01673974835
2.44,-0.004843791593,0.01711064353
2.45,-0.003829040787,0.01741852441
2.46,-0.002801402831,0.01766289886
2.47,-0.001764843706,0.01784352032
2.48,-0.0007233082892,0.01796038525
2.49,0.0003192942284,0.01801372966
2.5,0.001359104594,0.01800402481
2.51,0.002392327358,0.01793197205
2.52,0.003415244309,0.01779849692
2.53,0.004424227429,0.01760474238
2.54,0.005415751335,0.01735206141
2.55,0.00638640515,0.01704200883
2.56,0.007332903785,0.01667633255
2.57,0.008252098576,0.0162569641
2.58,0.009140987267,0.0157860087
2.59,0.009996723284,0.01526573472
2.6,0.01081662429,0.01469856272
2.61,0.01159818001,0.01408705401
2.62,0.01233905926,0.01343389888
2.63,0.0130371162,0.01274190448
2.64,0.01369039584,0.01201398239
2.65,0.01429713864,0.01125313601
2.66,0.0148557844,0.01046244776
2.67,0.01536497523,0.009645066137
2.68,0.01582355781,0.008804192718
2.69,0.01623058473,0.007943069124
2.7,0.01658531508,0.007064964027
2.71,0.01688721419,0.006173160231
2.72,0.01713595266,0.005270941877
2.73,0.01733140448,0.004361581822
2.74,0.01747364452,0.003448329241
2.75,0.0175629452,0.002534397496
2.76,0.01759977248,0.001622952314
2.77,0.0175847811,0.0007171003142
2.78,0.01751880924,-0.0001801220718
2.79,0.01740287246,-0.001065759249
2.8,0.01723815712,-0.001936946645
2.81,0.01702601311,-0.002790920399
2.82,0.01676794617,-0.003625026519
2.83,0.01646560963,-0.004436729479
2.84,0.01612079574,-0.005223620236
2.85,0.01573542653,-0.00598342364
2.86,0.01531154433,-0.006714005204
2.87,0.01485130193,-0.007413377245
2.88,0.01435695249,-0.008079704343
2.89,0.01383083911,-0.00871130814
2.9,0.0132753843,-0.009306671445
2.91,0.01269307921,-0.00986444165
2.92,0.01208647278,-0.01038343345
2.93,0.0114581608,-0.01086263086
2.94,0.01081077495,-0.01130118853
2.95,0.01014697182,-0.0116984324
2.96,0.009469422055,-0.01205385963
2.97,0.008780799546,-0.01236713783
2.98,0.008083770749,-0.01263810374
2.99,0.007380984228,-0.01286676109
3,0.00667506039,-0.01305327798
3.01,0.005968581482,-0.01319798353
3.02,0.00526408188,-0.01330136402
3.03,0.004564038706,-0.01336405839
3.04,0.003870862806,-0.01338685324
3.05,0.003186890116,-0.01337067728
3.06,0.002514373454,-0.0133165953
3.07,0.001855474753,-0.01322580169
3.08,0.001212257771,-0.01309961351
3.09,0.0005866812956,-0.01293946316
3.1,-1.940713418E-05,-0.01274689072
3.11,-0.0006042769748,-0.01252353594
3.12,-0.001166319871,-0.01227112991
3.13,-0.001704054283,-0.01199148654
3.14,-0.002216129545,-0.01168649376
3.15,-0.002701329328,-0.01135810458
3.16,-0.00315857452,-0.01100832798
3.17,-0.003586925507,-0.01063921973
3.18,-0.003985583858,-0.01025287309
3.19,-0.004353893411,-0.009851409551
3.2,-0.00469134077,-0.009436969514
3.21,-0.004997555207,-0.009011703077
3.22,-0.005272307989,-0.00857776086
3.23,-0.005515511132,-0.008137284968
3.24,-0.005727215594,-0.007692400104
3.25,-0.005907608924,-0.007245204868
3.26,-0.006057012383,-0.006797763273
3.27,-0.006175877551,-0.006352096513
3.28,-0.006264782443,-0.005910175014
3.29,-0.006324427155,-0.005473910789
3.3,-0.006355629062,-0.005045150133
3.31,-0.00635931759,-0.004625666678
3.32,-0.006336528599,-0.004217154834
3.33,-0.006288398385,-0.003821223635
3.34,-0.006216157347,-0.003439391016
3.35,-0.006121123341,-0.003073078533
3.36,-0.006004694751,-0.002723606542
3.37,-0.005868343303,-0.002392189857
3.38,-0.005713606674,-0.0020799339
3.39,-0.005542080895,-0.001787831335
3.4,-0.005355412614,-0.001516759224
3.41,-0.005155291228,-0.001267476686
3.42,-0.004943440933,-0.001040623071
3.43,-0.004721612709,-0.0008367166565
3.44,-0.004491576291,-0.0006561538583
3.45,-0.004255112142,-0.0004992089549
3.46,-0.004014003471,-0.0003660343254
3.47,-0.003770028323,-0.0002566611895
3.48,-0.003524951774,-0.0001710008447
3.49,-0.003280518256,-0.0001088463891
3.5,-0.003038444054,-6.987491769E-05
3.51,-0.002800409988,-5.365018026E-05
3.52,-0.002568054317,-5.96256834E-05
3.53,-0.00234296589,-8.714822133E-05
3.54,-0.002126677568,-0.0001354618164
3.55,-0.001920659939,-0.0002037120494
3.56,-0.001726315353,-0.0002909507592
3.57,-0.001544972293,-0.0003961410884
3.58,-0.001377880103,-0.0005181628517
3.59,-0.001226204097,-0.0006558182034
3.6,-0.001091021047,-0.0008078375765
3.61,-0.0009733150906,-0.0009728858696
3.62,-0.0008739740484,-0.001149568852
3.63,-0.0007937861723,-0.001336439763
3.64,-0.0007334373333,-0.00153200607
3.65,-0.0006935086543,-0.001734736368
3.66,-0.0006744745934,-0.001943067381
3.67,-0.0006767014835,-0.002155411044
3.68,-0.0007004465269,-0.002370161631
3.69,-0.0007458572477,-0.002585702904
3.7,-0.0008129713986,-0.002800415256
3.71,-0.0009017173196,-0.003012682812
3.72,-0.001011914743,-0.003220900469
3.73,-0.001143276035,-0.00342348084
3.74,-0.001295407875,-0.003618861084
3.75,-0.001467813346,-0.003805509586
3.76,-0.001659894443,-0.003981932467
3.77,-0.001870954968,-0.004146679901
3.78,-0.002100203816,-0.004298352213
3.79,-0.002346758618,-0.004435605736
3.8,-0.002609649732,-0.004557158406
3.81,-0.002887824571,-0.004661795077
3.82,-0.003180152232,-0.004748372527
3.83,-0.003485428421,-0.004815824162
3.84,-0.003802380638,-0.00486316437
3.85,-0.004129673614,-0.004889492534
3.86,-0.004465914969,-0.004893996683
3.87,-0.004809661064,-0.004875956768
3.88,-0.005159423032,-0.004834747555
3.89,-0.005513672955,-0.00476984113
3.9,-0.005870850168,-0.004680808995
3.91,-0.006229367656,-0.004567323773
3.92,-0.006587618528,-0.004429160497
3.93,-0.006943982541,-0.004266197491
3.94,-0.007296832638,-0.00407841684
3.95,-0.007644541486,-0.003865904455
3.96,-0.00798548799,-0.003628849725
3.97,-0.008318063738,-0.003367544772
3.98,-0.008640679389,-0.003082383307
3.99,-0.008951770936,-0.002773859098
4,-0.009249805856,-0.002442564054
4.01,-0.009533289113,-0.002089185946
4.02,-0.009800768979,-0.001714505755
4.03,-0.01005084267,-0.001319394689
4.04,-0.01028216177,-0.000904810856
4.05,-0.01049343743,-0.0004717956233
4.06,-0.01068344529,-2.14696746E-05
4.07,-0.01085103018,0.0004449712179
4.08,-0.01099511048,0.0009262606877
4.09,-0.01111468224,0.001421066516
4.1,-0.01120882297,0.001927995603
4.11,-0.01127669507,0.002445599142
4.12,-0.01131754897,0.002972377987
4.13,-0.01133072591,0.003506788181
4.14,-0.0113156604,0.004047246625
4.15,-0.01127188223,0.004592136872
4.16,-0.01119901825,0.005139815019
4.17,-0.01109679364,0.005688615669
4.18,-0.01096503296,0.006236857949
4.19,-0.01080366067,0.006782851556
4.2,-0.01061270141,0.007324902809
4.21,-0.01039227985,0.007861320687
4.22,-0.01014262019,0.008390422824
4.23,-0.009864045269,0.008910541443
4.24,-0.009556975377,0.009420029216
4.25,-0.009221926662,0.009917265005
4.26,-0.008859509233,0.01040065949
4.27,-0.008470424916,0.01086866066
4.28,-0.0080554647,0.01131975912
4.29,-0.007615505867,0.0117524932
4.3,-0.007151508837,0.01216545395
4.31,-0.006664513724,0.01255728981
4.32,-0.006155636635,0.01292671111
4.33,-0.005626065708,0.01327249431
4.34,-0.00507705693,0.01359348598
4.35,-0.00450992973,0.01388860651
4.36,-0.003926062376,0.01415685351
4.37,-0.003326887192,0.01439730497
4.38,-0.002713885621,0.01460912205
4.39,-0.002088583136,0.0147915516
4.4,-0.00145254404,0.01494392837
4.41,-0.000807366158,0.01506567685
4.42,-0.0001546754544,0.01515631282
4.43,0.0005038794162,0.01521544459
4.44,0.001166632593,0.01524277381
4.45,0.001831906515,0.0152380961
4.46,0.002498017426,0.01520130119
4.47,0.003163280856,0.01513237287
4.48,0.003826017067,0.01503138848
4.49,0.004484556432,0.01489851823
4.5,0.005137244744,0.01473402404
4.51,0.005782448416,0.01453825823
4.52,0.006418559572,0.01431166179
4.53,0.007044001009,0.01405476242
4.54,0.007657230995,0.01376817228
4.55,0.008256747919,0.01345258546
4.56,0.008841094744,0.01310877517
4.57,0.009408863275,0.01273759076
4.58,0.009958698215,0.01233995444
4.59,0.010489301,0.01191685778
4.6,0.01099943339,0.01146935805
4.61,0.01148792086,0.01099857438
4.62,0.01195365566,0.01050568365
4.63,0.01239559968,0.009991916403
4.64,0.01281278705,0.009458552414
4.65,0.01320432639,0.008906916314
4.66,0.01356940288,0.008338373012
4.67,0.01390727996,0.00775432307
4.68,0.01421730079,0.007156198002
4.69,0.01449888943,0.006545455526
4.7,0.01475155168,0.00592357479
4.71,0.01497487567,0.005292051577
4.72,0.01516853219,0.004652393522
4.73,0.01533227462,0.004006115351
4.74,0.01546593876,0.003354734154
4.75,0.01556944221,0.002699764721
4.76,0.01564278356,0.002042714945
4.77,0.01568604134,0.001385081323
4.78,0.01569937266,0.0007283445435
4.79,0.01568301163,7.396521448E-05
4.8,0.01563726752,-0.0005766202947
4.81,0.01556252272,-0.001222003855
4.82,0.0154592305,-0.001860809423
4.83,0.01532791246,-0.002491696717
4.84,0.01516915594,-0.003113364713
4.85,0.01498361112,-0.003724554943
4.86,0.01477198804,-0.004324054598
4.87,0.01453505339,-0.004910699419
4.88,0.01427362723,-0.005483376374
4.89,0.01398857955,-0.006041026108
4.9,0.01368082674,-0.006582645166
4.91,0.01335132792,-0.007107287981
4.92,0.01300108125,-0.00761406863
4.93,0.01263112015,-0.008102162346
4.94,0.01224250947,-0.008570806786
4.95,0.01183634161,-0.009019303069
4.96,0.01141373266,-0.009447016559
4.97,0.01097581852,-0.009853377417
4.98,0.01052375102,-0.01023788091
4.99,0.01005869408,-0.01060008751
5,0.009581819907,-0.01093962268
5.01,0.009094305259,-0.01125617659
5.02,0.008597327748,-0.01154950343
5.03,0.008092062255,-0.01181942065
5.04,0.00757967742,-0.01206580793
5.05,0.00706133225,-0.01228860597
5.06,0.006538172834,-0.01248781509
5.07,0.006011329186,-0.01266349362
5.08,0.005481912234,-0.01281575621
5.09,0.004951010944,-0.01294477185
5.1,0.004419689604,-0.01305076186
5.11,0.003888985271,-0.01313399769
5.12,0.003359905386,-0.01319479859
5.13,0.002833425561,-0.01323352918
5.14,0.002310487549,-0.01325059692
5.15,0.001791997396,-0.01324644952
5.16,0.001278823783,-0.01322157221
5.17,0.0007717965547,-0.013176485
5.18,0.0002717054414,-0.01311173989
5.19,-0.000220701026,-0.01302791801
5.2,-0.0007047164104,-0.01292562678
5.21,-0.00117967707,-0.01280549703
5.22,-0.001644962673,-0.01266818013
5.23,-0.002099996519,-0.01251434514
5.24,-0.002544245686,-0.01234467597
5.25,-0.002977220986,-0.01215986861
5.26,-0.003398476758,-0.01196062837
5.27,-0.003807610482,-0.0117476672
5.28,-0.004204262234,-0.01152170111
5.29,-0.004588113981,-0.01128344759
5.3,-0.004958888736,-0.01103362323
5.31,-0.005316349558,-0.01077294133
5.32,-0.005660298429,-0.01050210967
5.33,-0.005990575007,-0.01022182844
5.34,-0.006307055256,-0.009932788153
5.35,-0.006609649982,-0.009635667865
5.36,-0.006898303266,-0.009331133369
5.37,-0.007172990815,-0.009019835619
5.38,-0.00743371824,-0.008702409262
5.39,-0.007680519265,-0.008379471316
5.4,-0.007913453894,-0.008051620005
5.41,-0.00813260652,-0.00771943373
5.42,-0.008338084018,-0.007383470194
5.43,-0.008530013806,-0.007044265679
5.44,-0.008708541905,-0.006702334467
5.45,-0.008873830993,-0.006358168413
5.46,-0.00902605847,-0.006012236657
5.47,-0.009165414551,-0.005664985487
5.48,-0.009292100382,-0.005316838331
5.49,-0.009406326199,-0.004968195896
5.5,-0.00950830954,-0.004619436429
5.51,-0.009598273507,-0.004270916104
5.52,-0.009676445106,-0.003922969534
5.53,-0.009743053648,-0.003575910388
5.54,-0.009798329243,-0.003230032125
5.55,-0.009842501377,-0.002885608816
5.56,-0.009875797581,-0.002542896062
5.57,-0.009898442207,-0.002202131999
5.58,-0.009910655301,-0.001863538373
5.59,-0.009912651594,-0.001527321682
5.6,-0.009904639594,-0.001193674375
5.61,-0.00988682081,-0.0008627761031
5.62,-0.009859389078,-0.0005347950045
5.63,-0.009822530016,-0.0002098890214
5.64,-0.009776420602,0.0001117927626
5.65,-0.009721228863,0.000430108775
5.66,-0.009657113697,0.000744923605
5.67,-0.009584224803,0.001056106662
5.68,-0.009502702741,0.001363530851
5.69,-0.009412679096,0.001667071274
5.7,-0.009314276761,0.001966603965
5.71,-0.009207610334,0.002262004669
5.72,-0.009092786605,0.002553147671
5.73,-0.008969905159,0.002839904685
5.74,-0.008839059063,0.003122143811
5.75,-0.00870033565,0.003399728555
5.76,-0.008553817377,0.003672516946
5.77,-0.008399582768,0.003940360723
5.78,-0.008237707421,0.004203104618
5.79,-0.008068265077,0.004460585742
5.8,-0.007891328741,0.00471263306
5.81,-0.007706971855,0.004959066978
5.82,-0.007515269502,0.005199699037
5.83,-0.00731629964,0.00543433171
5.84,-0.007110144359,0.005662758323
5.85,-0.006896891145,0.005884763076
5.86,-0.006676634151,0.00610012119
5.87,-0.006449475456,0.006308599158
5.88,-0.006215526316,0.006509955117
5.89,-0.005974908382,0.006703939325
5.9,-0.005727754896,0.006890294755
5.91,-0.005474211833,0.007068757792
5.92,-0.005214439004,0.007239059036
5.93,-0.004948611096,0.007400924204
5.94,-0.004676918651,0.007554075134
5.95,-0.004399568963,0.00769823087
5.96,-0.004116786904,0.007833108846
5.97,-0.003828815661,0.007958426139
5.98,-0.003535917378,0.008073900802
5.99,-0.003238373697,0.008179253262
6,-0.002936486204,0.008274207777
