"Freq [GHz]","re(S(Tx_p1,Tx_p1)) []","im(S(Tx_p1,Tx_p1)) []"
1,-0.02123556565,-0.01141304791
1.01,-0.02137548958,-0.01005577258
1.02,-0.02143873621,-0.008706134305
1.03,-0.02142608482,-0.007368516106
1.04,-0.02133858668,-0.006047244094
1.05,-0.02117755998,-0.004746569673
1.06,-0.02094458366,-0.003470652238
1.07,-0.02064149011,-0.002223542423
1.08,-0.02027035685,-0.00100916597
1.09,-0.01983349723,0.0001686917231
1.1,-0.01933345015,0.001306400325
1.11,-0.01877296893,0.002400498493
1.12,-0.01815500933,0.003447706969
1.13,-0.01748271679,0.004444940775
1.14,-0.01675941302,0.005389320492
1.15,-0.01598858187,0.006278182573
1.16,-0.0151738547,0.007109088651
1.17,-0.01431899523,0.007879833833
1.18,-0.01342788393,0.008588453932
1.19,-0.01250450208,0.009233231639
1.2,-0.01155291555,0.009812701608
1.21,-0.01057725834,0.01032565445
1.22,-0.009581715988,0.01077113963
1.23,-0.00857050894,0.01114846728
1.24,-0.007547875874,0.01145720886
1.25,-0.006518057132,0.01169719686
1.26,-0.005485278288,0.01186852328
1.27,-0.004453733932,0.01197153719
1.28,-0.003427571723,0.01200684119
1.29,-0.002410876804,0.01197528687
1.3,-0.001407656606,0.01187796935
1.31,-0.0004218261309,0.01171622083
1.32,0.0005428062494,0.0114916033
1.33,0.001482552412,0.01120590032
1.34,0.002393857477,0.01086110804
1.35,0.003273312124,0.01045942549
1.36,0.004117664192,0.01000324407
1.37,0.004923829516,0.009495136444
1.38,0.005688901972,0.008937844848
1.39,0.00641016269,0.008334268778
1.4,0.007085088416,0.007687452258
1.41,0.007711358989,0.007000570648
1.42,0.008286863917,0.006276917099
1.43,0.008809708048,0.005519888697
1.44,0.009278216297,0.004732972364
1.45,0.009690937451,0.003919730589
1.46,0.01004664703,0.003083787029
1.47,0.01034434923,0.002228812066
1.48,0.01058327788,0.001358508366
1.49,0.01076289656,0.0004765965007
1.5,0.01088289775,-0.0004131992943
1.51,0.01094320108,-0.001307165188
1.52,0.01094395079,-0.002201611576
1.53,0.01088551222,-0.003092886609
1.54,0.01076846759,-0.00397738938
1.55,0.01059361094,-0.004851582708
1.56,0.01036194231,-0.005712005483
1.57,0.01007466122,-0.006555284522
1.58,0.009733159492,-0.007378145899
1.59,0.00933901337,-0.008177425704
1.6,0.008893975106,-0.008950080197
1.61,0.008399963973,-0.009693195334
1.62,0.007859056779,-0.01040399562
1.63,0.007273477928,-0.01107985229
1.64,0.006645589082,-0.01171829076
1.65,0.005977878465,-0.01231699734
1.66,0.00527294987,-0.01287382525
1.67,0.004533511417,-0.01338679985
1.68,0.00376236411,-0.01385412309
1.69,0.002962390254,-0.01427417724
1.7,0.002136541772,-0.01464552779
1.71,0.00128782848,-0.0149669257
1.72,0.0004193063747,-0.01523730874
1.73,-0.000465934031,-0.01545580222
1.74,-0.001364779265,-0.01562171893
1.75,-0.002274104304,-0.01573455834
1.76,-0.003190783786,-0.01579400516
1.77,-0.004111702987,-0.01579992715
1.78,-0.005033768517,-0.01575237238
1.79,-0.005953918707,-0.01565156577
1.8,-0.006869133626,-0.01549790506
1.81,-0.007776444734,-0.01529195626
1.82,-0.008672944096,-0.01503444853
1.83,-0.009555793161,-0.01472626855
1.84,-0.01042223107,-0.01436845448
1.85,-0.01126958244,-0.01396218945
1.86,-0.0120952647,-0.01350879468
1.87,-0.0128967948,-0.0130097223
1.88,-0.01367179545,-0.01246654778
1.89,-0.01441800075,-0.01188096218
1.9,-0.01513326132,-0.01125476412
1.91,-0.01581554874,-0.01058985162
1.92,-0.01646295955,-0.009888213763
1.93,-0.01707371857,-0.009151922243
1.94,-0.01764618172,-0.008383122905
1.95,-0.0181788382,-0.007584027218
1.96,-0.01867031222,-0.006756903785
1.97,-0.01911936406,-0.005904069894
1.98,-0.01952489066,-0.005027883166
1.99,-0.01988592573,-0.004130733316
2,-0.02020163929,-0.003215034073
2.01,-0.02047133673,-0.002283215276
2.02,-0.02069445751,-0.001337715196
2.03,-0.02087057326,-0.0003809730804
2.04,-0.02099938564,0.0005845780289
2.05,-0.0210807237,0.001556518196
2.06,-0.0211145409,0.002532447185
2.07,-0.02110091188,0.003509990733
2.08,-0.02104002878,0.004486806485
2.09,-0.02093219747,0.005460589571
2.1,-0.02077783336,0.006429077835
2.11,-0.02057745716,0.007390056679
2.12,-0.02033169033,0.008341363541
2.13,-0.02004125043,0.00928089199
2.14,-0.01970694641,0.01020659544
2.15,-0.01932967369,0.0111164905
2.16,-0.01891040925,0.0120086599
2.17,-0.01845020669,0.01288125511
2.18,-0.01795019128,0.01373249857
2.19,-0.01741155495,0.01456068552
2.2,-0.01683555146,0.01536418559
2.21,-0.01622349152,0.01614144392
2.22,-0.01557673805,0.01689098212
2.23,-0.01489670155,0.01761139879
2.24,-0.01418483558,0.01830136985
2.25,-0.01344263238,0.01895964858
2.26,-0.01267161871,0.01958506537
2.27,-0.01187335174,0.0201765273
2.28,-0.0110494153,0.02073301752
2.29,-0.01020141611,0.02125359437
2.3,-0.009330980438,0.02173739046
2.31,-0.008439750785,0.02218361146
2.32,-0.00752938288,0.02259153492
2.33,-0.006601542855,0.02296050889
2.34,-0.005657904645,0.02328995049
2.35,-0.00470014759,0.02357934448
2.36,-0.003729954252,0.02382824171
2.37,-0.002749008433,0.02403625761
2.38,-0.001758993389,0.0242030707
2.39,-0.0007615902285,0.02432842106
2.4,0.000241523507,0.02441210892
2.41,0.001248675102,0.02445399321
2.42,0.00225819777,0.0244539903
2.43,0.003268431616,0.02441207274
2.44,0.004277724482,0.02432826807
2.45,0.005284432674,0.02420265787
2.46,0.0062869216,0.02403537675
2.47,0.007283566343,0.02382661162
2.48,0.008272752156,0.02357660097
2.49,0.009252874939,0.02328563433
2.5,0.01022234168,0.02295405189
2.51,0.01117957089,0.02258224418
2.52,0.01212299307,0.02217065193
2.53,0.01305105118,0.02171976605
2.54,0.01396220121,0.02123012774
2.55,0.01485491273,0.02070232867
2.56,0.0157276696,0.02013701131
2.57,0.01657897076,0.01953486937
2.58,0.01740733108,0.01889664824
2.59,0.01821128241,0.01822314562
2.6,0.01898937468,0.01751521213
2.61,0.01974017724,0.01677375195
2.62,0.02046228028,0.01599972357
2.63,0.02115429643,0.01519414048
2.64,0.02181486254,0.01435807187
2.65,0.02244264164,0.0134926433
2.66,0.02303632505,0.01259903735
2.67,0.02359463467,0.01167849418
2.68,0.02411632549,0.01073231202
2.69,0.02460018819,0.00976184754
2.7,0.02504505198,0.008768516101
2.71,0.02544978759,0.007753791892
2.72,0.02581331038,0.006719207863
2.73,0.0261345836,0.005666355503
2.74,0.02641262187,0.004596884413
2.75,0.02664649461,0.003512501656
2.76,0.02683532977,0.002414970891
2.77,0.02697831748,0.00130611124
2.78,0.0270747139,0.0001877959132
2.79,0.02712384502,-0.0009380494572
2.8,0.02712511058,-0.002069448755
2.81,0.02707798792,-0.003204377621
2.82,0.02698203588,-0.004340765994
2.83,0.02683689866,-0.005476500958
2.84,0.02664230952,-0.00660942991
2.85,0.02639809457,-0.007737364038
2.86,0.02610417627,-0.008858082119
2.87,0.02576057695,-0.009969334627
2.88,0.02536742201,-0.01106884816
2.89,0.02492494307,-0.01215433017
2.9,0.02443348083,-0.013223474
2.91,0.02389348768,-0.01427396416
2.92,0.02330553011,-0.01530348199
2.93,0.02267029077,-0.01630971145
2.94,0.02198857019,-0.01729034527
2.95,0.02126128828,-0.01824309126
2.96,0.02048948534,-0.01916567886
2.97,0.01967432273,-0.02005586586
2.98,0.01881708323,-0.02091144531
2.99,0.01791917081,-0.02173025254
3,0.01698211013,-0.0225101723
3.01,0.0160075455,-0.02324914601
3.02,0.01499723938,-0.02394517902
3.03,0.01395307048,-0.02459634793
3.04,0.01287703131,-0.02520080788
3.05,0.01177122528,-0.02575679981
3.06,0.01063786326,-0.02626265765
3.07,0.009479259774,-0.02671681539
3.08,0.008297828535,-0.02711781398
3.09,0.007096077648,-0.02746430816
3.1,0.005876604238,-0.02775507292
3.11,0.004642088654,-0.02798900984
3.12,0.003395288193,-0.0281651531
3.13,0.00213903039,-0.02828267516
3.14,0.0008762058713,-0.02834089213
3.15,-0.0003902391963,-0.02833926874
3.16,-0.00165731105,-0.02827742288
3.17,-0.00292197664,-0.02815512972
3.18,-0.004181172281,-0.02797232538
3.19,-0.005431812611,-0.02772911006
3.2,-0.006670799842,-0.02742575066
3.21,-0.00789503325,-0.02706268286
3.22,-0.009101418893,-0.02664051265
3.23,-0.0102868795,-0.02616001723
3.24,-0.01144836451,-0.02562214537
3.25,-0.01258286024,-0.02502801706
3.26,-0.01368740004,-0.0243789226
3.27,-0.0147590746,-0.02367632106
3.28,-0.01579504212,-0.02292183804
3.29,-0.01679253848,-0.02211726278
3.3,-0.01774888732,-0.02126454472
3.31,-0.01866150994,-0.02036578923
3.32,-0.01952793502,-0.0194232529
3.33,-0.02034580814,-0.01843933803
3.34,-0.02111290095,-0.01741658657
3.35,-0.02182712015,-0.01635767346
3.36,-0.02248651597,-0.01526539932
3.37,-0.02308929032,-0.0141426826
3.38,-0.02363380453,-0.01299255122
3.39,-0.02411858655,-0.01181813355
3.4,-0.02454233766,-0.01062264906
3.41,-0.02490393865,-0.00940939836
3.42,-0.02520245537,-0.008181752894
3.43,-0.0254371437,-0.006943144189
3.44,-0.02560745389,-0.005697052754
3.45,-0.02571303417,-0.004446996666
3.46,-0.02575373373,-0.00319651986
3.47,-0.02572960495,-0.001949180195
3.48,-0.02564090489,-0.0007085373204
3.49,-0.02548809604,0.0005218595978
3.5,-0.02527184632,0.001738484248
3.51,-0.02499302828,0.002937845592
3.52,-0.02465271757,0.004116500284
3.53,-0.02425219052,0.005271065037
3.54,-0.02379292111,0.006398228881
3.55,-0.02327657698,0.007494765275
3.56,-0.02270501481,0.00855754401
3.57,-0.02208027485,0.009583542858
3.58,-0.02140457478,0.01056985892
3.59,-0.02068030275,0.0115137196
3.6,-0.01991000982,0.01241249323
3.61,-0.0190964016,0.01326369917
3.62,-0.01824232933,0.01406501747
3.63,-0.01735078029,0.01481429799
3.64,-0.01642486762,0.01550956889
3.65,-0.01546781956,0.01614904458
3.66,-0.01448296821,0.01673113296
3.67,-0.01347373779,0.01725444195
3.68,-0.01244363247,0.01771778534
3.69,-0.01139622381,0.01812018791
3.7,-0.01033513785,0.01846088963
3.71,-0.009264041885,0.01873934926
3.72,-0.008186631098,0.01895524694
3.73,-0.007106614868,0.01910848604
3.74,-0.006027703044,0.01919919415
3.75,-0.004953592092,0.01922772313
3.76,-0.003887951244,0.01919464841
3.77,-0.002834408654,0.01910076727
3.78,-0.001796537668,0.01894709637
3.79,-0.0007778432211,0.01873486836
3.8,0.0002182515567,0.01846552757
3.81,0.001188418476,0.01814072499
3.82,0.002129437116,0.01776231226
3.83,0.003038207281,0.01733233497
3.84,0.003911761041,0.01685302508
3.85,0.004747274303,0.01632679262
3.86,0.005542077857,0.01575621665
3.87,0.006293667858,0.01514403549
3.88,0.006999715692,0.01449313633
3.89,0.007658077186,0.01380654414
3.9,0.008266801117,0.01308741006
3.91,0.00882413699,0.01233899924
3.92,0.009328542038,0.01156467812
3.93,0.009778687422,0.01076790136
3.94,0.0101734636,0.009952198298
3.95,0.01051198483,0.009121159118
3.96,0.0107935928,0.008278420697
3.97,0.01101785936,0.007427652248
3.98,0.01118458833,0.006572540785
3.99,0.0112938164,0.005716776471
4,0.01134581308,0.00486403792
4.01,0.01134107971,0.004017977503
4.02,0.01128034757,0.003182206726
4.03,0.01116457504,0.002360281731
4.04,0.01099494382,0.001555688988
4.05,0.01077285424,0.0007718312352
4.06,0.01049991974,1.201372017E-05
4.07,0.01017796039,-0.0007205691896
4.08,0.00980899561,-0.001422846982
4.09,0.009395236071,-0.002091885498
4.1,0.008939074772,-0.002724898908
4.11,0.008443077393,-0.003319261106
4.12,0.007909971908,-0.003872516481
4.13,0.007342637532,-0.004382390015
4.14,0.006744093024,-0.004846796674
4.15,0.006117484407,-0.005263850032
4.16,0.005466072144,-0.005631870113
4.17,0.004793217833,-0.005949390401
4.18,0.004102370461,-0.006215163999
4.19,0.00339705228,-0.006428168898
4.2,0.002680844364,-0.00658761234
4.21,0.001957371903,-0.006692934257
4.22,0.00123028929,-0.006743809764
4.23,0.0005032650699,-0.006740150695
4.24,-0.0002200331936,-0.00668210618
4.25,-0.0009359540696,-0.006570062251
4.26,-0.001640877368,-0.006404640485
4.27,-0.00233122914,-0.006186695673
4.28,-0.003003496515,-0.00591731255
4.29,-0.003654242303,-0.005597801567
4.3,-0.004280119312,-0.005229693742
4.31,-0.004877884315,-0.004814734604
4.32,-0.005444411611,-0.004354877252
4.33,-0.005976706124,-0.003852274557
4.34,-0.006471915984,-0.003309270539
4.35,-0.006927344542,-0.002728390957
4.36,-0.00734046176,-0.002112333136
4.37,-0.007708914943,-0.001463955094
4.38,-0.008030538752,-0.000786263993
4.39,-0.00830336447,-8.240397066E-05
4.4,-0.008525628474,0.0006443565995
4.41,-0.008695779882,0.001390638368
4.42,-0.008812487339,0.002152964737
4.43,-0.008874644921,0.002927775996
4.44,-0.008881377121,0.003711443811
4.45,-0.008832042909,0.004500286009
4.46,-0.008726238841,0.005290581591
4.47,-0.0085638012,0.006078585925
4.48,-0.008344807176,0.006860546037
4.49,-0.008069575057,0.007632715961
4.5,-0.007738663458,0.008391372065
4.51,-0.007352869557,0.009132828307
4.52,-0.006913226381,0.00985345134
4.53,-0.006420999124,0.01054967543
4.54,-0.005877680531,0.01121801709
4.55,-0.005284985352,0.01185508942
4.56,-0.004644843906,0.01245761603
4.57,-0.003959394767,0.0130224446
4.58,-0.0032309766,0.0135465598
4.59,-0.002462119205,0.01402709585
4.6,-0.00165553377,0.01446134837
4.61,-0.0008141023984,0.01484678558
4.62,5.913304656E-05,0.01518105888
4.63,0.0009609827545,0.01546201265
4.64,0.001888121368,0.0156876933
4.65,0.002837100929,0.0158563575
4.66,0.003804364322,0.01596647959
4.67,0.004786259147,0.0160167581
4.68,0.005779051981,0.01600612139
4.69,0.006778942961,0.01593373241
4.7,0.007782080625,0.01579899242
4.71,0.008784576962,0.0156015439
4.72,0.009782522605,0.01534127242
4.73,0.01077200211,0.01501830755
4.74,0.01174910922,0.01463302281
4.75,0.01270996217,0.01418603471
4.76,0.01365071878,0.01367820073
4.77,0.01456759147,0.01311061643
4.78,0.015456862,0.01248461163
4.79,0.01631489599,0.01180174559
4.8,0.01713815699,0.01106380136
4.81,0.01792322029,0.01027277927
4.82,0.01866678618,0.009430889519
4.83,0.01936569275,0.008540543978
4.84,0.02001692813,0.007604347227
4.85,0.02061764211,0.006625086828
4.86,0.02116515718,0.005605722907
4.87,0.02165697879,0.004549377081
4.88,0.02209080499,0.003459320766
4.89,0.0224645352,0.002338962929
4.9,0.02277627826,0.001191837322
4.91,0.02302435963,2.158925637E-05
4.92,0.02320732776,-0.00116803803
4.93,0.02332395956,-0.002373217357
4.94,0.02337326496,-0.003590051882
4.95,0.02335449065,-0.004814589615
4.96,0.02326712279,-0.006042838121
4.97,0.02311088889,-0.007270779329
4.98,0.02288575867,-0.00849438442
4.99,0.02259194409,-0.009709628703
5,0.02222989837,-0.01091250644
5.01,0.02180031413,-0.01209904556
5.02,0.02130412061,-0.0132653222
5.03,0.02074248002,-0.01440747502
5.04,0.02011678296,-0.01552171921
5.05,0.01942864308,-0.01660436022
5.06,0.01867989079,-0.017651807
5.07,0.01787256629,-0.01866058495
5.08,0.01700891176,-0.01962734819
5.09,0.01609136282,-0.02054889149
5.1,0.01512253933,-0.02142216144
5.11,0.01410523549,-0.02224426719
5.12,0.01304240934,-0.02301249033
5.13,0.01193717173,-0.02372429428
5.14,0.01079277469,-0.02437733275
5.15,0.009612599363,-0.02496945764
5.16,0.008400143543,-0.02549872599
5.17,0.007159008774,-0.02596340628
5.18,0.00589288717,-0.02636198375
5.19,0.004605547952,-0.02669316502
5.2,0.003300823768,-0.02695588175
5.21,0.001982596857,-0.02714929353
5.22,0.0006547851024,-0.02727278982
5.23,-0.0006786719601,-0.0273259911
5.24,-0.002013827137,-0.02730874907
5.25,-0.003346739509,-0.02722114605
5.26,-0.004673488252,-0.02706349352
5.27,-0.005990186298,-0.02683632979
5.28,-0.007292993769,-0.02654041687
5.29,-0.008578131157,-0.0261767365
5.3,-0.009841892177,-0.02574648545
5.31,-0.01108065627,-0.02525106997
5.32,-0.01229090066,-0.02469209961
5.33,-0.01346921204,-0.02407138025
5.34,-0.01461229766,-0.0233909065
5.35,-0.01571699594,-0.02265285342
5.36,-0.01678028655,-0.02185956774
5.37,-0.01779929979,-0.02101355837
5.38,-0.01877132541,-0.02011748653
5.39,-0.01969382075,-0.01917415532
5.4,-0.02056441818,-0.01818649888
5.41,-0.02138093184,-0.01715757117
5.42,-0.02214136365,-0.01609053442
5.43,-0.02284390854,-0.01498864723
5.44,-0.02348695901,-0.01385525256
5.45,-0.02406910877,-0.01269376536
5.46,-0.0245891558,-0.01150766015
5.47,-0.02504610441,-0.01030045854
5.48,-0.02543916674,-0.009075716599
5.49,-0.02576776329,-0.00783701232
5.5,-0.0260315228,-0.006587933092
5.51,-0.02623028133,-0.005332063285
5.52,-0.02636408059,-0.004072971983
5.53,-0.02643316551,-0.002814200906
5.54,-0.02643798114,-0.001559252573
5.55,-0.02637916881,-0.0003115787435
5.56,-0.02625756162,0.0009254308147
5.57,-0.02607417933,0.002148459202
5.58,-0.02583022253,0.00335427286
5.59,-0.0255270663,0.004539731607
5.6,-0.0251662533,0.005701798211
5.61,-0.0247494863,0.006837547456
5.62,-0.02427862021,0.007944174679
5.63,-0.02375565371,0.009019003763
5.64,-0.02318272042,0.01005949453
5.65,-0.02256207973,0.01106324956
5.66,-0.02189610723,0.01202802036
5.67,-0.02118728491,0.01295171292
5.68,-0.02043819109,0.01383239262
5.69,-0.01965149011,0.01466828849
5.7,-0.01882992192,0.01545779675
5.71,-0.01797629145,0.01619948376
5.72,-0.01709345801,0.01689208823
5.73,-0.01618432457,0.01753452282
5.74,-0.01525182704,0.01812587499
5.75,-0.01429892371,0.0186654073
5.76,-0.0133285846,0.01915255698
5.77,-0.01234378109,0.01958693484
5.78,-0.01134747566,0.01996832366
5.79,-0.01034261179,0.02029667585
5.8,-0.009332104181,0.0205721106
5.81,-0.008318829174,0.02079491042
5.82,-0.007305615546,0.02096551716
5.83,-0.00629523559,0.02108452748
5.84,-0.005290396593,0.02115268782
5.85,-0.004293732697,0.02117088896
5.86,-0.003307797185,0.02114016005
5.87,-0.002335055217,0.0210616623
5.88,-0.001377877018,0.02093668228
5.89,-0.0004385315648,0.02076662487
5.9,0.0004808192355,0.02055300587
5.91,0.00137812585,0.0202974444
5.92,0.002251455897,0.02000165502
5.93,0.003098998387,0.01966743964
5.94,0.003919067419,0.01929667931
5.95,0.004710105335,0.01889132578
5.96,0.005470685315,0.01845339311
5.97,0.006199513433,0.01798494907
5.98,0.006895430153,0.01748810665
5.99,0.007557411296,0.01696501545
6,0.008184568454,0.01641785321
