"Freq [GHz]","re(S(Antenna1_1_p1,Antenna1_1_p1)) []","im(S(Antenna1_1_p1,Antenna1_1_p1)) []"
3,0.123882233252387,-0.045789239866587
3.002,0.125663183963,-0.0489265624091278
3.004,0.127309797971926,-0.052210127848213
3.006,0.128813256365517,-0.0556251895918325
3.008,0.130160734970052,-0.0591546669760777
3.01,0.131359837493275,-0.0627998755928913
3.012,0.132391151585997,-0.0665422160172454
3.014,0.133250317693707,-0.07038651004384
3.016,0.13395148589819,-0.074342696853087
3.018,0.134453998039242,-0.078357494666679
3.02,0.134787120296394,-0.082433902462505
3.022,0.13490423528066,-0.086591648219112
3.024,0.134844038156381,-0.090796766709568
3.026,0.134578373403118,-0.095037788984792
3.028,0.134134585137596,-0.099299919861353
3.03,0.133479522645707,-0.103563851898811
3.032,0.132626694944637,-0.107845463643385
3.034,0.131576405865011,-0.11214450590526
3.036,0.130302397273153,-0.116411395451279
3.038,0.128848392013437,-0.120654333764175
3.04,0.127174336620702,-0.124866427337268
3.042,0.125303929012807,-0.129032345671676
3.044,0.12325036441324,-0.133117502534039
3.046,0.12100165159387,-0.137144553482736
3.048,0.118548014957786,-0.141111258116616
3.05,0.115917967122269,-0.144974035932254
3.052,0.113095454231858,-0.148751858000705
3.054,0.11010368639155,-0.152395601843839
3.056,0.106976258630133,-0.155917749180182
3.058,0.10361946868365,-0.159342394340212
3.06,0.100149692088976,-0.16261205724134
3.062,0.0965130950875629,-0.165748544522313
3.064,0.0927425121892852,-0.168719114937263
3.066,0.0888449479064716,-0.171530594369194
3.068,0.0847938479480752,-0.174193370843156
3.07,0.0806334387839626,-0.1766647860789
3.072,0.0763721562294154,-0.178964908163082
3.074,0.0720121844697382,-0.181078088681131
3.076,0.0675650508050651,-0.183001551068602
3.078,0.0630338089353133,-0.184729431212142
3.08,0.0584444201652896,-0.186260171910073
3.082,0.0537930028700308,-0.18758097170249
3.084,0.049100536335247,-0.188711232390999
3.086,0.0443599391049667,-0.189624908718127
3.088,0.0395958278563046,-0.190326557866151
3.09,0.0348376034019499,-0.190839972865669
3.092,0.030048450674368,-0.191127376573825
3.094,0.0252860527582107,-0.191212198301958
3.096,0.0205481061844003,-0.191079998113094
3.098,0.0158005747329856,-0.190750085048897
3.1,0.0111412793241464,-0.190218717596316
3.102,0.0065295196763232,-0.18947303765408
3.104,0.0019633314388112,-0.188540585317592
3.106,-0.002532085481109,-0.187415409996469
3.108,-0.0069289941099197,-0.186108258617813
3.11,-0.0112495234400705,-0.184586262121959
3.112,-0.0154657426117469,-0.182918071496783
3.114,-0.0195439959644416,-0.181058986491964
3.116,-0.0235457554482842,-0.179032846952707
3.118,-0.0273940459151924,-0.17683606724327
3.12,-0.0311002127198114,-0.174522064300144
3.122,-0.0346637833601512,-0.172027881254856
3.124,-0.0380717289881207,-0.169434004276503
3.126,-0.0413333672697142,-0.166712133213957
3.128,-0.0444202468650773,-0.163852889317773
3.13,-0.0473373227582329,-0.160891747781722
3.132,-0.0500777304866799,-0.157837704804102
3.134,-0.052640605120716,-0.154692876788731
3.136,-0.055012455792479,-0.151468386625617
3.138,-0.0572046151248252,-0.148170105821332
3.14,-0.0592122255199235,-0.144837226350134
3.142,-0.0610141477176558,-0.14144701477581
3.144,-0.0626097693936978,-0.138023483892205
3.146,-0.0640301075974512,-0.134573105860471
3.148,-0.0652524236096342,-0.131108396337098
3.15,-0.0662840660897121,-0.127651936517622
3.152,-0.067098077723063,-0.124188613503115
3.154,-0.067735657477823,-0.12076070020237
3.156,-0.0681706827215792,-0.117361003911885
3.158,-0.0684228601077657,-0.114009594634539
3.16,-0.0685003300518068,-0.110707230286072
3.162,-0.068389647267004,-0.107465405592263
3.164,-0.0680977501702148,-0.10431330212596
3.166,-0.0676185860471991,-0.10120316749377
3.168,-0.0670086264177878,-0.098229754242574
3.17,-0.0662016221107379,-0.095321247395821
3.172,-0.065269871198365,-0.092551437019584
3.174,-0.064172883720902,-0.089893992148355
3.176,-0.0629429433305904,-0.087366925400713
3.178,-0.0615674518855646,-0.084948846204705
3.18,-0.0601065843833719,-0.082700201313031
3.182,-0.0584962095943407,-0.080615325258046
3.184,-0.0567942874546394,-0.078644796286555
3.186,-0.0550109415490488,-0.076847853304373
3.188,-0.0531124057235233,-0.07522289060075
3.19,-0.0511436583974359,-0.073756368082557
3.192,-0.0491222533256117,-0.072460112608312
3.194,-0.0470321672700576,-0.071353040601998
3.196,-0.0449034389854375,-0.070421472756725
3.198,-0.0427453088462961,-0.069674045918217
3.2,-0.0405601703879762,-0.069097668168068
3.202,-0.0383656494993491,-0.068726083426932
3.204,-0.036164021812184,-0.068517617797445
3.206,-0.0339673629383099,-0.068503223827038
3.208,-0.0318087174234999,-0.068676090850586
3.21,-0.0296510341070784,-0.06902761917289
3.212,-0.0275722160342741,-0.069549368141009
3.214,-0.0255099907562763,-0.070263930386442
3.216,-0.0235459165330783,-0.071110558467167
3.218,-0.0216572668819802,-0.072170149899524
3.22,-0.0198192380458896,-0.073378031290005
3.222,-0.0180767615813105,-0.074755326736815
3.224,-0.0164441141561017,-0.076287820331418
3.226,-0.0149394657769182,-0.07792576300985
3.228,-0.0135483671764161,-0.079737970573954
3.23,-0.0122677019102065,-0.081676694882507
3.232,-0.0111535369334913,-0.083739855502175
3.234,-0.0101532900974804,-0.085917501688403
3.236,-0.00932194491548299,-0.088223668756159
3.238,-0.00861974566881849,-0.090633795740569
3.24,-0.00810475507236941,-0.093101556257458
3.242,-0.0077629636899061,-0.095669699683793
3.244,-0.00759017156916841,-0.098314311787981
3.246,-0.007578023906613,-0.101013935260128
3.248,-0.0077729512919803,-0.103767592132137
3.25,-0.00813497977249919,-0.106568975457781
3.252,-0.0086882206369234,-0.109391953586633
3.254,-0.00942960735922309,-0.112241690956938
3.256,-0.0103637452320309,-0.115088355634383
3.258,-0.0114879566298637,-0.117947859054805
3.26,-0.012805398562013,-0.120779869478794
3.262,-0.0143245179252309,-0.123588686071253
3.264,-0.0160142840761025,-0.126375941442867
3.266,-0.0178978924431733,-0.129108341950483
3.268,-0.0199624913588425,-0.131788489803469
3.27,-0.0222384826509247,-0.134395391657985
3.272,-0.02466049484403,-0.136934776207156
3.274,-0.0272665501805963,-0.139370778450265
3.276,-0.0300546636117412,-0.141703121131829
3.278,-0.0329966580077944,-0.143944990740619
3.28,-0.0361053464585796,-0.146061830558684
3.282,-0.0393663270634739,-0.148055506270279
3.284,-0.0427708441411423,-0.149906329880745
3.286,-0.0463400736190687,-0.151619629235387
3.288,-0.0500196043428109,-0.153181362598274
3.29,-0.0538139037849762,-0.154574494311023
3.292,-0.0577420384239712,-0.155815687361529
3.294,-0.0617609696324589,-0.156859580732683
3.296,-0.065889647935602,-0.157749390541055
3.298,-0.0700975892190166,-0.158447865315541
3.3,-0.0744002027264852,-0.158951624675977
3.302,-0.078751474997401,-0.159262192041783
3.304,-0.083166036313971,-0.159363118940499
3.306,-0.087620207358186,-0.159268001166395
3.308,-0.092112383328481,-0.158988151429012
3.31,-0.096643053226183,-0.158484125271678
3.312,-0.101168498275738,-0.1577613728101
3.314,-0.105724964495942,-0.15682880631082
3.316,-0.110238601028956,-0.155703220589782
3.318,-0.114751504020156,-0.154371952540832
3.32,-0.119231354854918,-0.152830753754234
3.322,-0.123655981616244,-0.15106186950519
3.324,-0.128040640954161,-0.149106421902371
3.326,-0.132353162285144,-0.146943931496443
3.328,-0.136590064465334,-0.144568145488591
3.33,-0.140753534914514,-0.142013166719105
3.332,-0.144802332109803,-0.139261857135899
3.334,-0.148759194739151,-0.136333288423129
3.336,-0.152610426514604,-0.133233305979786
3.338,-0.156313013985247,-0.129931502268283
3.34,-0.159893231960002,-0.126469376793144
3.342,-0.163323584220126,-0.122857855699637
3.344,-0.166611867841499,-0.119080158022483
3.346,-0.169726381766659,-0.11516763867457
3.348,-0.172701662576631,-0.111123901305713
3.35,-0.175478107852474,-0.106938416671455
3.352,-0.178075374476631,-0.102641227521862
3.354,-0.180510590114032,-0.0982264699704176
3.356,-0.182730756302974,-0.0937273845328962
3.358,-0.184757049895741,-0.0891314577563293
3.36,-0.186584306369048,-0.0844630071979887
3.362,-0.188210295604194,-0.0797217213844171
3.364,-0.189624307217034,-0.0749315288505198
3.366,-0.190829552027697,-0.0700742555796916
3.368,-0.191825358490099,-0.0652182213000128
3.37,-0.192599255951204,-0.0602939301014807
3.372,-0.193140010730098,-0.0553803555043162
3.374,-0.193509452766788,-0.0504545728613304
3.376,-0.193632873640842,-0.0455665633633154
3.378,-0.193566115509772,-0.0406766050465588
3.38,-0.19325838618718,-0.0358155838393595
3.382,-0.192756258440734,-0.0309933613076676
3.384,-0.192054032099887,-0.0262404679717444
3.386,-0.191126685863414,-0.021548095463935
3.388,-0.190017936226689,-0.0169342481284745
3.39,-0.188709839318798,-0.0124120116313831
3.392,-0.187211640679399,-0.0079683492104763
3.394,-0.185527456065402,-0.0036440941953839
3.396,-0.183660678557427,0.000562382422296399
3.398,-0.181639487936031,0.0046457571888007
3.4,-0.179436301087788,0.0086174160578735
3.402,-0.177083341331073,0.0124528045403988
3.404,-0.174594506291757,0.0161133368039165
3.406,-0.171936017518559,0.0196244631820758
3.408,-0.169166216078336,0.02296901715395
3.41,-0.166285852461074,0.0261545994633111
3.412,-0.163260544614713,0.0291590057977845
3.414,-0.160143222129788,0.0319929167879009
3.416,-0.15692850505385,0.0346368659160564
3.418,-0.153671394085692,0.0370998591953919
3.42,-0.150297243929408,0.0393299066185235
3.422,-0.146901560018225,0.0413916865462195
3.424,-0.143408868441167,0.043267563845937
3.426,-0.139920737593508,0.0449087296402775
3.428,-0.136381458211409,0.0464018258153154
3.43,-0.132820612691331,0.0476360954688038
3.432,-0.129268509607248,0.0486865302383076
3.434,-0.125717963482069,0.0495403872691964
3.436,-0.122156366504843,0.0502184733325132
3.438,-0.118675880906747,0.0506340356127546
3.44,-0.115179060935315,0.0509059834854898
3.442,-0.111776798235395,0.0509663649549245
3.444,-0.108410544201002,0.0508342067312631
3.446,-0.105111306236934,0.0505203596180134
3.448,-0.101906687940294,0.0500218336091348
3.45,-0.098802514111751,0.0493457869060522
3.452,-0.095769986566694,0.0485038924945778
3.454,-0.092864540396179,0.0474851112516536
3.456,-0.090071477727762,0.0463231615620192
3.458,-0.087361531196086,0.0450059583046751
3.46,-0.084873746073375,0.0435477735593084
3.462,-0.08246177586974,0.0419669831924702
3.464,-0.080217137823315,0.0402604272137169
3.466,-0.07813622896024,0.03839236295154
3.468,-0.076200855614509,0.0364678516192047
3.47,-0.07445377291762,0.0344194979804226
3.472,-0.072852783128117,0.0322747140748729
3.474,-0.07144129351093,0.0300668937436166
3.476,-0.070200746436626,0.0277888143143116
3.478,-0.069162295410446,0.0254430341663468
3.48,-0.068307915831248,0.0230744271707556
3.482,-0.067652369700277,0.0206646071130513
3.484,-0.067149884009791,0.0181929268078373
3.486,-0.066859410011562,0.0157365663763406
3.488,-0.066767961595227,0.0132815857717411
3.49,-0.066865767206493,0.0108236519233574
3.492,-0.067154680275232,0.0083978375526897
3.494,-0.067637296713395,0.0059915165322793
3.496,-0.068296780432865,0.003617428991463
3.498,-0.069145878143101,0.0013124373638831
3.5,-0.0701652244186956,-0.000934044909068402
3.502,-0.071371503666824,-0.0031131347950349
3.504,-0.072769195384503,-0.0052127026476262
3.506,-0.074325129265821,-0.0072099880134859
3.508,-0.076027495438933,-0.0090873809695658
3.51,-0.077911844123048,-0.0108866888405278
3.512,-0.079918906245218,-0.0125508437163632
3.514,-0.082085606497046,-0.0140663983201
3.516,-0.084397761251291,-0.0154927510157682
3.518,-0.086831431648324,-0.0167331743964669
3.52,-0.089386103972516,-0.0178386121226526
3.522,-0.092039722798488,-0.0187696260205486
3.524,-0.09481967555727,-0.0195540632107851
3.526,-0.097661563232351,-0.0201460372071545
3.528,-0.100598639055635,-0.0205853254555833
3.53,-0.103599862013279,-0.0208102567132655
3.532,-0.106678137781472,-0.0208739771879638
3.534,-0.109794348692063,-0.0207287359675016
3.536,-0.112968562768135,-0.0204014304994465
3.538,-0.116167188061494,-0.019876435610896
3.54,-0.11936611187502,-0.0191328325885778
3.542,-0.122606714956001,-0.0182296517489787
3.544,-0.12579909846831,-0.0171272553587873
3.546,-0.12902609344355,-0.0157836904254104
3.548,-0.132208104639099,-0.0142792254377656
3.55,-0.135346826141067,-0.0125409906671562
3.552,-0.138435998916199,-0.0106285640584484
3.554,-0.141479695664678,-0.0085183804813174
3.556,-0.144427635748874,-0.0062152216417513
3.558,-0.147334882218016,-0.0037328202137113
3.56,-0.150111455922794,-0.0010564299509976
3.562,-0.152811386689887,0.0017905560007256
3.564,-0.155378581356437,0.00480731741171011
3.566,-0.157859888044482,0.00799941359568541
3.568,-0.16018078509527,0.0113394800272709
3.57,-0.162384205833569,0.0148457586092099
3.572,-0.164407281911901,0.0185030260893531
3.574,-0.166311170524728,0.0222955706175179
3.576,-0.168038684172573,0.0262135777021303
3.578,-0.169598241926098,0.030279146486669
3.58,-0.170968503180155,0.0344255993259463
3.582,-0.172163791307755,0.0386956597721691
3.584,-0.173158646934027,0.043030997640838
3.586,-0.173964982580117,0.0474727978164247
3.588,-0.174569714547043,0.0519843116878896
3.59,-0.174961667549549,0.0565375050739944
3.592,-0.175156255859871,0.0611631959884159
3.594,-0.175151851211522,0.0658340511546786
3.596,-0.174925852213021,0.0705311327718876
3.598,-0.174473465631576,0.0752463998273024
3.6,-0.173821224726798,0.0799341142499428
3.602,-0.172935181404316,0.084672409748311
3.604,-0.171851217369454,0.0893796372393087
3.606,-0.170537395180802,0.0940364077430682
3.608,-0.169001396413851,0.0986722197450054
3.61,-0.167271189174548,0.103252327719927
3.612,-0.165319249912881,0.107781914080241
3.614,-0.16316373902643,0.112222488266968
3.616,-0.160805972573914,0.116584744842559
3.618,-0.158250871238756,0.120845730663539
3.62,-0.155505287882583,0.125016058722946
3.622,-0.152552216668811,0.12905887609256
3.624,-0.149447940326141,0.132989680524985
3.626,-0.14614988722212,0.136773558795515
3.628,-0.142685383006685,0.140422409443809
3.63,-0.139067043285703,0.143906083025369
3.632,-0.13526595812454,0.147261440492858
3.634,-0.131358396781614,0.150415807097207
3.636,-0.127300902572009,0.153402595508514
3.638,-0.123146987981026,0.156214013016804
3.64,-0.118830279417843,0.158775563962567
3.642,-0.114406125309116,0.161245689977104
3.644,-0.109909335832646,0.163471803902696
3.646,-0.105305985241053,0.165500320202607
3.648,-0.100648202515477,0.167293084490864
3.65,-0.0959563992393152,0.16888844109186
3.652,-0.0911586397519752,0.170274581189808
3.654,-0.0862972168576551,0.171432360407948
3.656,-0.0814714341531943,0.172361691777621
3.658,-0.0765931917041053,0.173086396517148
3.66,-0.0717176544674804,0.173587637140507
3.662,-0.0668370531389445,0.173859277065842
3.664,-0.0619958028696043,0.173906787893797
3.666,-0.0571595334270947,0.173730499965651
3.668,-0.0523738297974271,0.173355606221292
3.67,-0.0476307766791147,0.172747514497007
3.672,-0.0429767580063519,0.171955874653068
3.674,-0.0383592592131932,0.170916763761169
3.676,-0.0338481710778499,0.169692334281703
3.678,-0.0294373945770144,0.168267187820789
3.68,-0.0251059437802285,0.166650765547218
3.682,-0.0209137612743316,0.164854908379147
3.684,-0.0168322382879687,0.162861580290662
3.686,-0.0128840805761483,0.160705300308165
3.688,-0.009109251074882,0.158387266246555
3.69,-0.0054379136258625,0.155918933545286
3.692,-0.0019421728612549,0.153260260974221
3.694,0.001385878331485,0.150497740029341
3.696,0.0045275583946987,0.147586595578246
3.698,0.0075138709855365,0.144568925915544
3.7,0.010294188760896,0.14142246599803
3.702,0.0128933887522948,0.138179017569723
3.704,0.0152909065706517,0.134847362806724
3.706,0.0174524260509811,0.131435538221918
3.708,0.0194840520670166,0.127958206769536
3.71,0.0212734160457486,0.1244208005395
3.712,0.0228570810218728,0.120841134758676
3.714,0.024209223132121,0.117215693327918
3.716,0.0253705048495853,0.113577662220081
3.718,0.0263125057978379,0.109923728610269
3.72,0.0270334068250473,0.106275980340434
3.722,0.0275621770079612,0.102629360464807
3.724,0.027851479825791,0.099048502305697
3.726,0.0279660305240118,0.095437690237529
3.728,0.0278659321480448,0.091897501162823
3.73,0.0275556289368721,0.088428756615062
3.732,0.0270330138064937,0.085015532011342
3.734,0.0263421165333375,0.081720146984959
3.736,0.0254273191475177,0.078448318077801
3.738,0.0243532116960141,0.075294922392592
3.74,0.0230898279057233,0.072292591055037
3.742,0.0216756879564234,0.06937983550579
3.744,0.020074664793595,0.0665790655123
3.746,0.0183527676211423,0.063958190360493
3.748,0.0164425092540168,0.06146266511637
3.75,0.014414094020683,0.059063832327433
3.752,0.0122215878155076,0.056891773153967
3.754,0.0099428206710137,0.054884627230228
3.756,0.0075349582299997,0.053039716885486
3.758,0.0050459157075497,0.051375850504918
3.76,0.0024471487429348,0.049895734330421
3.762,-0.000226842278657102,0.048616413431226
3.764,-0.0029829850744565,0.047514439264489
3.766,-0.0057886336326317,0.046611865625677
3.768,-0.0086494995608991,0.045918258548851
3.77,-0.0115256032222739,0.045408646966864
3.772,-0.0144408951279708,0.045134969951422
3.774,-0.0173701812754069,0.045061324882995
3.776,-0.0202871678543638,0.045173617740683
3.778,-0.0232165370192697,0.045504505351911
3.78,-0.0261063192216254,0.046031953492047
3.782,-0.0289755386905656,0.046751247473885
3.784,-0.0317937913935603,0.047718923617062
3.786,-0.0345483775842462,0.04884815931731
3.788,-0.0372378681294182,0.050180530455673
3.79,-0.0398665472791455,0.051702597807565
3.792,-0.0423657260970407,0.053399322611754
3.794,-0.0448251589106623,0.055283783449247
3.796,-0.0471252339120813,0.057364712952083
3.798,-0.0493381739385669,0.059596868142006
3.8,-0.0514103679734468,0.061981551449077
3.802,-0.0533561208370908,0.064529309320191
3.804,-0.055136039108064,0.067246298157454
3.806,-0.0567671193544245,0.070065870686585
3.808,-0.0582185028251475,0.073060033475074
3.81,-0.0595211497817502,0.076145037530413
3.812,-0.060650875270017,0.079340201008143
3.814,-0.0615912137519098,0.082649828889862
3.816,-0.0623661334576282,0.086072424641147
3.818,-0.0628885389078158,0.089533100499396
3.82,-0.0632437257359289,0.093073492581597
3.822,-0.0633899514607428,0.096679406852044
3.824,-0.0633598128090591,0.100318917749941
3.826,-0.0631013612585289,0.104024665366983
3.828,-0.0626270755206409,0.107735585031835
3.83,-0.0619260048638866,0.111465455332572
3.832,-0.0610691356670656,0.11519441507103
3.834,-0.059929093552779,0.118911692504142
3.836,-0.0585997036310386,0.122601024943143
3.838,-0.0570789860230771,0.126267031983797
3.84,-0.0553195845153201,0.129912019298522
3.842,-0.0533770589734728,0.133467079891449
3.844,-0.0511983593868313,0.136935656636506
3.846,-0.048869033462727,0.140346629552342
3.848,-0.046296379791127,0.143659473479313
3.85,-0.0435388510194145,0.146882403536336
3.852,-0.040595125817341,0.14999068271777
3.854,-0.0374806185621037,0.152967504780213
3.856,-0.0341889852836386,0.155824275279251
3.858,-0.0307638545100556,0.158552419176237
3.86,-0.027134603883223,0.161090875014943
3.862,-0.0233602140345496,0.16349102631826
3.864,-0.0194599104009216,0.165728925514821
3.866,-0.0153903170507929,0.167773957415613
3.868,-0.0112280033004554,0.169655493000543
3.87,-0.0069626161604879,0.171322095325022
3.872,-0.0025630111723347,0.172790058636482
3.874,0.0019297968949071,0.174067571890894
3.876,0.0064741809675539,0.175149888099267
3.878,0.0111433420102417,0.17599164839413
3.88,0.0158300441786352,0.176629498765995
3.882,0.0205772106420098,0.177064752489816
3.884,0.0253586691396259,0.177260969641439
3.886,0.0302044920279743,0.177251292074021
3.888,0.0349987266548174,0.177024933574479
3.89,0.0398385427680879,0.176550807689916
3.892,0.0446574186466088,0.175843015644054
3.894,0.0494477821676607,0.174875487003631
3.896,0.0542186679583541,0.17372845757488
3.898,0.0589537047998694,0.172369205249923
3.9,0.0635914876915106,0.170766270233221
3.902,0.0681782670825812,0.168950385518045
3.904,0.0726998709531329,0.166952438832914
3.906,0.0770942846045004,0.164685325658086
3.908,0.081435150859716,0.162282766272025
