"Freq [GHz]","re(S(Antenna1_1_p1,Antenna1_1_p1)) []","im(S(Antenna1_1_p1,Antenna1_1_p1)) []"
3,0.0961702229863872,-0.097507120863587
3.002,0.0950402722119999,-0.0990372612831278
3.004,0.0938747905239265,-0.100541831610213
3.006,0.0926713744455175,-0.102012967192832
3.008,0.0914287929810517,-0.103461041034078
3.01,0.0901437862622745,-0.104873975270891
3.012,0.0888313504909965,-0.106274472926245
3.014,0.0874898223677069,-0.10762005744684
3.016,0.0861034809461895,-0.108947201632087
3.018,0.0846918998122424,-0.110218135252679
3.02,0.0832527095143935,-0.111476135889505
3.022,0.0817891124406598,-0.112680514951112
3.024,0.0803010899113809,-0.113851187782568
3.026,0.0787753580661175,-0.114986537955792
3.028,0.0772382698905956,-0.116076237593353
3.03,0.0756794194917071,-0.117128184660811
3.032,0.0741032954186373,-0.118135406519385
3.034,0.0725108994920112,-0.11910146999626
3.036,0.0709052603641525,-0.120027896386279
3.038,0.0692865084809368,-0.120909554926175
3.04,0.0676572945425017,-0.121749176528268
3.042,0.066037791407907,-0.122538607052676
3.044,0.06437686538624,-0.123295612057039
3.046,0.0627241571438701,-0.124016191930736
3.048,0.061071150103786,-0.124688925551616
3.05,0.0594151555742692,-0.125319633519254
3.052,0.057772831603858,-0.125911640030705
3.054,0.05611646296455,-0.126458813612839
3.056,0.0544711943931328,-0.126962467316182
3.058,0.0528244657366504,-0.127440695712212
3.06,0.0511884795829762,-0.12787224632434
3.062,0.0495618307125629,-0.128273053342313
3.064,0.0479445716192852,-0.128644091369263
3.066,0.0463473789294716,-0.128950653216194
3.068,0.0447540327300752,-0.129256992939156
3.07,0.0431585815529626,-0.1295162155459
3.072,0.0415903328824154,-0.129741212696082
3.074,0.0400405997157382,-0.129919287597131
3.076,0.0385029067750651,-0.130100611763602
3.078,0.0369852387823133,-0.130216795642142
3.08,0.0355012682792896,-0.130352352855073
3.082,0.0340087498500308,-0.13043494491849
3.084,0.032553833710247,-0.130473385537999
3.086,0.0311108836159667,-0.130533907848127
3.088,0.0296939352044046,-0.130551298743151
3.09,0.0283057132349499,-0.130525205086669
3.092,0.026932566907368,-0.130505540899025
3.094,0.0255738698182107,-0.130494014299058
3.096,0.0242428394414003,-0.130443448478294
3.098,0.0229350871169856,-0.130379642487697
3.1,0.0216589818241464,-0.130304017572316
3.102,0.0204008745493232,-0.13019351338108
3.104,0.0191709384758112,-0.130107868908592
3.106,0.017949189647891,-0.129994357327469
3.108,0.0167356873380803,-0.129902124053813
3.11,0.0155842843529295,-0.129771271054959
3.112,0.0144068440362531,-0.129665935133783
3.114,0.0132757362515584,-0.129543825575964
3.116,0.0121598016827158,-0.129420474718707
3.118,0.0110898813768076,-0.12928678830127
3.12,0.0099912584891886,-0.129176111625144
3.122,0.0089313517118488,-0.129055159652856
3.124,0.0078913132158793,-0.128938753556503
3.126,0.0068654741192858,-0.128827303898957
3.128,0.0058541698049227,-0.128721161757773
3.13,0.0048575140067671,-0.128618683729722
3.132,0.00390297158832008,-0.128525651999102
3.134,0.002930768446284,-0.128439191641731
3.136,0.00194239443452099,-0.128362573973617
3.138,0.00099157963517483,-0.128297445228332
3.14,5.10778820765E-05,-0.128233913944134
3.142,-0.00088544372165577,-0.12818391891381
3.144,-0.00179416865669778,-0.128153760675205
3.146,-0.00273913036645118,-0.128125721538471
3.148,-0.00364059585463422,-0.128119086275098
3.15,-0.00457676548381211,-0.128097201094622
3.152,-0.00549474367784302,-0.128104361291115
3.154,-0.00641324047122304,-0.12812808274937
3.156,-0.0073077764868792,-0.128167191953885
3.158,-0.00825179690276567,-0.128191903197539
3.16,-0.0091850069168068,-0.128245336004072
3.162,-0.010093546585004,-0.128332585310263
3.164,-0.0110316461552148,-0.12839654496196
3.166,-0.0119929292881991,-0.12846166227477
3.168,-0.0129463476857878,-0.128556277796574
3.17,-0.0139049355407379,-0.128679886179821
3.172,-0.014885391582365,-0.128770682378584
3.174,-0.015874791115902,-0.128889960569355
3.176,-0.0168651728715904,-0.129042401191713
3.178,-0.0178919481875646,-0.129147020542705
3.18,-0.0189239733383719,-0.129285037490031
3.182,-0.0199725850563407,-0.129452818691046
3.184,-0.0210346758936394,-0.129600795444555
3.186,-0.0221300733540488,-0.129721004481373
3.188,-0.0232331288965233,-0.12987148803675
3.19,-0.0243530796024359,-0.130021502544557
3.192,-0.0255019272336117,-0.130193591134312
3.194,-0.0266618291510576,-0.130315789606998
3.196,-0.0278368190254375,-0.130457114560725
3.198,-0.0290522005982961,-0.130594948462217
3.2,-0.0302814267919762,-0.130725418788068
3.202,-0.0315442147153491,-0.130871182238932
3.204,-0.032807651874184,-0.130963560824445
3.206,-0.0341060101453099,-0.131067915259538
3.208,-0.0354251713034999,-0.131160178846486
3.21,-0.0367847029900784,-0.13126436213949
3.212,-0.0381498421432741,-0.131329366947309
3.214,-0.0395352985492763,-0.131371792604442
3.216,-0.0409532467890783,-0.131402486697167
3.218,-0.0423854446869802,-0.131414312952524
3.22,-0.0438415314378896,-0.131402839909005
3.222,-0.0453208450263105,-0.131369482706815
3.224,-0.0468149336121017,-0.131314899180418
3.226,-0.0483257834939182,-0.13123022506885
3.228,-0.0498626072144161,-0.131123624367954
3.23,-0.0514211515982065,-0.130992211751507
3.232,-0.0529908074954913,-0.130828159643175
3.234,-0.0545767435534804,-0.130636808717403
3.236,-0.056180124917483,-0.130408382195159
3.238,-0.0577935044428185,-0.130154074276569
3.24,-0.0594223245273694,-0.129866017459458
3.242,-0.0610623801919061,-0.129541041631793
3.244,-0.0627113718231684,-0.129179413998981
3.246,-0.064370214909613,-0.128787461362128
3.248,-0.0660367506999803,-0.128346159207137
3.25,-0.0677096937494992,-0.127881567072781
3.252,-0.0693839545399234,-0.127375386797633
3.254,-0.0710629582452231,-0.126824407244938
3.256,-0.0727393998420309,-0.126235627416383
3.258,-0.0744230813468637,-0.125615654596805
3.26,-0.076095697023013,-0.124944623115794
3.262,-0.0777683321802309,-0.124256212917253
3.264,-0.0794339102762025,-0.123495706144867
3.266,-0.0810971174938733,-0.122709272327483
3.268,-0.0827476279703425,-0.121881525854469
3.27,-0.0843855341779247,-0.121018164444985
3.272,-0.08601371493803,-0.120110509742156
3.274,-0.0876257409295963,-0.119160493961265
3.276,-0.0892246582157412,-0.118174294341829
3.278,-0.0908061992537944,-0.117151028060619
3.28,-0.0923726388755796,-0.116088819867684
3.282,-0.0939055106284739,-0.114984857674279
3.284,-0.0954240025921423,-0.113850002682745
3.286,-0.0969145556350687,-0.112678627217387
3.288,-0.0983828145828109,-0.111471494729274
3.29,-0.0998259620059762,-0.110232501928023
3.292,-0.101236834224971,-0.108959703298529
3.294,-0.102621386529459,-0.107656560957683
3.296,-0.103973273330602,-0.106319850443055
3.298,-0.105288533938017,-0.104965850903541
3.3,-0.106583079964485,-0.103566071825977
3.302,-0.107835700942401,-0.102152556003783
3.304,-0.109049582459971,-0.100708274505499
3.306,-0.110233206956186,-0.0992430981393946
3.308,-0.111380617646481,-0.0977562543540116
3.31,-0.112487461566183,-0.096251239794678
3.312,-0.113562288338738,-0.0947304311871005
3.314,-0.114589214306602,-0.0931857160998205
3.316,-0.115582236149956,-0.0916306581867823
3.318,-0.116531401511156,-0.0900612038328324
3.32,-0.117449683266918,-0.0884832253928342
3.322,-0.118315889132244,-0.0868905902419002
3.324,-0.119151497070161,-0.0852917024465709
3.326,-0.119943069570144,-0.0836901476835426
3.328,-0.120695592270334,-0.0820882843745907
3.33,-0.121407297659514,-0.0804665308411052
3.332,-0.122082810233803,-0.0788524667898989
3.334,-0.122716017582151,-0.0772395468971291
3.336,-0.123311129578604,-0.0756319346587856
3.338,-0.123866223411247,-0.0740224376852834
3.34,-0.124389319139002,-0.0724207289361442
3.342,-0.124873306748126,-0.0708256416666365
3.344,-0.125321150882499,-0.0692378342964825
3.346,-0.125733980529659,-0.0676575025635703
3.348,-0.126116749435631,-0.0660895186557129
3.35,-0.126456236878474,-0.064536831549455
3.352,-0.126774164272631,-0.0629929632758617
3.354,-0.127049096469032,-0.0614690376604176
3.356,-0.127300217585974,-0.0599613172318962
3.358,-0.127528485525741,-0.0584641822863293
3.36,-0.127719933592048,-0.0569892120439887
3.362,-0.127892907241194,-0.0555280209714171
3.364,-0.128036777389034,-0.0540905394475198
3.366,-0.128155010652697,-0.0526719066846916
3.368,-0.128253583980099,-0.0512736885350128
3.37,-0.128336270978204,-0.0498964074484807
3.372,-0.128389069584098,-0.0485398458033162
3.374,-0.128431306756788,-0.0472065414043304
3.376,-0.128454650339142,-0.0458933978053154
3.378,-0.128466626733472,-0.0446012805225588
3.38,-0.12846624434458,-0.0433315352573595
3.382,-0.128446328412934,-0.0420947866536676
3.384,-0.128420172463887,-0.0408791833297444
3.386,-0.128382625397414,-0.039684439941935
3.388,-0.128338148610689,-0.0385055576184745
3.39,-0.128284624539798,-0.0373553004013831
3.392,-0.128233747935399,-0.0362176548154763
3.394,-0.128170181137402,-0.0351116245733839
3.396,-0.128109837771427,-0.0340246209817036
3.398,-0.128049298699031,-0.0329565768101993
3.4,-0.127985374222788,-0.0319160287101265
3.402,-0.127921673558073,-0.0308855030916012
3.404,-0.127862756909757,-0.0298773276970835
3.406,-0.127814171552559,-0.0288797189719242
3.408,-0.127755676563336,-0.02791428859405
3.41,-0.127710905729074,-0.0269561681576889
3.412,-0.127674251189713,-0.0260217119562155
3.414,-0.127640803190788,-0.0250969029890991
3.416,-0.12761759343685,-0.0241815048459436
3.418,-0.127603545718692,-0.0232759173136081
3.42,-0.127594279089408,-0.0223815318804765
3.422,-0.127604096220225,-0.0215061874567805
3.424,-0.127618003795167,-0.020634024286063
3.426,-0.127641237765508,-0.0197660822697225
3.428,-0.127683825373079,-0.0189127674496846
3.43,-0.127730926399331,-0.0180605747971962
3.432,-0.127785990963248,-0.0172130936286924
3.434,-0.127872179832069,-0.0163632281873036
3.436,-0.127957696053843,-0.0155198373695868
3.438,-0.128060363423747,-0.0146757204434454
3.44,-0.128169983045315,-0.0138315521130102
3.442,-0.128288262325395,-0.0129881097100755
3.444,-0.128424145876002,-0.0121293783847369
3.446,-0.128574084474934,-0.0112734025539866
3.448,-0.128736940299294,-0.0104161840478652
3.45,-0.128906133582751,-0.00954848105094775
3.452,-0.129085125651694,-0.00867302963542222
3.454,-0.129273613933179,-0.00778683375334643
3.456,-0.129480000834762,-0.00688863850198083
3.458,-0.129688977696086,-0.00597981912132494
3.46,-0.129902341156375,-0.00506213101569163
3.462,-0.13013185577774,-0.00412532889652981
3.464,-0.130360506724315,-0.00318549968928308
3.466,-0.13060264017724,-0.00221319292945996
3.468,-0.130843716307509,-0.00124159282879526
3.47,-0.13108960393562,-0.0002455072245774
3.472,-0.131342200937117,0.00077692212387292
3.474,-0.13159363287793,0.00181074331761661
3.476,-0.131846698047626,0.0028532883103116
3.478,-0.132098322166446,0.0039287875533468
3.48,-0.132349954154248,0.0050243968717556
3.482,-0.132602875628277,0.0061338227550513
3.484,-0.132842083078791,0.0072660934298373
3.486,-0.133079678983562,0.0084181705223406
3.488,-0.133316012183227,0.0095900661817411
3.49,-0.133538213586493,0.0107994807253574
3.492,-0.133753686063032,0.0120156415606897
3.494,-0.133958333948495,0.0132567662242793
3.496,-0.134155602893965,0.014517716795463
3.498,-0.134329628619101,0.0158053140258831
3.5,-0.134510365917696,0.0171023490459316
3.502,-0.134653202199824,0.0184311523119651
3.504,-0.134786451113503,0.0197798677493738
3.506,-0.134896451972821,0.0211442420755141
3.508,-0.134999523998933,0.0225404195754342
3.51,-0.135070657226048,0.0239406486014722
3.512,-0.135127624565218,0.0253727719046368
3.514,-0.135136606341046,0.0268228127449
3.516,-0.135161392678291,0.0282831375032318
3.518,-0.135153505104324,0.0297525582925331
3.52,-0.135107314984516,0.0312500732673474
3.522,-0.135015459522488,0.0327713617024514
3.524,-0.13491650326527,0.0342924887472149
3.526,-0.134781442136351,0.0358290309928455
3.528,-0.134626694376635,0.0373743908064167
3.53,-0.134405335269279,0.0389286869767345
3.532,-0.134209632532472,0.0405013370520362
3.534,-0.133919677863063,0.0420751814194984
3.536,-0.133632850209135,0.0436619482445535
3.538,-0.133317710143494,0.045252630426104
3.54,-0.13292632658802,0.0468317109784222
3.542,-0.132534259642001,0.0484372705800213
3.544,-0.13212025298231,0.0500351208182127
3.546,-0.13162668531655,0.0516250179925896
3.548,-0.131134910435099,0.0532255921482344
3.55,-0.130580007138067,0.0548142330529438
3.552,-0.129990353370199,0.0563916443834516
3.554,-0.129364729589678,0.0579720255681826
3.556,-0.128713052468874,0.0595368317699487
3.558,-0.128027552194016,0.0610867063552887
3.56,-0.127309497319794,0.0626568216510024
3.562,-0.126524770266887,0.0641804643377256
3.564,-0.125739206123437,0.0657142458177101
3.566,-0.124892034797482,0.0672108861386854
3.568,-0.12401784392827,0.0686956637642709
3.57,-0.123117053052569,0.0701692560022099
3.572,-0.122178803476901,0.0716190352233531
3.574,-0.121219628503728,0.0730622788355179
3.576,-0.120207100154573,0.0744507823731303
3.578,-0.119168815901098,0.075822656201669
3.58,-0.118111338771155,0.0771844093029463
3.582,-0.117022600099755,0.0785122781971691
3.584,-0.115910647535027,0.079823506926838
3.586,-0.114754873577117,0.0810794599674247
3.588,-0.113593954875043,0.0823381054728896
3.59,-0.112398329021549,0.0835498260959944
3.592,-0.111179818763871,0.0847082620874159
3.594,-0.109935408806522,0.0858572492036786
3.596,-0.108684276118021,0.0869677317538876
3.598,-0.107407894145576,0.0880438656293024
3.6,-0.106109902689798,0.0890918372586428
3.602,-0.104805563484316,0.090093884947311
3.604,-0.103490421482454,0.0910661830873087
3.606,-0.102146975799802,0.0920092223540682
3.608,-0.100801127700051,0.0929048539460054
3.61,-0.0994450198548481,0.0937883599279266
3.612,-0.0980985194405813,0.0945927592302414
3.614,-0.09672853877013,0.0953834563579679
3.616,-0.0953510786819138,0.0961362728875591
3.618,-0.0939657455627556,0.096869151816539
3.62,-0.0925948606435832,0.0975489440839458
3.622,-0.0912214349898115,0.0981914237455597
3.624,-0.0898640685151408,0.0987858631639854
3.626,-0.0884972187521196,0.0993575191455147
3.628,-0.0871271170656849,0.0998923477478085
3.63,-0.0857763822297032,0.100399558378369
3.632,-0.0844025098205401,0.100875040902858
3.634,-0.0830862732786142,0.101306711042207
3.636,-0.0817561062290088,0.101711478650514
3.638,-0.080435506376026,0.102081597410804
3.64,-0.0791375155998427,0.102430641458567
3.642,-0.0778473941261157,0.102744147499104
3.644,-0.0765717417706463,0.103031848989696
3.646,-0.0753154743580528,0.103290899596607
3.648,-0.0740737866264769,0.103525824354864
3.65,-0.0728543569093152,0.10373857313086
3.652,-0.0716448603419752,0.103917280128808
3.654,-0.0704646919146551,0.104086777916948
3.656,-0.0693038400541943,0.104230566247621
3.658,-0.0681609600819053,0.104356928008148
3.66,-0.0670401539384804,0.104453495652507
3.662,-0.0659468096699445,0.104552461304842
3.664,-0.0648724216276043,0.104625090254797
3.666,-0.0638103087190947,0.104684027567251
3.668,-0.0627939642774271,0.104735137951132
3.67,-0.0617872832801147,0.104766720104907
3.672,-0.0608050147133519,0.104802435625068
3.674,-0.0598400929761932,0.104819792598169
3.676,-0.0589122600948499,0.104839876673703
3.678,-0.0580034292460144,0.104839117296789
3.68,-0.0571126067322285,0.104852228645218
3.682,-0.0562452911473316,0.104856981872147
3.684,-0.0554040743859687,0.104859599094662
3.686,-0.0545858065191483,0.104856232834165
3.688,-0.053778731623882,0.104868574899555
3.69,-0.0529979585368625,0.104875495710286
3.692,-0.0522391342192549,0.104887713201221
3.694,-0.051496394437515,0.104905300019341
3.696,-0.0507676385303013,0.104920636504246
3.698,-0.0500834576684635,0.104956553553544
3.7,-0.049379891907104,0.10500204514803
3.702,-0.0487119775147052,0.105050836231723
3.704,-0.0480519146003483,0.105106328165724
3.706,-0.0474087786520189,0.105180603004918
3.708,-0.0467733471949834,0.105265969887536
3.71,-0.0461522617412514,0.1053632620085
3.712,-0.0455402507861272,0.105469237379676
3.714,-0.044938113255879,0.105595820427918
3.716,-0.0443437702364147,0.105731030539981
3.718,-0.0437545143441621,0.105885042962269
3.72,-0.0431709463169527,0.106056134671434
3.722,-0.0425929299321388,0.106236678315807
3.724,-0.042013220194509,0.106439806292697
3.726,-0.0414374875139382,0.106656606425529
3.728,-0.0408608056818552,0.106882762053823
3.73,-0.0402845437361279,0.107135344467062
3.732,-0.0397023252135063,0.107399301465342
3.734,-0.0391178586696625,0.107675702014959
3.736,-0.0385284497804823,0.107970543530801
3.738,-0.0379321720789859,0.108282514957592
3.74,-0.0373242340602767,0.108605551296037
3.742,-0.0367110028075766,0.10894044096679
3.744,-0.036087481150405,0.1092950087383
3.746,-0.0354604607488577,0.109651410877493
3.748,-0.0348067318909832,0.11003654327237
3.75,-0.034140647371317,0.110422655833433
3.752,-0.0334695992924924,0.110816210513967
3.754,-0.0327717628179863,0.111232810172228
3.756,-0.0320578344240003,0.111652175775486
3.758,-0.0313330263134503,0.112077085223918
3.76,-0.0305873370630652,0.112513483994421
3.762,-0.0298173984686571,0.112951857996226
3.764,-0.0290322933274565,0.113398196594489
3.766,-0.0282248541986317,0.113844897491677
3.768,-0.0273965654228991,0.114300047157851
3.77,-0.0265583255182739,0.114752768397864
3.772,-0.0256716320649708,0.115204723457422
3.774,-0.0247761927484069,0.115656428417995
3.776,-0.0238586784893638,0.116106553752683
3.778,-0.0229285479112697,0.116554915775911
3.78,-0.0219498979696254,0.116991662968747
3.782,-0.0209555104265656,0.117424553975385
3.784,-0.0199429275395603,0.117849548586932
3.786,-0.0189003765832462,0.11827366222941
3.788,-0.0178517608514181,0.118678441980073
3.79,-0.0167516887641455,0.119071951129565
3.792,-0.0156465966880407,0.119442141050754
3.794,-0.0145256098226623,0.119818463678247
3.796,-0.0133689788460813,0.120168112809083
3.798,-0.0121819246945669,0.120487939252006
3.8,-0.0109831978414468,0.120799996396077
3.802,-0.00976720152009079,0.121092668476191
3.804,-0.00852671783606403,0.121363160053454
3.806,-0.00726536049842449,0.121610771675585
3.808,-0.00598730973814746,0.121835300099074
3.81,-0.00469008422575023,0.122036546768413
3.812,-0.00337692473501705,0.122207876716143
3.814,-0.00205144390490983,0.122355445221862
3.816,-0.000710528887628239,0.122474223754147
3.818,0.000649823018184229,0.122559122318396
3.82,0.00202062632207112,0.122617086055597
3.822,0.00340057301325717,0.122645078135044
3.824,0.00479089354194094,0.122645464046941
3.826,0.0061924315284711,0.122621755046983
3.828,0.0075953726603591,0.122542433347835
3.83,0.0090063870461134,0.122439160907572
3.832,0.0104220617869344,0.12230039647303
3.834,0.011843370862221,0.122132283220142
3.836,0.0132653548309614,0.121930071076143
3.838,0.0146829198539229,0.121691766860797
3.84,0.0161039201163799,0.121416979424522
3.842,0.0175175462048572,0.121104733203449
3.844,0.0189272830513687,0.120757523008506
3.846,0.020337721804873,0.120388898546342
3.848,0.021726236702873,0.119964295948313
3.85,0.0231162321335855,0.119512075693336
3.852,0.024488357143659,0.11902712401377
3.854,0.0258630400778963,0.118519604168213
3.856,0.0272155687123614,0.117967368451251
3.858,0.0285385119489444,0.117373681802237
3.86,0.029855610884777,0.116758600829943
3.862,0.0311514682224504,0.11610955584726
3.864,0.0324319840000784,0.115427803088821
3.866,0.0336907529952071,0.114719271008613
3.868,0.0349269389545446,0.113981098053543
3.87,0.0361390280165121,0.113209686600022
3.872,0.0373335214546653,0.112415633654482
3.874,0.0384936770119071,0.111599083682894
3.876,0.0396265043965539,0.110753321503267
3.878,0.0407287460442417,0.10988570028113
3.88,0.0418203962116352,0.108990462906995
3.882,0.0428684166220098,0.108076610459816
3.884,0.0438744679666259,0.107150322260439
3.886,0.0448588349589743,0.106198491201021
3.888,0.0458137090628174,0.105232073788479
3.89,0.0467317108760879,0.104252188813916
3.892,0.0476301492866088,0.103249581347054
3.894,0.0484751833036607,0.102247519757631
3.896,0.0492993516273541,0.10123143720088
3.898,0.0500933572338694,0.100192601804323
3.9,0.0508378355195106,0.099151844146541
3.902,0.0515496896695812,0.0981238037226452
3.904,0.0522314557531329,0.0970758663895138
