"Freq [GHz]","re(S(Antenna1_1_p1,Antenna1_1_p1)) []","im(S(Antenna1_1_p1,Antenna1_1_p1)) []"
3,0.0961882516333872,-0.097500337461587
3.002,0.0950627548089999,-0.0990351639501278
3.004,0.0938979229029265,-0.100532151554213
3.006,0.0926865961805175,-0.102014370053833
3.008,0.0914407249030517,-0.103464000855078
3.01,0.0901604472332745,-0.104878999531891
3.012,0.0888462921649965,-0.106268318649245
3.014,0.0874963458937069,-0.10762056450884
3.016,0.0861141085141895,-0.108940603175087
3.018,0.0847036559342424,-0.110224875489679
3.02,0.0832639616963935,-0.111471973150505
3.022,0.0817979957106598,-0.112675339822112
3.024,0.0803025691753809,-0.113848317081568
3.026,0.0787851858461175,-0.114976275453792
3.028,0.0772440726885956,-0.116064841764353
3.03,0.0756954764947071,-0.117111827458811
3.032,0.0741239491106373,-0.118115364108385
3.034,0.0725310656840112,-0.11908432109126
3.036,0.0709245119099525,-0.120008531096279
3.038,0.0693116750482368,-0.120893135560175
3.04,0.0676807958958017,-0.121731894242268
3.042,0.066045259857907,-0.122529702886676
3.044,0.06440442534824,-0.123287886330039
3.046,0.0627563329138701,-0.123999255604736
3.048,0.061105872398786,-0.124670861485616
3.05,0.0594531925912692,-0.125300725657254
3.052,0.057803170485858,-0.125899108398705
3.054,0.05614440588855,-0.126448182441839
3.056,0.0545057365091328,-0.126959517772182
3.058,0.0528644610786504,-0.127427804667212
3.06,0.0512300647489762,-0.12786589836634
3.062,0.0496040986425629,-0.128269398970313
3.064,0.0479833441752852,-0.128626437401263
3.066,0.0463823573904716,-0.128955157647194
3.068,0.0447879705310752,-0.129251439926156
3.07,0.0432148586609626,-0.1295152641129
3.072,0.0416444449554154,-0.129739132599082
3.074,0.0400901010547382,-0.129939171748131
3.076,0.0385590960550651,-0.130106601243602
3.078,0.0370417560663133,-0.130250052413142
3.08,0.0355447351392896,-0.130362366264073
3.082,0.0340643419570308,-0.13045437347749
3.084,0.032603427087247,-0.130523397505999
3.086,0.0311647447809667,-0.130565224620127
3.088,0.0297440187864046,-0.130591548387151
3.09,0.0283455041749499,-0.130594365789669
3.092,0.026970366726368,-0.130578857698525
3.094,0.0256182194612107,-0.130545778840758
3.096,0.0242858218394003,-0.130498133568444
3.098,0.0229742752869856,-0.130438671568197
3.1,0.0216839391741464,-0.130373117839316
3.102,0.0204176650443232,-0.13029068722808
3.104,0.0191753717348112,-0.130188691399592
3.106,0.017954415071891,-0.130086818106469
3.108,0.0167466727940803,-0.129979033476813
3.11,0.0155730432299295,-0.129864759039959
3.112,0.0144056764692531,-0.129746518658783
3.114,0.0132713298795584,-0.129635874713964
3.116,0.0121520706087158,-0.129500171261707
3.118,0.0110460720838076,-0.12938699160427
3.12,0.0099673145791886,-0.129257792097144
3.122,0.0088970372468488,-0.129146233342856
3.124,0.0078521524408793,-0.129022670770503
3.126,0.0068188590042858,-0.128901062515957
3.128,0.0058056292749227,-0.128791807180773
3.13,0.0048054744727671,-0.128689862014722
3.132,0.00381217969732008,-0.128588266396102
3.134,0.002833156811284,-0.128501570982731
3.136,0.00186848376452099,-0.128416533220617
3.138,0.00091645475317483,-0.128343137755332
3.14,-3.41697059234999E-05,-0.128280356769134
3.142,-0.00096950139165577,-0.12822532727681
3.144,-0.00190600895169778,-0.128182063469205
3.146,-0.00283531777545118,-0.128147439669471
3.148,-0.00375003569863422,-0.128124437803098
3.15,-0.00467714389801211,-0.128111099883622
3.152,-0.00558741924226302,-0.128099483425115
3.154,-0.00651190170172304,-0.12811827371137
3.156,-0.0074334896950792,-0.128138985528885
3.158,-0.00835265815576567,-0.128173052919539
3.16,-0.0092728599328068,-0.128219328513072
3.162,-0.010198503052004,-0.128272983608263
3.164,-0.0111410507722148,-0.12833783860496
3.166,-0.0120778027371991,-0.12841329559977
3.168,-0.0130288284727878,-0.128502309706574
3.17,-0.0139924581367379,-0.128595427328821
3.172,-0.014956722500365,-0.128699740082584
3.174,-0.015939763514902,-0.128815381756355
3.176,-0.0169403315625904,-0.128925586506713
3.178,-0.0179468517205646,-0.129061275846705
3.18,-0.0189742283113719,-0.129191018702031
3.182,-0.0200206487863407,-0.129329334502046
3.184,-0.0210711354596394,-0.129476934677555
3.186,-0.0221497558560488,-0.129623620877373
3.188,-0.0232438654555233,-0.12977391490375
3.19,-0.0243549521174359,-0.129919724036557
3.192,-0.0254852933886117,-0.130070606619312
3.194,-0.0266490565790576,-0.130215852008998
3.196,-0.0278232576324375,-0.130358849727725
3.198,-0.0290273554712961,-0.130498294640217
3.2,-0.0302456340069762,-0.130633306163068
3.202,-0.0314876542063491,-0.130758546162932
3.204,-0.032755512664184,-0.130877328154445
3.206,-0.0340453623593099,-0.130984060626238
3.208,-0.0353625120794999,-0.131073876676686
3.21,-0.0366942920120784,-0.13116594520339
3.212,-0.0380605309342741,-0.131239210007109
3.214,-0.0394431552742763,-0.131293531554442
3.216,-0.0408471012060783,-0.131329278618167
3.218,-0.0422789917429802,-0.131353270212524
3.22,-0.0437307768058896,-0.131347142340005
3.222,-0.0452036042053105,-0.131322066194815
3.224,-0.0466948374241017,-0.131267176322418
3.226,-0.0482109901239182,-0.13120935302885
3.228,-0.0497425866484161,-0.131095190509954
3.23,-0.0512983914602065,-0.130973799408507
3.232,-0.0528642897144913,-0.130815931822175
3.234,-0.0544584873844804,-0.130634779622403
3.236,-0.056064013034483,-0.130423604507159
3.238,-0.0576766864488185,-0.130171868949569
3.24,-0.0593077202333694,-0.129891488050458
3.242,-0.0609420084549061,-0.129573385503793
3.244,-0.0625982745151684,-0.129219572475981
3.246,-0.064273697902613,-0.128840568116128
3.248,-0.0659408969589803,-0.128415197346137
3.25,-0.0676194504214992,-0.127947662183781
3.252,-0.0693027907639234,-0.127445176034633
3.254,-0.0709852627812231,-0.126905502199938
3.256,-0.0726657982810309,-0.126321038466383
3.258,-0.0743570846418637,-0.125700547403805
3.26,-0.076042230001013,-0.125036702227794
3.262,-0.0777156808428309,-0.124335940201253
3.264,-0.0793999786478025,-0.123591990535867
3.266,-0.0810659587282533,-0.122807104457483
3.268,-0.0827266315553425,-0.121980567786469
3.27,-0.0843727745139247,-0.121109848062985
3.272,-0.08600573909203,-0.120205939902156
3.274,-0.0876302331305963,-0.119257413591265
3.276,-0.0892321264677412,-0.118267048882829
3.278,-0.0908216582757944,-0.117241165455619
3.28,-0.0923838448345796,-0.116170384104684
3.282,-0.0939337277874739,-0.115073801565279
3.284,-0.0954500300081423,-0.113933411584745
3.286,-0.0969528651680687,-0.112755509722387
3.288,-0.0984273935568109,-0.111545570978274
3.29,-0.0998691157139762,-0.110299560530023
3.292,-0.101281607093971,-0.109024160609529
3.294,-0.102667317366459,-0.107721501662683
3.296,-0.104033164313602,-0.106373137632055
3.298,-0.105356167052017,-0.105003773315541
3.3,-0.106641801174485,-0.103611121660977
3.302,-0.107901493633401,-0.102187361964783
3.304,-0.109116167731971,-0.100740041951499
3.306,-0.110299682509186,-0.0992705360383946
3.308,-0.111445230140481,-0.0977761056670116
3.31,-0.112548700308183,-0.096273976413678
3.312,-0.113616943238738,-0.0947534463661005
3.314,-0.114647080419602,-0.0931991390218205
3.316,-0.115638558257956,-0.0916422862837823
3.318,-0.116591049004156,-0.0900582082748324
3.32,-0.117500265567918,-0.0884798141906342
3.322,-0.118371349696244,-0.0868797976162602
3.324,-0.119203818484161,-0.0852739429885709
3.326,-0.119992707902144,-0.0836686181144426
3.328,-0.120741868871334,-0.0820665440355907
3.33,-0.121445553736514,-0.0804412989831052
3.332,-0.122118687508803,-0.0788315740128989
3.334,-0.122750066655151,-0.0772163867891291
3.336,-0.123343370599604,-0.0756020417567856
3.338,-0.123897074945247,-0.0739912040122834
3.34,-0.124413242163002,-0.0723925769351442
3.342,-0.124890316679126,-0.0707941328076365
3.344,-0.125341696739499,-0.0692083599034825
3.346,-0.125743918598659,-0.0676378429095703
3.348,-0.126128983484631,-0.0660753632447129
3.35,-0.126468492562474,-0.064514680966455
3.352,-0.126771414901631,-0.0629687427298617
3.354,-0.127057567560032,-0.0614515815384176
3.356,-0.127306422144974,-0.0599318859878962
3.358,-0.127524882884741,-0.0584425387483293
3.36,-0.127734451553048,-0.0569696325179887
3.362,-0.127888719374194,-0.0555071674154171
3.364,-0.128029171335034,-0.0540722434115198
3.366,-0.128147326158697,-0.0526574317466916
3.368,-0.128249366910099,-0.0512584035730128
3.37,-0.128325795502204,-0.0498892045644807
3.372,-0.128391121045098,-0.0485350631173162
3.374,-0.128428845034788,-0.0472022972953304
3.376,-0.128450465828342,-0.0458935850693154
3.378,-0.128467886893972,-0.0446070378385588
3.38,-0.12846984193378,-0.0433396105533595
3.382,-0.128440191313634,-0.0420972316526676
3.384,-0.128420266730887,-0.0408847684117444
3.386,-0.128376730739414,-0.039689422657935
3.388,-0.128342209271689,-0.0385135186454745
3.39,-0.128294498916798,-0.0373610380433831
3.392,-0.128242432290399,-0.0362334214054763
3.394,-0.128179614854402,-0.0351247568753839
3.396,-0.128135011237427,-0.0340335648247036
3.398,-0.128072790998031,-0.0329631455831993
3.4,-0.128003124223788,-0.0319245612271265
3.402,-0.127941637080073,-0.0308940582526012
3.404,-0.127891006075757,-0.0298854440070835
3.406,-0.127832843966559,-0.0288947135189242
3.408,-0.127791452465336,-0.02791862054205
3.41,-0.127744910548074,-0.0269576656226889
3.412,-0.127704007206713,-0.0260200855182155
3.414,-0.127666233010788,-0.0250839609340991
3.416,-0.12764807628785,-0.0241737677799436
3.418,-0.127638971703692,-0.0232641113916081
3.42,-0.127637285113408,-0.0223642492434765
3.422,-0.127638646194225,-0.0214905804207805
3.424,-0.127648619615167,-0.020616847289063
3.426,-0.127678244436508,-0.0197477949597225
3.428,-0.127713359600079,-0.0188842997576846
3.43,-0.127765623050331,-0.0180154824731962
3.432,-0.127822976013248,-0.0171776132326924
3.434,-0.127896384077069,-0.0163338701886036
3.436,-0.127972415087843,-0.0154828233298868
3.438,-0.128074805203747,-0.0146264156538454
3.44,-0.128177557330315,-0.0137856471612102
3.442,-0.128310962986395,-0.0129381162150755
3.444,-0.128442577340002,-0.0120867467747369
3.446,-0.128581356101934,-0.0112302740589866
3.448,-0.128737344800294,-0.0103678317858652
3.45,-0.128904069283751,-0.00949839931094775
3.452,-0.129081387629694,-0.00861840579742222
3.454,-0.129263609884179,-0.00772202833734643
3.456,-0.129470956192762,-0.00683949564898083
3.458,-0.129674060946086,-0.00594383089932494
3.46,-0.129879583649375,-0.00499316289769163
3.462,-0.13010976901974,-0.00407759437252981
3.464,-0.130338381327315,-0.00312691859328308
3.466,-0.13057315452424,-0.00217075788245996
3.468,-0.130811969371509,-0.00119055791079526
3.47,-0.13105560074862,-0.000191231563577399
3.472,-0.131300728412117,0.00080912062387292
3.474,-0.13155083559393,0.00184591252661661
3.476,-0.131795190111626,0.0028974587833116
3.478,-0.132046127273446,0.0039549944013468
3.48,-0.132300391696248,0.0050492719057556
3.482,-0.132547005258277,0.0061558871650513
3.484,-0.132786849326791,0.0072885339998373
3.486,-0.133019584020562,0.0084321748793406
3.488,-0.133257319190227,0.0096076233887411
3.49,-0.133480751606493,0.0108037401623574
3.492,-0.133697767334332,0.0120199666196897
3.494,-0.133900456337295,0.0132595327632793
3.496,-0.134089525296865,0.014517559969463
3.498,-0.134276573885701,0.0157935107588831
3.5,-0.134443643592696,0.0170978399899316
3.502,-0.134589923770824,0.0184137348789651
3.504,-0.134731435289503,0.0197643582383738
3.506,-0.134847184327821,0.0211319463195141
3.508,-0.134938070567933,0.0225154110864342
3.51,-0.135018048876048,0.0239201910464722
3.512,-0.135070040982218,0.0253442160006368
3.514,-0.135098399243046,0.0267867721249
3.516,-0.135105472599291,0.0282376170002318
3.518,-0.135097062645324,0.0297208814555331
3.52,-0.135052246886516,0.0312187099833474
3.522,-0.134978380348488,0.0327255076064514
3.524,-0.13487580996827,0.0342458710952149
3.526,-0.134746088119351,0.0357800278218455
3.528,-0.134576339354635,0.0373227376614167
3.53,-0.134390426592279,0.0388855654007345
3.532,-0.134166512768472,0.0404499552530362
3.534,-0.133905616203063,0.0420281856734984
3.536,-0.133613937951135,0.0436110209015535
3.538,-0.133288798039494,0.045197101770104
3.54,-0.13292928557802,0.0467903036514222
3.542,-0.132531665459001,0.0483813031200213
3.544,-0.13209470366631,0.0499735533512127
3.546,-0.13162703887655,0.0515763270365896
3.548,-0.131124882081099,0.0531564082792344
3.55,-0.130585484916067,0.0547591958724438
3.552,-0.129993001257199,0.0563391790179516
3.554,-0.129380009236678,0.0579201550055826
3.556,-0.128728893043874,0.0594816512442487
3.558,-0.128041626680016,0.0610528246072887
3.56,-0.127306968994794,0.0626012937450024
3.562,-0.126541959091887,0.0641377221257256
3.564,-0.125747726616437,0.0656514462487101
3.566,-0.124919649219482,0.0671665749306854
3.568,-0.12404337523327,0.0686553229792709
3.57,-0.123146637318569,0.0701208637402099
3.572,-0.122207400403901,0.0715697357353531
3.574,-0.121242542291728,0.0730040250665179
3.576,-0.120241124672573,0.0744168123781303
3.578,-0.119204577467098,0.075798807550669
3.58,-0.118145316751155,0.0771573837439463
3.582,-0.117056386842755,0.0784875216501691
3.584,-0.115939319457027,0.079787667876838
3.586,-0.114795632329117,0.0810593383894247
3.588,-0.113622472904043,0.0823064285328896
3.59,-0.112431568491549,0.0835109182389944
3.592,-0.111215632646871,0.0846969004524159
3.594,-0.109983087052522,0.0858379449596786
3.596,-0.108718328516021,0.0869639259038876
3.598,-0.107446454529576,0.0880433214193024
3.6,-0.106151223169798,0.0890791656116428
3.602,-0.104845791329316,0.090088283126311
3.604,-0.103532938459454,0.0910629371753087
3.606,-0.102196807020802,0.0920010994090682
3.608,-0.100845638700551,0.0929015751760054
3.61,-0.0994962793802281,0.0937632262189266
3.612,-0.0981363456473813,0.0945970666232414
3.614,-0.09676428458883,0.0953893290299679
3.616,-0.0953955499589138,0.0961394182275591
3.618,-0.0940228920617556,0.096855882077539
3.62,-0.0926445800245832,0.0975430551309458
3.622,-0.0912698613568115,0.0981811096335597
3.624,-0.0899027557251408,0.0987923209469854
3.626,-0.0885339730391196,0.0993678465635147
3.628,-0.0871813091496849,0.0999095639138085
3.63,-0.0858155243937032,0.100411612871369
3.632,-0.0844641020955401,0.100890403110858
3.634,-0.0831204588716142,0.101326326728207
3.636,-0.0817967665640088,0.101728897419514
3.638,-0.080488633405026,0.102116014851804
3.64,-0.0791751072888427,0.102451187225567
3.642,-0.0778899994671157,0.102766937838104
3.644,-0.0766129922786463,0.103058436134696
3.646,-0.0753499100050528,0.103332993253607
3.648,-0.0741120807124769,0.103556153978865
3.65,-0.0728910585893152,0.10377691324386
3.652,-0.0716796926549752,0.103956172785808
3.654,-0.0704835528346551,0.104128984687948
3.656,-0.0693446666881943,0.104272609856621
3.658,-0.0681942952949053,0.104407274010148
3.66,-0.0670673146774804,0.104502869761507
3.662,-0.0659504898269445,0.104598449462842
3.664,-0.0648976857296043,0.104688086258797
3.666,-0.0638390071620947,0.104734481401951
3.668,-0.0628081118514271,0.104778616574542
3.67,-0.0618021979771147,0.104823852252507
3.672,-0.0608190436403519,0.104853525594168
3.674,-0.0598528182711932,0.104876494243169
3.676,-0.0589136730188499,0.104893046685703
3.678,-0.0579996845890144,0.104901346529789
3.68,-0.0571070393662285,0.104908092907218
3.682,-0.0562399114463316,0.104928144627147
3.684,-0.0553911114869687,0.104918566842662
3.686,-0.0545648712321483,0.104925802947165
3.688,-0.053757855872882,0.104933769582555
3.69,-0.0529803224788625,0.104934577683286
3.692,-0.0522112476372549,0.104946266178221
3.694,-0.051456217463515,0.104976108764341
3.696,-0.0507385869043013,0.104987703199246
3.698,-0.0500150823454635,0.105024036202544
3.7,-0.049329752080104,0.10506341903603
3.702,-0.0486525347287052,0.105108108691723
3.704,-0.0480007792863483,0.105157862277724
3.706,-0.0473606189090189,0.105225150175918
3.708,-0.0467116040039834,0.105308183264536
3.71,-0.0460873766902514,0.1053992286345
3.712,-0.0454679569561272,0.105509500272676
3.714,-0.044869163978879,0.105627397362918
3.716,-0.0442700859534147,0.105765432852981
3.718,-0.0436818139001621,0.105911073521269
3.72,-0.0430930156619527,0.106076162607434
3.722,-0.0425138021480388,0.106251282679807
3.724,-0.041929171972909,0.106448430228697
3.726,-0.0413571546234982,0.106655258378529
3.728,-0.0407663003940552,0.106883683487823
3.73,-0.0402108326722279,0.107126415216062
3.732,-0.0396300619145063,0.107385332997342
3.734,-0.0390246216436625,0.107657654144959
3.736,-0.0384510245954823,0.107949935368801
3.738,-0.0378554627819859,0.108254258572592
3.74,-0.0372552136312767,0.108571187262037
3.742,-0.0366413759665766,0.10890137119679
3.744,-0.036021303672405,0.1092525042673
3.746,-0.0353702436618577,0.109604806205493
3.748,-0.0347404976849832,0.10998792620737
3.75,-0.034062903921317,0.110353772466433
3.752,-0.0334062975294924,0.110761712259967
3.754,-0.0327203824979863,0.111169613973228
3.756,-0.0320121760060003,0.111582201910486
3.758,-0.0312794413914503,0.111994855878918
3.76,-0.0305368190470652,0.112433908630421
3.762,-0.0297850024496571,0.112878835528226
3.764,-0.0290040981684565,0.113313615672489
3.766,-0.0282048964236317,0.113763865267677
3.768,-0.0273785416198991,0.114217766113851
3.77,-0.0265377352012739,0.114668633683864
3.772,-0.0256571504899708,0.115105522018422
3.774,-0.0247745607974069,0.115577041711995
3.776,-0.0238603773573638,0.116013322347683
3.778,-0.0229188052752697,0.116467649347911
3.78,-0.0219644681286254,0.116909296619047
3.782,-0.0209804523175656,0.117334406954085
3.784,-0.0199666667725603,0.117770035060122
3.786,-0.0189346545842462,0.11819385125121
3.788,-0.0178788686484182,0.118600872883473
3.79,-0.0167976092431455,0.118996047980565
3.792,-0.0156951134210407,0.119362362555754
3.794,-0.0145661881696623,0.119747983544247
3.796,-0.0134149081230813,0.120098575851083
3.798,-0.0122395506795669,0.120433029225006
3.8,-0.0110490096064468,0.120733313201077
3.802,-0.00982970840509079,0.121045643628191
3.804,-0.00859679612906403,0.121317686519454
3.806,-0.00733708863342449,0.121569084218585
3.808,-0.00605537179014746,0.121801507870074
3.81,-0.00476079277275023,0.122005033763413
3.812,-0.00346507068701705,0.122167435308143
3.814,-0.00213443388190983,0.122331333528862
3.816,-0.000787048443628239,0.122468453681147
3.818,0.00057640546718423,0.122553713358396
3.82,0.00194265931007112,0.122613966853597
3.822,0.00332715633225717,0.122648159088044
3.824,0.00471806568994094,0.122649978093941
3.826,0.0061149580644711,0.122625654321983
3.828,0.0075134958583591,0.122551811704835
3.83,0.0089345286781134,0.122451226668572
3.832,0.0103377333019344,0.12232547927203
3.834,0.011763831295221,0.122151941549142
3.836,0.0131855047419614,0.121951163960143
3.838,0.0145966267379229,0.121715237415797
3.84,0.0160475092874799,0.121458655445522
3.842,0.0174633693816372,0.121152229034449
3.844,0.0188737481798687,0.120799876476506
3.846,0.020263782425673,0.120426749169342
3.848,0.021668469129873,0.120000930740313
3.85,0.0230751845655855,0.119561204047336
3.852,0.024447354694659,0.11907754236377
3.854,0.0258184400488963,0.118557065158213
3.856,0.0271737426103614,0.118008097680251
3.858,0.0285078268849444,0.117425033538237
3.86,0.029818261573777,0.116815029241943
3.862,0.0311284783844504,0.11616352093726
3.864,0.0324000050600784,0.115494581751821
3.866,0.0336893774102071,0.114778855128613
3.868,0.0349242425575446,0.114036852716543
3.87,0.0361180248985121,0.113275045425022
3.872,0.0373042177066653,0.112481541248482
3.874,0.0384887924419071,0.111651125122894
3.876,0.0396132237265539,0.110811411195267
3.878,0.0407401868422417,0.10992911586413
3.88,0.0418141954466352,0.109037732678995
3.882,0.0428690784820098,0.108124471354816
3.884,0.0438886563936259,0.107191041251439
3.886,0.0448868789539743,0.106241946457021
3.888,0.0458310170718174,0.105275943358479
3.89,0.0467554860780879,0.104285137372916
3.892,0.0476359913626088,0.103320062041054
3.894,0.0484969159936607,0.102283238813631
3.896,0.0493189756343541,0.10126418171488
3.898,0.0501165129808694,0.100229299184523
3.9,0.0508567047665106,0.099214621369921
3.902,0.0515748319405812,0.0981528664005452
3.904,0.0522610427141329,0.0971100508077138
