"Freq [GHz]","re(S(Antenna1_1_1,Antenna1_1_1)) []","im(S(Antenna1_1_1,Antenna1_1_1)) []"
5,0.0518549844861618,0.184713605761599
5.0016,0.0529288156151198,0.18378914001759
5.0032,0.0539882955361228,0.182851459148465
5.0048,0.0550330952783516,0.181900954426146
5.0064,0.0560628986534292,0.180938028036806
5.008,0.0570774026386365,0.179963092688619
5.0096,0.0580763177501258,0.17897657121752
5.0112,0.0590593684071369,0.177978896178972
5.0128,0.0600262932932083,0.176970509418739
5.0144,0.0609768457003916,0.175951861637669
5.016,0.0619107938694617,0.174923411938483
5.0176,0.0628279213151303,0.173885627357568
5.0192,0.063728027147256,0.172838982385782
5.0208,0.0646109263700568,0.171783958472263
5.0224,0.0654764501773198,0.170721043514243
5.024,0.0663244462286147,0.16965073133587
5.0256,0.0671547789195032,0.168573521150039
5.0272,0.067967329621753,0.167489917007718
5.0288,0.0687619969275477,0.166400427233096
5.0304,0.0695386968617015,0.165305563845822
5.032,0.0702973630788713,0.164205841971158
5.0336,0.0710379470547714,0.163101779236129
5.0352,0.0717604182413865,0.161993895154993
5.0368,0.0724647642131893,0.160882710501295
5.0384,0.0731509907903542,0.159768746671843
5.04,0.0738191221409766,0.158652525035781
5.0416,0.0744692008572889,0.157534566277164
5.0432,0.0751012880138815,0.156415389730244
5.0448,0.0757154632019206,0.155295512700351
5.0464,0.0763118245343715,0.154175449779789
5.048,0.076890488629219,0.153055712163723
5.0496,0.0774515905676924,0.151936806947078
5.0512,0.0779952838234887,0.150819236428437
5.0528,0.078521740168,0.149703497406945
5.0544,0.0790311495415384,0.148590080472214
5.056,0.0795237199065664,0.147479469299228
5.0576,0.0799996770639258,0.146372139935255
5.0592,0.0804592644390677,0.145268560099761
5.0608,0.0809027428492864,0.144169188471318
5.0624,0.0813303902279507,0.143074473990529
5.064,0.0817425013287408,0.141984855161937
5.0656,0.0821393873948825,0.140900759360952
5.0672,0.0825213758013859,0.139822602155765
5.0688,0.0828888096612826,0.138750786627277
5.0704,0.0832420474088669,0.137685702709014
5.072,0.0835814623499355,0.136627726534058
5.0736,0.0839074421770305,0.135577219794968
5.0752,0.0842203884656825,0.134534529125705
5.0768,0.0845207161326551,0.133499985487559
5.0784,0.0848088528691903,0.132473903585073
5.08,0.0850852385412557,0.131456581289971
5.0816,0.0853503245727913,0.130448299100083
5.0832,0.0856045732899594,0.129449319604267
5.0848,0.0858484572443928,0.128459886982342
5.0864,0.0860824585144462,0.127480226527004
5.088,0.0863070679714471,0.126510544191758
5.0896,0.0865227845359485,0.125551026164833
5.0912,0.0867301144028803,0.124601838474111
5.0928,0.0869295702441042,0.123663126625047
5.0944,0.0871216703971467,0.122735015263584
5.096,0.0873069380309544,0.12181760787808
5.0976,0.0874859002951481,0.120910986532218
5.0992,0.0876590874529789,0.120015211628925
5.1008,0.0878275996471832,0.119132212246285
5.1024,0.0879921814622593,0.118261942251451
5.104,0.0881528662498221,0.117402471636557
5.1056,0.0883101829016605,0.116553757128622
5.1072,0.0884646581335928,0.115715733377461
5.1088,0.0886168155647222,0.114888312994584
5.1104,0.0887671747836933,0.114071386618099
5.112,0.0889162504239464,0.113264823032609
5.1136,0.0890645512309735,0.112468469317113
5.1152,0.0892125791415716,0.111682151042893
5.1168,0.0893608283580981,0.110905672507406
5.1184,0.0895097844387221,0.110138817016176
5.12,0.0896599233906783,0.109381347195672
5.1216,0.0898117107765174,0.108633005355194
5.1232,0.0899656008283577,0.107893513888747
5.1248,0.090122035589133,0.107162575712922
5.1264,0.0902814440528419,0.106439874746762
5.128,0.0904442413397938,0.105725076430632
5.1296,0.090610827878855,0.105017828285085
5.1312,0.0907815886236913,0.104317760502721
5.1328,0.0909568922830118,0.103624486583044
5.1344,0.0911370905848071,0.102937603994321
5.136,0.09132251756159,0.102256694880422
5.1376,0.0915134888696295,0.101581326790678
5.1392,0.0917103011361872,0.100911053447714
5.1408,0.0919132313427477,0.10024541554629
5.1424,0.092122536238249,0.0995839415781366
5.144,0.0923384517913091,0.0989261486837856
5.1456,0.0925611926784511,0.0982715435383928
5.1472,0.0927909518063237,0.0976196232505636
5.1488,0.0930278998819216,0.096969876288168
5.1504,0.0932721850157995,0.0963217834341571
5.152,0.0935239323692865,0.0956748187443696
5.1536,0.0937832438476941,0.0950284505359391
5.1552,0.094050197830523,0.0943821423847943
5.1568,0.0943248489506655,0.0937353541376543
5.1584,0.0946072279186038,0.0930875429346234
5.16,0.0948973413856062,0.0924381642404759
5.1616,0.0951951718649171,0.0917866728835424
5.1632,0.0955006776879452,0.0911325240982863
5.1648,0.0958137930084453,0.0904751745718815
5.1664,0.0961344278606986,0.0898140834876789
5.168,0.0964624682596856,0.089148713569977
5.1696,0.0967977763422571,0.0884785321245783
5.1712,0.0971401905662981,0.0878030120735512
5.1728,0.0974895259468894,0.0871216329749794
5.1744,0.0978455743394619,0.0864338820437124
5.176,0.0982081047759478,0.0857392551471076
5.1776,0.0985768638319252,0.0850372577977728
5.1792,0.0989515760527588,0.0843274061182981
5.1808,0.099331944408733,0.0836092277959906
5.1824,0.0997176508021823,0.0828822630115977
5.184,0.100108356614614,0.0821460653440329
5.1856,0.100503703286824,0.0814002026570916
5.1872,0.100903312948013,0.0806442579531673
5.1888,0.101306789072885,0.0798778301989596
5.1904,0.101713717182753,0.0791005351241822
5.192,0.102123665578629,0.0783120059882625
5.1936,0.10253618610231,0.0775118943090422
5.1952,0.102950814940459,0.0766998705644679
5.1968,0.10336707344768,0.0758756248482842
5.1984,0.103784469002582,0.0750388674987166
5.2,0.104202495891839,0.0741893296781574
5.2016,0.104621885342245,0.0733230023188397
5.2032,0.105040566603758,0.0724433256665163
5.2048,0.105457994501538,0.0715501136931292
5.2064,0.10587361544198,0.0706432034404754
5.208,0.106286868417734,0.0697224553538743
5.2096,0.106697186019727,0.0687877535598248
5.2112,0.107103995467165,0.0678390061076666
5.2128,0.107506719636538,0.0668761451562291
5.2144,0.107904778104612,0.0658991271224872
5.216,0.108297588192212,0.0649079327802047
5.2176,0.108684566005501,0.0639025673095826
5.2192,0.109065127483327,0.0628830603068966
5.2208,0.109438689437884,0.0618494657411399
5.2224,0.109804670591366,0.0608018618726558
5.224,0.110162492605806,0.0597403511177732
5.2256,0.110511581106114,0.0586650598764356
5.2272,0.110851366684625,0.0575761383118306
5.2288,0.111181285905911,0.0564737600850136
5.2304,0.111500782283296,0.0553581220525337
5.232,0.111809307246752,0.054229443913052
5.2336,0.112106321088791,0.0530879678229637
5.2352,0.112391293892349,0.0519339579650115
5.2368,0.112663706435653,0.0507677000789048
5.2384,0.112923051071092,0.0495895009609284
5.24,0.113168832582064,0.0483996879175583
5.2416,0.113400569012828,0.0471986081890688
5.2432,0.113617792467333,0.0459866283411428
5.2448,0.113820049878049,0.0447641336214773
5.2464,0.114006903752779,0.0435315272853914
5.248,0.11417793287547,0.0422892298924286
5.2496,0.114332732984006,0.0410376785799641
5.2512,0.114470917408,0.039777326302803
5.2528,0.114592117678568,0.0385086410587869
5.2544,0.114695984090097,0.037232105078394
5.256,0.114782186240004,0.0359482140083377
5.2576,0.114850413515486,0.0346574760661714
5.2592,0.114900375555251,0.033360411179885
5.2608,0.114931802661255,0.032057550116508
5.2624,0.114944446183412,0.0307494335897075
5.264,0.114938078850306,0.0294366113623908
5.2656,0.114912495074886,0.028119641335303
5.2672,0.114867511208157,0.0267990886296312
5.2688,0.114802965758853,0.0254755246616029
5.2704,0.114718719573107,0.0241495262130909
5.272,0.114614655974104,0.0228216745022135
5.2736,0.114490680854733,0.0214925542479405
5.2752,0.114346722745217,0.0201627527406961
5.2768,0.114182732823741,0.0188328589109673
5.2784,0.113998684905071,0.017503462404108
5.28,0.113794575379152,0.0161751526623507
5.2816,0.113570423115707,0.0148485180118545
5.2832,0.113326269332823,0.0135241447599197
5.2848,0.11306217742652,0.0122026163023984
5.2864,0.112778232766316,0.0108845122436137
5.288,0.112474542455784,0.00957040752927491
5.2896,0.112151235054089,0.00826087159366063
5.2912,0.111808460274524,0.00695646752343792
5.2928,0.111446388639031,0.0056577512423916
5.2944,0.111065211108711,0.00436527070714798
5.296,0.11066513868333,0.00307956512780963
5.2976,0.110246401965804,0.00180116421058508
5.2992,0.109809250708683,0.00053058742142946
5.3008,0.109352515634622,-0.000730520840319205
5.3024,0.108876622519839,-0.0019815012062938
5.304,0.108383369818566,-0.0032229604764524
5.3056,0.107873090406488,-0.0044544391454291
5.3072,0.107346132949174,-0.00567549184887665
5.3088,0.106802861272495,-0.00688568791881202
5.3104,0.106243653716033,-0.00808461190395102
5.312,0.105668902468482,-0.0092718640610445
5.3136,0.105079012888035,-0.0104470608182054
5.3152,0.104474402812765,-0.0116098352112361
5.3168,0.103855501856994,-0.0127598372809467
5.3184,0.103222750691652,-0.0138967344484723
5.32,0.102576600324624,-0.0150202118605825
5.3216,0.101917511361097,-0.0161299726989891
5.3232,0.101245953269883,-0.0172257384596439
5.3248,0.100562403633741,-0.0183072492090385
5.3264,0.099867347397693,-0.0193742638024905
5.328,0.0991612761153174,-0.0204265600734317
5.3296,0.0984446871940476,-0.0214639349936839
5.3312,0.0977180831364505,-0.022486204809737
5.3328,0.096981970780502,-0.0234932051360117
5.3344,0.0962368605498495,-0.0244847910301257
5.336,0.0954832656920678,-0.025460837037146
5.3376,0.0947217015349041,-0.0264212372028411
5.3392,0.0939526847355155,-0.0273659050589221
5.3408,0.0931767325433956,-0.0282947735812819
5.3424,0.0923943620632949,-0.029207795124223
5.344,0.0916060895306299,-0.0301049413226837
5.3456,0.0908124295909854,-0.0309862029694524
5.3472,0.0900138945911068,-0.0318515898723812
5.3488,0.0892109938787857,-0.0327011306775848
5.3504,0.0884042331128344,-0.0335348726746414
5.352,0.0875941135875557,-0.0343528815787775
5.3536,0.086781131563601,-0.0351552412820517
5.3552,0.0859657776163226,-0.0359420535915293
5.3568,0.0851485359965173,-0.0367134379394481
5.3584,0.0843298840065617,-0.037469531073379
5.36,0.0835102913855412,-0.0382104867273756
5.3616,0.0826902197163687,-0.0389364752731216
5.3632,0.0818701218438991,-0.0396476833470631
5.3648,0.0810504413140333,-0.0403443134695403
5.3664,0.0802316118248169,-0.041026583632905
5.368,0.0794140566955307,-0.0416947268846348
5.3696,0.0785981883547747,-0.0423489908844357
5.3712,0.0777844078495442,-0.0429896374523395
5.3728,0.076973104361301,-0.0436169420987887
5.3744,0.0761646547560344,-0.0442311935427189
5.376,0.0753594231413202,-0.0448326932096264
5.3776,0.0745577604473687,-0.0454217547266328
5.3792,0.0737600040260697,-0.0459987033975363
5.3808,0.0729664772730292,-0.0465638756678583
5.3824,0.0721774892646011,-0.0471176185838788
5.384,0.0713933344179125,-0.0476602892316636
5.3856,0.0706142921698835,-0.0481922541800827
5.3872,0.0698406266812399,-0.0487138889008214
5.3888,0.0690725865525233,-0.0492255771913785
5.3904,0.0683104045660916,-0.0497277105830607
5.392,0.0675542974531191,-0.0502206877469621
5.3936,0.0668044656715855,-0.0507049138919415
5.3952,0.0660610932152667,-0.0511808001545831
5.3968,0.0653243474337138,-0.0516487629911551
5.3984,0.0645943788872335,-0.0521092235555522
5.4,0.0638713212048582,-0.0525626070832362
5.4016,0.0631595052023171,-0.0530098644921602
5.4032,0.0624547574639978,-0.0534512175456897
5.4048,0.0617571432049086,-0.0538870953017083
5.4064,0.0610667107176321,-0.0543179275916199
5.408,0.0603834913822774,-0.0547441444070384
5.4096,0.0597074996914291,-0.0551661752939675
5.4112,0.0590387333000914,-0.0555844487458718
5.4128,0.0583771730936278,-0.0559993916001406
5.4144,0.0577227832766997,-0.0564114284368386
5.416,0.0570755114801996,-0.0568209809822503
5.4176,0.0564352888911845,-0.0572284675149114
5.4192,0.0558020303978012,-0.0576343022757355
5.4208,0.0551756347572129,-0.0580388948895279
5.4224,0.0545559847865219,-0.0584426497807906
5.424,0.0539429475596917,-0.0588459656075163
5.4256,0.0533363746444605,-0.0592492346959794
5.4272,0.0527361023342605,-0.0596528424845087
5.4288,0.0521419519211299,-0.0600571669702566
5.4304,0.051553729973626,-0.0604625781779565
5.432,0.0509712286337312,-0.0608694376226731
5.4336,0.0503942259437659,-0.0612780977915402
5.4352,0.04982248617229,-0.0616889016344925
5.4368,0.0492557601790138,-0.0621021820619835
5.4384,0.0486937857756962,-0.0625182614647004
5.44,0.0481362881260511,-0.0629374512282644
5.4416,0.0475829801416469,-0.063360051280925
5.4432,0.0470335629118103,-0.0637863496382419
5.4448,0.0464877261365239,-0.0642166219727621
5.4464,0.045945148585326,-0.0646511311906851
5.448,0.045405498564211,-0.0650901270295192
5.4496,0.0448684344005293,-0.065533845668728
5.4512,0.0443336049428831,-0.0659825093563721
5.4528,0.0438006500760263,-0.0664363260547378
5.4544,0.0432692012447656,-0.0668954891019562
5.456,0.042738881994856,-0.0673601768926191
5.4576,0.0422093085259017,-0.0678305525753804
5.4592,0.0416800902582565,-0.0683067637725522
5.4608,0.0411508304009249,-0.0687889423196895
5.4624,0.0406211265474612,-0.0692772040181708
5.464,0.0400905712648713,-0.0697716484177671
5.4656,0.0395587527035188,-0.0702723586172013
5.4672,0.0390252552080275,-0.0707794010837026
5.4688,0.0384896599442853,-0.0712928254945518
5.4704,0.037951545522252,-0.0718126646096176
5.472,0.0374104886373678,-0.0723389341528848
5.4736,0.036866064708464,-0.0728716327279747
5.4752,0.036317848525171,-0.0734107417536596
5.4768,0.0357654148971342,-0.073956225423367
5.4784,0.0352083393075273,-0.0745080306856773
5.48,0.0346461985659722,-0.0750660872558129
5.4816,0.0340785714694536,-0.0756303076441224
5.4832,0.0335050394522446,-0.0762005872175545
5.4848,0.0329251872489261,-0.0767768042751265
5.4864,0.0323386035423185,-0.077358820159384
5.488,0.0317448816214041,-0.077946479386856
5.4896,0.0311436200232618,-0.078539609802501
5.4912,0.0305344231839994,-0.079138022764147
5.4928,0.0299169020696923,-0.0797415133479241
5.4944,0.0292906748153202,-0.0803498605756919
5.496,0.0286553673437105,-0.0809628276764601
5.4976,0.0280106139864841,-0.0815801623658011
5.4992,0.0273560580860046,-0.0822015971462576
5.5008,0.0266913525943279,-0.0828268496387453
5.5024,0.0260161606591583,-0.0834556229369476
5.504,0.0253301561918083,-0.0840876059787041
5.5056,0.0246330244301584,-0.0847224739453962
5.5072,0.0239244624806219,-0.0853598886853248
5.5088,0.0232041798521154,-0.0859994991540827
5.5104,0.0224718989610314,-0.0866409418799213
5.512,0.0217273556362122,-0.0872838414461148
5.5136,0.0209702995909313,-0.0879278109993155
5.5152,0.0202004948828761,-0.0885724527759073
5.5168,0.0194177203561379,-0.0892173586383513
5.5184,0.0186217700571986,-0.0898621106465308
5.52,0.0178124536339303,-0.0905062816280879
5.5216,0.0169895967105908,-0.0911494357787581
5.5232,0.0161530412388318,-0.091791129275699
5.5248,0.0153026458307008,-0.0924309108978171
5.5264,0.0144382860566557,-0.0930683226690886
5.528,0.0135598547325788,-0.0937029005108775
5.5296,0.012667262169799,-0.0943341749062489
5.5312,0.0117604364071118,-0.0949616715762812
5.5328,0.0108393234078113,-0.0955849121643717
5.5344,0.00990388723971815,-0.0962034149328426
5.536,0.00895411022322193,-0.0968166954615398
5.5376,0.00798999304731622,-0.0974242673589329
5.5392,0.00701155486764662,-0.0980256429750102
5.5408,0.00601883336355884,-0.0986203341204713
5.5424,0.00501188478315462,-0.0992078527877168
5.544,0.00399078394134701,-0.099787711874338
5.5456,0.00295562420292265,-0.100359425909602
5.5472,0.00190651743260976,-0.100922511775136
5.5488,0.000843593912148759,-0.101476489429809
5.5504,-0.000232997762634478,-0.102020882631013
5.552,-0.00132309082374895,-0.102555219647943
5.5536,-0.00242650049395276,-0.103079033972872
5.5552,-0.00354302417866855,-0.103591865029429
5.5568,-0.00467244169289106,-0.104093258865878
5.5584,-0.00581451550409151,-0.104582768845386
5.56,-0.00696899101411409,-0.105059956328301
5.5616,-0.00813559686307741,-0.105524391333428
5.5632,-0.00931404525926296,-0.105975653202296
5.5648,-0.0105040323330048,-0.106413331237435
5.5664,-0.0117052385275704,-0.106837025331645
5.568,-0.0129173289960451,-0.107246346586275
5.5696,-0.0141399540452062,-0.107640917904489
5.5712,-0.0153727495793955,-0.108020374574545
5.5728,-0.016615337590386,-0.108384364830066
5.5744,-0.0178673266502525,-0.108732550396313
5.576,-0.0191283124382281,-0.109064607013465
5.5776,-0.0203978782855652,-0.109380224935892
5.5792,-0.0216755957333861,-0.109679109417433
5.5808,-0.0229610251185398,-0.109960981167678
5.5824,-0.0242537161744468,-0.110225576787244
5.584,-0.0255532086459436,-0.110472649180058
5.5856,-0.0268590329221243,-0.110701967940642
5.5872,-0.0281707106871812,-0.110913319714401
5.5888,-0.0294877555802384,-0.111106508534904
5.5904,-0.0308096738711866,-0.111281356133178
5.592,-0.0321359651475099,-0.111437702218003
5.5936,-0.0334661230141171,-0.111575404736199
5.5952,-0.0347996357951656,-0.111694340097931
5.5968,-0.036135987256883,-0.111794403375003
5.5984,-0.0374746573256876,-0.111875508475164
5.6,-0.0388151228205081,-0.111937588286415
5.6016,-0.0401568443351992,-0.111976297806314
5.6032,-0.0414989872060539,-0.111995900322291
5.6048,-0.0428410224955185,-0.111996404192964
5.6064,-0.0441824220082032,-0.111977837124459
5.608,-0.0455226590396916,-0.111940246128727
5.6096,-0.0468612091262449,-0.111883697450881
5.6112,-0.0481975507904144,-0.111808276466516
5.6128,-0.0495311662749445,-0.111714087548053
5.6144,-0.050861542280578,-0.111601253909071
5.616,-0.0521881706928565,-0.111469917411653
5.6176,-0.0535105492949305,-0.111320238351734
5.6192,-0.0548281824793582,-0.111152395211453
5.6208,-0.0561405819479085,-0.110966584389507
5.6224,-0.0574472673913631,-0.110763019901516
5.624,-0.0587477671713213,-0.110541933052388
5.6256,-0.0600416189750011,-0.110303572088689
5.6272,-0.0613283704610433,-0.110048201815019
5.6288,-0.062607579894313,-0.109776103202395
5.6304,-0.0638788167557084,-0.109487572954637
5.632,-0.0651416623379623,-0.109182923061758
5.6336,-0.0663957103274524,-0.108862480334362
5.6352,-0.0676405673640043,-0.10852658590005
5.6368,-0.0688758535747065,-0.108175594701822
5.6384,-0.0701012031007184,-0.107809874951493
5.64,-0.071316264589085,-0.107429807588116
5.6416,-0.0725207016735495,-0.107035785694403
5.6432,-0.0737141934233747,-0.106628213918156
5.6448,-0.074896434776161,-0.106207507856708
5.6464,-0.0760671369436699,-0.105774093439359
5.648,-0.0772260277956472,-0.105328406289833
5.6496,-0.0783728522126578,-0.104870891072725
5.6512,-0.0795073724219137,-0.104402000835968
5.6528,-0.0806293683001099,-0.103922196324297
5.6544,-0.0817386376552665,-0.103431945303723
5.656,-0.0828349964815723,-0.102931721856012
5.6576,-0.0839182791822338,-0.102422005677173
5.6592,-0.0849883387703234,-0.101903281362946
5.6608,-0.0860450470426432,-0.101376037685504
5.6624,-0.0870882947205851,-0.100840766871657
5.664,-0.0881179915699988,-0.100297963866621
5.6656,-0.0891340664900619,-0.0997481256008383
5.6672,-0.0901364675691653,-0.0991917502514981
5.6688,-0.091125162125794,-0.0986293365024688
5.6704,-0.0921001367044204,-0.0980613828039337
5.672,-0.0930613970583981,-0.097488386630674
5.6736,-0.094008968097872,-0.0969108437460173
5.6752,-0.0949428938066862,-0.0963292474614935
5.6768,-0.0958632371393044,-0.0957440879051962
5.6784,-0.0967700798837331,-0.0951558512943512
5.68,-0.0976635224994593,-0.0945650192088896
5.6816,-0.0985436839293907,-0.0939720678770293
5.6832,-0.0994107013818052,-0.0933774674618609
5.6848,-0.10026473008731,-0.0927816813639408
5.6864,-0.101105943027808,-0.0921851655278891
5.688,-0.101934530644479,-0.0915883677579951
5.6896,-0.102750700511759,-0.0909917270498272
5.6912,-0.103554676994338,-0.0903956729338504
5.6928,-0.104346700872167,-0.0898006248250472
5.6944,-0.105127028946471,-0.0892069913945468
5.696,-0.105895933619777,-0.0886151699522575
5.6976,-0.106653702452947,-0.0880255458465075
5.6992,-0.107400637696226,-0.0874384918766878
5.7008,-0.108137055807305,-0.0868543677329025
5.7024,-0.108863286932384,-0.0862735194386252
5.704,-0.109579674385256,-0.0856962788273574
5.7056,-0.110286574088405,-0.0851229630302948
5.7072,-0.110984354006104,-0.0845538739839973
5.7088,-0.111673393557539,-0.0839892979680641
