"Freq [GHz]","re(S(Antenna1_1_1,Antenna1_1_1)) []","im(S(Antenna1_1_1,Antenna1_1_1)) []"
5,0.0464114380617618,0.178114470784899
5.0016,0.0472310188946198,0.17740727051109
5.0032,0.0480446214869228,0.176696563012165
5.0048,0.0488522848032516,0.175982435127346
5.0064,0.0496540507236292,0.175264970698506
5.008,0.0504499638956365,0.174544250420119
5.0096,0.0512400715764258,0.17382035169692
5.0112,0.0520244234666369,0.173093348509472
5.0128,0.0528030715359083,0.172363311288139
5.0144,0.0535760698403916,0.171630306796369
5.016,0.0543434743330617,0.170894398023483
5.0176,0.0551053426672303,0.170155644087568
5.0192,0.055861733994056,0.169414100149282
5.0208,0.0566127087541568,0.168669817335863
5.0224,0.0573583284644198,0.167922842677943
5.024,0.0580986555004347,0.16717321905687
5.0256,0.0588337528760632,0.166420985164539
5.0272,0.059563684019133,0.165666175476318
5.0288,0.0602885125458677,0.164908820234896
5.0304,0.0610083020336515,0.164148945448822
5.032,0.0617231157933713,0.163386572902558
5.0336,0.0624330166419714,0.162621720179729
5.0352,0.0631380666761865,0.161854400699993
5.0368,0.0638383270478893,0.161084623767695
5.0384,0.0645338577420542,0.160312394634543
5.04,0.0652247173589766,0.159537714574181
5.0416,0.0659109628993889,0.158760580969464
5.0432,0.0665926495553815,0.157980987412344
5.0448,0.0672698305073206,0.157198923814851
5.0464,0.0679425567265715,0.156414376533089
5.048,0.068610876786019,0.155627328500923
5.0496,0.0692748366780924,0.154837759375678
5.0512,0.0699344796417887,0.154045645693137
5.0528,0.0705898459985,0.153250961033545
5.0544,0.0712409729980384,0.152453676195314
5.056,0.0718878946748664,0.151653759378628
5.0576,0.0725306417152258,0.150851176376255
5.0592,0.0731692413357677,0.150045890771761
5.0608,0.0738037171741864,0.149237864144418
5.0624,0.0744340891911507,0.148427056279329
5.064,0.0750603735863408,0.147613425383737
5.0656,0.0756825827261825,0.146796928306252
5.0672,0.0763007250847859,0.145977520760365
5.0688,0.0769148051985826,0.145155157550177
5.0704,0.0775248236344669,0.144329792797814
5.072,0.0781307769702355,0.143501380172258
5.0736,0.0787326577902305,0.142669873117668
5.0752,0.0793304546933825,0.141835225081305
5.0768,0.0799241523144551,0.140997389739559
5.0784,0.0805137313593903,0.140156321221673
5.08,0.0810991686526557,0.139311974330071
5.0816,0.0816804371983913,0.138464304757033
5.0832,0.0822575062528594,0.137613269295837
5.0848,0.0828303414098928,0.136758826046663
5.0864,0.0833989046978462,0.135900934616064
5.088,0.0839631546868471,0.135039556309308
5.0896,0.0845230466081485,0.134174654315033
5.0912,0.0850785324827803,0.133306193881211
5.0928,0.0856295612596042,0.132434142482647
5.0944,0.0861760789629667,0.131558469978384
5.096,0.0867180288479544,0.13067914875938
5.0976,0.0872553515636481,0.129796153885218
5.0992,0.0877879853230789,0.128909463210425
5.1008,0.0883160523432832,0.128018936006685
5.1024,0.0888394700941593,0.127124535788051
5.104,0.0893579776839221,0.126226365420757
5.1056,0.0898715041028605,0.125324416511122
5.1072,0.0903799769251929,0.124418683962561
5.1088,0.0908833225035222,0.123509166023684
5.1104,0.0913814661659933,0.122595864325499
5.112,0.0918743324117464,0.121678783904809
5.1136,0.0923618451072735,0.120757933216113
5.1152,0.0928439276802716,0.119833324131593
5.1168,0.0933205033115981,0.118904971928806
5.1184,0.093791495124122,0.117972895267276
5.12,0.0942568263678783,0.117037116152772
5.1216,0.0947164206006174,0.116097659891794
5.1232,0.0951702018630577,0.115154555034847
5.1248,0.095618094848733,0.114207833309522
5.1264,0.0960600250668419,0.113257529544162
5.128,0.0964959189986938,0.112303681582432
5.1296,0.096925704245355,0.111346330189085
5.1312,0.0973493096687913,0.110385518948021
5.1328,0.0977666655232118,0.109421294152644
5.1344,0.0981777035781071,0.108453704690421
5.136,0.09858235723139,0.107482801920022
5.1376,0.0989805616132295,0.106508639544678
5.1392,0.0993722536801872,0.105531273480014
5.1408,0.0997573722987677,0.10455076171849
5.1424,0.100135858318749,0.103567164190337
5.144,0.100507654636399,0.102580542622986
5.1456,0.100872706247017,0.101590960397793
5.1472,0.101230960287154,0.100598482407264
5.1488,0.101582366066382,0.099603174911068
5.1504,0.101926875088849,0.0986051053934571
5.152,0.102264441064786,0.0976043424214696
5.1536,0.102595019911894,0.0966009555065391
5.1552,0.102918569747723,0.0955950149667943
5.1568,0.103235050871865,0.0945865917953543
5.1584,0.103544425740104,0.0935757575305234
5.16,0.103846658929306,0.0925625841321759
5.1616,0.104141717094917,0.0915471438627424
5.1632,0.104429568920145,0.0905295091745864
5.1648,0.104710185059145,0.0895097526030814
5.1664,0.104983538072099,0.0884879466669789
5.168,0.105249602356286,0.087464163776177
5.1696,0.105508354070157,0.0864384761461783
5.1712,0.105759771054098,0.0854109557219512
5.1728,0.106003832746089,0.0843816741082794
5.1744,0.106240520095362,0.0833507025103123
5.176,0.106469815471748,0.0823181116810076
5.1776,0.106691702575025,0.0812839718784728
5.1792,0.106906166341459,0.0802483528317981
5.1808,0.107113192850633,0.0792113237152906
5.1824,0.107312769232682,0.0781729531318977
5.184,0.107504883575714,0.0771333091052329
5.1856,0.107689524835624,0.0760924590795916
5.1872,0.107866682747613,0.0750504699291673
5.1888,0.108036347740985,0.0740074079743596
5.1904,0.108198510857253,0.0729633390064822
5.192,0.108353163672929,0.0719183283194625
5.1936,0.10850029822621,0.0708724407492422
5.1952,0.108639906950059,0.0698257407186678
5.1968,0.10877198261038,0.0687782922890842
5.1984,0.108896518250782,0.0677301592178166
5.2,0.109013507143939,0.0666814050202574
5.2016,0.109122561376945,0.0656320902011397
5.2032,0.109224055583058,0.0645823089799163
5.2048,0.109317984965738,0.0635321246217293
5.2064,0.10940434484668,0.0624816003774954
5.208,0.109483130653734,0.0614307995604543
5.2096,0.109554337918527,0.0603797856249848
5.2112,0.109617962281665,0.0593286222451736
5.2128,0.109673999506838,0.0582773733932391
5.2144,0.109722445503412,0.0572261034170472
5.216,0.109763296356712,0.0561748771158647
5.2176,0.109796548367901,0.0551237598136826
5.2192,0.109822198100247,0.0540728174295966
5.2208,0.109840242434584,0.0530221165440399
5.2224,0.109850678631766,0.0519717244611557
5.224,0.109853504402006,0.0509217092654732
5.2256,0.109848717981914,0.0498721398735356
5.2272,0.109836318216725,0.0488230860785306
5.2288,0.109816304649811,0.0477746185886136
5.2304,0.109788677616096,0.0467268090578337
5.232,0.109753438341652,0.045679730109252
5.2336,0.109710589046291,0.0446334553492637
5.2352,0.109660133050849,0.0435880593740115
5.2368,0.109602074886553,0.0425436177664048
5.2384,0.109536420406892,0.0415002070837284
5.24,0.109463176901064,0.0404579048361583
5.2416,0.109382353208128,0.0394167894550688
5.2432,0.109293959831133,0.0383769402516428
5.2448,0.109198009050449,0.0373384373653773
5.2464,0.109094515035479,0.0363013617030914
5.248,0.10898349395457,0.0352657948675286
5.2496,0.108864964080706,0.0342318190758641
5.2512,0.1087389458947,0.033199517069403
5.2528,0.108605462182868,0.0321689720125869
5.2544,0.108464538129097,0.031140267383994
5.256,0.108316201401504,0.0301134868572377
5.2576,0.108160482231986,0.0290887141744714
5.2592,0.107997413487451,0.028066033010485
5.2608,0.107827030734055,0.027045526830708
5.2624,0.107649372291612,0.0260272787404075
5.264,0.107464479278806,0.0250113713289908
5.2656,0.107272395648686,0.023997886507303
5.2672,0.107073168212957,0.0229869053400312
5.2688,0.106866846655753,0.0219785078739029
5.2704,0.106653483536107,0.0209727729616909
5.272,0.106433134277854,0.0199697780836135
5.2736,0.106205857148153,0.0189695991659405
5.2752,0.105971713223292,0.0179723103992961
5.2768,0.105730766341841,0.0169779840556673
5.2784,0.105483083045231,0.015986690305808
5.28,0.105228732505352,0.0149984970386507
5.2816,0.104967786439507,0.0140134696822145
5.2832,0.104700319012223,0.0130316710278197
5.2848,0.10442640672482,0.0120531610586984
5.2864,0.104146128292216,0.0110779967829137
5.288,0.103859564507184,0.0101062320724749
5.2896,0.103566798093389,0.00913791750916063
5.2912,0.103267913545924,0.00817310023773792
5.2928,0.102962996961131,0.0072118238277916
5.2944,0.102652135855811,0.00625412814454798
5.296,0.10233541897593,0.00530004922980963
5.2976,0.102012936095804,0.00434961919398508
5.2992,0.101684777808783,0.00340286611902946
5.3008,0.101351203023722,0.00245993050248079
5.3024,0.101012318969239,0.0015208126392062
5.304,0.100668053670166,0.000585403819647603
5.3056,0.100318497228788,-0.0003462861186291
5.3072,0.0999637393155738,-0.00127425158747665
5.3088,0.0996038689243946,-0.00219849125701202
5.3104,0.0992389741253328,-0.00311900805005102
5.312,0.0988691418155816,-0.0040358091202445
5.3136,0.0984944574698349,-0.00494890581510536
5.3152,0.0981150048908653,-0.00585831362293608
5.3168,0.0977308659613944,-0.00676405210474669
5.3184,0.0973421203989516,-0.00766614480887232
5.32,0.0969488455132244,-0.00856461917158247
5.3216,0.0965511159682971,-0.00945950640088907
5.3232,0.0961490035508827,-0.0103508413449439
5.3248,0.0957425769443413,-0.0112386623465385
5.3264,0.095331901510593,-0.0121230110812905
5.328,0.0949170390806174,-0.0130039323826317
5.3296,0.0944980477541476,-0.0138814740523339
5.3312,0.0940749817101505,-0.014755686658207
5.3328,0.093647891028302,-0.0156266233187357
5.3344,0.0932168215227495,-0.0164943394759257
5.336,0.0927818145889678,-0.017358892656806
5.3376,0.0923429070639041,-0.0182203422245411
5.3392,0.0919001311012155,-0.0190787491196221
5.3408,0.0914535140612956,-0.0199341755930819
5.3424,0.0910030784166949,-0.020786684930723
5.344,0.0905488416744299,-0.0216363411714837
5.3456,0.0900908163145854,-0.0224832088196524
5.3472,0.0896290097462068,-0.0233273525521812
5.3488,0.0891634242806857,-0.0241688369224848
5.3504,0.0886940571230345,-0.0250077260615414
5.352,0.0882209003807557,-0.0258440833773775
5.3536,0.087743941091201,-0.0266779712546517
5.3552,0.0872631612669226,-0.0275094507542293
5.3568,0.0867785379593173,-0.0283385813155481
5.3584,0.0862900433399617,-0.029165420461379
5.36,0.0857976448001412,-0.0299900235071756
5.3616,0.0853013050681687,-0.0308124432754216
5.3632,0.0848009823433991,-0.0316327298169631
5.3648,0.0842966304480333,-0.0324509301389403
5.3664,0.0837881989946169,-0.033267087942505
5.368,0.0832756335700307,-0.0340812433690348
5.3696,0.0827588759347747,-0.0348934327579357
5.3712,0.0822378642365442,-0.0357036884152395
5.3728,0.081712533238501,-0.0365120383950887
5.3744,0.0811828145601344,-0.0373185062948189
5.376,0.0806486369309202,-0.0381231110638264
5.3776,0.0801099264552687,-0.0389258668277329
5.3792,0.0795666068879697,-0.0397267827278363
5.3808,0.0790185999194292,-0.0405258627775584
5.3824,0.0784658254696011,-0.0413231057350788
5.384,0.0779082019889125,-0.0421185049939636
5.3856,0.0773456467661235,-0.0429120484911827
5.3872,0.0767780762410599,-0.0437037186340214
5.3888,0.0762054063220733,-0.0444934922450785
5.3904,0.0756275527060416,-0.0452813405259607
5.392,0.0750444312004191,-0.0460672290405621
5.3936,0.0744559580458855,-0.0468511177166415
5.3952,0.0738620502387667,-0.0476329608673831
5.3968,0.0732626258513138,-0.0484127072305551
5.3984,0.0726576043494335,-0.0491903000283522
5.4,0.0720469069068582,-0.0499656770440362
5.4016,0.0714300136675171,-0.0507392315339602
5.4032,0.0708072503113978,-0.0515103898773897
5.4048,0.0701785477193086,-0.0522790709988083
5.4064,0.0695438398984321,-0.0530451890466199
5.408,0.0689030642486775,-0.0538086535742384
5.4096,0.0682561618179291,-0.0545693697356675
5.4112,0.0676030775444914,-0.0553272384968718
5.4128,0.0669437604869278,-0.0560821568596406
5.4144,0.0662781640385997,-0.0568340180982386
5.416,0.0656062461287996,-0.0575827120089503
5.4176,0.0649279694070845,-0.0583281251690114
5.4192,0.0642433014123012,-0.0590701412063355
5.4208,0.0635522147248129,-0.0598086410774279
5.4224,0.0628546871013219,-0.0605435033536906
5.424,0.0621507015923917,-0.0612746045138163
5.4256,0.0614402466425605,-0.0620018192411794
5.4272,0.0607233161715605,-0.0627250207271087
5.4288,0.0599999096381299,-0.0634440809754566
5.4304,0.059270032084526,-0.0641588711109565
5.432,0.0585336941642312,-0.0648692616871731
5.4336,0.0577909121494659,-0.0655751229948402
5.4352,0.05704170792239,-0.0662763253688925
5.4368,0.0562861089466138,-0.0669727394928835
5.4384,0.0555241482225962,-0.0676642366993004
5.44,0.0547558642245511,-0.0683506892663144
5.4416,0.0539813008209469,-0.069031970707975
5.4432,0.0532005071784103,-0.0697079560578519
5.4448,0.0524135376498239,-0.0703785221452421
5.4464,0.051620451646826,-0.0710435478625851
5.448,0.050821313497611,-0.0717029144232192
5.4496,0.0500161922913293,-0.072356505609528
5.4512,0.0492051617082831,-0.0730042080086721
5.4528,0.0483882998386263,-0.0736459112379378
5.4544,0.0475656889887656,-0.0742815081565562
5.456,0.046737415477556,-0.0749108950644191
5.4576,0.0459035694223017,-0.0755339718877804
5.4592,0.0450642445156565,-0.0761506423503522
5.4608,0.0442195377958249,-0.0767608141294895
5.4624,0.0433695494079612,-0.0773643989978708
5.464,0.0425143823612713,-0.0779613129499671
5.4656,0.0416541422804188,-0.0785514763126013
5.4672,0.0407889371528275,-0.0791348138403026
5.4688,0.0399188770734853,-0.0797112547943518
5.4704,0.039044073987652,-0.0802807330073176
5.472,0.0381646414327678,-0.0808431869302848
5.4736,0.037280694280564,-0.0813985596653747
5.4752,0.036392348479371,-0.0819467989832596
5.4768,0.0354997207996342,-0.082487857324467
5.4784,0.0346029285818273,-0.0830216917863773
5.48,0.0337020894877722,-0.0835482640960129
5.4816,0.0327973212572536,-0.0840675405676224
5.4832,0.0318887414700446,-0.0845794920480545
5.4848,0.0309764673138261,-0.0850840938474265
5.4864,0.0300606153596185,-0.085581325658484
5.488,0.0291413013449041,-0.086071171463356
5.4896,0.0282186399647618,-0.086553619428701
5.4912,0.0272927446724994,-0.087028661790947
5.4928,0.0263637274896923,-0.087496294730424
5.4944,0.0254316988261602,-0.0879565182377919
5.496,0.0244967673105105,-0.0884093359702601
5.4976,0.0235590396317041,-0.0888547551013011
5.4992,0.0226186203917646,-0.0892927861632576
5.5008,0.0216756119699679,-0.0897234428832453
5.5024,0.0207301143988683,-0.0901467420145476
5.504,0.0197822252521083,-0.0905627031630041
5.5056,0.0188320395441584,-0.0909713486102962
5.5072,0.0178796496424219,-0.0913727031334248
5.5088,0.0169251451909154,-0.0917667938235827
5.5104,0.0159686130465314,-0.0921536499026213
5.512,0.0150101372261122,-0.0925333025395148
5.5136,0.0140497988666313,-0.0929057846676155
5.5152,0.0130876761954761,-0.0932711308018074
5.5168,0.0121238445127379,-0.0936293768591513
5.5184,0.0111583761844986,-0.0939805599802308
5.52,0.0101913406459303,-0.0943247183549879
5.5216,0.00922280441499081,-0.0946618910518581
5.5232,0.00825283111623183,-0.094992117850799
5.5248,0.00728148151280084,-0.0953154390823172
5.5264,0.00630881354865573,-0.0956318954708886
5.528,0.00533488239727876,-0.0959415279845775
5.5296,0.00435974051989899,-0.0962443776914489
5.5312,0.00338343772941185,-0.0965404856220812
5.5328,0.0024060212614113,-0.0968298926391717
5.5344,0.00142753585161815,-0.0971126393147426
5.536,0.000448023817521929,-0.0973887658150398
5.5376,-0.000532474854183783,-0.0976583117925329
5.5392,-0.00151392241665338,-0.0979213162862102
5.5408,-0.00249628326794116,-0.0981778176300713
5.5424,-0.00347952385434538,-0.0984278533695168
5.544,-0.00446361256985299,-0.098671460185638
5.5456,-0.00544851965527735,-0.0989086738275021
5.5472,-0.00643421709549024,-0.0991395290529362
5.5488,-0.00742067851695124,-0.0993640595768092
5.5504,-0.00840787908423448,-0.0995822980265133
5.552,-0.00939579539834895,-0.0997942759058431
5.5536,-0.0103844053951528,-0.100000023565812
5.5552,-0.0113736882457685,-0.100199570181909
5.5568,-0.0123636242590911,-0.100392943739008
5.5584,-0.0133541947867915,-0.100580171021965
5.56,-0.0143453821308141,-0.100761277612591
5.5616,-0.0153371694542774,-0.100936287892198
5.5632,-0.016329540696063,-0.101105225049456
5.5648,-0.0173224804891048,-0.101268111093135
5.5664,-0.0183159740826704,-0.101424966869245
5.568,-0.0193100072687451,-0.101575812082475
5.5696,-0.0203045663137062,-0.101720665320589
5.5712,-0.0212996378931955,-0.101859544082945
5.5728,-0.022295209033386,-0.101992464810466
5.5744,-0.0232912670554525,-0.102119442919313
5.576,-0.0242877995258281,-0.102240492834965
5.5776,-0.0252847942111652,-0.102355628028592
5.5792,-0.0262822390374861,-0.102464861053933
5.5808,-0.0272801220544398,-0.102568203584778
5.5824,-0.0282784314044468,-0.102665666452944
5.584,-0.0292771552956436,-0.102757259685158
5.5856,-0.0302762819791243,-0.102842992539942
5.5872,-0.0312757997311812,-0.102922873543501
5.5888,-0.0322756968381384,-0.102996910523904
5.5904,-0.0332759615857866,-0.103065110643878
5.592,-0.0342765822515099,-0.103127480431903
5.5936,-0.0352775471000171,-0.103184025810499
5.5952,-0.0362788443815656,-0.103234752122831
5.5968,-0.037280462332483,-0.103279664156703
5.5984,-0.0382823891783876,-0.103318766164864
5.6,-0.0392846131385081,-0.103352061884115
5.6016,-0.0402871884412992,-0.103379711470914
5.6032,-0.0412900400491539,-0.103401548211191
5.6048,-0.0422931548745185,-0.103417575219065
5.6064,-0.0432965199917032,-0.103427795245259
5.608,-0.0443001226537916,-0.103432210665727
5.6096,-0.0453039503075449,-0.103430823465781
5.6112,-0.0463079906069144,-0.103423635221116
5.6128,-0.0473122314235445,-0.103410647076253
5.6144,-0.048316660855478,-0.103391859718771
5.616,-0.0493212672322165,-0.103367273352753
5.6176,-0.0503260391172605,-0.103336887668234
5.6192,-0.0513309653070082,-0.103300701809453
5.6208,-0.0523360348260785,-0.103258714341807
5.6224,-0.0533412369190061,-0.103210923216716
5.624,-0.0543465610379713,-0.103157325735988
5.6256,-0.0553519968266311,-0.103097918515389
5.6272,-0.0563575340998633,-0.103032697448619
5.6288,-0.057363162819473,-0.102961657670595
5.6304,-0.0583688730657084,-0.102884793522137
5.632,-0.0593746550050623,-0.102802098515258
5.6336,-0.0603804988532524,-0.102713565299662
5.6352,-0.0613863948355043,-0.10261918563135
5.6368,-0.0623923331423065,-0.102518950342922
5.6384,-0.0633983038813184,-0.102412849316993
5.64,-0.064404297026485,-0.102300871461416
5.6416,-0.0654103023640495,-0.102183004688703
5.6432,-0.0664163094345747,-0.102059235897656
5.6448,-0.067422307473461,-0.101929550959908
5.6464,-0.0684282853485699,-0.101793934709659
5.648,-0.0694342314953472,-0.101652370937433
5.6496,-0.0704401338511578,-0.101504842389125
5.6512,-0.0714459797874137,-0.101351330768568
5.6528,-0.0724517560408099,-0.101191816745297
5.6544,-0.0734574486441665,-0.101026279967423
5.656,-0.0744630428569723,-0.100854699078712
5.6576,-0.0754685230956338,-0.100677051740873
5.6592,-0.0764738728645234,-0.100493314661546
5.6608,-0.0774790746881432,-0.100303463626004
5.6624,-0.0784841100439851,-0.100107473534557
5.664,-0.0794889592975988,-0.0999053184449612
5.6656,-0.0804936016396619,-0.0996969716187383
5.6672,-0.0814980150251653,-0.0994824055728981
5.6688,-0.082502176115494,-0.0992615921358688
5.6704,-0.0835060602239204,-0.0990345025073337
5.672,-0.0845096412643981,-0.098801107322274
5.6736,-0.085512891704272,-0.0985613767191173
5.6752,-0.0865157825203862,-0.0983152804104935
5.6768,-0.0875182831607045,-0.0980627877583962
5.6784,-0.0885203615094331,-0.0978038678507512
5.68,-0.0895219838579593,-0.0975384895816296
5.6816,-0.0905231148794907,-0.0972666217331593
5.6832,-0.0915237176100052,-0.0969882330592409
5.6848,-0.0925237534343096,-0.0967032923706608
5.6864,-0.0935231820768084,-0.0964117686212201
5.688,-0.0945219615981791,-0.0961136309945351
5.6896,-0.095520048397759,-0.0958088489909272
5.6912,-0.0965173972212377,-0.0954973925141904
5.6928,-0.0975139611733667,-0.0951792319576672
5.6944,-0.0985096917367709,-0.0948543382894468
5.696,-0.0995045387955772,-0.0945226831359575
5.6976,-0.100498450664646,-0.0941842388641075
5.6992,-0.101491374123526,-0.0938389786604878
5.7008,-0.102483254455005,-0.0934868766093025
5.7024,-0.103474035489084,-0.0931279077662252
5.704,-0.104463659650756,-0.0927620482295574
5.7056,-0.105452068012005,-0.0923892752079948
5.7072,-0.106439200347604,-0.0920095670840973
