"Freq [GHz]","re(S(Antenna1_1_1,Antenna1_1_1)) []","im(S(Antenna1_1_1,Antenna1_1_1)) []"
5,0.0457161386340078,0.179039206687499
5.0016,0.0465849640526258,0.17835984752469
5.0032,0.0474488476498428,0.177674154336965
5.0048,0.0483076518790116,0.176982184825946
5.0064,0.0491612424663192,0.176284005601906
5.008,0.0500094891135065,0.175579691849219
5.0096,0.0508522661660658,0.17486932693642
5.0112,0.0516894532424569,0.174153001972872
5.0128,0.0525209358203083,0.173430815318439
5.0144,0.0533466057760916,0.172702872048069
5.016,0.0541663618748617,0.171969283376483
5.0176,0.0549801102070303,0.171230166047768
5.0192,0.055787764570556,0.170485641694482
5.0208,0.0565892467954568,0.169735836170823
5.0224,0.0573844870096198,0.168980878866183
5.024,0.0581734238451147,0.16822090200239
5.0256,0.0589560045841033,0.167456039921479
5.0272,0.059732185243253,0.166686428368298
5.0288,0.0605019305991477,0.165912203773316
5.0304,0.0612652141525015,0.165133502540682
5.032,0.0620220180343713,0.164350460346552
5.0336,0.0627723328555714,0.163563211452319
5.0352,0.0635161574998865,0.162771888037563
5.0368,0.0642534988645894,0.161976619556905
5.0384,0.0649843715512542,0.161177532125183
5.04,0.0657087975075766,0.160374747934601
5.0416,0.0664268056260889,0.159568384707594
5.0432,0.0671384313014815,0.158758555188704
5.0448,0.0678437159507206,0.157945366678351
5.0464,0.0685427064998715,0.157128920610989
5.048,0.069235454842519,0.156309312180523
5.0496,0.0699220172715924,0.155486630013978
5.0512,0.0706024538923287,0.154660955895237
5.0528,0.07127682801801,0.153832364540745
5.0544,0.0719452055539384,0.153000923426314
5.056,0.0726076543743264,0.152166692667628
5.0576,0.0732642436960658,0.151329724951655
5.0592,0.0739150434539577,0.150490065521461
5.0608,0.0745601236815964,0.149647752211418
5.0624,0.0751995539021004,0.148802815532829
5.064,0.0758334025326508,0.147955278809037
5.0656,0.0764617363067425,0.147105158356452
5.0672,0.0770846197177959,0.146252463711565
5.0688,0.0777021144874626,0.145397197900577
5.0704,0.0783142790619869,0.144539357749014
5.072,0.0789211681394255,0.143678934228558
5.0736,0.0795228322304905,0.142815912839568
5.0752,0.0801193172553625,0.141950274023005
5.0768,0.0807106641786551,0.141081993602359
5.0784,0.0812969086842903,0.140211043248273
5.08,0.0818780808916557,0.139337390965671
5.0816,0.0824542051145913,0.138461001597383
5.0832,0.0830252996635594,0.137581837341587
5.0848,0.0835913766920928,0.136699858279592
5.0864,0.0841524420876462,0.135815022909624
5.088,0.0847084954062471,0.134927288683398
5.0896,0.0852595298513485,0.134036612541783
5.0912,0.0858055322961803,0.133142951445941
5.0928,0.0863464833481042,0.132246262900656
5.0944,0.0868823574542667,0.131346505466395
5.096,0.0874131230472544,0.1304436392571
5.0976,0.0879387427285481,0.129537626420548
5.0992,0.0884591734887789,0.128628431598605
5.1008,0.0889743969792832,0.127716002290895
5.1024,0.0894843543192593,0.126800302859781
5.104,0.0899889547055221,0.125881326646657
5.1056,0.0904881346978605,0.124959053424182
5.1072,0.0909818269302928,0.124033467447211
5.1088,0.0914699605045222,0.123104557731084
5.1104,0.0919524614019833,0.122172318295499
5.112,0.0924292529093864,0.121236748373009
5.1136,0.0929002560560834,0.120297852581413
5.1152,0.0933653900597016,0.119355641059493
5.1168,0.0938245727771681,0.118410129567006
5.1184,0.0942777211581921,0.117461339546776
5.12,0.0947247516983883,0.116509298151472
5.1216,0.0951655808889974,0.115554038234494
5.1232,0.0956001256607677,0.114595598305347
5.1248,0.096028303818941,0.113634022451422
5.1264,0.0964500344672399,0.112669360226262
5.128,0.0968652384180438,0.111701666507132
5.1296,0.097273838586745,0.110731001321085
5.1312,0.0976757603679913,0.109757429643321
5.1328,0.0980709319919618,0.108781021168644
5.1344,0.0984592848587371,0.107801850057721
5.136,0.09884075384919,0.106819994660622
5.1376,0.0992152776109995,0.105835537219878
5.1392,0.0995827988183272,0.104848563554114
5.1408,0.0999432644042777,0.10385916272624
5.1424,0.100296625765089,0.102867426697067
5.144,0.100642838935309,0.101873449967476
5.1456,0.100981864733851,0.100877329211153
5.1472,0.101313668879324,0.0998791629003837
5.1488,0.101638222077022,0.098879050927298
5.1504,0.101955500073999,0.0978770942228671
5.152,0.102265483685986,0.0968733943759296
5.1536,0.102568158794394,0.0958680532546391
5.1552,0.102863516314123,0.0948611726323843
5.1568,0.103151552133765,0.0938528538203853
5.1584,0.103432267028404,0.0928431973090754
5.16,0.103705666546206,0.0918323024201159
5.1616,0.103971760869617,0.0908202669709924
5.1632,0.104230564652645,0.0898071869539363
5.1648,0.104482096836445,0.0887931562307415
5.1664,0.104726380442499,0.0877782662450789
5.168,0.104963442347586,0.086762605753637
5.1696,0.105193313040157,0.0857462605773283
5.1712,0.105416026360718,0.0847293133737412
5.1728,0.105631619228569,0.0837118434316994
5.1744,0.105840131355072,0.0826939264888224
5.176,0.106041604947048,0.0816756345727376
5.1776,0.106236084401215,0.0806570358664728
5.1792,0.106423615991979,0.0796381945983981
5.1808,0.106604247554273,0.0786191709568906
5.1824,0.106778028163592,0.0776000210299977
5.184,0.106945007814944,0.0765807967699329
5.1856,0.107105237102744,0.0755615459816916
5.1872,0.107258766903363,0.0745423123364674
5.1888,0.107405648062182,0.0735231354087596
5.1904,0.107545931086968,0.0725040507362822
5.192,0.107679665849069,0.0714850899024625
5.1936,0.10780690129418,0.0704662806411422
5.1952,0.107927685164159,0.0694476469605678
5.1968,0.10804206373127,0.0684292092881842
5.1984,0.108150081546232,0.0674109846333166
5.2,0.108251781201309,0.0663929867669574
5.2016,0.108347236792705,0.0653752579079797
5.2032,0.108436456682108,0.0643577690684063
5.2048,0.108519475693798,0.0633405251816393
5.2064,0.1085963258936,0.0623235288720654
5.208,0.108667036447814,0.0613067807004843
5.2096,0.108731633502177,0.0602902794172448
5.2112,0.108790140081105,0.0592740222215666
5.2128,0.108842576007458,0.0582580050255391
5.2144,0.108888957842912,0.0572422227210572
5.216,0.108929298849212,0.0562266694482147
5.2176,0.108963608969201,0.0552113388635126
5.2192,0.108991894829047,0.0541962244064666
5.2208,0.109014159759684,0.0531813195629539
5.2224,0.109030403837666,0.0521666181239517
5.224,0.109040623945406,0.0511521144382552
5.2256,0.109044813848414,0.0501378036577956
5.2272,0.109042964291125,0.0491236819743006
5.2288,0.109035063108311,0.0481097468461636
5.2304,0.109021095352396,0.0470959972142737
5.232,0.109001043435302,0.046082433705942
5.2336,0.108974887283371,0.0450690588258337
5.2352,0.108942604504899,0.0440558771332115
5.2368,0.108904170568523,0.0430428954046448
5.2384,0.108859558991512,0.0420301227816184
5.24,0.108808741536554,0.0410175709024483
5.2416,0.108751688415838,0.0400052540181788
5.2432,0.108688368500993,0.0389931890920428
5.2448,0.108618749537799,0.0379813958823673
5.2464,0.108542798364069,0.0369698970087414
5.248,0.10846048112959,0.0359587180015186
5.2496,0.108371763516886,0.0349478873347741
5.2512,0.10827661096132,0.033937436442803
5.2528,0.108174988869628,0.0329273997205869
5.2544,0.108066862835472,0.031917814508694
5.256,0.107952198851011,0.0309087210625377
5.2576,0.107830963513449,0.0299001625078714
5.2592,0.107703124225501,0.028892184781085
5.2608,0.107568649388925,0.0278848365572079
5.2624,0.107427508590202,0.0268781691648275
5.264,0.107279672777636,0.0258722364891308
5.2656,0.107125114429226,0.024867094864603
5.2672,0.106963807710597,0.0238628029571712
5.2688,0.106795728622533,0.0228594216374129
5.2704,0.106620855137747,0.0218570138456509
5.272,0.106439167326334,0.0208556444497635
5.2736,0.106250647469903,0.0198553800967205
5.2752,0.106055280163957,0.0188562890587861
5.2768,0.105853052408641,0.0178584410753173
5.2784,0.105643953687591,0.016861907191098
5.28,0.105427976035202,0.0158667595920507
5.2816,0.105205114092197,0.0148730714391945
5.2832,0.104975365149823,0.0138809167017197
5.2848,0.10473872918283,0.0128903699898584
5.2864,0.104495208871586,0.0119015063883737
5.288,0.104244809613684,0.0109144012912949
5.2896,0.103987539525189,0.00992913023851463
5.2912,0.103723409432324,0.00894576875486792
5.2928,0.103452432854031,0.0079643921921216
5.2944,0.103174625974691,0.00698507557441798
5.296,0.10289000760987,0.00600789344747963
5.2976,0.102598599162964,0.00503291973200508
5.2992,0.102300424574883,0.00406022758141946
5.3008,0.101995495670092,0.00308989864504079
5.3024,0.101683843158209,0.0021220071470062
5.304,0.101365513779406,0.0011566145458276
5.3056,0.101040541376528,0.0001937893399209
5.3072,0.100708961963104,-0.000766401411856648
5.3088,0.100370813634575,-0.00172389220172202
5.3104,0.100026136474733,-0.00267861917919102
5.312,0.0996749724578516,-0.0036305202519745
5.3136,0.0993173653465349,-0.00457953518149536
5.3152,0.0989533605856953,-0.00552560567314608
5.3168,0.0985830051927444,-0.00646867546128669
5.3184,0.0982063476441316,-0.00740869038888232
5.32,0.0978234377583944,-0.00834559848198247
5.3216,0.0974343265757671,-0.00927935001888907
5.3232,0.0970390662344447,-0.0102098975938439
5.3248,0.0966377098434871,-0.0111371961758385
5.3264,0.096230311352435,-0.0120612031611905
5.328,0.0958169254176274,-0.0129818784213317
5.3296,0.0953976072652376,-0.0138991843439839
5.3312,0.0949724125510105,-0.014813085869137
5.3328,0.094541397216792,-0.0157235505182317
5.3344,0.0941046173437795,-0.0166305484172157
5.336,0.0936621290026778,-0.017534052312326
5.3376,0.0932139881007541,-0.0184340375789911
5.3392,0.0927602502259455,-0.0193304822229221
5.3408,0.0923009704882556,-0.0202233668731919
5.3424,0.0918362033586149,-0.021112674766743
5.344,0.0913660025054899,-0.0219983917238437
5.3456,0.0908904206296054,-0.0228805061140924
5.3472,0.0904095092972468,-0.0237590088122412
5.3488,0.0899233187725657,-0.0246338931435948
5.3504,0.0894318978495345,-0.0255051548182114
5.352,0.0889352936840557,-0.0263727918536875
5.3536,0.088433551627401,-0.0272368044858218
5.3552,0.0879267150611226,-0.0280971950669293
5.3568,0.0874148252345173,-0.0289539679513481
5.3584,0.0868979211068617,-0.029807129367817
5.36,0.0863760391927412,-0.0306566872785796
5.3616,0.0858492134147687,-0.0315026512249916
5.3632,0.0853174749625991,-0.0323450321595531
5.3648,0.0847808521603333,-0.0331838422645303
5.3664,0.0842393703434169,-0.034019094757155
5.368,0.0836930517468307,-0.0348508036818448
5.3696,0.0831419154053747,-0.0356789836897357
5.3712,0.0825859770671542,-0.0365036498061195
5.3728,0.082025249122721,-0.0373248171865387
5.3744,0.0814597405501444,-0.0381425008621689
5.376,0.0808894568778402,-0.0389567154757464
5.3776,0.0803144001662687,-0.0397674750089828
5.3792,0.0797345690098797,-0.0405747925027363
5.3808,0.0791499585601992,-0.0413786797715584
5.3824,0.0785605605713111,-0.0421791471139788
5.384,0.0779663634685325,-0.0429762030203636
5.3856,0.0773673524410835,-0.0437698538799827
5.3872,0.0767635095594699,-0.0445601036900214
5.3888,0.0761548139180233,-0.0453469537671785
5.3904,0.0755412418028836,-0.0461304024655607
5.392,0.0749227668856302,-0.0469104449019621
5.3936,0.0742993604424055,-0.0476870726917415
5.3952,0.0736709915982967,-0.0484602736970831
5.3968,0.0730376275964638,-0.0492300317900551
5.3984,0.0723992340912535,-0.0499963266334522
5.4,0.0717557754643282,-0.0507591334810362
5.4016,0.0711071765057571,-0.0515184836802602
5.4032,0.0704534289990878,-0.0522742772891897
5.4048,0.0697944961011286,-0.0530264741926083
5.4064,0.0691303412898021,-0.0537750293474199
5.408,0.0684609287708575,-0.0545198927283384
5.4096,0.0677862238957291,-0.0552610093068275
5.4112,0.0671061935874914,-0.0559983190640818
5.4128,0.0664208067730278,-0.0567317570394906
5.4144,0.0657300348166997,-0.0574612534157386
5.416,0.0650338519546996,-0.0581867336414503
5.4176,0.0643322357247845,-0.0589081185918214
5.4192,0.0636251673893012,-0.0596253247675755
5.4208,0.0629126323474129,-0.0603382645323179
5.4224,0.0621946205330219,-0.0610468463878806
5.424,0.0614711267956917,-0.0617509752869813
5.4256,0.0607421512600605,-0.0624505529823094
5.4272,0.0600076996601605,-0.0631454784107287
5.4288,0.0592677836466299,-0.0638356481108366
5.4304,0.058522421061326,-0.0645209566720065
5.432,0.0577716361790312,-0.0652012972126031
5.4336,0.0570154599093659,-0.0658765618846502
5.4352,0.05625392996019,-0.0665466424020625
5.4368,0.0554870909570138,-0.0672114305892035
5.4384,0.0547149945168962,-0.0678708189462004
5.44,0.0539376992753511,-0.0685247012272644
5.4416,0.0531552708636469,-0.069172973028025
5.4432,0.0523677818359303,-0.0698155323776419
5.4448,0.0515753115441839,-0.0704522803310621
5.4464,0.050777945961546,-0.0710831215572851
5.448,0.049975777452561,-0.0717079649186192
5.4496,0.0491689044915393,-0.072326724036628
5.4512,0.0483574313289231,-0.0729393178388721
5.4528,0.0475414676072763,-0.0735456710835378
5.4544,0.0467211279279856,-0.0741457148553562
5.456,0.045896531370846,-0.0747393870292191
5.4576,0.0450678009689317,-0.0753266326966804
5.4592,0.0442350631414665,-0.0759074045512522
5.4608,0.0433984470880549,-0.0764816632274895
5.4624,0.0425580841479312,-0.0770493775916708
5.464,0.0417141071282013,-0.0776105249779671
5.4656,0.0408666496055988,-0.0781650913700013
5.4672,0.0400158452065275,-0.0787130715217026
5.4688,0.0391618268702853,-0.0792544690177518
5.4704,0.0383047261010519,-0.0797892962691176
5.472,0.0374446722139678,-0.0803175744444848
5.4736,0.036581791581464,-0.0808393333345747
5.4752,0.035716206884871,-0.0813546111499596
5.4768,0.0348480363789342,-0.081863454251317
5.4784,0.0339773931732273,-0.0823659168144273
5.48,0.0331043845379722,-0.0828620604284929
5.4816,0.0322291112407536,-0.0833519536316724
5.4832,0.0313516669176446,-0.0838356713846245
5.4848,0.0304721374873261,-0.0843132944854865
5.4864,0.0295906006123185,-0.084784908929244
5.488,0.0287071252119041,-0.085250605215476
5.4896,0.0278217710340618,-0.085710477608771
5.4912,0.0269345882882994,-0.086164623356617
5.4928,0.0260456173458923,-0.086613141870034
5.4944,0.0251548885098202,-0.0870561338726719
5.496,0.0242624218584105,-0.0874937005243601
5.4976,0.0233682271654841,-0.0879259425258011
5.4992,0.0224723038980046,-0.0883529592104576
5.5008,0.0215746412952279,-0.0887748476314453
5.5024,0.0206752185276583,-0.0891917016501476
5.504,0.0197740049380083,-0.0896036110332041
5.5056,0.0188709603626584,-0.0900106605667962
5.5072,0.0179660355339219,-0.0904129291934248
5.5088,0.0170591725598854,-0.0908104891807827
5.5104,0.0161503054804214,-0.0912034053278213
5.512,0.0152393608966322,-0.0915917342167148
5.5136,0.0143262586691413,-0.0919755235161155
5.5152,0.0134109126815561,-0.0923548113435073
5.5168,0.0124932316641429,-0.0927296256912513
5.5184,0.0115731200719786,-0.0930999839238308
5.52,0.0106504790118003,-0.0934658923498879
5.5216,0.00972520721086081,-0.0938273458742581
5.5232,0.00879720202081183,-0.094184327735299
5.5248,0.00786636044928084,-0.0945368093290171
5.5264,0.00693258021135573,-0.0948847501243886
5.528,0.00599576079267876,-0.0952280976717775
5.5296,0.00505580451669899,-0.0955667877046489
5.5312,0.00411261760591185,-0.0959007443379812
5.5328,0.0031661112312113,-0.0962298803595717
5.5344,0.00221620253781815,-0.0965540976173426
5.536,0.00126281564142193,-0.0968732874980398
5.5376,0.000305882585116217,-0.0971873314959329
5.5392,-0.000654655750553378,-0.0974961018693902
5.5408,-0.00161884879284116,-0.0977994623791713
5.5424,-0.00258673548494538,-0.0980972691060168
5.544,-0.00355834356385299,-0.098389371340658
5.5456,-0.00453368891517735,-0.0986756125407961
5.5472,-0.00551277501109024,-0.0989558313483262
5.5488,-0.00649559243595124,-0.0992298626594092
5.5504,-0.00748211850723448,-0.0994975387397233
5.552,-0.00847231699274895,-0.0997586903764931
5.5536,-0.00946613793065276,-0.100013148058672
5.5552,-0.0104635175527685,-0.100260743176229
5.5568,-0.0114643783150911,-0.100501309229378
5.5584,-0.0124686290349915,-0.100734683037586
5.56,-0.0134761651365141,-0.100960705940001
5.5616,-0.0144868690029774,-0.101179224975928
5.5632,-0.015500610434463,-0.101390094037196
5.5648,-0.0165172472092048,-0.101593174982435
5.5664,-0.0175366257449704,-0.101788338702545
5.568,-0.0185585818565451,-0.101975466131475
5.5696,-0.0195829416031362,-0.102154449189389
5.5712,-0.0206095222230055,-0.102325191654045
5.5728,-0.021638133145346,-0.102487609949366
5.5744,-0.0226685770747025,-0.102641633846213
5.576,-0.0237006511388961,-0.102787207067365
5.5776,-0.0247341480925152,-0.102924287791792
5.5792,-0.0257688575666461,-0.103052849052233
5.5808,-0.0268045673555798,-0.103172879022878
5.5824,-0.0278410647305368,-0.103284381192644
5.584,-0.0288781377702436,-0.103387374421858
5.5856,-0.0299155766980243,-0.103481892881342
5.5872,-0.0309531752144812,-0.103567985872201
5.5888,-0.0319907318152384,-0.103645717527104
5.5904,-0.0330280510839866,-0.103715166394178
5.592,-0.0340649449483099,-0.103776424906603
5.5936,-0.0351012338899171,-0.103829598738699
5.5952,-0.0361367480984656,-0.103874806055331
5.5968,-0.037171328558283,-0.103912176658503
5.5984,-0.0382048280611876,-0.103941851036064
5.6,-0.0392371121336081,-0.103963979320745
5.6016,-0.0402678596028992,-0.103978689789064
5.6032,-0.0412971588847539,-0.103986213270721
5.6048,-0.0423249228058185,-0.103986722499474
5.6064,-0.0433510797296032,-0.103980394424749
5.608,-0.0443755738986916,-0.103967408836347
5.6096,-0.0453983656541449,-0.103947946959811
5.6112,-0.0464194315302144,-0.103922190033596
5.6128,-0.0474387642225445,-0.103890317879153
5.6144,-0.048456372428978,-0.103852507475371
5.616,-0.0494722805644565,-0.103808931548753
5.6176,-0.0504865283508305,-0.103759757190334
5.6192,-0.0514991702840582,-0.103705144510853
5.6208,-0.0525102749828085,-0.103645245345507
5.6224,-0.0535199244231631,-0.103580202017016
5.624,-0.0545282130640213,-0.103510146170088
5.6256,-0.0555352468707011,-0.103435197683589
5.6272,-0.0565411422431433,-0.103355463672419
5.6288,-0.057546024857713,-0.103271037585395
5.6304,-0.0585500284299284,-0.103181998407937
5.632,-0.0595532934095023,-0.103088409974958
5.6336,-0.0605559656160524,-0.102990320402662
5.6352,-0.0615581948271113,-0.10288776164035
5.6368,-0.0625601333290165,-0.102780749149722
5.6384,-0.0635619344421184,-0.102669281713293
5.64,-0.064563751031965,-0.102553341373116
5.6416,-0.0655657340181495,-0.102432893503103
5.6432,-0.0665680308925747,-0.102307887011956
5.6448,-0.067570784259361,-0.102178254678208
5.6464,-0.0685741304066699,-0.102043913613359
5.648,-0.0695781979246473,-0.101904765850533
5.6496,-0.0705831063764578,-0.101760699054825
5.6512,-0.0715889650377137,-0.101611587348668
5.6528,-0.0725958717105099,-0.101457292248097
5.6544,-0.0736039116237665,-0.101297663700623
5.656,-0.0746131564290723,-0.101132541218312
5.6576,-0.0756236632979338,-0.100961755096873
5.6592,-0.0766354741312234,-0.100785127711076
5.6608,-0.0776486148834432,-0.100602474876654
5.6624,-0.0786630950111851,-0.100413607268517
5.664,-0.0796789070470988,-0.100218331883257
5.6656,-0.0806960263052619,-0.100016453535278
5.6672,-0.0817144107195653,-0.0998077763745181
5.6688,-0.082734000816694,-0.0995921054138888
5.6704,-0.0837547198236204,-0.0993692480543337
5.672,-0.0847764739103981,-0.099139015595774
5.6736,-0.085799152564672,-0.0989012247213173
5.6752,-0.0868226290967862,-0.0986556989444935
5.6768,-0.0878467612706045,-0.0984022700057962
5.6784,-0.0888713920550331,-0.0981407792102512
5.68,-0.0898963504918593,-0.0978710786931896
5.6816,-0.0909214526712907,-0.0975930326052293
5.6832,-0.0919465028092052,-0.0973065182072609
5.6848,-0.0929712944164096,-0.0970114268664408
5.6864,-0.0939956115522084,-0.0967076649454891
5.688,-0.0950192301504091,-0.0963951545779951
5.6896,-0.096041919410119,-0.0960738343245272
5.6912,-0.0970634432377177,-0.0957436597032504
5.6928,-0.0980835617305487,-0.0954046035916472
5.6944,-0.0991020326899409,-0.0950566564967468
5.696,-0.100118613151937,-0.0946998266895575
5.6976,-0.101133060923636,-0.0943341402061075
5.6992,-0.102145136113266,-0.0939596407123878
5.7008,-0.103154602641905,-0.0935763892352025
5.7024,-0.104161229725484,-0.0931844637615252
5.704,-0.105164793314356,-0.0927839587097574
5.7056,-0.106165077481505,-0.0923749842760948
5.7072,-0.107161875745704,-0.0919576656619973
