"Freq [GHz]","re(S(Antenna1_1_1,Antenna1_1_1)) []","im(S(Antenna1_1_1,Antenna1_1_1)) []"
5,0.0419027268131618,0.176914108829599
5.0016,0.0426155460591198,0.17655405804459
5.0032,0.0433500358301228,0.176198947290465
5.0048,0.0441068575713516,0.175846625940846
5.0064,0.0448864934974292,0.175494897068406
5.008,0.0456892436096365,0.175141532132119
5.0096,0.0465152239101258,0.17478428584773
5.0112,0.0473643658271369,0.174420911136772
5.0128,0.0482364168442083,0.174049174058839
5.0144,0.0491309423323916,0.173666868629669
5.016,0.0500473285724617,0.173271831430483
5.0176,0.0509847869431303,0.172861955906567
5.0192,0.051942359240256,0.172435206276782
5.0208,0.0529189241040568,0.171989630945263
5.0224,0.0539132044983198,0.171523375347243
5.024,0.0549237761886147,0.17103469412887
5.0256,0.0559490771795032,0.170521962600039
5.0272,0.056987418025753,0.169983687372218
5.0288,0.0580369929665477,0.169418516123296
5.0304,0.0590958918007015,0.168825246421422
5.032,0.0601621124148713,0.168202833551858
5.0336,0.0612335739087714,0.167550397307829
5.0352,0.0623081301983865,0.166867227684393
5.0368,0.0633835840295894,0.166152789457295
5.0384,0.0644577013040542,0.165406725612843
5.04,0.0655282256207866,0.164628859598781
5.0416,0.0665928929405889,0.163819196406164
5.0432,0.0676494462771815,0.162977922450244
5.0448,0.0686956503188206,0.162105404272351
5.0464,0.0697293058853715,0.161202186067789
5.048,0.070748264127219,0.160268986054723
5.0496,0.0717504403726924,0.159306691712078
5.0512,0.0727338275344887,0.158316353920437
5.0528,0.07369650899,0.157299180041945
5.0544,0.0746366708485384,0.156256525993214
5.056,0.0755526135325664,0.155189887356228
5.0576,0.0764427625939258,0.154100889589255
5.0592,0.0773056786890677,0.152991277412761
5.0608,0.0781400666712864,0.151862903420318
5.0624,0.0789447837109507,0.150717716011529
5.064,0.0797188464257408,0.149557746712937
5.0656,0.0804614369438825,0.148385096976952
5.0672,0.0811719078843859,0.147201924542265
5.0688,0.0818497862202826,0.146010429445177
5.0704,0.0824947759878669,0.144812839780714
5.072,0.0831067598449355,0.143611397295858
5.0736,0.0836857994510305,0.142408342917168
5.0752,0.0842321346876825,0.141205902305005
5.0768,0.0847461817036551,0.140006271527559
5.0784,0.0852285298251903,0.138811602948073
5.08,0.0856799373252557,0.137623991420971
5.0816,0.0861013261057913,0.136445460881083
5.0832,0.0864937753159594,0.135277951416267
5.0848,0.0868585139433928,0.134123306902342
5.0864,0.0871969124484462,0.132983263295004
5.088,0.0875104734784471,0.131859437627758
5.0896,0.0878008217319485,0.130753317819833
5.0912,0.0880696930409803,0.129666253325111
5.0928,0.0883189227383042,0.128599446717047
5.0944,0.0885504333906667,0.127553946225584
5.096,0.0887662219850544,0.12653063931508
5.0976,0.0889683466288481,0.125530247303218
5.0992,0.0891589128881789,0.124553321084925
5.1008,0.0893401760824832,0.123601267851285
5.1024,0.0895145380080593,0.122674249435451
5.104,0.0896841201024221,0.121771216055557
5.1056,0.0898510648254605,0.120891979487622
5.1072,0.0900174873115929,0.120036178191461
5.1088,0.0901854614897222,0.119203280274584
5.1104,0.0903570064996933,0.118392587558099
5.112,0.0905340734949464,0.117603240725609
5.1136,0.0907185329189734,0.116834225508113
5.1152,0.0909121623265716,0.116084379876893
5.1168,0.0911166348460981,0.115352402181406
5.1184,0.091333508339722,0.114636860191176
5.12,0.0915642153416783,0.113936200966672
5.1216,0.0918100538365174,0.113248761507194
5.1232,0.0920721789273577,0.112572780094747
5.1248,0.092351595466133,0.111906408258922
5.1264,0.0926491516678419,0.111247723298762
5.128,0.0929655337717938,0.110594741253032
5.1296,0.093301261764855,0.109945430255685
5.1312,0.0936566862026913,0.109297724181121
5.1328,0.0940319861430118,0.108649536485997
5.1344,0.0944271682108071,0.107998774162321
5.136,0.09484206678459,0.107343351708022
5.1376,0.0952763453126295,0.106681205024978
5.1392,0.0957294987501872,0.106010305152714
5.1408,0.0962008570867477,0.10532867175129
5.1424,0.096689589954249,0.104634386241137
5.144,0.0971947122703091,0.103925604515786
5.1456,0.0977150908874511,0.103200569156393
5.1472,0.0982494522043237,0.102457621046564
5.1488,0.0987963906749215,0.101695210335168
5.1504,0.0993543781777995,0.100911906664157
5.152,0.0999217741612865,0.10010640859737
5.1536,0.100496836518694,0.0992775521933391
5.1552,0.101077733105523,0.0984243186710943
5.1568,0.101662553832665,0.0975458411019543
5.1584,0.102249323242604,0.0966414101123234
5.16,0.102836013506106,0.0957104785414759
5.1616,0.103420557734917,0.0947526650293424
5.1632,0.104000863531545,0.0937677565222863
5.1648,0.104574826688245,0.0927557096688814
5.1664,0.105140344942799,0.0917166511076789
5.168,0.105695331701886,0.090650876642977
5.1696,0.106237729644257,0.0895588493145783
5.1712,0.106765524109298,0.0884411963805513
5.1728,0.107276756197889,0.0872987052269794
5.1744,0.107769535478462,0.0861323182417124
5.176,0.108242052237948,0.0849431266791076
5.1776,0.108692589184925,0.0837323635607728
5.1792,0.109119532531759,0.0825013956622981
5.1808,0.109521382391733,0.0812517146339906
5.1824,0.109896762412182,0.0799849273225977
5.184,0.110244428586614,0.0787027453450329
5.1856,0.110563277201824,0.0774069740060916
5.1872,0.110852351842013,0.0760995006001673
5.1888,0.111110849438885,0.0747822822139596
5.1904,0.111338125295753,0.0734573330697822
5.192,0.111533697087629,0.0721267115289625
5.1936,0.11169724777931,0.0707925068135422
5.1952,0.111828627475459,0.0694568255486678
5.1968,0.11192785416368,0.0681217782079842
5.1984,0.111995113372582,0.0667894655522166
5.2,0.112030756728839,0.0654619651481574
5.2016,0.112033740181245,0.0641423383988397
5.2032,0.112006472314758,0.0628317952785163
5.2048,0.111949810987538,0.0615322428971293
5.2064,0.11186476129898,0.0602455110294754
5.208,0.111752468720734,0.0589733405908743
5.2096,0.111614211333727,0.0577173727058248
5.2112,0.111451391208165,0.0564791384576666
5.2128,0.111265525000538,0.0552600493702291
5.2144,0.111058233818612,0.0540613886914872
5.216,0.110831232432412,0.0528843035262047
5.2176,0.110586317890201,0.0517297978825826
5.2192,0.110325357628447,0.0505987266518966
5.2208,0.110050277141184,0.0494917905831399
5.2224,0.109763047301066,0.0484095322696557
5.224,0.109465671407006,0.0473523331737732
5.2256,0.109160172048534,0.0463204117094356
5.2272,0.108848577870725,0.0453138223908306
5.2288,0.108532910325511,0.0443324560550136
5.2304,0.108215170497496,0.0433760411465337
5.232,0.107897326088752,0.042444146066052
5.2336,0.107581298645791,0.0415361825479637
5.2352,0.107268951117349,0.0406514100670115
5.2368,0.106962075813653,0.0397889412209048
5.2384,0.106662382854092,0.0389477480599284
5.24,0.106371489170064,0.0381266693305583
5.2416,0.106090908145828,0.0373244185670688
5.2432,0.105822039944333,0.0365395929861428
5.2448,0.105566162599049,0.0357706831314773
5.2464,0.105324423914779,0.0350160831873914
5.248,0.10509783424047,0.0342741019084286
5.2496,0.104887260147006,0.0335429740839641
5.2512,0.104693419059,0.032820872465803
5.2528,0.104516874871568,0.0321059200800869
5.2544,0.104358034577097,0.031396202841094
5.256,0.104217145921004,0.0306897823836377
5.2576,0.104094296108486,0.0299847090337714
5.2592,0.103989411552251,0.029279034828685
5.2608,0.103902258685255,0.028570826504008
5.2624,0.103832445804412,0.0278581783617075
5.264,0.103779425953306,0.0271392249363908
5.2656,0.103742500809886,0.026412153377303
5.2672,0.103720825560157,0.0256752154666312
5.2688,0.103713414715853,0.0249267391956029
5.2704,0.103719148853107,0.0241651398180909
5.272,0.103736782199104,0.0233889303272135
5.2736,0.103764951046733,0.0225967312679405
5.2752,0.103802182922217,0.0217872798306961
5.2768,0.103846906441741,0.0209594381779673
5.2784,0.103897461811071,0.020112200929908
5.28,0.103952111877152,0.0192447017799507
5.2816,0.104009053675707,0.0183562191934145
5.2832,0.104066430382923,0.0174461811461197
5.2848,0.10412234360962,0.0165141688829984
5.2864,0.104174865943716,0.0155599196697137
5.288,0.104222053665464,0.0145833285242749
5.2896,0.104261959550589,0.0135844489086606
5.2912,0.104292645678424,0.0125634923944379
5.2928,0.104312196160331,0.0115208272893916
5.2944,0.104318729707711,0.010456976249148
5.296,0.10431041195433,0.00937261287680963
5.2976,0.104285467458804,0.00826855735258508
5.2992,0.104242191301683,0.00714577110642946
5.3008,0.104178313283622,0.00600488199468079
5.3024,0.104092199077839,0.0048472736357062
5.304,0.103983054019566,0.0036748245235476
5.3056,0.103849588008488,0.0024890027655709
5.3072,0.103690632131174,0.00129137535712335
5.3088,0.103505146115495,8.35980091879838E-05
5.3104,0.103292224929033,-0.00113259558395102
5.312,0.103051104486482,-0.0023554049590445
5.3136,0.102781166428035,-0.00358297451740536
5.3152,0.102481941947765,-0.00481340547873608
5.3168,0.102153114628994,-0.00604476810574669
5.3184,0.101794522299652,-0.00727511409761232
5.32,0.101406157870624,-0.00850248908038247
5.3216,0.100988169166097,-0.00972494511218907
5.3232,0.100540857756883,-0.0109405531212439
5.3248,0.100064676781741,-0.0121474151960385
5.3264,0.099560227807693,-0.0133436766484905
5.328,0.0990282567123174,-0.0145275377704317
5.3296,0.0984696486540476,-0.0156972652126839
5.3312,0.0978854221404505,-0.016851202907737
5.3328,0.097276722240502,-0.0179877824660117
5.3344,0.0966448129918495,-0.0191055329871257
5.336,0.0959910690520678,-0.020203090214146
5.3376,0.0953169666469041,-0.0212792049768411
5.3392,0.0946240738735155,-0.0223327508719221
5.3408,0.0939140404316956,-0.0233627311322819
5.3424,0.0931885868480949,-0.024368284631223
5.344,0.0924494932516299,-0.0253486910046837
5.3456,0.0916985877958854,-0.0263033748444524
5.3472,0.0909377347873068,-0.0272319089363812
5.3488,0.0901688226037857,-0.0281340165365848
5.3504,0.0893937514810345,-0.0290095726616414
5.352,0.0886144212471557,-0.0298586043917775
5.3536,0.087832719084201,-0.0306812901820517
5.3552,0.0870505073969226,-0.0314779581965293
5.3568,0.0862696118665173,-0.0322490836674481
5.3584,0.0854918097665617,-0.032995285310379
5.36,0.0847188186205412,-0.0337173208043756
5.3616,0.0839522852633687,-0.0344160813891216
5.3632,0.0831937753918991,-0.0350925855950631
5.3648,0.0824447636580333,-0.0357479721645403
5.3664,0.0817066243768169,-0.036383492200905
5.368,0.0809806229025307,-0.0370005006096348
5.3696,0.0802679077327747,-0.0376004468674357
5.3712,0.0795695033855442,-0.0381848652103395
5.3728,0.078886304099301,-0.0387553642807887
5.3744,0.0782190683880344,-0.0393136163077189
5.376,0.0775684144943202,-0.0398613459017264
5.3776,0.0769348167623687,-0.0404003185264328
5.3792,0.0763186029510697,-0.0409323287240363
5.3808,0.0757199525080292,-0.0414591881775783
5.3824,0.0751388958146011,-0.0419827136809788
5.384,0.0745753143959125,-0.0425047150991636
5.3856,0.0740289421038835,-0.0430269833948827
5.3872,0.0734993672592399,-0.0435512787998214
5.3888,0.0729860357325233,-0.0440793192073785
5.3904,0.0724882549510916,-0.0446127688620607
5.392,0.0720051987961191,-0.0451532274139621
5.3936,0.0715359133655855,-0.0457022194199415
5.3952,0.0710793235512667,-0.0462611843425831
5.3968,0.0706342404007138,-0.0468314671301551
5.3984,0.0701993692022335,-0.0474143094145522
5.4,0.0697733182478582,-0.0480108414082362
5.4016,0.0693549073493171,-0.0486239289491602
5.4032,0.0689419851849978,-0.0492526351816897
5.4048,0.0685329256329086,-0.0498976798955083
5.4064,0.0681260498539321,-0.0505596468515199
5.408,0.0677196374629774,-0.0512389801467384
5.4096,0.0673119379463291,-0.0519359814851675
5.4112,0.0669011822434814,-0.0526508083796718
5.4128,0.0664855944227278,-0.0533834732918406
5.4144,0.0660634033742997,-0.0541338437138386
5.416,0.0656328544447996,-0.0549016431832503
5.4176,0.0651922209383845,-0.0556864532359114
5.4192,0.0647398154098012,-0.0564877162647355
5.4208,0.0642740006802129,-0.0573047392755279
5.4224,0.0637932004975219,-0.0581366985127906
5.424,0.0632959097846917,-0.0589826449175163
5.4256,0.0627807044024605,-0.0598415103849794
5.4272,0.0622462503632605,-0.0607121147745087
5.4288,0.0616913124471299,-0.0615931736342566
5.4304,0.061114762157626,-0.0624833065789565
5.432,0.0605155849677312,-0.0633810462696731
5.4336,0.0598928868217659,-0.0642848479375402
5.4352,0.05924589983029,-0.0651930993844925
5.4368,0.0585739871560138,-0.0661041313999835
5.4384,0.0578766470236962,-0.0670162285206004
5.44,0.0571535158630511,-0.0679276400699644
5.4416,0.0564043705446469,-0.068836591395925
5.4432,0.0556291297088103,-0.0697412952424119
5.4448,0.0548278541725239,-0.0706399631769621
5.4464,0.054000746421326,-0.0715308170006851
5.448,0.053148149183211,-0.0724121000684192
5.4496,0.0522705431085293,-0.073282088444728
5.4512,0.0513685435568831,-0.0741391018253721
5.4528,0.0504428965250263,-0.0749815141547378
5.4544,0.0494944737407656,-0.0758077638649562
5.456,0.048524266958856,-0.0766163636896191
5.4576,0.0475333814939017,-0.0774059099603804
5.4592,0.0465230290262565,-0.0781750913595522
5.4608,0.0454945197549249,-0.0789226970506895
5.4624,0.0444492539164612,-0.0796476241411708
5.464,0.0433887127468713,-0.0803488844437671
5.4656,0.0423144489455188,-0.0810256104722013
5.4672,0.0412280766920275,-0.0816770606537026
5.4688,0.0401312612898853,-0.0823026237145518
5.4704,0.0390257085060519,-0.0829018222166176
5.472,0.0379131536696678,-0.0834743152288848
5.4736,0.036795350604624,-0.0840199001029747
5.4752,0.035674060466471,-0.0845385133656596
5.4768,0.0345510405561342,-0.085030230702367
5.4784,0.0334280331827273,-0.0854952660496773
5.48,0.0323067546468722,-0.0859339697968129
5.4816,0.0311888844144536,-0.0863468261101224
5.4832,0.0300760545542446,-0.0867344494025545
5.4848,0.0289698394949261,-0.0870975799751265
5.4864,0.0278717461903185,-0.087437078844384
5.488,0.0267832047254041,-0.087753921815856
5.4896,0.0257055594462618,-0.088049192823501
5.4912,0.0246400606599994,-0.088324076584147
5.4928,0.0235878569596923,-0.0885798506239241
5.4944,0.0225499882173202,-0.0888178767176919
5.496,0.0215273792947105,-0.0890395918074601
5.4976,0.0205208345124841,-0.0892464984488011
5.4992,0.0195310329030046,-0.0894401548616576
5.5008,0.0185585242843279,-0.0896221646359453
5.5024,0.0176037261711583,-0.0897941661709476
5.504,0.0166669215518083,-0.0899578219082041
5.5056,0.0157482575361584,-0.0901148074326762
5.5072,0.0148477448746219,-0.0902668005108248
5.5088,0.0139652583701154,-0.0904154701365827
5.5104,0.0131005381570314,-0.0905624656558213
5.512,0.0122531918512122,-0.0907094060381148
5.5136,0.0114226975499313,-0.0908578693683155
5.5152,0.0106084076578761,-0.0910093826159073
5.5168,0.00980955352313792,-0.0911654117633513
5.5184,0.00902525084119857,-0.0913273523365308
5.52,0.0082545057949303,-0.0914965204160879
5.5216,0.00749622189259081,-0.0916741441697581
5.5232,0.00674920745183183,-0.091861355979699
5.5248,0.00601218368870084,-0.0920591851858172
5.5264,0.00528379334865573,-0.0922685515210886
5.528,0.00456260983457876,-0.0924902592608775
5.5296,0.00384714676079899,-0.0927249921212489
5.5312,0.00313586787831185,-0.0929733089562812
5.5328,0.0024271973044113,-0.0932356402553717
5.5344,0.00171952999191815,-0.0935122854865426
5.536,0.00101124236685193,-0.0938034112737398
5.5376,0.000300703068716217,-0.0941090504511329
5.5392,-0.000413716275953378,-0.0944291019704102
5.5408,-0.00113363031754116,-0.0947633316740713
5.5424,-0.00186062935204538,-0.0951113739237168
5.544,-0.00259626886365299,-0.095472734077338
5.5456,-0.00334205930907735,-0.0958467917936021
5.5472,-0.00409945620639024,-0.0962328051341362
5.5488,-0.00486985058885124,-0.0966299154518092
5.5504,-0.00565455989963448,-0.0970371530190133
5.552,-0.00645481936174895,-0.0974534433629431
5.5536,-0.00727177389595276,-0.0978776142658715
5.5552,-0.00810647063066855,-0.0983084033864291
5.5568,-0.00895985205089106,-0.0987444664498775
5.5584,-0.00983274983309151,-0.0991843859493855
5.56,-0.0107258793971141,-0.0996266803163015
5.5616,-0.0116398352180774,-0.100069813474628
5.5632,-0.012575086916263,-0.100512204751496
5.5648,-0.0135319761640048,-0.100952239044435
5.5664,-0.0145107144115704,-0.101388277206045
5.568,-0.0155113814520451,-0.101818666565915
5.5696,-0.0165339248432062,-0.102241751525889
5.5712,-0.0175781601693955,-0.102655884161045
5.5728,-0.018643772158386,-0.103059434756466
5.5744,-0.0197303166292525,-0.103450802214313
5.576,-0.0208372232732281,-0.103828424263465
5.5776,-0.0219637992365652,-0.104190787406892
5.5792,-0.0231092334833861,-0.104536436543433
5.5808,-0.0242726019155398,-0.104863984203678
5.5824,-0.0254528732084468,-0.105172119337244
5.584,-0.0266489153289436,-0.105459615604058
5.5856,-0.0278595026871243,-0.105725339106642
5.5872,-0.0290833238851812,-0.105968255524401
5.5888,-0.0303189900022384,-0.106187436596904
5.5904,-0.0315650433651866,-0.106382065923178
5.592,-0.0328199667525099,-0.106551444035003
5.5936,-0.0340821929677171,-0.106694992713199
5.5952,-0.0353501147172656,-0.106812258525931
5.5968,-0.036622094738383,-0.106902915557003
5.5984,-0.0378964761033176,-0.106966767322164
5.6,-0.0391715926379081,-0.107003747846415
5.6016,-0.0404452843862992,-0.107012471129314
5.6032,-0.0417161699539539,-0.106994671964291
5.6048,-0.0429826298636185,-0.106950699645965
5.6064,-0.0442430794652032,-0.106881028585459
5.608,-0.0454959787746916,-0.106786255004727
5.6096,-0.0467398420042449,-0.106667092864881
5.6112,-0.0479732467354144,-0.106524369043516
5.6128,-0.0491948426619445,-0.106359017805053
5.6144,-0.050403359856578,-0.106172074595071
5.616,-0.0515976165148565,-0.105964669199653
5.6176,-0.0527765261079305,-0.105738018314734
5.6192,-0.0539391039273582,-0.105493417577453
5.6208,-0.0550844729579085,-0.105232233102507
5.6224,-0.0562118690503631,-0.104955892590516
5.624,-0.0573206453693213,-0.104665876057888
5.6256,-0.0584102760800011,-0.104363706247889
5.6272,-0.0594803592520433,-0.104050938788619
5.6288,-0.060530618968313,-0.103729152158995
5.6304,-0.0615609066257084,-0.103399937526907
5.632,-0.0625712014189623,-0.103064888524758
5.6336,-0.0635616100044524,-0.102725591028962
5.6352,-0.0645323653500043,-0.10238361300595
5.6368,-0.0654838247827065,-0.102040494492822
5.6384,-0.0664164672427184,-0.101697737772493
5.64,-0.067330889759085,-0.101356797809116
5.6416,-0.0682278031885495,-0.101019073001403
5.6432,-0.0691080272213747,-0.100685896315156
5.6448,-0.069972484706161,-0.100358526850708
5.6464,-0.0708221953216699,-0.100038141887359
5.648,-0.0716582686416472,-0.0997258294828327
5.6496,-0.0724818966376578,-0.099422581635725
5.6512,-0.0732943456579137,-0.099129288087968
5.6528,-0.0740969479551099,-0.0988467307822972
5.6544,-0.0748910927972665,-0.0985755790257231
5.656,-0.0756782172310723,-0.0983163853730124
5.6576,-0.0764597965515338,-0.0980695822701728
5.6592,-0.0772373345438234,-0.0978354794689458
5.6608,-0.0780123535546632,-0.0976142622253042
5.6624,-0.0787863844600851,-0.0974059903079571
5.664,-0.0795609565928988,-0.0972105978008612
5.6656,-0.0803375876939619,-0.0970278937127383
5.6672,-0.0811177739509653,-0.0968575633895981
5.6688,-0.081902980188794,-0.0966991707122688
5.6704,-0.0826946302714204,-0.0965521610679337
5.672,-0.0834940977823981,-0.096415865080674
5.6736,-0.084302697032872,-0.0962895030610173
5.6752,-0.0851216744656862,-0.0961721901694935
5.6768,-0.0859522004973045,-0.0960629422321962
5.6784,-0.0867953618587331,-0.0959606821953512
5.68,-0.0876521544834593,-0.0958642471558896
5.6816,-0.0885234769743907,-0.0957723959440293
5.6832,-0.0894101247128052,-0.0956838171888609
5.6848,-0.0903127846173096,-0.0955971378259408
5.6864,-0.0912320306188084,-0.0955109319904891
5.688,-0.0921683198464791,-0.0954237302403951
5.6896,-0.093121989568759,-0.0953340290440272
5.6912,-0.0940932549103377,-0.0952403004786504
5.6928,-0.0950822073351667,-0.0951410020748272
5.6944,-0.0960888139384709,-0.0950345867433468
5.696,-0.0971129175127772,-0.0949195127228575
5.6976,-0.0981542374259465,-0.0947942534837075
5.6992,-0.0992123712732261,-0.0946573075260878
5.7008,-0.100286797307305,-0.0945072080089025
5.7024,-0.101376877629384,-0.0943425321516252
5.704,-0.102481862114256,-0.0941619103423574
5.7056,-0.103600893050405,-0.0939640349012948
5.7072,-0.104733010459104,-0.0937476684489973
