"Freq [GHz]","re(S(Antenna1_1_1,Antenna1_1_1)) []","im(S(Antenna1_1_1,Antenna1_1_1)) []"
3,-0.200604433434088,-0.174007721412434
3.014,-0.208820747206047,-0.161611637305158
3.028,-0.216134597582888,-0.148607716589664
3.042,-0.222474493126836,-0.135077163868639
3.056,-0.22778126005517,-0.121113823097811
3.07,-0.232010440225212,-0.106820963029246
3.084,-0.235133747216208,-0.0923078231319007
3.098,-0.237139700158923,-0.077686136922734
3.112,-0.238033562579544,-0.0630667448128406
3.126,-0.237836669003239,-0.0485563360736518
3.14,-0.236585152768447,-0.0342543390652188
3.154,-0.234328026841255,-0.0202500141245428
3.168,-0.231124545676706,-0.00661988169465386
3.182,-0.227040810436973,0.0065742871069198
3.196,-0.222145677180314,0.0192866129624529
3.21,-0.216506175640221,0.0314870531572012
3.224,-0.210186017458461,0.043154894568561
3.238,-0.203243111003831,0.0542869108632824
3.252,-0.195707422889474,0.0648988757771694
3.266,-0.187593422033604,0.0749958381878589
3.28,-0.178899561094805,0.0845739995475899
3.294,-0.16961275590893,0.0936139749630662
3.308,-0.159715445832909,0.102075866987712
3.322,-0.149194507697654,0.109897153920419
3.336,-0.138050899381228,0.116994091940641
3.35,-0.126308643399919,0.123266869724618
3.364,-0.114021689056092,0.128608193832404
3.378,-0.101277349664012,0.132914406016992
3.392,-0.088195399603991,0.136097734882407
3.406,-0.0749224952845975,0.138097956043274
3.42,-0.0616222790042683,0.138891649839802
3.434,-0.048462232177004,0.13849744275956
3.448,-0.0356338504902896,0.136939372489172
3.462,-0.0232710678199594,0.134373300884171
3.476,-0.0114392071325457,0.130950999683553
3.49,-0.000161967379782981,0.126807974371356
3.504,0.0105803604302384,0.122061117737251
3.518,0.0208396062133556,0.116793938864805
3.532,0.0306834626071852,0.111047188918097
3.546,0.0401766745182764,0.104816490157807
3.56,0.0493625792328998,0.098057525911211
3.574,0.0582479396471922,0.0906981729531648
3.588,0.0667935850872823,0.0826558384002505
3.602,0.0749125300220261,0.0738573834551878
3.616,0.0824761022018648,0.0642585266929388
3.63,0.0893273525799814,0.053859612383196
3.644,0.0952998395179702,0.0427151212845701
3.658,0.100238972937974,0.0309352281496184
3.672,0.104022625128678,0.0186789341271502
3.686,0.1065777535068,0.0061396330978708
3.7,0.107890344031226,-0.00647480494243375
3.714,0.108006993529683,-0.018964434473554
3.728,0.107027750969358,-0.0311586689201146
3.742,0.10509122585225,-0.0429333960632817
3.756,0.102354221814514,-0.0542210623523926
3.77,0.098969058237443,-0.0650121043561631
3.784,0.0950621481782884,-0.0753474749555251
3.798,0.0907172325499628,-0.0853034405984818
3.812,0.0859659471165509,-0.0949710806775802
3.826,0.0807872315761344,-0.104433792219509
3.84,0.075115665092082,-0.113746444303861
3.854,0.0688573619694174,-0.122919574492539
3.868,0.061910823867938,-0.131911209303151
3.882,0.0541639265434101,-0.140665028539484
3.896,0.0455331471280742,-0.149008086908887
3.91,0.0360583200530696,-0.156716923484681
3.924,0.0258292036715686,-0.163626692844521
3.938,0.0149856863734362,-0.169607805547868
3.952,0.0036999059015602,-0.174581594743036
3.966,-0.00784589765751253,-0.178527407351572
3.98,-0.0194819776769598,-0.181480315758568
3.994,-0.031070369243559,-0.183520241831528
4.008,-0.0425178058938186,-0.184754702565609
4.022,-0.0537803938325417,-0.185298389256673
4.036,-0.0648596524577873,-0.185253217504286
4.05,-0.075791036911251,-0.184692272067866
4.064,-0.0866273310632215,-0.183650267876816
4.078,-0.0974201207678773,-0.182121907047136
4.092,-0.108202790902019,-0.180068057075811
4.106,-0.11897810412391,-0.177428267834109
4.12,-0.129712492145751,-0.174137034535212
4.134,-0.14033789499191,-0.170140595376604
4.148,-0.150760558178664,-0.165411032192217
4.162,-0.160874902198153,-0.159955018163779
4.176,-0.170579649067043,-0.15381561889196
4.19,-0.17979299624125,-0.147066904163068
4.204,-0.188463840647822,-0.13980251698359
4.218,-0.196576835721309,-0.132120515620041
4.232,-0.204150268295458,-0.124107534374588
4.246,-0.211227146892786,-0.115825460053547
4.26,-0.217861235977231,-0.107303359763596
4.274,-0.224100798094353,-0.0985364013150253
4.288,-0.229973318647893,-0.0894921598299931
4.302,-0.235474380050489,-0.0801232515409852
4.316,-0.240562657239092,-0.0703780682577847
4.33,-0.245148788779473,-0.0602175992476981
4.344,-0.249128945553448,-0.0496786446441334
4.358,-0.252409149886928,-0.0388269030993135
4.372,-0.254918764105419,-0.0277660606482781
4.386,-0.256625738776368,-0.0166251310318124
4.4,-0.257545113109879,-0.00554016269082639
4.414,-0.257738918187912,0.00536630829976465
4.428,-0.257307231169953,0.0160041884244784
4.442,-0.256371791511354,0.0263294943609363
4.456,-0.255055012351055,0.0363500171715796
4.47,-0.253458139019516,0.0461216651825164
4.484,-0.251642550580603,0.0557358525682862
4.498,-0.249617720174919,0.0652999434479671
4.512,-0.247338226767969,0.0749140647219067
4.526,-0.244710641863893,0.0846483283627424
4.54,-0.241609376626769,0.0945245214226978
4.554,-0.237898974982635,0.104505621900553
4.568,-0.233459159347079,0.114495199969571
4.582,-0.228208386095456,0.124347091368072
4.596,-0.22212184572899,0.133883972161487
4.61,-0.215240719102117,0.142921924834703
4.624,-0.20767092695887,0.151297028676889
4.638,-0.199571342751863,0.158889612388072
4.652,-0.191133185484666,0.16564213932342
4.666,-0.18255377769402,0.171567697691725
4.68,-0.174008801212143,0.176747569598079
4.694,-0.165627457697646,0.181318103335508
4.708,-0.157474503234819,0.185448824885943
4.722,-0.149542055111165,0.189315120689389
4.736,-0.141752543993088,0.193069684668596
4.75,-0.133972455050358,0.196817119609816
4.764,-0.125947106852416,0.200709550356829
4.778,-0.117521175356772,0.204519814047588
4.792,-0.108593596233316,0.208108497524882
4.806,-0.0991235159267082,0.211302997112552
4.82,-0.0891373590479982,0.213922440174066
4.834,-0.0787262005620768,0.215802875714354
4.848,-0.0680342758219028,0.216819202891655
4.862,-0.0572406502816807,0.216900959049698
4.876,-0.0465369010683786,0.216040099805509
4.89,-0.0361040461635065,0.214290105388505
4.904,-0.0260918750702791,0.211756960434011
4.918,-0.0166033346722604,0.208583613867864
4.932,-0.00768580445279537,0.204930302222673
4.946,0.00066991142179721,0.20095353385235
4.96,0.00852309736100271,0.196786557466292
4.974,0.0159703237466005,0.192523802349032
4.988,0.0231282584917117,0.188211147883477
5.002,0.0301144914345323,0.183843054340117
5.016,0.0370289188319265,0.179366677542762
5.03,0.0439380660968434,0.174692209578989
5.044,0.0508642776725036,0.169707937145428
5.058,0.057781039076853,0.164297968085332
5.072,0.064614902327815,0.158360298150166
5.086,0.0712536564998983,0.151822896508008
5.1,0.0775596147014772,0.144655772143376
5.114,0.0833862637048303,0.136877507425465
5.128,0.0885961130868954,0.128555447976639
5.142,0.093077434448596,0.119799538717431
5.156,0.0967577175753582,0.110750601743695
5.17,0.0996120774900413,0.101564566676122
5.184,0.101665481046879,0.0923946998259526
5.198,0.102988451854848,0.0833741638893787
5.212,0.103686763637063,0.0746012311579493
5.226,0.103886437671061,0.066129161177344
5.24,0.103716013197874,0.05796216777734
5.254,0.103288468030963,0.0500581072164413
5.268,0.102685265383678,0.0423376172454819
5.282,0.101944766130891,0.0346985448149837
5.296,0.101056692455939,0.0270337414836577
5.31,0.0999635238631865,0.0192497917207625
5.324,0.0985687536747478,0.0112840523021385
5.338,0.0967509635729482,0.00311755985416332
5.352,0.0943818243843636,-0.00521810407546312
5.366,0.0913455302260631,-0.0136410800512197
5.38,0.087556916177957,-0.0220267199372549
5.394,0.0829756451462545,-0.0302213511878783
5.408,0.0776143690132866,-0.0380604461485795
5.422,0.0715396059583301,-0.0453886571731395
5.436,0.0648651134745926,-0.0520788688607609
5.45,0.0577386248069975,-0.05804752319456
5.464,0.0503237932917643,-0.0632639844316513
5.478,0.0427799058412538,-0.0677525588893126
5.492,0.0352422715352011,-0.0715868475190269
5.506,0.0278061071843891,-0.0748772287737417
5.52,0.0205162373001708,-0.0777532767499988
5.534,0.0133640744212189,-0.0803436612962023
5.548,0.00629227525794974,-0.0827564387942596
5.562,-0.000793658723286795,-0.0850625687893369
5.576,-0.0080085786929931,-0.0872849946499976
5.59,-0.0154681673155886,-0.0893947838013988
5.604,-0.0232695423465767,-0.0913147670350083
5.618,-0.0314747558292914,-0.0929300115696947
5.632,-0.0401379853492862,-0.0941027261033239
5.646,-0.0492141123231123,-0.0946540364490794
5.66,-0.0585575068592872,-0.094456951578015
5.674,-0.068028052510584,-0.0934376840129354
5.688,-0.0774708741881282,-0.0915699793231645
5.702,-0.0867338223141453,-0.0888754279139323
5.716,-0.0956831175021107,-0.0854176964850417
5.73,-0.104215234912393,-0.0812920596961664
5.744,-0.112263853231653,-0.0766121296021643
5.758,-0.119801532073024,-0.0714958494097541
5.772,-0.126836566215451,-0.0660526503519939
5.786,-0.133406071863414,-0.0603732348622278
5.8,-0.139566710996645,-0.0545228549235537
5.814,-0.145384532014757,-0.0485383268635312
5.828,-0.150925230840259,-0.0424284789819311
5.842,-0.156245792081037,-0.0361773507429395
5.856,-0.161397927288235,-0.0297598322123902
5.87,-0.166401892556607,-0.0231104659239958
5.884,-0.171253615859414,-0.0161683230937776
5.898,-0.1759260731807,-0.00887534880783559
5.912,-0.180369663149444,-0.00118140886477693
5.926,-0.184515084511917,0.00694931660443629
5.94,-0.188277803793145,0.015532698411123
5.954,-0.191564075290306,0.0245601525557471
5.968,-0.194278373416037,0.0339957521136307
5.982,-0.196331890995238,0.043775515259699
5.996,-0.197651479671475,0.0538093864451903
6.01,-0.198188124682586,0.0639862349556361
6.024,-0.197923837760533,0.0741818477274482
6.038,-0.196875798249848,0.0842694302786185
6.052,-0.195096730292763,0.0941316279303844
6.066,-0.192668264661454,0.103661878386044
6.08,-0.189711910674603,0.112773495108265
6.094,-0.186364258408886,0.12148580220621
6.108,-0.182731942643037,0.129830913098173
6.122,-0.178896112757792,0.137874706266159
6.136,-0.174901482840937,0.14570544347593
6.15,-0.170750130845903,0.153418845739084
6.164,-0.166401177612815,0.161101588831767
6.178,-0.161776661943484,0.168815528021675
6.192,-0.1567730164857,0.176584968267164
6.206,-0.151276684515572,0.18438894158988
6.22,-0.145181742850544,0.192159778171564
6.234,-0.138407027511136,0.199788358478697
6.248,-0.130910265734757,0.207135447315282
6.262,-0.122697109265768,0.214047592567733
6.276,-0.113823684944333,0.220375368604404
6.29,-0.104392220469293,0.225991370818875
6.304,-0.0945403196059406,0.230805385014049
6.318,-0.0844253939633992,0.234774561581384
6.332,-0.0742064631929377,0.237907155824109
6.346,-0.0640259054901024,0.240259336987234
6.36,-0.0539937233060717,0.241925573093902
6.374,-0.0441764947971723,0.243024012741631
6.388,-0.0345924779349919,0.243678973122786
6.402,-0.0252134350294461,0.244003009162873
6.416,-0.0159727904167501,0.244081038371005
6.43,-0.00677886522286131,0.243958643690341
6.444,0.00246872717294114,0.243636038394662
6.458,0.0118618082227148,0.243068358129396
6.472,0.0214678040943087,0.242172070861554
6.486,0.0313173992052879,0.240836491077544
6.5,0.0413971765200205,0.23893875634997
6.514,0.0517130505998087,0.23633879697412
6.528,0.0620773310672731,0.232918941461071
6.542,0.0723393286932233,0.228628283381378
6.556,0.0823372321030426,0.223464771213071
6.57,0.0919155727278657,0.217475396411072
6.584,0.100941335749717,0.210750339439799
6.598,0.109316749824438,0.203412039838337
6.612,0.116987283000305,0.195600747114865
6.626,0.123944024122329,0.187458482754557
6.64,0.130220352230403,0.179113466802902
6.654,0.13588350253971,0.170666932819157
6.668,0.141022244564247,0.162183898673817
6.682,0.145732329015868,0.153688927876804
6.696,0.150101589581064,0.145167274543293
6.71,0.154196582566199,0.136571132292685
6.724,0.158052417127186,0.127830082346943
6.738,0.161667001899181,0.118864331616142
6.752,0.16500036288901,0.109599006038266
6.766,0.167979041783249,0.0999776560700571
6.78,0.170504941742629,0.0899732529253411
6.794,0.172467428608155,0.0795952915510395
6.808,0.173757089712297,0.068892128437888
6.822,0.174279352955446,0.0579483051835913
6.836,0.173966203166272,0.0468772628716891
6.85,0.172784498642156,0.0358104519449786
6.864,0.170739854755447,0.0248843070071737
6.878,0.167875662498655,0.0142268217999146
6.892,0.16426746602588,0.00394548877288804
6.906,0.160013543902719,-0.00588184491193396
6.92,0.155223036185181,-0.0152120778127227
6.934,0.150003263229224,-0.0240373600609255
6.948,0.144486860713894,-0.0323509895484872
6.962,0.13873414789058,-0.0402547460981496
6.976,0.13275680667934,-0.0478268568908785
6.99,0.126546209577507,-0.0551234350185476
7.004,0.120070741375481,-0.062183190898513
7.018,0.113284749245943,-0.0690213555232431
7.032,0.106138536144628,-0.075627408610914
7.046,0.0985879352459708,-0.0819665131171442
7.06,0.0906022210795828,-0.0879840410406299
7.074,0.0821694972808729,-0.0936122044928978
7.088,0.0732991752259594,-0.0987776273174465
7.102,0.0640216363320928,-0.103408717545072
7.116,0.0543855727914728,-0.107441905111546
7.13,0.0444537660449249,-0.110826138582849
7.144,0.0342981577813569,-0.113525416666374
7.158,0.0239949969942122,-0.115519488737395
7.172,0.0136206425701201,-0.116803127719723
7.186,0.00324832147102865,-0.117384515599168
7.2,-0.00705414378274792,-0.11728327392469
7.214,-0.0172258527412773,-0.116528537779229
7.228,-0.0272139256261557,-0.115157257244017
7.242,-0.0369745115422336,-0.113212676885076
7.256,-0.0464739079028881,-0.110742755406762
7.27,-0.0556897831510099,-0.107798197081741
7.284,-0.0646122610977617,-0.104429803394993
7.298,-0.0732444330196751,-0.100685016841592
7.312,-0.0816017729861632,-0.096603787192146
7.326,-0.0897099821986268,-0.0922141866039939
7.34,-0.0976009893754602,-0.0875284622617053
7.354,-0.105307162223182,-0.0825403726812689
7.368,-0.112854184387257,-0.0772246510589617
7.382,-0.120278368860486,-0.0715282347712036
7.396,-0.127557542368832,-0.0653732915852374
7.41,-0.134613075664908,-0.0587133013790417
7.424,-0.141368260426423,-0.0515137832240381
7.438,-0.14772764901921,-0.0437640199919384
7.452,-0.153586077046511,-0.0354840978014455
7.466,-0.158840234948646,-0.0267283331053247
7.48,-0.16340129648013,-0.0175841758011189
7.494,-0.167206796957864,-0.00816630691764306
7.508,-0.170229908298708,0.00139361978575175
7.522,-0.172484507928955,0.0109604262289869
7.536,-0.174024963834271,0.0204102984041987
7.55,-0.174940290244292,0.0296450169248653
7.564,-0.175343162714844,0.0386033901912214
7.578,-0.175355090661638,0.0472680388025697
7.592,-0.175089701121093,0.0556662700107214
7.606,-0.174636479605157,0.0638645961272734
7.62,-0.174047369404423,0.0719573754377684
7.634,-0.173328325848764,0.0800509510813337
7.648,-0.172437288188299,0.0882453947498252
7.662,-0.17128915159646,0.0966164102927463
7.676,-0.169767318386869,0.105200039079419
7.69,-0.167740426606955,0.113982507870282
7.704,-0.165082042690567,0.122896902231543
7.718,-0.161690588830515,0.131827419505053
7.732,-0.157506641040285,0.140620883438266
7.746,-0.152525012292594,0.149104140688206
7.76,-0.14679969843032,0.157105063520267
7.774,-0.140440727287436,0.164474288592466
7.788,-0.133603082106202,0.171104623884484
7.802,-0.126469009521551,0.176945294127145
7.816,-0.119243841576052,0.181996142460765
7.83,-0.112149725756274,0.186340637604163
7.844,-0.10524973517457,0.190170605237558
7.858,-0.0985846381947761,0.193642885026398
7.872,-0.0921338402943806,0.196910502270944
7.886,-0.0858215295088131,0.200100693911228
7.9,-0.0795303513668017,0.203296749595855
7.914,-0.0731206865440207,0.206526131962757
7.928,-0.0664528447648349,0.20975646038729
7.942,-0.0594091056530033,0.212899848504391
7.956,-0.0519125823737505,0.215824931623005
7.97,-0.0439403476989179,0.218374867393266
7.984,-0.0355290762389989,0.22038878781194
7.998,-0.026772504049804,0.221723732969404
8.012,-0.0178111386614761,0.222274065322196
8.026,-0.0088157099930419,0.22198574690756
8.04,3.33109759868889E-05,0.220863601412758
8.054,0.00856729626822404,0.218970669632351
8.068,0.0166492134413861,0.216419859154933
8.082,0.0241889121192536,0.21335913333008
8.096,0.0311519641499282,0.209952337201314
8.11,0.0375609868449013,0.20635830606115
8.124,0.0434894124958384,0.202711077900988
8.138,0.0490486800830365,0.199103820779276
8.152,0.0543706792276829,0.195578530104227
8.166,0.0595878614300188,0.192122735733404
8.18,0.0648136798011772,0.188673503288907
8.194,0.070125905499824,0.185128051290494
8.208,0.0755549257641731,0.18135946368613
8.222,0.0810784269146495,0.177235362013434
8.236,0.0866230084191865,0.172637083137666
8.25,0.0920723788050471,0.167476914911215
8.264,0.0972698528387112,0.161640201946272
8.278,0.102022932086361,0.155222772272188
8.292,0.10619346350606,0.148306588202757
8.306,0.109675762700769,0.141013298504181
8.32,0.112407476752936,0.133490422208744
8.334,0.114374957272305,0.125894977135608
8.348,0.115612735114091,0.118376579878941
8.362,0.116197383461216,0.111062011800524
8.376,0.116236682156475,0.104042994075712
8.39,0.115855491694956,0.0973684850411664
8.404,0.11518006659872,0.091042260010027
8.418,0.114322661302792,0.0850259201484342
8.432,0.11336820350413,0.0792468670922998
8.446,0.112364544671306,0.0736102344158105
8.46,0.111317375977188,0.0680133384281063
8.474,0.110190364255158,0.0623609402902353
8.488,0.108910470736285,0.0565795259547733
8.502,0.107377825437515,0.0506289199606088
8.516,0.105479003528525,0.0445098454601928
8.53,0.103102144577145,0.0382664989660632
8.544,0.100152119097101,0.0319837791677763
8.558,0.0965639118440243,0.0257794352363592
8.572,0.0923125696976433,0.0197920116713128
8.586,0.0874184418209482,0.0141659919392499
8.6,0.0819469845086797,0.00903591542183694
8.614,0.0760030536782891,0.00451140968158287
8.628,0.0697202886432688,0.000665013174590094
8.642,0.0632468177389164,-0.00247563917543187
8.656,0.0567290078905389,-0.00493020508227596
8.67,0.0502952683336958,-0.00676219609582933
8.684,0.0440419586561563,-0.00807003877901829
8.698,0.0380770680109537,-0.00899190320703222
8.712,0.032349959264899,-0.00968071284525628
8.726,0.0267816191942561,-0.0102342696806307
8.74,0.0212821201659789,-0.0107143516846887
8.754,0.0157467544822422,-0.0111391693072297
8.768,0.0100728084156502,-0.0114813603593792
8.782,0.00417583314470479,-0.0116720316572962
8.796,-0.00199667430792683,-0.011610238468855
8.81,-0.00845590345490392,-0.0111766025167641
8.824,-0.0151678186228929,-0.0102492571459869
8.838,-0.0220551268953437,-0.0087200379003699
8.852,-0.029004788046795,-0.00650883903776079
8.866,-0.0358800242052445,-0.00357432604719781
8.88,-0.0425352286261272,8.03088829522186E-05
8.894,-0.0488318298842492,0.00440720571243756
8.908,-0.0546530792182418,0.00931923947054201
8.922,-0.0599159008383933,0.0147001920519115
8.936,-0.0645783502590396,0.0204183244169035
8.95,-0.0686418081104515,0.026341571964301
8.964,-0.0721477191214722,0.0323524094333649
8.978,-0.07516938017865,0.0383605052207423
8.992,-0.0777999002089334,0.0443115943728002
9.006,-0.080137921748023,0.0501915016467503
9.02,-0.0822729538647191,0.0560248745522842
9.034,-0.0842721894724386,0.0618688606550766
9.048,-0.0861704679454904,0.067802598531525
9.062,-0.0879646262882124,0.0739139090570668
9.076,-0.0896129140196178,0.0802849101968822
9.09,-0.091039501372898,0.0869783946063877
9.104,-0.0921434690111946,0.0940266935165005
9.118,-0.0928111103957919,0.101424419835488
9.132,-0.0929070041951893,0.109146493107311
9.146,-0.0923180316925853,0.11708289341604
9.16,-0.0910085987588468,0.125084729951205
9.174,-0.0889663336145925,0.133020182212115
9.188,-0.0862176359334442,0.140760628315141
9.202,-0.0828237422847775,0.148193173937468
9.216,-0.0788728645683956,0.155230875523
9.23,-0.0744694921635763,0.161819506915427
9.244,-0.0697222525820172,0.167940179954695
9.258,-0.0647318483151601,0.173607657212296
9.272,-0.0595805215609862,0.178864721707778
9.286,-0.0543242595317215,0.18377343003081
9.3,-0.0489885776013129,0.188404418558192
9.314,-0.0435682571917026,0.192825621122653
9.328,-0.0380309292313419,0.197091775150301
9.342,-0.0323239416206889,0.201235947762116
9.356,-0.0263835821629115,0.205264028950503
9.37,-0.0201454858091678,0.209152755999999
