"Freq [GHz]","re(S(Antenna1_1_1,Antenna1_1_1)) []","im(S(Antenna1_1_1,Antenna1_1_1)) []"
3,-0.204961518044988,-0.177744694874434
3.014,-0.214224135271747,-0.163538634012158
3.028,-0.221870257099388,-0.148469403107664
3.042,-0.227782701019436,-0.132888627467439
3.056,-0.23195564320427,-0.117160247175411
3.07,-0.234491040562212,-0.101622026817446
3.084,-0.235581833566208,-0.0865509703993507
3.098,-0.235484212618123,-0.072137051860334
3.112,-0.234482648986844,-0.0584685595492406
3.126,-0.232852314150139,-0.0455308051906518
3.14,-0.230823813013347,-0.0332181739602188
3.154,-0.228554797515555,-0.0213577344201428
3.168,-0.226112060251906,-0.00974112514565386
3.182,-0.223466270998773,0.0018396082006198
3.196,-0.220499814817314,0.0135569990568529
3.21,-0.217026456367121,0.0255185438744012
3.224,-0.212833941565461,0.037757520918461
3.238,-0.207682314304831,0.0502234337147824
3.252,-0.201330430993574,0.0627299704731694
3.266,-0.193631024712104,0.0750233150658589
3.28,-0.184525760209805,0.0868001289993899
3.294,-0.17405709728313,0.0977416420500662
3.308,-0.162367431070909,0.107549333439712
3.322,-0.149685967027654,0.115977676541419
3.336,-0.136305310101338,0.122859955459311
3.35,-0.122550950696919,0.128124172605718
3.364,-0.108747581635092,0.131797397974404
3.378,-0.0951864145938115,0.133998378924992
3.392,-0.082097385213791,0.134919646695407
3.406,-0.0696294093625975,0.134801556361274
3.42,-0.0578407930752683,0.133901554168802
3.434,-0.046700648531004,0.13246240419856
3.448,-0.0362156405532896,0.130754397066272
3.462,-0.0260720026700594,0.128941416327271
3.476,-0.0159934446975457,0.127015666368553
3.49,-0.00577451847178298,0.124880249764356
3.504,0.00473034094983844,0.122357082340251
3.518,0.0155819829948556,0.119214502628905
3.532,0.0267430300611852,0.115201449709097
3.546,0.0380771031342764,0.110083921077807
3.56,0.0493606836238998,0.103679247418111
3.574,0.0603060357756922,0.0958840482297648
3.588,0.0705923362392823,0.0866925177432505
3.602,0.0799012100550261,0.0762028474191878
3.616,0.0879523569405648,0.0646109957949388
3.63,0.0945349282712814,0.052192518254296
3.644,0.0995307940409702,0.0392746040895701
3.658,0.102926778236974,0.0262016726066184
3.672,0.104814245284678,0.0132987089876502
3.686,0.1053759485468,0.000836864415270797
3.7,0.104861629189226,-0.0109943549554338
3.714,0.103555289361683,-0.022104725651554
3.728,0.101738173897058,-0.0325083960021146
3.742,0.0996521264550501,-0.0423155963892817
3.756,0.0974680398325143,-0.0517118360363926
3.77,0.095263566740443,-0.0609270847251631
3.784,0.0930131469142883,-0.0701987919080251
3.798,0.0905918658549628,-0.0797334824061818
3.812,0.0877928807626509,-0.0896719538525802
3.826,0.0843563610491344,-0.100062729721509
3.84,0.080006334361782,-0.110847424696861
3.854,0.0744907202067174,-0.121860175131539
3.868,0.067619331732938,-0.132841468461151
3.882,0.0591496335304101,-0.143485457296484
3.896,0.0491042168540742,-0.153284304874487
3.91,0.0378476018520696,-0.161840933060081
3.924,0.0257050308145686,-0.168921943995521
3.938,0.0130531693248362,-0.174412739589868
3.952,0.000275124188960204,-0.178325798583036
3.966,-0.0122837625270125,-0.180792516362572
3.98,-0.0243536242259598,-0.182040241420568
3.994,-0.035766623493559,-0.182358022419128
4.008,-0.0464693188378186,-0.182055923700009
4.022,-0.0565197789865417,-0.181423418178373
4.036,-0.0660704008157873,-0.180692269230086
4.05,-0.075339196217251,-0.180008515502866
4.064,-0.0845736835144315,-0.179416813518816
4.078,-0.0940122947700773,-0.178858677996136
4.092,-0.103848323259819,-0.178184328909511
4.106,-0.11420090747281,-0.177176147297309
4.12,-0.125096481884551,-0.175580367076212
4.134,-0.13646268414011,-0.173142739925704
4.148,-0.148135091930664,-0.169643586029817
4.162,-0.159875577063633,-0.164927891646679
4.176,-0.171399696445143,-0.15892687247336
4.19,-0.18240953855215,-0.151668571652468
4.204,-0.192627905133322,-0.14327644858924
4.218,-0.201829668582909,-0.133956369114141
4.232,-0.209866585642582,-0.123973762759288
4.246,-0.216682697893286,-0.113623823753347
4.26,-0.222318600038131,-0.103198387393606
4.274,-0.226904174135953,-0.0929534433043253
4.288,-0.230640726381693,-0.0830811279852931
4.302,-0.233774679792989,-0.0736894926577852
4.316,-0.236596185812292,-0.0648335527783847
4.33,-0.239464411303773,-0.0564535552730981
4.344,-0.242469361021048,-0.0482014867932334
4.358,-0.245657439009928,-0.0398467246813935
4.372,-0.248983242397419,-0.0311611727905781
4.386,-0.252317421638468,-0.0219507540406124
4.4,-0.255464659842979,-0.0120819582118264
4.414,-0.258189403006442,-0.00150036531123535
4.428,-0.260246085955053,0.00976093540047844
4.442,-0.261410103733354,0.0215838700069363
4.456,-0.261505736228055,0.0337783527961796
4.47,-0.260427652765516,0.0461039447608164
4.484,-0.258153453521603,0.0582973914467862
4.498,-0.254745843736919,0.0701025444869671
4.512,-0.250344341539569,0.0812989228909067
4.526,-0.245147724733193,0.0917253937437424
4.54,-0.239389559266769,0.101296116258698
4.554,-0.233309977651635,0.110006908987553
4.568,-0.227127286452079,0.117931432185571
4.582,-0.221012931843456,0.125207862963072
4.596,-0.21507285676099,0.132017912901787
4.61,-0.209337417151117,0.138560947493703
4.624,-0.20376091034007,0.145026504794889
4.638,-0.198230556343763,0.151568620355072
4.652,-0.192583620944066,0.15828504901742
4.666,-0.18663041993502,0.165203789422725
4.68,-0.180180306001143,0.172278366396979
4.694,-0.173067475598646,0.179392240242308
4.708,-0.165173554163819,0.186371628973443
4.722,-0.156444386868165,0.193005077787889
4.736,-0.146899202786788,0.199067391494596
4.75,-0.136631231544958,0.204345125911816
4.764,-0.125782268434416,0.208475599754829
4.778,-0.114702184243072,0.211533407144588
4.792,-0.103614407512316,0.213525060328882
4.806,-0.0927238521567082,0.214521820099452
4.82,-0.0821977223439982,0.214649042861066
4.834,-0.0721510451790768,0.214070165741554
4.848,-0.0626382974609028,0.212967158318055
4.862,-0.0536518560702507,0.211519574878698
4.876,-0.0451273088453786,0.209884446416509
4.89,-0.0369549696575065,0.208179148853505
4.904,-0.0289963050236791,0.206469078063011
4.918,-0.0211034573682604,0.204761472179564
4.932,-0.0131396958637954,0.203006083056873
4.946,-0.00499848473020279,0.20110266434435
4.96,0.00338103928300271,0.198914482364392
4.974,0.0120040365343005,0.196286348482032
4.988,0.0208166558934117,0.193065102195477
5.002,0.0297099622215323,0.189120120844117
5.016,0.0385307543893265,0.184361353832762
5.03,0.0470980695610434,0.178752606339589
5.044,0.0552234221395036,0.172318321539428
5.058,0.062732294767853,0.165142881718332
5.072,0.069484167573815,0.157362379811166
5.086,0.0753884881378983,0.149149786962008
5.1,0.0804144499260772,0.140695328475376
5.114,0.0845932132978302,0.132184554109465
5.128,0.0880121768038954,0.123776947381639
5.142,0.0908019596883261,0.115587901110031
5.156,0.0931177447363582,0.107676483394295
5.17,0.0951174139530413,0.100040675456122
5.184,0.0969393735268789,0.0926207764179526
5.198,0.098683037871848,0.0853105738400787
5.212,0.100394609219123,0.0779748245914493
5.226,0.102060090977561,0.070470726453344
5.24,0.103606504782874,0.06267050899334
5.254,0.104911176257063,0.0544821109684413
5.268,0.105817866390878,0.0458651637696819
5.282,0.106157604372891,0.0368401305248837
5.296,0.105771449687939,0.0274893700776577
5.31,0.104532160013186,0.0179499760990625
5.324,0.102361897341448,0.00839933559633847
5.338,0.0992436417401481,-0.000964689895836679
5.352,0.0952248227583636,-0.00994635964346312
5.366,0.0904127060500631,-0.0183744771842197
5.38,0.084962148421567,-0.0261217354701549
5.394,0.0790573170192545,-0.0331184954981783
5.408,0.0728897324042866,-0.0393592432045795
5.422,0.0666354478813301,-0.0449009164381395
5.436,0.0604342678860926,-0.0498533304438609
5.45,0.0543736331040975,-0.05436292449896
5.464,0.0484792012107643,-0.0585918819636513
5.478,0.0427133097082538,-0.0626952424603126
5.492,0.0369815283553011,-0.0667988647117269
5.506,0.0311465131231891,-0.0709809885859417
5.52,0.0250474802251708,-0.0752597037859988
5.534,0.0185229316642189,-0.0795879167882022
5.548,0.0114338611559497,-0.0838565037462596
5.562,0.00368459604385321,-0.0879053517271369
5.576,-0.0047613059829931,-0.0915410382179976
5.59,-0.0138721173305886,-0.0945590891033988
5.604,-0.0235471594535767,-0.0967681820590083
5.618,-0.0336244211346914,-0.0980133929574947
5.632,-0.0439024039859862,-0.0981327916402239
5.646,-0.0540839221261123,-0.0971003028210794
5.66,-0.0639160198602872,-0.095059851078015
5.674,-0.073216423605784,-0.0921626148079354
5.688,-0.0818651746480282,-0.0886048332873645
5.702,-0.0898156469011453,-0.0846034643489323
5.716,-0.0970964882211107,-0.0803696507520417
5.73,-0.103804311198393,-0.0760832459361664
5.744,-0.110088082372953,-0.0718715073671643
5.758,-0.116127164904024,-0.0677945480243542
5.772,-0.122105737682451,-0.0638393057229939
5.786,-0.128186750200414,-0.0599227463132278
5.8,-0.134488624080245,-0.0559038867698537
5.814,-0.141067572312957,-0.0516031453084312
5.828,-0.147907717396259,-0.0468266294469311
5.842,-0.154920233651037,-0.0413923687429395
5.856,-0.161967166659235,-0.0351242033973902
5.87,-0.168809150671507,-0.0279538483142958
5.884,-0.175213443668414,-0.0198818779802776
5.898,-0.1809574482777,-0.0109813273638356
5.912,-0.185850758487444,-0.00139434803677693
5.926,-0.189756833947517,0.00868296572253629
5.94,-0.192608083306245,0.0190222520231231
5.954,-0.194412539204206,0.0293883840057471
5.968,-0.195251336375037,0.0395656723686307
5.982,-0.195267323318738,0.049381565015699
5.996,-0.194646213031675,0.0587249514840903
6.01,-0.193592581796586,0.0675568370145361
6.024,-0.192303650058533,0.0759120756954482
6.038,-0.190944052682848,0.0838919338886185
6.052,-0.189624695144763,0.0916483658979144
6.066,-0.188405957485254,0.0993633677160443
6.08,-0.187283947109603,0.107252518543265
6.094,-0.186081949649886,0.11548067414121
6.108,-0.184622172449237,0.124141819568173
6.122,-0.182697880645792,0.133257938103659
6.136,-0.180100594270937,0.14277325320013
6.15,-0.176647544291903,0.152558298272084
6.164,-0.172205970229815,0.162423282167767
6.178,-0.166711236573684,0.172139073025675
6.192,-0.1601765092785,0.181463182352164
6.206,-0.152692775937572,0.190167509023879
6.22,-0.144419188468544,0.198064376584564
6.234,-0.135564910841836,0.205027596680897
6.248,-0.126364719380757,0.211005895688682
6.262,-0.117051397684768,0.216026980134733
6.276,-0.107828391677333,0.220191677339404
6.29,-0.0988461860413929,0.223658830063475
6.304,-0.0901854264854406,0.226622794851049
6.318,-0.0818489913073992,0.229286346669384
6.332,-0.0737641074039377,0.231832405210109
6.346,-0.0657943445064024,0.234398188890234
6.36,-0.0577600630120717,0.237055140370502
6.374,-0.0494647938431723,0.239797277677131
6.388,-0.0407242347909919,0.242539587438786
6.402,-0.0313941627934461,0.245126816502873
6.416,-0.0213936420599501,0.247351691319305
6.43,-0.0107204524663613,0.248980368538341
6.444,0.000543389424941144,0.249781953877662
6.458,0.0122369063157148,0.249558348012396
6.472,0.0241357475058587,0.248170569945654
6.486,0.0359762635902879,0.245558093265444
6.5,0.0474851156890205,0.24174856937597
6.514,0.0583239828188087,0.23675520303612
6.528,0.0683205477012731,0.230940077988671
6.542,0.0773904073714233,0.224567730990378
6.556,0.0855444130292426,0.217904971474071
6.57,0.0928821067518657,0.211187040743072
6.584,0.099573579299217,0.204588537476799
6.598,0.105832253909038,0.198202902093037
6.612,0.111882281091305,0.192033100865065
6.626,0.117924919670329,0.185994655619557
6.64,0.124108389387403,0.179930523856902
6.654,0.13050519653521,0.173635764414257
6.668,0.137099921347947,0.166888633170817
6.682,0.143789049478868,0.159483912521804
6.696,0.150392817529064,0.151263998653293
6.71,0.156677439410899,0.142143588056185
6.724,0.162384700111186,0.132124675821783
6.738,0.167264930046181,0.121299885369442
6.752,0.17110893564901,0.109843716671266
6.766,0.173774617247249,0.0979929172131071
6.78,0.175204730926829,0.0860186304473411
6.794,0.175433447926255,0.0741940666400395
6.808,0.174580871080297,0.062762026255888
6.822,0.172836280147646,0.0519066101345913
6.836,0.170432380328272,0.0417328758275891
6.85,0.167614020584156,0.0322571252037786
6.864,0.164605572956447,0.0234090809981737
6.878,0.161581326999655,0.0150456217872146
6.892,0.15864283632678,0.00697420838898804
6.906,0.155806216515693,-0.00101714604393396
6.92,0.153001063033581,-0.00912736677772272
6.934,0.150081113672224,-0.0175115960719255
6.948,0.146854597679694,-0.0263693288184872
6.962,0.14299623194758,-0.0356167057893496
6.976,0.13828385254934,-0.0450800104365785
6.99,0.132571374460507,-0.0545506608230476
7.004,0.125792818303481,-0.063777291193813
7.018,0.117971324837543,-0.0724973232902431
7.032,0.109216293519708,-0.080469155412914
7.046,0.0997093970337708,-0.0875007338611442
7.06,0.0896816516022828,-0.0934708809236299
7.074,0.0793848207778729,-0.0983408141858978
7.088,0.0690610674899594,-0.102154651499047
7.102,0.0589148783020928,-0.105029169159872
7.116,0.0490908680934728,-0.107134474253746
7.13,0.0396602025128249,-0.108668388757849
7.144,0.030617175505557,-0.109828084646374
7.158,0.0218861136486422,-0.110782772177395
7.172,0.01333742793122,-0.111651007531723
7.186,0.00481046981932865,-0.112485494878168
7.2,-0.00385998368474792,-0.11326721198679
7.214,-0.0128171932902773,-0.113909430648029
7.228,-0.0221593767111557,-0.114270899306287
7.242,-0.0319230698282336,-0.114176273787676
7.256,-0.0420750176718881,-0.113440971581762
7.27,-0.0525135316886099,-0.111897097477741
7.284,-0.0630789972145617,-0.109417004186993
7.298,-0.0735720240742851,-0.105931414260592
7.312,-0.0837767560238632,-0.101439785462146
7.326,-0.0934862141726268,-0.0960116476409939
7.34,-0.10252632356046,-0.0897788362895053
7.354,-0.110775484749182,-0.0829197397376789
7.368,-0.118177170961257,-0.0756377093088617
7.382,-0.124705832932486,-0.0681739594880036
7.396,-0.130484779904832,-0.0607390869262374
7.41,-0.135707014907008,-0.0534111918130417
7.424,-0.140530046889813,-0.0462279634530381
7.438,-0.14510193266611,-0.0391655083549384
7.452,-0.149540408066511,-0.0321475557854455
7.466,-0.153917071940646,-0.0250611845403247
7.48,-0.15824847766913,-0.0177767441038189
7.494,-0.162495015115864,-0.0101691891993431
7.508,-0.166567415873708,-0.00213797142924825
7.522,-0.170339725939555,0.00637706867698695
7.536,-0.173666789332471,0.0153857438811987
7.55,-0.176403771387192,0.0248445802088653
7.564,-0.178425078462844,0.0346610174622214
7.578,-0.179640211215638,0.0447039329202697
7.592,-0.180004584610093,0.0548188735890213
7.606,-0.179524082416157,0.0648458271414734
7.62,-0.178252981524423,0.0746371119169684
7.634,-0.176285763268464,0.0840730429533337
7.648,-0.173744108806719,0.0930734111078253
7.662,-0.17076095574366,0.101603434037746
7.676,-0.167463805550969,0.109673610341419
7.69,-0.163959486285955,0.117333724440282
7.704,-0.160322302703567,0.124662001920643
7.718,-0.156586993437515,0.131751007949153
7.732,-0.152747238715285,0.138692244857466
7.746,-0.148759716307594,0.145561501752206
7.76,-0.14455298681382,0.152406837747267
7.774,-0.140039892645436,0.159240674300466
7.788,-0.135131749246902,0.166036892808484
7.802,-0.129752435785551,0.172733161879145
7.816,-0.123837499610052,0.179239788301465
7.83,-0.117345047276274,0.185427879079663
7.844,-0.11034882108657,0.191168163926858
7.858,-0.102920006844776,0.196366112827398
7.872,-0.0951548258037807,0.200953178417944
7.886,-0.0871637236700631,0.204893109261228
7.9,-0.0790593334133017,0.208184014419855
7.914,-0.0709447688830206,0.210856125627757
7.928,-0.0629036925328349,0.21296573647589
7.942,-0.0549933169790033,0.214586248312291
7.956,-0.0472410881817505,0.215797570437105
7.97,-0.0396453121889179,0.216675275603466
7.984,-0.0321794880845989,0.21728088908094
7.998,-0.024799656874404,0.217654499650404
8.012,-0.0174537219173761,0.217810551776196
8.026,-0.0100914807141419,0.21773725310356
8.04,-0.00267405292801311,0.217399563570158
8.054,0.00481850108622404,0.216745279253151
8.068,0.0123823192133861,0.215713340307833
8.082,0.0199882092062536,0.21424322430228
8.096,0.0275835876163282,0.212284165967614
8.11,0.0350975675224013,0.20980298619815
8.124,0.0424484681227384,0.206789511399988
8.138,0.0495527077267265,0.203258893855276
8.152,0.0563338675253829,0.199250562533927
8.166,0.0627307002770188,0.194823987597704
8.18,0.0687030086351773,0.190051871049117
8.194,0.074234613653824,0.185011723039694
8.208,0.0793330366122731,0.17977700061873
8.222,0.0840259729334495,0.174409042032434
8.236,0.0883550835223565,0.168950915431666
8.25,0.0923680040280471,0.163424029796715
8.264,0.0961303332888113,0.157845619997272
8.278,0.0996645831455615,0.152161286911888
8.292,0.10297777690166,0.146336432938267
8.306,0.106056435737169,0.140336325990881
8.32,0.108868427699836,0.134134023019064
8.334,0.111367588073505,0.127716887235808
8.348,0.113500344741591,0.121090796788941
8.362,0.115213312405816,0.114281505034724
8.376,0.116460707658175,0.107333045623912
8.39,0.117210496671656,0.100303514206366
8.404,0.11744840669982,0.093258937605347
8.418,0.117179275951992,0.0862662054749342
8.432,0.11642562995643,0.0793861514795998
8.446,0.115223792711406,0.0726678171845105
8.46,0.113618204313588,0.0661447236950063
8.474,0.111654869660358,0.0598336484014353
8.488,0.109374969369285,0.0537360092095733
8.502,0.106809611364755,0.0478415578155688
8.516,0.103976501276025,0.0421337379129928
8.53,0.100878995723145,0.0365958249925632
8.544,0.0975076251251012,0.0312168654926763
8.558,0.0938437906865842,0.0259964862471592
8.572,0.0898650117906433,0.0209478388337128
8.586,0.0855508736976482,0.0160982449532499
8.6,0.0808887331061797,0.0114874702844369
8.614,0.0758782916968891,0.00716391952814286
8.628,0.0705343341752688,0.00317935957029009
8.642,0.0648872167955164,-0.000417005130131871
8.656,0.0589810396304889,-0.00358419109477596
8.67,0.0528697882885958,-0.00629396309452933
8.684,0.0466120362346563,-0.00853354218785829
8.698,0.0402766112358537,-0.0102983825039322
8.712,0.033910843850599,-0.0116224642671553
8.726,0.0275428590853561,-0.0125390763039307
8.74,0.0211889378102789,-0.0130784924373887
8.754,0.0148523378369422,-0.0132661321386297
8.768,0.00852677222513023,-0.0131179287505792
8.782,0.00220137442870479,-0.0126374369242962
8.796,-0.00413362823082683,-0.011815101650455
8.81,-0.0104814077934039,-0.0106297868472641
8.824,-0.0168340397554929,-0.00905232648538686
8.838,-0.0231697097420437,-0.0070505629682699
8.852,-0.029452062811195,-0.00459511769646079
8.866,-0.0356318204342945,-0.00166502808169781
8.88,-0.0416504562312272,0.00174760064215222
8.894,-0.0474454157566492,0.00563464315253756
8.908,-0.0529561315165418,0.00997117363244201
8.922,-0.0581299560016933,0.0147170160112915
8.936,-0.0629271326729396,0.0198204422416035
8.95,-0.0673240501443515,0.025223515084001
8.964,-0.0713142629246721,0.0308683179327649
8.978,-0.07490708126756,0.0367031654573423
8.992,-0.0781238887679334,0.0426878694890002
9.006,-0.080992688520123,0.0487972510616503
9.02,-0.0835416564826191,0.0550223287674842
9.034,-0.0857926513946386,0.0613689442980466
9.048,-0.0877556655574904,0.067853962355525
9.062,-0.0894250903985124,0.0744995498694668
9.076,-0.0907784264927178,0.0813263437273821
9.09,-0.091777721498698,0.0883465095654877
9.104,-0.0923736195251646,0.0955577439427005
9.118,-0.0925115098271919,0.102939166158088
9.132,-0.0921272894448893,0.110457439853311
9.146,-0.0911720475085853,0.11803896164744
9.16,-0.0896380166857468,0.125594940689305
9.174,-0.0875311925338925,0.133045135960515
9.188,-0.0848789774033442,0.140314484049241
9.202,-0.0817268818926775,0.147340218129468
9.216,-0.0781328420276956,0.1540772491329
9.23,-0.0741599754323763,0.160501049127827
9.244,-0.0698688224879172,0.166607641049895
9.258,-0.0653101880433601,0.172410719107096
9.272,-0.0605196062714862,0.177936338565978
9.286,-0.0555142104559215,0.18321596162542
9.3,-0.0502924372331129,0.188278877439792
9.314,-0.0448365835154026,0.193145096480953
9.328,-0.0391178244081419,0.197819742069901
9.342,-0.0331029512923889,0.202289738293716
9.356,-0.0267618504016115,0.206523257989803
9.37,-0.0200746463152678,0.210471997017399
