"Freq [GHz]","re(S(Antenna1_1_1,Antenna1_1_1)) []","im(S(Antenna1_1_1,Antenna1_1_1)) []"
1,-0.798404442946223,-0.496053951375448
1.01,-0.818019433490811,-0.456467947245392
1.02,-0.836026965333072,-0.41462695257961
1.03,-0.852177853867061,-0.370463560336826
1.04,-0.86618830710869,-0.32392164316436
1.05,-0.877735657290517,-0.274961789891315
1.06,-0.886454016508163,-0.223568384129882
1.07,-0.891930122550819,-0.169758712879001
1.08,-0.893699792731934,-0.113594539447502
1.09,-0.891245612480043,-0.0551965971136954
1.1,-0.883996763622051,0.00523756761225004
1.11,-0.871332252214291,0.067412089476026
1.12,-0.852589223024227,0.130907565317258
1.13,-0.827078518525643,0.195152551677653
1.14,-0.794110082478183,0.25939300286726
1.15,-0.753031081719926,0.322662068424406
1.16,-0.703286763486125,0.38365738050493
1.17,-0.644533668778348,0.440857013489935
1.18,-0.576631793304603,0.492724919291736
1.19,-0.499778901843737,0.537347646076322
1.2,-0.414627778666137,0.572665617650285
1.21,-0.322380640190773,0.59659218267676
1.22,-0.224850150695725,0.607181399046303
1.23,-0.124461575024189,0.602834859840694
1.24,-0.0241733700599072,0.582523577174834
1.25,0.072694918328737,0.545987402150468
1.26,0.162718502943223,0.493867646569138
1.27,0.242674118501175,0.427734121001861
1.28,0.309845744117148,0.349987459038769
1.29,0.362271745409742,0.263646690493535
1.3,0.398887901892841,0.172060437029327
1.31,0.419546671894473,0.078597023550258
1.32,0.425351658338301,-0.013627605279478
1.33,0.41734051567333,-0.102076368969659
1.34,0.397109833708408,-0.1846848774254
1.35,0.366624041580733,-0.259968841674636
1.36,0.32789566893429,-0.327004188618229
1.37,0.282851040046816,-0.385348450357158
1.38,0.233242413990476,-0.434943483466455
1.39,0.180600895645554,-0.476016776326151
1.4,0.126220855803706,-0.508992261605438
1.41,0.0711660827506847,-0.534416025202424
1.42,0.0162891389942877,-0.552898310505332
1.43,-0.0377426441077441,-0.565070775704537
1.44,-0.0904191096784362,-0.571556753969072
1.45,-0.141360045916267,-0.572951892173367
1.46,-0.190290398722177,-0.569812655937537
1.47,-0.237018658981056,-0.562650534775266
1.48,-0.281418594185074,-0.551930201609861
1.49,-0.323414166169555,-0.538070287289059
1.5,-0.362967309413825,-0.521445782097286
1.51,-0.400068179357959,-0.502391360042072
1.52,-0.434727475999171,-0.481205140307891
1.53,-0.466970476528216,-0.458152562729965
1.54,-0.496832454193327,-0.433470171366262
1.55,-0.524355208314404,-0.407369182629292
1.56,-0.54958447647016,-0.380038770838698
1.57,-0.572568041450871,-0.351649041677451
1.58,-0.593354381498285,-0.322353688179589
1.59,-0.611991742498105,-0.29229233887261
1.6,-0.628527535623394,-0.261592616223924
1.61,-0.643007984043964,-0.23037192797548
1.62,-0.655477958470568,-0.198739015588278
1.63,-0.665932758320759,-0.166739321847615
1.64,-0.674397242638978,-0.134485182828884
1.65,-0.680958242882045,-0.102130898404073
1.66,-0.685660227178319,-0.0697646548937663
1.67,-0.688547254938391,-0.0374702286060737
1.68,-0.689663151922849,-0.00532751258261997
1.69,-0.689051693256387,0.0265870515958063
1.7,-0.686756786997596,0.0582001242528339
1.71,-0.682822652746135,0.0894411891733374
1.72,-0.677293991184812,0.120242336504445
1.73,-0.67021614155449,0.15053809843379
1.74,-0.661635224925093,0.180265330140918
1.75,-0.651598271783243,0.209363129442992
1.76,-0.64015333299089,0.237772789355583
1.77,-0.627349573525932,0.265437778494927
1.78,-0.613237348772827,0.292303744838895
1.79,-0.597868263319529,0.318318538908931
1.8,-0.581295212435837,0.343432252862556
1.81,-0.563572406523893,0.367597272399571
1.82,-0.544755378948941,0.390768338712957
1.83,-0.524900977743905,0.412902618007208
1.84,-0.504067341745659,0.433959776377104
1.85,-0.482313861770728,0.45390205803142
1.86,-0.45970112748743,0.472694365085603
1.87,-0.436290860673769,0.490304337266638
1.88,-0.412145835585949,0.50670243006168
1.89,-0.387329787191659,0.521861989959986
1.9,-0.361907308051033,0.535759325563779
1.91,-0.335943734648595,0.548373773437289
1.92,-0.309505024028432,0.559687757697934
1.93,-0.282657621578505,0.56968684242703
1.94,-0.255480883472461,0.578348344465399
1.95,-0.228071246968569,0.585648484792624
1.96,-0.200459254701502,0.591621473014612
1.97,-0.172709964160304,0.596266146604339
1.98,-0.14488818285551,0.59958435545395
1.99,-0.117058334332407,0.601580969186148
2,-0.0892843194560163,0.602263876994163
2.01,-0.0616293735918916,0.601643979371242
2.02,-0.034155920388779,0.599735171142465
2.03,-0.00692542289821695,0.596554315272559
2.04,0.0200017671458993,0.592121206989517
2.05,0.0465665610276287,0.586458527831242
2.06,0.0727112848165179,0.579591789327327
2.07,0.0983798302720163,0.571549266088047
2.08,0.123517803884235,0.562361918183775
2.09,0.148072673089778,0.552063302804326
2.1,0.171993908642849,0.540689475256849
2.11,0.195233122157364,0.528278879496786
2.12,0.217744197838686,0.51487222846328
2.13,0.239483417449666,0.500512374600549
2.14,0.26040957759395,0.485244171042697
2.15,0.280484098445805,0.469114324016272
2.16,0.299671123107118,0.452171237123409
2.17,0.317937606841567,0.43446484823041
2.18,0.335253395502833,0.41604645975744
2.19,0.351591292554165,0.396968563247946
2.2,0.366927114155086,0.377284659121564
2.21,0.381239731886482,0.357049072583704
2.22,0.394511102766343,0.336316766696835
2.23,0.406726286310025,0.315143153634586
2.24,0.417873448473755,0.293583905171672
2.25,0.42794385242466,0.271694763465294
2.26,0.436976458106711,0.249535946592178
2.27,0.444922962214229,0.227151948073579
2.28,0.451783302912427,0.204598072066672
2.29,0.457560448501453,0.181928941640387
2.3,0.462260312209453,0.159198310377535
2.31,0.465891653065342,0.136458883053672
2.32,0.468465963838542,0.113762146580168
2.33,0.469997347160429,0.0911582122815929
2.34,0.47050238102412,0.0686956704546931
2.35,0.469999974925548,0.046421458023061
2.36,0.468511217998003,0.0243807399644391
2.37,0.466059220522878,0.00261680504605866
2.38,0.462668950232834,-0.0188290237406632
2.39,0.45836706484489,-0.0399174638047552
2.4,0.45318174227547,-0.060611332529458
2.41,0.447142509960972,-0.0808755918494074
2.42,0.440280074693384,-0.100677378012209
2.43,0.432626154341991,-0.119986016832878
2.44,0.424213312777925,-0.138773024907432
2.45,0.415074799257328,-0.15701209734396
2.46,0.405244393443397,-0.174679082714345
2.47,0.394756257162706,-0.19175194600504
2.48,0.38364479389639,-0.208210720474139
2.49,0.371944516903409,-0.224037449396087
2.5,0.359689926761692,-0.239216118732084
2.51,0.346915398998243,-0.253732581864266
2.52,0.333655082351659,-0.267574477558447
2.53,0.319942808093317,-0.280731142354279
2.54,0.305812010690555,-0.293193518637531
2.55,0.29129565998422,-0.30495405961945
2.56,0.276426204898769,-0.31600663248717
2.57,0.26121151391509,-0.326351414209536
2.58,0.245696460926577,-0.33597791954878
2.59,0.229919590118722,-0.344880883054829
2.6,0.213911294483449,-0.353058174833344
2.61,0.197701467003349,-0.360508615491671
2.62,0.181319511088936,-0.367231915813759
2.63,0.164794355891629,-0.373228623112989
2.64,0.148154475477266,-0.378500074558126
2.65,0.131427910858331,-0.383048357641185
2.66,0.114642293883464,-0.38687627783871
2.67,0.0978248719970718,-0.38998733339537
2.68,0.0810025329166004,-0.392385697052644
2.69,0.0642018283292248,-0.394076204422547
2.7,0.0474489957529909,-0.395064348624371
2.71,0.0307699777856364,-0.395356280692086
2.72,0.0141904380332765,-0.394958815194272
2.73,-0.00226422688741423,-0.39387944040605
2.74,-0.0185688798230898,-0.392126332350339
2.75,-0.0346986404217069,-0.389708371944357
2.76,-0.0506288876970271,-0.386635164457989
2.77,-0.0663352680044123,-0.382917060472464
2.78,-0.0817937085515776,-0.378565177515528
2.79,-0.0969804364389107,-0.373591421533018
2.8,-0.111872003122299,-0.368008507407105
2.81,-0.126445314086988,-0.361829977713639
2.82,-0.140677663425609,-0.355070218999561
2.83,-0.154546772912946,-0.347744474874383
2.84,-0.168030835095902,-0.339868855292896
2.85,-0.18110855982328,-0.331460341474561
2.86,-0.193759223594186,-0.322536785991122
2.87,-0.205962721029825,-0.313116907642861
2.88,-0.217688602040793,-0.303217339208169
2.89,-0.228915879845493,-0.292862004673698
2.9,-0.239637518033099,-0.282076851498069
2.91,-0.249837295449412,-0.270884525936778
2.92,-0.259499987573055,-0.259308298185953
2.93,-0.268611396024622,-0.247372005729358
2.94,-0.277158372383546,-0.235099994271698
2.95,-0.285128835999387,-0.222517057037419
2.96,-0.292511785580885,-0.209648373263148
2.97,-0.299297304464103,-0.196519446753337
2.98,-0.305476559582128,-0.183156045389108
2.99,-0.311041794284681,-0.169584142477079
3,-0.315986315278193,-0.155829860829201
3.01,-0.32030447409495,-0.141919420431198
3.02,-0.323991643619158,-0.127879090508847
3.03,-0.327044190338588,-0.113735146741969
3.04,-0.329459443079969,-0.0995138343094218
3.05,-0.331235659136577,-0.0852413373184207
3.06,-0.332371988764596,-0.0709437551011552
3.07,-0.332868439141354,-0.0566470856838375
3.08,-0.332725838933254,-0.04237721663043
3.09,-0.331945804693684,-0.0281599232525169
3.1,-0.330530710340035,-0.0140208740608752
3.11,-0.328483660988166,1.43569149959628E-05
3.12,-0.325808472383799,0.0139202714665674
3.13,-0.322509657187711,0.0276714229305795
3.14,-0.318592419244716,0.0412423872753564
3.15,-0.314062656922611,0.0546077306701755
3.16,-0.308926976450377,0.0677419749022763
3.17,-0.303192716040927,0.0806195621723661
3.18,-0.296867981375069,0.0932148209938843
3.19,-0.289960014851968,0.105486467876804
3.2,-0.28248248871486,0.117377444875723
3.21,-0.274455406133421,0.128909096313116
3.22,-0.265890227568213,0.140056612455277
3.23,-0.256799344069347,0.150794923682559
3.24,-0.247196188437399,0.161098695006887
3.25,-0.237095355934249,0.170942337703702
3.26,-0.226512732349194,0.180300040172406
3.27,-0.215465626847476,0.18914581990074
3.28,-0.203972906664304,0.197453598069757
3.29,-0.192055130338102,0.205197297995624
3.3,-0.179734675905042,0.212350968104797
3.31,-0.167035860245414,0.218888929648334
3.32,-0.153985045574448,0.224785948766676
3.33,-0.140610729040438,0.230017431911442
3.34,-0.126943611386598,0.23455964293003
3.35,-0.113016640781324,0.238389939478415
3.36,-0.0988650281711179,0.241487025703779
3.37,-0.0845262308991443,0.243831217507203
3.38,-0.0700399018251975,0.245404716063313
3.39,-0.055447801824696,0.246191884712278
3.4,-0.0407936742590446,0.246179523921889
3.41,-0.0261230808798884,0.245357138639526
3.42,-0.0114831995120492,0.243717192200212
3.43,0.00307741516874362,0.241255340894561
3.44,0.0175091054301363,0.237970643447185
3.45,0.0317614155977648,0.233865740003609
3.46,0.0457834242644103,0.22894699566755
3.47,0.0595240985445581,0.22322460437017
3.48,0.0729326646503593,0.216712649631726
3.49,0.085958988350131,0.20942911975838
3.5,0.0985539587207256,0.201395876096806
3.51,0.1107793605876,0.192801909642987
3.52,0.122511623524093,0.183492900034326
3.53,0.133704079602788,0.173497130188761
3.54,0.144311950133972,0.162846531564627
3.55,0.154292688182459,0.151576501321714
3.56,0.163606294417257,0.13972568245045
3.57,0.172215601920106,0.127335711725068
3.58,0.18008652652543,0.114450940814197
3.59,0.187188280289992,0.101118136320656
3.6,0.193493546705193,0.0873861645046335
3.61,0.19897861728747,0.0733056665966161
3.62,0.203623490140228,0.0589287301668252
3.63,0.207411931923153,0.0443085617247679
3.64,0.210331505417532,0.0294991652350741
3.65,0.212373565466898,0.0145550303297709
3.66,0.213537175975142,-0.000546788848347751
3.67,0.21379532499444,-0.0158051368508199
3.68,0.213130674640374,-0.0310323879550762
3.69,0.211549520210874,-0.0461688439950224
3.7,0.209062351846693,-0.0611556913810464
3.71,0.205683726693382,-0.0759353025902506
3.72,0.201432122918081,-0.0904515186357548
3.73,0.196329778173969,-0.104649912636452
3.74,0.190402514964068,-0.118478034769172
3.75,0.183679554841202,-0.131885639145431
3.76,0.176193323079489,-0.144824893323374
3.77,0.167979245126052,-0.157250571199098
3.78,0.159075535917245,-0.169120230023172
3.79,0.149522982625416,-0.180394372216807
3.8,0.139364721470802,-0.191036592550817
3.81,0.128646008846638,-0.201013711080285
3.82,0.117276627699183,-0.210148073829716
3.83,0.105432231843896,-0.218480757377333
3.84,0.0932184492353971,-0.226039292322777
3.85,0.0806909062698435,-0.23281108014775
3.86,0.0679052649258615,-0.238787730420664
3.87,0.054916903046493,-0.243965002887911
3.88,0.0417806025588279,-0.248342726984114
3.89,0.0285502469685587,-0.25192469909386
3.9,0.015278529466994,-0.254718558377707
3.91,0.00201667303358541,-0.256735641671673
3.92,-0.0111858360698118,-0.257990818393669
3.93,-0.0242814999814645,-0.258502306173693
3.94,-0.0372250446948103,-0.258291468287244
3.95,-0.0499736378663095,-0.257382593953344
3.96,-0.0624870876384232,-0.255802662781064
3.97,-0.0747280210679726,-0.253581094759617
3.98,-0.086662041042402,-0.250749487276797
3.99,-0.0982578604787817,-0.247341340937387
4,-0.109487412695422,-0.243391775967811
4.01,-0.120325937260008,-0.23893724115127
4.02,-0.130752040397298,-0.234015217393545
4.03,-0.140747729538348,-0.22866391809048
4.04,-0.15029842160644,-0.222921988550756
4.05,-0.159392924912898,-0.216828206801211
4.06,-0.168023394748664,-0.210421188158402
4.07,-0.176185262895271,-0.203739095927489
4.08,-0.183877141771291,-0.196819360620806
4.09,-0.19110070382763,-0.189698410059331
4.1,-0.197860537192725,-0.18241141255928
4.11,-0.204163978989736,-0.174992035586661
4.12,-0.210020927542804,-0.167472221761729
4.13,-0.215425097419213,-0.160004791698064
4.14,-0.220427421003373,-0.152621749972388
4.15,-0.225075323359884,-0.145221349623718
4.16,-0.229386431643602,-0.137819660436933
4.17,-0.233378832727548,-0.130430300201935
4.18,-0.23707081325024,-0.12306445876537
4.19,-0.240480606251507,-0.11573094749698
4.2,-0.243626146775629,-0.10843627306722
4.21,-0.246524838760564,-0.101184734526526
4.22,-0.249193335381627,-0.0939785423497187
4.23,-0.251647334864303,-0.0868179579212604
4.24,-0.253901393723607,-0.0797014516226074
4.25,-0.255968758957479,-0.0726258777755872
4.26,-0.257861220898551,-0.0655866642676978
4.27,-0.259588987768139,-0.0585780146874414
4.28,-0.261160583209401,-0.0515931206642632
4.29,-0.262582767429167,-0.0446243820197233
4.3,-0.263860482618873,-0.0376636322428354
4.31,-0.264996822916327,-0.030702366796292
4.32,-0.265993029021551,-0.0237319717264187
4.33,-0.266848507201673,-0.0167439500653283
4.34,-0.26756087235174,-0.00973014354945712
4.35,-0.268126014260348,-0.00268294724087896
4.36,-0.268538186331046,0.00440448526941707
4.37,-0.268790115442677,0.0115380483297039
4.38,-0.268873131658932,0.018722504338603
4.39,-0.268777316230657,0.0259613196516565
4.4,-0.268491666028586,0.0332565177424479
4.41,-0.268004272576343,0.0406085515081194
4.42,-0.267302513557714,0.0480161957491557
4.43,-0.266373254611615,0.0554764612736332
4.44,-0.26519621102507,0.063027362054631
4.45,-0.26372330505863,0.0707433471482748
4.46,-0.261950169888203,0.0784810395487849
4.47,-0.259865584411076,0.0862253601960451
4.48,-0.257459477457286,0.093959647720459
4.49,-0.254723105359373,0.101665779639298
4.5,-0.251649215451964,0.109324311638289
4.51,-0.248232193717562,0.116914633312892
4.52,-0.244468195070394,0.124415138601483
4.53,-0.240355254800504,0.131803408919573
4.54,-0.235893380198607,0.139056406997173
4.55,-0.231084621220445,0.146150679224478
4.56,-0.225933119642489,0.153062564285202
4.57,-0.22044513618694,0.159768405797382
4.58,-0.214629055304941,0.166244766630675
4.59,-0.208495367807832,0.172468642600456
4.6,-0.202056631427133,0.178417673236031
4.61,-0.195327409804683,0.184070347367865
4.62,-0.188324190735074,0.189406201370388
4.63,-0.181065284453144,0.19440600794901
4.64,-0.173570703159836,0.199051953507474
4.65,-0.165862023088231,0.203327802258112
4.66,-0.157962230634974,0.207219045375385
4.67,-0.149895554199691,0.210713033643648
4.68,-0.141687283531258,0.213799092337641
4.69,-0.133363578522053,0.21646861712073
4.7,-0.12495126946547,0.21871515000054
4.71,-0.116477650894216,0.220534434737095
4.72,-0.107970271143276,0.221924451094192
4.73,-0.0994567198474046,0.222885427745224
4.74,-0.0909644155712395,0.223419833675204
4.75,-0.0825203957533675,0.223532348411232
4.76,-0.0742232790329999,0.223090259654132
4.77,-0.0660528715149092,0.222258297494435
4.78,-0.0580311925580721,0.221051034886319
4.79,-0.0501786641725176,0.219484553180523
4.8,-0.0425139936876724,0.217576267170603
4.81,-0.0350540755011902,0.21534474051127
4.82,-0.0278139127428958,0.212809493814818
4.83,-0.0208065592750895,0.209990807421953
4.84,-0.0140430823920607,0.206909521044532
4.85,-0.00753254624323898,0.203586832422938
4.86,-0.00128201589195627,0.200044097129462
4.87,0.0047034184586474,0.19630263162615
4.88,0.0104205975415231,0.192383521599676
4.89,0.0158682302628331,0.188307437535795
4.9,0.0210468130401999,0.184094459373921
4.91,0.0259585324224677,0.179763911972308
4.92,0.0306071522318466,0.175334212972198
4.93,0.0349978868387923,0.170822734495149
4.94,0.0391372619894369,0.166245679944036
4.95,0.0430329650368527,0.161617976976008
4.96,0.046693686295871,0.156953187618347
4.97,0.0501289534216087,0.152263436085873
4.98,0.0533489607352513,0.147559355008146
4.99,0.0563643954350403,0.142850050152295
5,0.0591862626710987,0.138143083907831
5.01,0.0618257114241883,0.13344447734633
5.02,0.0642938630978516,0.128758730518265
5.03,0.0666016446994675,0.124088860588761
5.04,0.0687596283811724,0.119436457003367
5.05,0.0707778790535688,0.114801752934322
5.06,0.0726658116493632,0.110183711899097
5.07,0.0745145228542195,0.10564591889929
5.08,0.0762897176574974,0.101120790560196
5.09,0.077969138560469,0.0965776589516476
5.1,0.0795546016354899,0.0920102316128932
5.11,0.0810466358124063,0.0874120725575241
5.12,0.0824444869662248,0.0827767578986232
5.13,0.0837461386217274,0.0780980286394992
5.14,0.0849483485673153,0.0733699389586504
5.15,0.0860467009408635,0.0685869983902652
5.16,0.087035672560801,0.0637443064111703
5.17,0.0879087128549722,0.0588376780501157
5.18,0.0886583359390844,0.0538637592757109
5.19,0.0892762238607097,0.0488201310219672
5.2,0.0897533394218822,0.0437054009136599
5.21,0.0900800473882979,0.0385192818366578
5.22,0.0902462424290087,0.0332626567354084
5.23,0.0902414823332813,0.027937629106499
5.24,0.0900551249499737,0.0225475588866943
5.25,0.0896764672583668,0.0170970835684068
5.26,0.0890948850388808,0.0115921245332182
5.27,0.0882999716034951,0.00603987878180594
5.28,0.0872816740949935,0.000448796365488261
5.29,0.0860304259316696,-0.0051714559814127
5.3,0.0845372740317493,-0.0108100444860854
5.31,0.0827939995510421,-0.0164550303850516
5.32,0.0807932309497,-0.0220934436493026
5.33,0.0785285483264857,-0.0277113673481669
5.34,0.0759945780620009,-0.0332940316155279
5.35,0.0731870769631557,-0.0388259160860361
5.36,0.0701030051927308,-0.0442908595777594
5.37,0.0667405874497937,-0.0496721757932612
5.38,0.0630561724673758,-0.0549561712004647
5.39,0.0590519823586588,-0.0601127536216923
5.4,0.0547759395257554,-0.0651173628221116
5.41,0.0502339879771032,-0.0699534327993379
5.42,0.0454332711045161,-0.0746047740482066
5.43,0.0403820877090838,-0.0790556688636876
5.44,0.0350898403744314,-0.0832909605888894
5.45,0.0295669769953312,-0.0872961362178838
5.46,0.0238249262894024,-0.0910574018781625
5.47,0.0178760281696163,-0.0945617508049414
5.48,0.0117334598516067,-0.0977970235372497
5.49,0.00541115859742917,-0.1007519601472
5.5,-0.00107625805358021,-0.103416244438441
5.51,-0.0077135736787629,-0.10578054010658
5.52,-0.0144850551799204,-0.107836518998861
5.53,-0.0213745350005228,-0.109576881633606
5.54,-0.0283654926109987,-0.110995370272208
5.55,-0.0354411345642185,-0.112086774876756
5.56,-0.0425844724991367,-0.112846932354487
5.57,-0.0497783985067577,-0.113272719558578
5.58,-0.0570057573811218,-0.11336204053909
5.59,-0.0642494153228342,-0.113113808592371
5.6,-0.0714923247506847,-0.112527923681024
5.61,-0.0787175849468315,-0.111605245787578
5.62,-0.0859084983493086,-0.110347564832527
5.63,-0.0930486223678191,-0.108757567700409
5.64,-0.100121816673921,-0.10683880299815
5.65,-0.107112285998982,-0.104595644076253
5.66,-0.114004618515376,-0.102033250858425
5.67,-0.120783819960374,-0.0991575309792234
5.68,-0.127435343695546,-0.0959751006922093
5.69,-0.133944629651964,-0.0924935090240665
