"Freq [GHz]","re(S(Antenna1_1_1,Antenna1_1_1)) []","im(S(Antenna1_1_1,Antenna1_1_1)) []"
1,-0.798474264418223,-0.496096907149942
1.01,-0.818114451115111,-0.456496895579712
1.02,-0.836146492765272,-0.41463510268101
1.03,-0.852319982069561,-0.370443996349826
1.04,-0.866349860972289,-0.32386750621276
1.05,-0.877912176653187,-0.274866468653615
1.06,-0.886639762948723,-0.223425710880182
1.07,-0.892118112963059,-0.169563161726001
1.08,-0.893881860289764,-0.113341423347702
1.09,-0.891412495183343,-0.0548822601270954
1.1,-0.884138220177751,0.00561556641585004
1.11,-0.871437204560991,0.067854804057826
1.12,-0.852645924357627,0.131414506212558
1.13,-0.827074745233043,0.195721548483753
1.14,-0.794033347949283,0.26002008898206
1.15,-0.752868869575226,0.323341391108006
1.16,-0.702984314554125,0.38433500806353
1.17,-0.644030965459347,0.441419827178115
1.18,-0.575956663105603,0.493127179674636
1.19,-0.498967177977737,0.537548386700622
1.2,-0.413722616788737,0.572629852688185
1.21,-0.321431668465773,0.59629202654576
1.22,-0.223912463828325,0.606597076301303
1.23,-0.123594585590079,0.601955584858694
1.24,-0.0234395330456072,0.581348284712834
1.25,0.073231489465437,0.544525311736468
1.26,0.162993508195223,0.492138645848138
1.27,0.242624608791175,0.425768955592861
1.28,0.309411700253148,0.347827719145769
1.29,0.361397673104742,0.261344587405535
1.3,0.397524416429841,0.169678365678627
1.31,0.417652045378473,0.076206910537958
1.32,0.423132544201301,-0.015705479253948
1.33,0.41492801890833,-0.103732929878359
1.34,0.394568131764408,-0.1859067218303
1.35,0.364017813582733,-0.260751316484936
1.36,0.32528897799929,-0.327351346140229
1.37,0.280306229981816,-0.385272866450158
1.38,0.230819036670476,-0.434465941243455
1.39,0.178354685012554,-0.475165819718151
1.4,0.124202763878106,-0.507803624991438
1.41,0.0694213922641847,-0.532931947076424
1.42,0.0148566662741877,-0.551166740829332
1.43,-0.0388312435305441,-0.563144488203537
1.44,-0.0911399216301362,-0.569492376026072
1.45,-0.141697354705867,-0.570808866289367
1.46,-0.190237012887177,-0.567652147804537
1.47,-0.236576099496056,-0.560534303933266
1.48,-0.280597140857074,-0.549919451351161
1.49,-0.322232759909555,-0.536224510964459
1.5,-0.361453310090825,-0.519821623234886
1.51,-0.398256980999959,-0.501041503712572
1.52,-0.432661983145171,-0.480177252961191
1.53,-0.464700447557216,-0.457488297281765
1.54,-0.494413719452327,-0.433204253624862
1.55,-0.521848772727404,-0.407528594250292
1.56,-0.547055518138159,-0.380642042878698
1.57,-0.570084819395871,-0.352705671445451
1.58,-0.590987067212285,-0.323863690621589
1.59,-0.609811191316005,-0.29424594194861
1.6,-0.626604015057875,-0.263970107942924
1.61,-0.641409877170164,-0.23314366072448
1.62,-0.654270461138268,-0.201865571299278
1.63,-0.665171367444459,-0.170082656489615
1.64,-0.674100145959978,-0.137898180036885
1.65,-0.681131138111045,-0.105553146848073
1.66,-0.686301327122319,-0.0731353392197664
1.67,-0.689647266025391,-0.0407290237830737
1.68,-0.691205356743849,-0.00841547833561997
1.69,-0.691012136899387,0.0237265881014063
1.7,-0.689104565636596,0.0556207092954339
1.71,-0.685520301627135,0.0871924185307374
1.72,-0.680297967841812,0.118369077957735
1.73,-0.67347739884149,0.14907977151119
1.74,-0.665099867234093,0.179255253275618
1.75,-0.655208286703243,0.208827943954492
1.76,-0.64384738958089,0.237731968803583
1.77,-0.631063877465932,0.265903230943927
1.78,-0.616906543779827,0.293279514483895
1.79,-0.601426367523529,0.319800612320931
1.8,-0.584676577808837,0.345408473839556
1.81,-0.566712689013093,0.370047368080571
1.82,-0.547592506677941,0.393664058222957
1.83,-0.527376104486905,0.416207983501208
1.84,-0.506125772898769,0.437631444899104
1.85,-0.483905940211328,0.45788979120042
1.86,-0.46078306704533,0.476941602183603
1.87,-0.436825515409869,0.494748865954638
1.88,-0.412103393722449,0.51127714760768
1.89,-0.386688379306659,0.526495746616986
1.9,-0.360653520077033,0.540377840573779
1.91,-0.334073017266595,0.552900613064289
1.92,-0.307021991198432,0.564045363743934
1.93,-0.279576232244505,0.57379759884703
1.94,-0.251838199100461,0.582100706543199
1.95,-0.223960443101569,0.588870462851524
1.96,-0.195951790727502,0.594257345554512
1.97,-0.167883698143304,0.598269283683739
1.98,-0.13982626263351,0.60091793331515
1.99,-0.111848010540406,0.602218553817348
2,-0.0840156956030163,0.602189868250863
2.01,-0.0563941092148916,0.600853908998242
2.02,-0.029045903968779,0.598235849843665
2.03,-0.00203143174421695,0.594363825840558
2.04,0.0245914025658993,0.589268742452517
2.05,0.0507672707576287,0.582984075515242
2.06,0.0764435336835179,0.575545663677327
2.07,0.101570335695916,0.566991495047047
2.08,0.126100680758735,0.557361489811775
2.09,0.149990490025878,0.546697280621326
2.1,0.173198640851049,0.535041992562849
2.11,0.195686987408854,0.522440024524786
2.12,0.217420363283586,0.50893683371128
2.13,0.238366566582166,0.494578725040549
2.14,0.25849632828805,0.479412647071697
2.15,0.277783264779305,0.463485996019272
2.16,0.296203815554318,0.446846429290409
2.17,0.313737167394067,0.42954168988341
2.18,0.330365166308833,0.41161944279744
2.19,0.346072218717165,0.393127124487946
2.2,0.360845183437086,0.374111806189564
2.21,0.374673256122482,0.354620071780304
2.22,0.387547847831343,0.334697910643435
2.23,0.399462459458025,0.314390625814886
2.24,0.410412553777755,0.293742757468472
2.25,0.42039542680466,0.272798021644294
2.26,0.429669933611711,0.251587135414778
2.27,0.437971965936229,0.230111329312679
2.28,0.445295758687427,0.208412764720543
2.29,0.451637098361453,0.186533677829987
2.3,0.456993332890453,0.164516353955435
2.31,0.461363385168342,0.142403099406072
2.32,0.464747769870543,0.120236210231568
2.33,0.467148613135429,0.0980579371887929
2.34,0.46856967456012,0.0759104463399931
2.35,0.469016370888548,0.053835774754761
2.36,0.468495800711003,0.0318757808578391
2.37,0.467016769404378,0.0100720890600587
2.38,0.464589813496234,-0.0115339716196632
2.39,0.46122722360939,-0.0329014350957552
2.4,0.45694306507487,-0.053989772010458
2.41,0.451753195322972,-0.0747589697274074
2.42,0.445675277110784,-0.0951696183742095
2.43,0.438728786698091,-0.115183002655878
2.44,0.430935016077025,-0.134761199063432
2.45,0.422317068388528,-0.15386717795896
2.46,0.412899845749467,-0.172464909944345
2.47,0.402710028722306,-0.19051947579004
2.48,0.39177604679059,-0.207997179103139
2.49,0.380128039230809,-0.224865660855487
2.5,0.367797805938792,-0.241094014768324
2.51,0.354818747804143,-0.256652902519266
2.52,0.341225796403659,-0.271514667660447
2.53,0.327055332867317,-0.285653447109279
2.54,0.312345095919555,-0.299045279028531
2.55,0.29713407921822,-0.31166820590845
2.56,0.281462418264769,-0.32350237167017
2.57,0.26529371720409,-0.334398471496536
2.58,0.248753593666577,-0.34441280627978
2.59,0.231917361585722,-0.353578975182729
2.6,0.214830036782449,-0.361892090520944
2.61,0.197536323792349,-0.369349884221771
2.62,0.180080439904936,-0.375952655886959
2.63,0.162505944442829,-0.381703207079589
2.64,0.144855574492366,-0.386606762294726
2.65,0.127171088247331,-0.390670877219685
2.66,0.109493117094464,-0.39390533493821
2.67,0.0918610274970718,-0.39632203090337
2.68,0.0743127936536004,-0.397934847558644
2.69,0.0568848818462248,-0.398759519600547
2.7,0.0396121472899909,-0.398813490955371
2.71,0.0225277441886364,-0.398115764629085
2.72,0.0056630496182765,-0.396686746637272
2.73,-0.0109523982814142,-0.39454808531005
2.74,-0.0272909474240898,-0.391722507279339
2.75,-0.0433268639533069,-0.388233651522357
2.76,-0.0590363493604271,-0.384105902840289
2.77,-0.0743975425377123,-0.379364226173804
2.78,-0.0893905069149776,-0.374034003143428
2.79,-0.103997202942111,-0.368140872212018
2.8,-0.118201446307299,-0.361710573821105
2.81,-0.131988852432988,-0.354768801826639
2.82,-0.145346767876609,-0.347341062516561
2.83,-0.158264189416946,-0.339452542413383
2.84,-0.170731671707902,-0.331127986014896
2.85,-0.18274122447628,-0.322391584542561
2.86,-0.194286200368186,-0.313266876654122
2.87,-0.205361174618825,-0.303776662007861
2.88,-0.215987636594793,-0.293994576717169
2.89,-0.226176727996493,-0.283933107313698
2.9,-0.235903374438099,-0.273555720280969
2.91,-0.245163582436512,-0.262879249944678
2.92,-0.253953616329555,-0.251919866271853
2.93,-0.262269894279622,-0.240693108454158
2.94,-0.270108889283546,-0.229213929701698
2.95,-0.277467036245387,-0.217496752798419
2.96,-0.284340646125885,-0.205555535859148
2.97,-0.290725828146103,-0.193403847673337
2.98,-0.296618420984128,-0.181054951920108
2.99,-0.302013933835681,-0.168521899457079
3,-0.306907498180193,-0.155817627834201
3.01,-0.31129383100895,-0.142955067071198
3.02,-0.315167210224159,-0.129947250708847
3.03,-0.318521462837588,-0.116807431039969
3.04,-0.321349966537969,-0.103549197388422
3.05,-0.323645665093677,-0.0901865962305207
3.06,-0.325401098007416,-0.0767342518775552
3.07,-0.326608444714454,-0.0632074864208375
3.08,-0.327259583556254,-0.04962243754143
3.09,-0.327346165622684,-0.0359961727605169
3.1,-0.326859703492035,-0.0223467986548752
3.11,-0.325791674737166,-0.00869356350400404
3.12,-0.324133639973799,0.00494304820356736
3.13,-0.321877375078711,0.0185412309865795
3.14,-0.319015017051716,0.0320777849853564
3.15,-0.315539222859611,0.0455280555891755
3.16,-0.311443340400377,0.0588658877802763
3.17,-0.306721590572927,0.0720635968503661
3.18,-0.301369259206069,0.0850919571428843
3.19,-0.295379838181968,0.0979040403798041
3.2,-0.28875277924936,0.110434034217823
3.21,-0.281501647164321,0.122697263901716
3.22,-0.273628085123113,0.134660326577277
3.23,-0.265135646706347,0.146288541831559
3.24,-0.256030010343399,0.157546056674887
3.25,-0.246319190997249,0.168395977919702
3.26,-0.236013745895194,0.178800532705406
3.27,-0.225126970863476,0.18872125758374
3.28,-0.213675083629304,0.198119216184757
3.29,-0.201677390263102,0.206955245041624
3.3,-0.189156430827042,0.215190226637797
3.31,-0.176138100196414,0.222785388211334
3.32,-0.162651740087448,0.229702624252676
3.33,-0.148730198374438,0.235904840013442
3.34,-0.134409852003498,0.24135631271903
3.35,-0.119730590113724,0.246023066523715
3.36,-0.104735754393118,0.249873256628409
3.37,-0.0894720342211443,0.252877557417803
3.38,-0.0739893148201975,0.255009548914313
3.39,-0.058340477387696,0.256246095438278
3.4,-0.0425811510530446,0.256567710004889
3.41,-0.0267694174328884,0.255958897826526
3.42,-0.0109654695910492,0.254408472189212
3.43,0.00476877176174362,0.251909836141561
3.44,0.0203700809411363,0.248461223714185
3.45,0.0357743839227648,0.244065894867609
3.46,0.0509172430734103,0.23873227905355
3.47,0.0657343632645581,0.23247406312217
3.48,0.0801621119413593,0.225310220290326
3.49,0.094138045177131,0.21726497804668
3.5,0.107601431392726,0.208367724088806
3.51,0.1206768990245,0.198681084738987
3.52,0.133130151549393,0.188181267727325
3.53,0.144903694274788,0.176911527892761
3.54,0.155943630597972,0.164919917588627
3.55,0.166200122294459,0.152258911650714
3.56,0.175627801801257,0.13898498364845
3.57,0.184186131032106,0.125158140598068
3.58,0.19183970239243,0.110841423963197
3.59,0.198558479004992,0.0961003851466556
3.6,0.204317972420193,0.0810025439136336
3.61,0.20909935738747,0.0656168381096161
3.62,0.212889524463228,0.0500130728078252
3.63,0.215681072409153,0.0342613765847679
3.64,0.217472243270532,0.0184316720260741
3.65,0.218266803952898,0.00259316680847094
3.66,0.218018263384142,-0.0132295240774478
3.67,0.21668886850244,-0.0289782718588199
3.68,0.214387270520374,-0.0445047653020762
3.69,0.211142050437874,-0.0597447767260224
3.7,0.206986349460693,-0.0746374918320464
3.71,0.201957460720382,-0.0891258343842506
3.72,0.196096402260081,-0.103156741460755
3.73,0.189447477203969,-0.116681389431452
3.74,0.182057826677068,-0.129655371481172
3.75,0.173976980618202,-0.142038828062831
3.76,0.165256411156489,-0.153796532129374
3.77,0.155949092765052,-0.164897931353098
3.78,0.146109072885745,-0.175317149941172
3.79,0.135791056266416,-0.185032952544807
3.8,0.125050005785802,-0.194028673424817
3.81,0.113940762105638,-0.202292113507285
3.82,0.102566434482183,-0.209651473609716
3.83,0.0909848432308962,-0.216226621926333
3.84,0.0792347428323971,-0.222079904679777
3.85,0.0673635645258435,-0.22722085663675
3.86,0.0554164107868615,-0.231662078010663
3.87,0.043435883833493,-0.235418930782911
3.88,0.0314619470248279,-0.238509230588114
3.89,0.0195318183132586,-0.24095293724386
3.9,0.00767989466799401,-0.242771846741707
3.91,-0.00406229378141459,-0.243989287346673
3.92,-0.0156661012848118,-0.244629822218069
3.93,-0.0271057572274645,-0.244718960769593
3.94,-0.0383583317688103,-0.244282880759244
3.95,-0.0494036781033095,-0.243348162929344
3.96,-0.0602243532004232,-0.241941539783064
3.97,-0.0708055188539726,-0.240089659917617
3.98,-0.081134825043402,-0.237818869128797
3.99,-0.0912022775407817,-0.235155009315387
4,-0.101000091793422,-0.23212323602181
4.01,-0.110522535077008,-0.22874785530927
4.02,-0.119765758935298,-0.225052180416475
4.03,-0.128727623926348,-0.22105840854448
4.04,-0.13740751864144,-0.216787517907756
4.05,-0.145806174952598,-0.212259185036211
4.06,-0.153925481407664,-0.207491722142402
4.07,-0.161768296609271,-0.202502034239489
4.08,-0.169338264384291,-0.197305595506806
4.09,-0.17663963244263,-0.191916444299331
4.1,-0.183677076174725,-0.18634719603028
4.11,-0.190455529098736,-0.180609073042661
4.12,-0.196980021410804,-0.174711950476729
4.13,-0.203327757002213,-0.168715827264064
4.14,-0.209516292034373,-0.162605666141388
4.15,-0.215478355236884,-0.156327201013718
4.16,-0.221213291932002,-0.149884207502933
4.17,-0.226719782005548,-0.143280141243935
4.18,-0.23199582123724,-0.13651825910537
4.19,-0.237038716932507,-0.12960173905598
4.2,-0.241845097374629,-0.12253379724352
4.21,-0.246410934487564,-0.115317800963526
4.22,-0.250731578989627,-0.107957376248719
4.23,-0.254801807196303,-0.10045650892426
4.24,-0.258615878570607,-0.0928196380706074
4.25,-0.262167602982479,-0.0850517409445872
4.26,-0.265450416623551,-0.0771584085366978
4.27,-0.268457465411139,-0.0691459110374414
4.28,-0.271181694709401,-0.0610212526482632
4.29,-0.273615944130167,-0.0527922152695233
4.3,-0.275753046165873,-0.0444673907290354
4.31,-0.277585927405327,-0.036056201376292
4.32,-0.279107711060551,-0.0275689089384187
4.33,-0.280311819567673,-0.0190166117223283
4.34,-0.28119207605084,-0.0104112303114571
4.35,-0.281742803460348,-0.00176548208187896
4.36,-0.281958920257046,0.00690715508841707
4.37,-0.281836031575677,0.0155924893717039
4.38,-0.281370514853932,0.024275671222603
4.39,-0.280559599002657,0.0329412585546565
4.4,-0.279401436276586,0.0415732901064479
4.41,-0.277895166088343,0.0501553661161194
4.42,-0.276040970109714,0.0586707353991557
4.43,-0.273840118111215,0.0671023878396332
4.44,-0.27127106547907,0.075439370012631
4.45,-0.26828795384863,0.0836650976142748
4.46,-0.264968422653203,0.0917366500317849
4.47,-0.261321022022076,0.0996372534897451
4.48,-0.257355391229286,0.107350709845079
4.49,-0.253082206622374,0.114861485632898
4.5,-0.248513121518963,0.122154795307289
4.51,-0.243660698751562,0.129216677947892
4.52,-0.238538336618394,0.136034066786483
4.53,-0.233160189046504,0.142594851001573
4.54,-0.227541080796607,0.148887929306173
4.55,-0.221696418608445,0.154903254947478
4.56,-0.215642099182489,0.160631871846202
4.57,-0.20939441492194,0.166065941668082
4.58,-0.202969958358941,0.171198761741375
4.59,-0.196385526186832,0.176024773820456
4.6,-0.189658023811133,0.180539563785031
4.61,-0.182804371300183,0.184739852446865
4.62,-0.175841411594174,0.188623477741388
4.63,-0.168785821788544,0.19218936864301
4.64,-0.161654028259836,0.195437511238474
4.65,-0.154462126355231,0.198368907435112
4.66,-0.147225805291974,0.200985526882385
4.67,-0.139960278874691,0.203290252716648
4.68,-0.132680222530258,0.205286821784641
4.69,-0.125399717131053,0.20697976007873
4.7,-0.11813219994747,0.20837431410054
4.71,-0.110890423051116,0.209476378947095
4.72,-0.103686419349176,0.210292423891192
4.73,-0.0965314763904046,0.210829416257224
4.74,-0.0894361179892395,0.211094744402204
4.75,-0.0824100936193675,0.211096140570232
4.76,-0.0755269764429999,0.210847727973232
4.77,-0.0687272287449092,0.210363662017034
4.78,-0.0620166496880721,0.209651532165719
4.79,-0.0554004198675176,0.208718786047523
4.8,-0.0488831465916724,0.207572680953603
4.81,-0.0424689127811902,0.20622024136927
4.82,-0.0361613288058958,0.204668222780818
4.83,-0.0299635865590895,0.202923081929953
4.84,-0.0238785150620607,0.200990953604532
4.85,-0.017908636894239,0.198877634007938
4.86,-0.0120562247719563,0.196588570636962
4.87,-0.0063233575703526,0.19412885856015
4.88,-0.000711975172476899,0.191503242921676
4.89,0.00477606850783312,0.188716127399795
4.9,0.0101389548915999,0.185771588336921
4.91,0.0153748530446677,0.182673394160308
4.92,0.0204818754283166,0.179425029698198
4.93,0.0254580375330923,0.176029724924149
4.94,0.0303012217911369,0.172490487640036
4.95,0.0350091461018528,0.168810139575008
4.96,0.039579337243871,0.164991355352347
4.97,0.0440091093906087,0.161036703740873
4.98,0.0482955478742513,0.156948690626146
4.99,0.0524354982930403,0.152729803099295
5,0.0564255609877387,0.148382554091831
5.01,0.0602620908411883,0.14390952695133
5.02,0.0639412023218516,0.139313419424265
5.03,0.0674587796064675,0.134597086467761
5.04,0.0708104915811724,0.129763581387367
5.05,0.0739918114645688,0.124816194797622
5.06,0.0769980407403632,0.119758490957997
5.07,0.0798481071052195,0.11457876045183
5.08,0.0825164070064974,0.109287096675896
5.09,0.084988772510469,0.103893516222448
5.1,0.0872596921224899,0.0984039979618932
5.11,0.0893238006104063,0.0928249549295241
5.12,0.0911759210302248,0.0871632287056232
5.13,0.0928111057447274,0.0814260795234992
5.14,0.0942246759983153,0.0756211722915504
5.15,0.0954122596518635,0.0697565587629652
5.16,0.096369826711801,0.0638406561311703
5.17,0.0970937223069722,0.0578822223431157
5.18,0.0975806968470844,0.0518903284727109
5.19,0.0978279330907097,0.0458743285169672
5.2,0.0978330699207822,0.0398438269826599
5.21,0.0975942226757979,0.0338086446656578
5.22,0.0971099999127087,0.0277787830244084
5.23,0.0963795165349813,0.021764387555499
5.24,0.0954024032650737,0.0157757105746943
5.25,0.0941788124822768,0.00982307380740683
5.26,0.0927094204933808,0.0039168311832182
5.27,0.0909954263442951,-0.00193266780119406
5.28,0.0890385473213935,-0.00771511378551174
5.29,0.0868410113275696,-0.0134202719854127
5.3,0.0844055463508493,-0.0190380150720854
5.31,0.0817353672762421,-0.0245583542080516
5.32,0.0788341603137,-0.0299714680073026
5.33,0.0757060653424857,-0.0352677292091669
5.34,0.0723556564800009,-0.0404377289195279
5.35,0.0687879212101557,-0.0454722982630361
5.36,0.0650082384017308,-0.0503625273957594
5.37,0.0610223555597937,-0.0550997818126612
5.38,0.0568408152543758,-0.0596700200569647
5.39,0.0524720633366588,-0.0640672876685923
5.4,0.0479185790137554,-0.0682906066549116
5.41,0.0431867464091032,-0.0723329150284379
5.42,0.0382831567335161,-0.0761873724559066
5.43,0.0332146011850838,-0.0798473561438876
5.44,0.0279880657464314,-0.0833064565601895
5.45,0.0226107278723312,-0.0865584732843838
5.46,0.0170899550254024,-0.0895974112797824
5.47,0.0114333049726163,-0.0924174778721714
5.48,0.00564852773560672,-0.0950130807065497
5.49,-0.000256430974570827,-0.0973788269426004
5.5,-0.00627342501058021,-0.0995095239257411
5.51,-0.0123941019397629,-0.10140018155138
5.52,-0.0186098963599204,-0.103046016510061
5.53,-0.0249120226255228,-0.104442458574005
5.54,-0.0312914672759987,-0.105585159051108
5.55,-0.0377389814922185,-0.106470001497956
5.56,-0.0442450738731367,-0.107093114746487
5.57,-0.0508000038847577,-0.107450888260578
5.58,-0.0573937763051218,-0.10753998979409
5.59,-0.0640161370008342,-0.107357385286371
5.6,-0.0706565703697847,-0.106900360895024
5.61,-0.0773042987631315,-0.106166547005578
5.62,-0.0839482842012086,-0.105153944040527
5.63,-0.0905772326678191,-0.103860949841409
5.64,-0.097179601249121,-0.10228638835415
5.65,-0.103743608357582,-0.100429539331253
5.66,-0.110257247244976,-0.0982901687094247
5.67,-0.116708302981074,-0.0958685593252234
5.68,-0.123084373027076,-0.0931655415612093
5.69,-0.129379065238064,-0.0901769162220665
