"Freq [GHz]","re(S(Antenna1_1_1,Antenna1_1_1)) []","im(S(Antenna1_1_1,Antenna1_1_1)) []"
3,-0.199062964668988,-0.172913329901944
3.0175,-0.209103764541741,-0.158437593557255
3.035,-0.218351773022963,-0.14277311921083
3.0525,-0.226351564038131,-0.125784244016896
3.07,-0.232579155004212,-0.107625314801446
3.0875,-0.236625084610439,-0.0887323515258875
3.105,-0.238338272849026,-0.0697095418207804
3.1225,-0.237877056343145,-0.0511533564470005
3.14,-0.235648782951647,-0.0334799826942188
3.1575,-0.232160933908814,-0.016820100322132
3.175,-0.22783948672623,-0.0010196297804369
3.1925,-0.222882120704123,0.0142544511734207
3.21,-0.217200669741421,0.0293431017404012
3.2275,-0.210483614055611,0.0444328596380196
3.245,-0.20229822696989,0.0594378723347954
3.2625,-0.192304141245007,0.0739519500860715
3.28,-0.180439376871805,0.0873953706205899
3.2975,-0.166965099388834,0.0991984680231963
3.315,-0.152404168136158,0.108987090870929
3.3325,-0.137382998993745,0.116697575481342
3.35,-0.122436012682919,0.122578150424158
3.3675,-0.107845851211695,0.12707624644716
3.385,-0.0935791641439418,0.130653828730211
3.4025,-0.0793421568121355,0.133599788656177
3.42,-0.0647354958892683,0.135909704079802
3.4375,-0.0494510864191426,0.137278467233556
3.455,-0.0333458855982905,0.13721231236143
3.4725,-0.016818081571726,0.135102202394217
3.49,-0.000503129211182981,0.130690947749356
3.5075,0.014900534094387,0.124091047431778
3.525,0.028855782374434,0.115750207292614
3.5425,0.0411459267464025,0.10629336003393
3.56,0.0519099037576998,0.096303923972111
3.5775,0.0615429260245331,0.0861286429602893
3.595,0.0705031221880108,0.0757797613103399
3.6125,0.0790995896630211,0.0649701497269511
3.63,0.0873432074712814,0.053266106772196
3.6475,0.0949167911901515,0.040298166581984
3.665,0.101275442225042,0.0259488428463373
3.6825,0.105838609841361,0.0104455210829646
3.7,0.108200901362226,-0.00567713560683375
3.7175,0.108281761808461,-0.0217316112897643
3.735,0.106357165987459,-0.0370911649187204
3.7525,0.102960688879811,-0.0513827055774811
3.77,0.098690235644443,-0.0645864814536631
3.7875,0.0939921724572832,-0.077004662794321
3.805,0.0890034868572708,-0.0891096129151161
3.8225,0.0835116119160024,-0.101327570788296
3.84,0.077048338382782,-0.113838036642861
3.8575,0.0690846237235075,-0.126464235408101
3.875,0.0592552697082044,-0.138697274140528
3.8925,0.0474046979817907,-0.149776697064682
3.91,0.0341417546016696,-0.159013825523081
3.9275,0.0201901576224918,-0.166164507740842
3.945,0.00625821750973399,-0.171395167553688
3.9625,-0.00718853920059327,-0.175190856007484
3.98,-0.0200563649049598,-0.178152191011568
3.9975,-0.0326102015979965,-0.180759606212648
4.015,-0.0453281782076635,-0.183192637807416
4.0325,-0.0586814946498587,-0.185269103006697
4.05,-0.072923151297451,-0.186523252310066
4.0675,-0.0879635570933367,-0.18639053218141
4.085,-0.103377348114733,-0.184428235266446
4.1025,-0.118536666579248,-0.180489592568081
4.12,-0.132819792487551,-0.174787417362812
4.1375,-0.145817104855417,-0.167824921432269
4.155,-0.157458271072467,-0.160220366277933
4.1725,-0.168014188191225,-0.152490931124037
4.19,-0.17797346384715,-0.144875704757468
4.2075,-0.187839233876105,-0.137263035448721
4.225,-0.197921246584807,-0.129249127636508
4.2425,-0.208199966853942,-0.120306724466528
4.26,-0.218313380433331,-0.110002327092606
4.2775,-0.227672615227521,-0.098182238769657
4.295,-0.235665455691342,-0.0850583825577181
4.3125,-0.241874233159425,-0.0711606287298706
4.33,-0.246156349562773,-0.0572588078570981
4.3475,-0.249013470011672,-0.043921947200946
4.365,-0.251031447794288,-0.031360651888835
4.3825,-0.252768568818959,-0.0194168095262986
4.4,-0.254552009075979,-0.00765255295492639
4.4175,-0.25636383092358,0.00446226379241252
4.435,-0.257855436455031,0.0173334823238194
4.4525,-0.258482828220378,0.0310753935623418
4.47,-0.257711978937516,0.0454523283138164
4.4875,-0.255219214506963,0.0599487727660523
4.505,-0.251014151924743,0.0739413546002628
4.5225,-0.245441196285068,0.0869096475435558
4.54,-0.239059597506769,0.0986091246676978
4.5575,-0.232445887140633,0.10914348074128
4.575,-0.225990559412405,0.118909934825454
4.5925,-0.219763121350589,0.128437047330075
4.61,-0.213495228650017,0.138173664835703
4.6275,-0.206689129716619,0.148305818944304
4.645,-0.19881314113974,0.158669052421952
4.6625,-0.189513673636423,0.168789786368086
4.68,-0.178766173125143,0.178042821750979
4.6975,-0.166908208730859,0.185869435559729
4.715,-0.154539816388961,0.191977226314119
4.7325,-0.142324409751239,0.196447696697698
4.75,-0.130760823212958,0.199709430504716
4.7675,-0.120078444840794,0.202497304620503
4.785,-0.109824959001225,0.205316636252199
4.8025,-0.0994732249810615,0.208349043209253
4.82,-0.0885015250979982,0.211415869071066
4.8375,-0.0765975824683232,0.214051026963998
4.855,-0.0637825255656341,0.21567528699937
4.8725,-0.0504125655124593,0.215807617541548
4.89,-0.0370604606555065,0.214237334179505
4.9075,-0.0243216642394634,0.211096223515571
4.925,-0.012616215082922,0.206806653356985
4.9425,-0.00205782886250192,0.201926582355106
4.96,0.00756358631100271,0.196949220487292
4.9775,0.0166813545180669,0.192130744849895
4.995,0.0257716299307032,0.187408482499809
5.0125,0.0351600876433187,0.182438463916314
5.03,0.0448868252418434,0.176737451053589
5.0475,0.0546788583256186,0.169876371868315
5.065,0.0640398736973305,0.161653424640156
5.0825,0.072423688833403,0.152182760053658
5.1,0.0794269569260772,0.141865852416876
5.1175,0.0849294284727098,0.131256066330817
5.135,0.0891293060333738,0.120866616198657
5.1525,0.0924599955289384,0.1109934510528
5.17,0.0954187052120413,0.101619544581122
5.1875,0.0983705817336909,0.092437240060215
5.205,0.101401945372996,0.0829814717491934
5.2225,0.104278714855569,0.072824963125623
5.24,0.106527394181874,0.0617624544183401
5.2575,0.107610118095922,0.0499138994450638
5.275,0.107129225364498,0.037705807435743
5.2925,0.104984322504799,0.0257350769608386
5.31,0.101421005098286,0.0145642006107625
5.3275,0.0969499068840904,0.00452389806969241
5.345,0.0921632968245006,-0.00440156796670431
5.3625,0.0875160403704052,-0.0125603564458631
5.38,0.083153249411957,-0.0204916939381549
5.3975,0.0788518280908717,-0.0287069482176789
5.415,0.0741021285760398,-0.0374739633055188
5.4325,0.0683036644466521,-0.0466870626994314
5.45,0.0610045934910975,-0.05587560664676
5.4675,0.0520954141304609,-0.0643534120121681
5.485,0.0418811749730059,-0.0714579981444329
5.5025,0.0309994904048081,-0.0767924929733718
5.52,0.0202087191131708,-0.0803783819479988
5.5375,0.0101208768616497,-0.0826571012369753
5.555,0.000978052196992973,-0.0843329449075906
5.5725,-0.00744090397193868,-0.0861094169191621
5.59,-0.0157418648045886,-0.0884138136113988
5.6075,-0.0246864415768458,-0.0912137158604834
5.625,-0.0348916362284906,-0.0939993737316684
5.6425,-0.0466827828839649,-0.0958914197728052
5.66,-0.0595246250177872,-0.095987195565015
5.6775,-0.0725684717334448,-0.0938523538865702
5.695,-0.0848571786801668,-0.0896020299752513
5.7125,-0.095664430754585,-0.0838641174509282
5.73,-0.104750692287393,-0.0775512257471665
5.7475,-0.112439331180085,-0.0715246726926428
5.765,-0.11948244538228,-0.066275063640887
5.7825,-0.126764071732842,-0.061739342472777
5.8,-0.134949872258245,-0.0573248178258537
5.8175,-0.144214017970371,-0.0521343030803269
5.835,-0.154147191937298,-0.0453111556724345
5.8525,-0.163877900988672,-0.0363550160260511
5.87,-0.172352257923607,-0.0253890402232958
5.8875,-0.178788978554759,-0.0131405932412577
5.905,-0.182943481054569,-0.000628273022869001
5.9225,-0.185185194126472,0.0111824685391628
5.94,-0.186353311680245,0.0217275374361231
5.9575,-0.187435097562135,0.0310444671344955
5.975,-0.189185434972464,0.0397478082462396
5.9925,-0.191829834060582,0.0487859254095322
6.01,-0.194963835081286,0.0590674786455361
6.0275,-0.197689846502434,0.0710960630474054
6.045,-0.198944095304305,0.0847507025999496
6.0625,-0.197894219189442,0.0992976174158576
6.08,-0.194176298723603,0.113600116275265
6.0975,-0.188331238494982,0.126523792785446
6.115,-0.181346520645242,0.137472382753332
6.1325,-0.174343954503429,0.146527258666554
6.15,-0.168157943116903,0.154395880931384
6.1675,-0.16302345899946,0.162122995635508
6.185,-0.158492028854599,0.170673161515916
6.2025,-0.153608554122565,0.180542148287095
6.22,-0.147283539044544,0.191544736317564
6.2375,-0.138721020510971,0.202860859697078
6.255,-0.127740239833704,0.213325073366874
6.2725,-0.114867668774325,0.221852128161592
6.29,-0.101161507140393,0.227838692185875
6.3075,-0.0878315849662221,0.231388228964616
6.325,-0.0757960019167821,0.233270847012767
6.3425,-0.0653420201324626,0.234628976074119
6.36,-0.0560220682228717,0.236536237035502
6.3775,-0.0468290067714293,0.239574488430943
6.395,-0.0365898293829073,0.24359039608911
6.4125,-0.0244329099795458,0.247728229865125
6.43,-0.0101528060043613,0.250733087001341
6.4475,0.00566871719396252,0.251416174167371
6.465,0.0218379790643592,0.249109740334831
6.4825,0.0369627660058117,0.243938703126454
6.5,0.0499539667130205,0.23680066409397
6.5175,0.0602429240633447,0.229128199884987
6.535,0.0686356318626673,0.222353628065649
6.5525,0.0764054182914357,0.217086477700385
6.57,0.0849100478268657,0.213041069530072
6.5875,0.0950473688203813,0.209163445509559
6.605,0.106891080071174,0.204053301267774
6.6225,0.11964490945896,0.196518556241499
6.64,0.131931982020403,0.186050241587902
6.6575,0.142308495867499,0.173036007019547
6.675,0.14980527151961,0.158630118445938
6.6925,0.154289692274536,0.144328726948534
6.71,0.156508364245699,0.131411940682185
6.7275,0.157792096178976,0.120466030348128
6.745,0.15953382620702,0.111169982614079
6.7625,0.16263800165112,0.102431085791046
6.78,0.167152951067829,0.0928214914283411
6.7975,0.172230300783977,0.0811518307811236
6.815,0.176432219878664,0.0669631751510571
6.8325,0.178274358237557,0.0507464962459351
6.85,0.176800137332156,0.0337998730717786
6.8675,0.171966216897825,0.0177707231001576
6.885,0.1646867819513,0.00405185504256181
6.9025,0.15651152301006,-0.00674027863687138
6.92,0.149051662957581,-0.0150029210987227
6.9375,0.143367440634758,-0.0220014819091899
6.955,0.139745987226998,-0.0295875427268639
6.9725,0.136758518931401,-0.0391019520938994
6.99,0.132731190342507,-0.0508100348550476
7.0075,0.126153341976633,-0.0639140651267592
7.025,0.11626824285153,-0.0768597817113887
7.0425,0.103367856152602,-0.0879271477957474
7.06,0.0886840595429828,-0.0958767697206299
7.0775,0.0739230130221783,-0.100405360848254
7.095,0.060624178952651,-0.102238956718762
7.1125,0.04959028586277,-0.102831923575357
7.13,0.0406054773988249,-0.103790037671849
7.1475,0.0325476622588918,-0.106240239248236
7.165,0.0238502084047337,-0.110388915295967
7.1825,0.0131348688647183,-0.115437825560945
7.2,-0.00022739146874792,-0.11988986704079
7.2175,-0.0158435441565925,-0.122127757346962
7.235,-0.032419760605273,-0.121043967996576
7.2525,-0.0482324167874388,-0.116479693959401
7.27,-0.0617701963646099,-0.109302387834341
7.2875,-0.0723017121398831,-0.101088609329624
7.305,-0.0801493252695851,-0.0935299150125022
7.3225,-0.0865600493192969,-0.0877869677252216
7.34,-0.0932174760234602,-0.0840397322945053
7.3575,-0.101576843708335,-0.0814100095977239
7.375,-0.112275996213691,-0.078292710953719
7.3925,-0.124929962104451,-0.0727143337263693
7.41,-0.137698765908008,-0.0637995864980418
7.4275,-0.148786113673705,-0.0517345246967112
7.445,-0.156835251087914,-0.0377018752815384
7.4625,-0.161418582771805,-0.0234286090078135
7.48,-0.16316772134713,-0.0105397467706189
7.4975,-0.1635027933358,3.49556974891365E-05
7.515,-0.164070754763931,0.00837941810035439
7.5325,-0.166109668129176,0.015519879458771
7.55,-0.169980106309192,0.0229972997358653
7.5675,-0.175038297376144,0.0322506106440996
7.585,-0.179894451307036,0.0440469224472344
7.6025,-0.182953828017815,0.0581742333020334
7.62,-0.183032347096423,0.0735107596607684
7.6375,-0.17981217967073,0.088441551078123
7.655,-0.173965029171215,0.10146178506188
7.6725,-0.166897679915419,0.111736296558535
7.69,-0.160217798712955,0.119402399513282
7.7075,-0.155123885228485,0.125500950787552
7.725,-0.151951913308303,0.131561809840708
7.7425,-0.150051905673458,0.139001116576157
7.76,-0.14804278046432,0.148559684682267
7.7775,-0.14435028158168,0.1599971173976
7.795,-0.137824704388233,0.172160293577165
7.8125,-0.128203350020927,0.183403480526717
7.83,-0.116228933633674,0.191996315605163
7.8475,-0.103663829507254,0.197386420710927
7.865,-0.0921082356875876,0.199960184267635
7.8825,-0.0826153754435492,0.200926592385444
7.9,-0.0753265723554017,0.201837026942855
7.9175,-0.0694561145910139,0.20398938195919
7.935,-0.0636238583413749,0.20794131136096
7.9525,-0.0564041466136439,0.213312232621646
7.97,-0.0468815023739179,0.218942685083866
7.9875,-0.0350047215314344,0.223345082701871
8.005,-0.0216096923114776,0.225272103045878
8.0225,-0.00810709303809565,0.224187525873015
8.04,0.00404335303298689,0.220463732133758
8.0575,0.0138718426115765,0.215234603797649
8.075,0.0212475825712733,0.209962561858799
8.0925,0.0269080017267037,0.205885257613222
8.11,0.0321592035119013,0.20355140034015
8.1275,0.038362390314892,0.202620450466264
8.145,0.0464009510780081,0.20200090539485
8.1625,0.0563295910588586,0.200274318483314
8.18,0.0673380808795773,0.196244765666907
8.1975,0.0780437997232435,0.189406277734898
8.215,0.0870035339135537,0.180151340988557
8.2325,0.0932521789632494,0.169640508629009
8.25,0.0966650629799471,0.159380332239215
8.2675,0.0979885363061083,0.150842526916846
8.285,0.0988103629145548,0.144410582771593
8.3025,0.100485330657864,0.139606305119347
8.32,0.103795242697936,0.135262555639664
8.3375,0.108664922355965,0.129993829791823
8.355,0.114206618488727,0.122737558830524
8.3725,0.119068880629333,0.113162552491635
8.39,0.121953203051356,0.101794722809166
8.4075,0.122101928827339,0.0898184894423704
8.425,0.119575197413329,0.0786339749801911
8.4425,0.115216522004365,0.0693399352483183
8.46,0.110324473413188,0.0623375413711063
8.4775,0.106157642275072,0.0572022571002534
8.495,0.103460924901367,0.052868902310973
8.5125,0.102191202410368,0.04805718342953
8.53,0.101544132867545,0.0417754790360632
8.5475,0.100270082697716,0.0337125196210183
8.565,0.0971588022976427,0.0243697754048315
8.5825,0.0915096308657067,0.0148853119591765
8.6,0.0834099454246797,0.00661582344283694
8.6175,0.0737167641937703,0.000634251267329527
8.635,0.0637478080814047,-0.00266787068921703
8.6525,0.05479737583383,-0.00372317321349744
8.67,0.0476584890736958,-0.00362129748652933
8.6875,0.0423312509570384,-0.00369280185750854
8.705,0.0380320147094121,-0.00518758943824908
8.7225,0.0332718277443259,-0.00823052508092561
8.74,0.0269008168564789,-0.0121915160776887
8.7575,0.0183697013247664,-0.0158789037563342
8.775,0.00793437026305057,-0.0179991089003659
8.7925,-0.00344527995467276,-0.0176422465144215
8.81,-0.0144664054609039,-0.0146125548480641
8.8275,-0.0239631918839631,-0.00948465071908773
8.845,-0.0313240505760904,-0.00337125382315251
8.8625,-0.0366917885752935,0.00250442940831008
8.88,-0.0408765185998272,0.00726775535095222
8.8975,-0.0450194633757601,0.0107107067412738
8.915,-0.0501380358836096,0.0133522132911152
8.9325,-0.0567247952029356,0.0162220889457452
8.95,-0.0645502515324515,0.020453496458301
8.9675,-0.0727413528705692,0.0268393774309142
8.985,-0.0801035344135053,0.0355200651536109
9.0025,-0.0855633204404429,0.0459186379160775
9.02,-0.0885642455027191,0.0569469066762842
9.0375,-0.0892673279500825,0.067403413091918
9.055,-0.0884811803241325,0.0764132034083415
9.0725,-0.087348333275233,0.0837438734945418
9.09,-0.086905665236198,0.0898788893142878
9.1075,-0.0876840768575051,0.0958200326913794
9.125,-0.0894982350946738,0.102692208969953
9.1425,-0.0914677752528128,0.111456028832399
9.16,-0.0922793227118468,0.122004850893405
9.1775,-0.0909745295081513,0.133641415986804
9.195,-0.0871635094381001,0.145245564021343
9.2125,-0.0811548159253015,0.155683002352958
9.23,-0.0738254602135763,0.164207484738427
9.2475,-0.0662860302668125,0.170708831514546
9.265,-0.0594696161852529,0.175719671584623
9.2825,-0.0537979680921836,0.180184555036149
9.3,-0.0490462785793129,0.185082341136192
9.3175,-0.0444521855326739,0.191044741538653
9.335,-0.0390236675675149,0.198112362660917
9.3525,-0.0319280083892347,0.205716183737961
9.37,-0.0228161265511678,0.212887647108999
9.3875,-0.0119627431010799,0.218616013230415
9.405,-0.000172639827462742,0.222218321944401
9.4225,0.0115095747979681,0.223584306272162
9.44,0.0221764359332779,0.223206373951502
9.4575,0.0313804457133773,0.221985187461689
9.475,0.0392829711862102,0.220884578063461
9.4925,0.0465745790370444,0.220564935766339
9.51,0.054197104168718,0.221131663567433
9.5275,0.0629711604346487,0.222092300516874
9.545,0.0732677622323444,0.222538503740663
9.5625,0.0848464914571433,0.221485767829656
9.58,0.0969180960461333,0.218159839755794
9.5975,0.108328805611384,0.212552231844374
9.615,0.118171832529774,0.20522843087476
9.6325,0.126025474501987,0.197147874080939
9.65,0.132086033197425,0.18930844502037
9.6675,0.137069933908485,0.182382314878989
9.685,0.141923958434873,0.176477903447626
9.7025,0.147452753287443,0.171114837057605
9.72,0.154002272498609,0.165419508047365
9.7375,0.161316179271639,0.158467457562298
9.755,0.168617790073132,0.149645070444777
9.7725,0.174886742814965,0.138896446453605
9.79,0.17919541086123,0.126746027409866
9.8075,0.181084966961082,0.114218130831663
9.825,0.180811913165465,0.102386197044727
9.8425,0.179140845931436,0.091946767001268
9.86,0.177058798936064,0.0830171478570974
9.8775,0.175394740956746,0.0751206601974855
9.895,0.174503649360801,0.0673958709726126
9.9125,0.174132748084624,0.0589497435912895
9.93,0.173518946477733,0.0492217305381021
9.9475,0.171680287178925,0.0382224544596428
9.965,0.167792157163684,0.026557709129563
9.9825,0.161507608878884,0.0152284998939236
10,0.153101840640714,0.00528117975416487
