"Freq [GHz]","re(S(Antenna1_1_1,Antenna1_1_1)) []","im(S(Antenna1_1_1,Antenna1_1_1)) []"
3,-0.200865784818588,-0.173604030721134
3.0175,-0.210955764690841,-0.157913815454455
3.035,-0.219520270863663,-0.14124876629363
3.0525,-0.226376947878331,-0.123865735278226
3.07,-0.231453335216912,-0.106071815740146
3.0875,-0.234792799501139,-0.0881578485955975
3.105,-0.236521821931626,-0.0703428462323804
3.1225,-0.236793371115145,-0.0527489681186005
3.14,-0.235729051672847,-0.0354138952934688
3.1575,-0.233381574164014,-0.018332958391132
3.175,-0.22972990453083,-0.0015127852656469
3.1925,-0.224706272325423,0.0149847136743208
3.21,-0.218242332385821,0.0310239492015012
3.2275,-0.210315477725211,0.0464103794865796
3.245,-0.20097456404209,0.0609201657050954
3.2625,-0.190351127129608,0.0743447970883415
3.28,-0.178634158873005,0.0865364998684899
3.2975,-0.166028909392134,0.0974219132572963
3.315,-0.152717554269758,0.106992481709069
3.3325,-0.138834507548545,0.115275767092042
3.35,-0.124463422828719,0.122300404135018
3.3675,-0.109654093710345,0.12806822039206
3.385,-0.0944504013366418,0.132542674181711
3.4025,-0.0789176453866355,0.135655550345777
3.42,-0.0631595484477683,0.137326946959612
3.4375,-0.0473205052083426,0.137489610330706
3.455,-0.0315611285142305,0.13610109847463
3.4725,-0.016093140779826,0.133164877667217
3.49,-0.00110149794058298,0.128741568798956
3.5075,0.013257995227787,0.122925379585518
3.525,0.026863963883334,0.115826606341114
3.5425,0.0396259772043025,0.10755670097183
3.56,0.0514761554031098,0.098218802461211
3.5775,0.0623595055932331,0.0879038118659893
3.595,0.0722250458157108,0.0766906531137199
3.6125,0.0810182908307211,0.0646495330886411
3.63,0.0886753187442814,0.051847965693996
3.6475,0.0951194660636415,0.038359802799284
3.665,0.100262790682942,0.0242766791369373
3.6825,0.104014499961561,0.00971928546826458
3.7,0.106296736983926,-0.00515610134832375
3.7175,0.107064735646061,-0.0201608101099643
3.735,0.106324850216759,-0.0350894370160204
3.7525,0.104142356833311,-0.0497460735766811
3.77,0.100632766905543,-0.0639737938935631
3.7875,0.0959358147833832,-0.077676485461471
3.805,0.0901786057478708,-0.0908225689239161
3.8225,0.0834406188633024,-0.103425483234296
3.84,0.075735211826912,-0.115504649448961
3.8575,0.0670181845948075,-0.127039685786301
3.875,0.0572244689753044,-0.137935917518928
3.8925,0.0462817472023907,-0.148010999857082
3.91,0.0343029899002696,-0.156998811088081
3.9275,0.0214893074987718,-0.164703132953742
3.945,0.00811565342623398,-0.171024816992888
3.9625,-0.00553491641799327,-0.175991275778784
3.98,-0.0192446407458598,-0.179741492182068
3.9975,-0.0329135626607965,-0.182468976409448
4.015,-0.0465687408003635,-0.184342326319716
4.0325,-0.0603235452053587,-0.185433646683497
4.05,-0.074300160177251,-0.185684161477566
4.0675,-0.0885443016760367,-0.18492339122201
4.085,-0.102966386364323,-0.182937669500146
4.1025,-0.117335040409548,-0.179563408620081
4.12,-0.131329346314651,-0.174768733571012
4.1375,-0.144632766028417,-0.168689302469569
4.155,-0.157033536879667,-0.161600394012533
4.1725,-0.168491264159355,-0.153832009713037
4.19,-0.17914037920685,-0.145657349582468
4.2075,-0.189224727024505,-0.137197914274021
4.225,-0.198985068342806,-0.128384717698908
4.2425,-0.208541841510942,-0.118995078942228
4.26,-0.217820350765931,-0.108755218231606
4.2775,-0.226551638849221,-0.097471609505657
4.295,-0.234354033034342,-0.0851398716550181
4.3125,-0.240868157559425,-0.0719854857651306
4.33,-0.245840273216773,-0.0584529116089981
4.3475,-0.249433313592122,-0.045017396024946
4.365,-0.251963281985088,-0.031972179897835
4.3825,-0.253826966197959,-0.0193719670065986
4.4,-0.255345111887979,-0.00703155066442639
4.4175,-0.25663415726158,0.00538163914841252
4.435,-0.257557378096271,0.0181956050328194
4.4525,-0.257776224151078,0.0315810214213418
4.47,-0.256883745097516,0.0454578014774164
4.4875,-0.254569329397963,0.0594991938239523
4.505,-0.250750463563743,0.0732341404632628
4.5225,-0.245618627613728,0.0862099531125558
4.54,-0.239578925749169,0.0981526261506978
4.5575,-0.233104408384633,0.10906136742948
4.575,-0.226560276729405,0.119198122123154
4.5925,-0.220066637962589,0.128973176835075
4.61,-0.213455316935517,0.138768990150703
4.6275,-0.206340817560619,0.148770100543304
4.645,-0.19828109698274,0.158866755428352
4.6625,-0.188967532140423,0.168673060113586
4.68,-0.178369826381143,0.177656645226979
4.6975,-0.166776722394759,0.185332724464729
4.715,-0.154712304076961,0.191448261132119
4.7325,-0.142755956464239,0.196083022920698
4.75,-0.131333122467958,0.199624177192316
4.7675,-0.120606864171794,0.202718960544503
4.785,-0.110158793917565,0.205780400693199
4.8025,-0.0995126298610615,0.208920941755253
4.82,-0.0882283667289982,0.211925248384966
4.8375,-0.0760872786333232,0.214337423108098
4.855,-0.0631892909166341,0.21563855271437
4.8725,-0.0499275044509293,0.215445661979548
4.89,-0.0368517516355065,0.213656231233505
4.9075,-0.0244749500974634,0.210484321954371
4.925,-0.013096915860922,0.206376385756685
4.9425,-0.00271254542950192,0.201840820739106
4.96,0.00696184283280271,0.197257776051292
4.9775,0.0163558292427669,0.192742401719895
4.995,0.0258582983577032,0.188113403301909
5.0125,0.0356494967973187,0.182977786028414
5.03,0.0456164621634434,0.176897879088589
5.0475,0.0553838996668186,0.169575290931315
5.065,0.0644478049785305,0.160980336238156
5.0825,0.072359465118403,0.151376923442858
5.1,0.0788881465270772,0.141233559223576
5.1175,0.0840991965162098,0.131055317559817
5.135,0.0883171751196738,0.121202299853657
5.1525,0.0919883207461384,0.1117654327518
5.17,0.0954958953010413,0.102548306449122
5.1875,0.0990005590046909,0.093162618348915
5.205,0.102368591174496,0.0832004857581934
5.2225,0.105216940362969,0.072416567931623
5.24,0.107058679890874,0.0608484559333401
5.2575,0.107492968717922,0.0488271268032138
5.275,0.106365456752498,0.036871659007743
5.2925,0.103835540682599,0.0255076415298386
5.31,0.100322300519486,0.0150792506757625
5.3275,0.0963479491810904,0.00562872929369241
5.345,0.0923381428495006,-0.00310792611070431
5.3625,0.0884566724334052,-0.0115847217281631
5.38,0.084540390092557,-0.0202516181821549
5.3975,0.0801626225721717,-0.0293569400956789
5.415,0.0748038005410398,-0.0388238462175188
5.4325,0.0680655217776521,-0.0482516686170314
5.45,0.0598454266040975,-0.05704563677656
5.4675,0.0504030196633609,-0.0646285000551681
5.485,0.0402868525244059,-0.0706541387394329
5.5025,0.0301464905138082,-0.0751398179773718
5.52,0.0204983117051708,-0.0784625128261988
5.5375,0.0115345774656497,-0.0812155989415753
5.555,0.00305169959169297,-0.0839762434595906
5.5725,-0.00546969924063868,-0.0870703235291621
5.59,-0.0146578087985886,-0.0904260052383988
5.6075,-0.0249906312758457,-0.0935764603148835
5.625,-0.0365829405134906,-0.0958171084095684
5.6425,-0.0491486256373649,-0.0963637829638052
5.66,-0.0618200026782872,-0.094898052804015
5.6775,-0.0737914906114448,-0.0915886642775702
5.695,-0.0845007378331668,-0.0870188774498513
5.7125,-0.093824062318585,-0.0819646272633282
5.73,-0.102104248633593,-0.0771002519191664
5.7475,-0.110000015897685,-0.0727439735726428
5.765,-0.11821428775328,-0.068740373963887
5.7825,-0.127204689774842,-0.064525246876777
5.8,-0.136986901980245,-0.0593489505805537
5.8175,-0.147106730648271,-0.0525738706313269
5.835,-0.156792988065798,-0.0439327872834345
5.8525,-0.165217657098672,-0.0336407096120511
5.87,-0.171820867892607,-0.0223789958742958
5.8875,-0.176555806662759,-0.0110060598068577
5.905,-0.179844770468789,-0.000224299826869001
5.9225,-0.182413915517272,0.00965612866816283
5.94,-0.185003895535245,0.0188194198501231
5.9575,-0.188075489427136,0.0278567427124955
5.975,-0.191622392749464,0.0375222221461396
5.9925,-0.195163007769232,0.0484247039585322
6.01,-0.197915387521586,0.0607725422105361
6.0275,-0.199089914458434,0.0742691763173054
6.045,-0.198189086318305,0.0882006453009496
6.0625,-0.195200162979442,0.101683574857758
6.08,-0.190590034279703,0.113917564020265
6.0975,-0.185254519488982,0.124643491587446
6.115,-0.179988376621242,0.134121854838232
6.1325,-0.175249504730429,0.143013063512554
6.15,-0.170990991810903,0.152099451266084
6.1675,-0.16668905140716,0.161962836443508
6.185,-0.161555047020399,0.172741043786916
6.2025,-0.154849815715565,0.184056172560695
6.22,-0.146179808766544,0.195141693676564
6.2375,-0.135661705768971,0.205119637875478
6.255,-0.123892344602704,0.213321914095874
6.2725,-0.111735015023025,0.219532833044592
6.29,-0.100003290208393,0.224059664810375
6.3075,-0.0891630271842221,0.227603348886616
6.325,-0.0791668887737821,0.230977661016867
6.3425,-0.0694858969577626,0.234783376502119
6.36,-0.0593277733480717,0.239162055478502
6.3775,-0.0479603423604293,0.243724864384043
6.395,-0.0350172150259073,0.24768602838111
6.4125,-0.0206682034965458,0.250152704131125
6.43,-0.00558694981396131,0.250462657351341
6.4475,0.00927535645186252,0.248441240586371
6.465,0.0230271688393592,0.244477860731431
6.4825,0.0351579411338117,0.239389212413454
6.5,0.0457205893620205,0.23411719959897
6.5175,0.0552769563743447,0.229500744301987
6.535,0.0648955710978673,0.225602602565649
6.5525,0.0753538642314357,0.221908244394984
6.57,0.0869464586278657,0.217522892167072
6.5875,0.0993560670463813,0.211533021399559
6.605,0.111762433537174,0.203372181789774
6.6225,0.12314500360166,0.193050615591499
6.64,0.132661320057403,0.181161608025492
6.6575,0.139955077479499,0.168663706227548
6.675,0.14527565390361,0.156523876064938
6.6925,0.149363827138536,0.145359636426534
6.71,0.153148315410199,0.135218198099185
6.7275,0.157370436790976,0.125577805976328
6.745,0.16228188402702,0.115571065097079
6.7625,0.16753279717292,0.104344611543046
6.78,0.172294524556829,0.0914166678373411
6.7975,0.175571353860977,0.0768940563691236
6.815,0.176582401651664,0.061463346797757
6.8325,0.175066780307557,0.0461570089209351
6.85,0.171393154335656,0.0319820513387786
6.8675,0.166428639870825,0.0195525829251576
6.885,0.1612139533501,0.00886812095756181
6.9025,0.15656688797106,-0.000674456266871384
6.92,0.152765705825581,-0.0100357549577227
6.9375,0.149436006309358,-0.0201454929941899
6.955,0.145645248887998,-0.0316830557088639
6.9725,0.140201638134701,-0.0442376091488994
6.99,0.132431891510507,-0.0569167753102476
7.0075,0.122303828788633,-0.0685859403737592
7.025,0.11043995639663,-0.0782910942613887
7.0425,0.097881338477602,-0.0856043988517474
7.06,0.0856969291895828,-0.0907621903546299
7.0775,0.0745905956321783,-0.0945465982922541
7.095,0.064656326277651,-0.0979605703077621
7.1125,0.05537318948827,-0.101824215412357
7.13,0.0458386516378249,-0.106448695833849
7.1475,0.0351476094848918,-0.111512309560236
7.165,0.0227695891737337,-0.116184604844967
7.1825,0.00877852902471825,-0.119448795970845
7.2,-0.00615283763124792,-0.12049692533079
7.2175,-0.0209910786475925,-0.119044882210962
7.235,-0.034720335655273,-0.115445694568576
7.2525,-0.0467146875514388,-0.110557285666401
7.27,-0.0569607627136099,-0.105415348985741
7.2875,-0.0660441155645831,-0.100837082664624
7.305,-0.0749034922765851,-0.0971085739315022
7.3225,-0.0844464540352969,-0.0938772182996216
7.34,-0.0951738035524602,-0.0902924867915053
7.3575,-0.106958106635335,-0.0853431846674839
7.375,-0.119063792658891,-0.078263277006719
7.3925,-0.130292666087451,-0.0687367480483693
7.41,-0.139629158146008,-0.0575156563875417
7.4275,-0.146642498456705,-0.0456207345097112
7.445,-0.151551508649914,-0.0341052959120383
7.4625,-0.155110708368905,-0.0236739709928135
7.48,-0.15829853577113,-0.0144447772196189
7.4975,-0.1619306316758,-0.00594036257041086
7.515,-0.166346255228931,0.00269416135935439
7.5325,-0.171284815561176,0.012334742992471
7.55,-0.175995120941392,0.0235216035448653
7.5675,-0.179531081200144,0.0362377163580996
7.585,-0.181117910988036,0.0499043214536344
7.6025,-0.180448213820815,0.0635915546050334
7.62,-0.177796188097423,0.0763607043099684
7.6375,-0.17390886915473,0.087605851634123
7.655,-0.169718564488215,0.0972645977348802
7.6725,-0.165988113028419,0.105818840604176
7.69,-0.163025052117955,0.114087204332282
7.7075,-0.160573423191485,0.122890001195652
7.725,-0.157923587564303,0.132715591203708
7.7425,-0.154197195545458,0.143515808612157
7.76,-0.14869789569932,0.154708512606367
7.7775,-0.14119355235668,0.1653862771546
7.795,-0.132021883782633,0.174651736168165
7.8125,-0.121978544312927,0.181951799769717
7.83,-0.112131184844274,0.187226989724163
7.8475,-0.103185526308254,0.191213681464527
7.865,-0.0953271193815876,0.194776537297635
7.8825,-0.0882019099354492,0.198685134820444
7.9,-0.0810823928864017,0.203321713245855
7.9175,-0.0731689075531139,0.20854390323319
7.935,-0.0639095550103749,0.21374929363646
7.9525,-0.0532184680766439,0.218112174275646
7.97,-0.0415132293548179,0.220899317551866
7.9875,-0.0295617468564344,0.221744436884871
8.005,-0.0182003684370776,0.220779217870878
8.0225,-0.00803184823709565,0.218574731387015
8.04,0.000782904095986889,0.215919000892758
8.0575,0.00856268325647647,0.213517408950649
8.075,0.0159620978102733,0.211730032162799
8.0925,0.0237029443193037,0.210444289342222
8.11,0.0322838385879013,0.20912904848985
8.1275,0.041777893542892,0.207047596002264
8.145,0.0517938751405081,0.20354748047285
8.1625,0.0616140950028586,0.198317217709314
8.18,0.0704558098941773,0.191513260919907
8.1975,0.0777569178402435,0.183710065903898
8.215,0.0833782120585537,0.175692767087557
8.2325,0.0876462548123494,0.168170947555009
8.25,0.0912209496139471,0.161521329861215
8.2675,0.0949185231199083,0.155700431913846
8.285,0.0992026342595548,0.150047749726993
8.3025,0.104081574476864,0.143849658305347
8.32,0.109127247764336,0.136532050881664
8.3375,0.113643682134965,0.127884878097823
8.355,0.116930902684097,0.118144664789524
8.3725,0.118543528706333,0.107908587791235
8.39,0.118448293166356,0.0979166960501664
8.4075,0.117024671576239,0.0887866263323704
8.425,0.114912314398329,0.0808005851101911
8.4425,0.112765637389665,0.0738225978803183
8.46,0.111008978993188,0.0673739793021063
8.4775,0.109683569053072,0.0608357063112534
8.495,0.108441724194167,0.053699885983973
8.5125,0.106688054454368,0.04577565153053
8.53,0.103812878531145,0.0372732450719632
8.5475,0.0994295769897162,0.0287363654100183
8.565,0.0935272514626427,0.0208495835028315
8.5825,0.0864824645766067,0.0141937306531765
8.6,0.0789266656296797,0.00904081379183693
8.6175,0.0715194936705703,0.00526465666562953
8.635,0.0647127763374047,0.00240008548818297
8.6525,0.05859313707883,-0.000171747009497439
8.67,0.0528617628512958,-0.00298100172452933
8.6875,0.0469590239120384,-0.00625992619650854
8.705,0.0402067313689121,-0.00988538303324908
8.7225,0.0322753443923259,-0.0132006698714256
8.74,0.0232344984804789,-0.0155453851036887
8.7575,0.0135220369139664,-0.0164063486343342
8.775,0.00378779552705057,-0.0155992811493659
8.7925,-0.00533553710317276,-0.0133250656455215
8.81,-0.0134483832349039,-0.0100836654333641
8.8275,-0.0205081835999631,-0.00648125972108774
8.845,-0.0268181164223304,-0.00300430008415251
8.8625,-0.0328880751572935,0.000155478987310077
8.88,-0.0392220499561272,0.00316163319185222
8.8975,-0.0461119900997601,0.00645901912657381
8.915,-0.0535143801086096,0.0105949446882152
8.9325,-0.0610540877069756,0.0160032776037452
8.95,-0.0681525342874515,0.022832025122301
8.9675,-0.0742314456687691,0.0308779153395142
8.985,-0.0789160424335053,0.0396514219128109
9.0025,-0.0821623249284429,0.0485473570398775
9.02,-0.0842615585796691,0.0570573253782842
9.0375,-0.0857205889030825,0.064945102083918
9.055,-0.0870624953715325,0.0723198198035415
9.0725,-0.088621559947233,0.0795795848461418
9.09,-0.090408823975198,0.0872459735753877
9.1075,-0.0920987701899451,0.0957503079113794
9.125,-0.0931432240806738,0.105250862390953
9.1425,-0.0928945055839128,0.115572968754199
9.16,-0.0910505009548468,0.126091387493105
9.1775,-0.0876502647081513,0.136181639509604
9.195,-0.0830585586818101,0.145351596178343
9.2125,-0.0778274580673015,0.153400459659958
9.23,-0.0724938520951763,0.160467794610327
9.2475,-0.0673880527098125,0.166957059656646
9.265,-0.0625232833632529,0.173364044723423
9.2825,-0.0576051612970536,0.180074782228149
9.3,-0.0521558713163129,0.187207692100192
9.3175,-0.0457058226339739,0.194557567648853
9.335,-0.0379813539285149,0.201661044606117
9.3525,-0.0290191370192347,0.207958410237061
9.37,-0.0191653635640378,0.212991350297999
9.3875,-0.00896043610307992,0.216563289307415
9.405,0.00104789422953726,0.218802985053001
9.4225,0.0104936204529681,0.220107814315462
9.44,0.0193135840232779,0.220987637234602
9.4575,0.0277553249189073,0.221866985031689
9.475,0.0362681489352102,0.222919040887461
9.4925,0.0453171702305444,0.223993597622739
9.51,0.055189029814718,0.224666839658733
9.5275,0.0658618221016487,0.224395838349574
9.545,0.0769888107214945,0.222721505516663
9.5625,0.0880039104041433,0.219444908049656
9.58,0.0982693911730333,0.214686057247094
9.5975,0.107394923647384,0.208971398651874
9.615,0.115333081487774,0.20288778481996
9.6325,0.122369499555173,0.196915868832939
9.65,0.128996528519425,0.19125707053237
9.6675,0.135709809280785,0.185766562842089
9.685,0.142803718973873,0.180017425271426
9.7025,0.150242249863443,0.173472373741805
9.72,0.157654112899459,0.165699303916365
9.7375,0.164454831967639,0.156550162496298
9.755,0.170051219525232,0.146235722581577
9.7725,0.174052428548965,0.135267086629205
9.79,0.17638964269723,0.124296298317466
9.8075,0.177397456831642,0.113896551393663
9.825,0.177659036059465,0.104293052043727
9.8425,0.177724125536536,0.095336785653168
9.86,0.177913859904064,0.0865860592884974
9.8775,0.178191984341746,0.0774994350630855
9.895,0.178173779882501,0.0676678721626126
9.9125,0.177269868197624,0.0569980832132895
9.93,0.174911150585733,0.0457771290735021
9.9475,0.170770142656925,0.0345926931476428
9.965,0.164894633256684,0.024137827896863
9.9825,0.157701928886884,0.0149729601409236
10,0.149834122251714,0.00733497289916487
