"Freq [GHz]","re(S(Tx_p1,Tx_p1)) []","im(S(Tx_p1,Tx_p1)) []"
1,0.1918212068,-0.2837525293
1.01,0.1847477025,-0.2900608581
1.02,0.1778307232,-0.2965083042
1.03,0.1709766722,-0.3032463643
1.04,0.1640448902,-0.3103996746
1.05,0.1568545322,-0.3180534984
1.06,0.1491945641,-0.326242694
1.07,0.1408367409,-0.3349429035
1.08,0.131551246,-0.3440648331
1.09,0.1211243543,-0.353452557
1.1,0.1093770818,-0.3628866787
1.11,0.09618340244,-0.3720928816
1.12,0.08148634966,-0.3807559315
1.13,0.06531024841,-0.388538608
1.14,0.0477674617,-0.3951044387
1.15,0.02905839081,-0.4001425489
1.16,0.009464019363,-0.4033924956
1.17,-0.01066898865,-0.4046666978
1.18,-0.03094980217,-0.4038680774
1.19,-0.05096988899,-0.4010008449
1.2,-0.07033208855,-0.3961729884
1.21,-0.08867952659,-0.3895898965
1.22,-0.1057215364,-0.3815395196
1.23,-0.1212540405,-0.3723704085
1.24,-0.1351724387,-0.362464733
1.25,-0.1474758494,-0.3522088865
1.26,-0.1582624626,-0.341964492
1.27,-0.1677166762,-0.3320425224
1.28,-0.1760895154,-0.322682854
1.29,-0.1836744699,-0.314040921
1.3,-0.1907812521,-0.3061823313
1.31,-0.1977100384,-0.2990854307
1.32,-0.2047285159,-0.2926510173
1.33,-0.2120535994,-0.2867177766
1.34,-0.2198390921,-0.2810815999
1.35,-0.2281699305,-0.2755167435
1.36,-0.2370630273,-0.2697967604
1.37,-0.2464741338,-0.2637132745
1.38,-0.2563096155,-0.2570909521
1.39,-0.2664415988,-0.2497974545
1.4,-0.276724667,-0.2417477073
1.41,-0.2870121847,-0.2329024241
1.42,-0.2971704284,-0.2232614304
1.43,-0.3070889694,-0.2128528646
1.44,-0.3166861579,-0.2017197685
1.45,-0.3259090717,-0.1899059006
1.46,-0.3347279057,-0.1774427755
1.47,-0.3431254662,-0.1643399297
1.48,-0.3510831512,-0.1505801516
1.49,-0.3585654263,-0.1361208869
1.5,-0.3655052347,-0.1209022433
1.51,-0.3717928828,-0.1048610815
1.52,-0.377270679,-0.08794972963
1.53,-0.3817349929,-0.0701570527
1.54,-0.3849465189,-0.05152905698
1.55,-0.3866484888,-0.03218599586
1.56,-0.3865914895,-0.01233309596
1.57,-0.3845625276,0.007737442902
1.58,-0.380415176,0.0276546282
1.59,-0.3740971704,0.04698731353
1.6,-0.3656718152,0.06527225013
1.61,-0.3553300463,0.08204922612
1.62,-0.3433909454,0.09689993669
1.63,-0.3302897684,0.1094866043
1.64,-0.316553953,0.1195862375
1.65,-0.3027689185,0.1271167753
1.66,-0.2895366123,0.1321521465
1.67,-0.2774305612,0.1349243719
1.68,-0.2669515986,0.1358121299
1.69,-0.2584884065,0.1353165519
1.7,-0.2522865505,0.1340262702
1.71,-0.2484288547,0.1325747658
1.72,-0.2468288667,0.1315937498
1.73,-0.2472379439,0.1316666134
1.74,-0.2492652786,0.1332858908
1.75,-0.2524090937,0.1368182597
1.76,-0.2560963342,0.1424799118
1.77,-0.2597275235,0.1503242391
1.78,-0.2627230618,0.1602427544
1.79,-0.2645671473,0.1719790887
1.8,-0.264845708,0.1851548445
1.81,-0.2632752045,0.1993051264
1.82,-0.2597198848,0.2139207729
1.83,-0.2541959638,0.2284937256
1.84,-0.2468622423,0.2425616155
1.85,-0.2379978189,0.2557475709
1.86,-0.2279687365,0.2677914917
1.87,-0.217186539,0.2785696588
1.88,-0.2060626602,0.2881005467
1.89,-0.1949631647,0.2965360357
1.9,-0.1841684786,0.3041387251
1.91,-0.1738423423,0.31124755
1.92,-0.1640133126,0.3182351927
1.93,-0.1545708549,0.3254617014
1.94,-0.1452765375,0.3332291866
1.95,-0.1357892404,0.3417424023
1.96,-0.1257017761,0.3510794387
1.97,-0.1145850548,0.3611756968
1.98,-0.1020350798,0.3718228714
1.99,-0.08771774238,0.3826830011
2,-0.07140667535,0.3933159677
2.01,-0.05301028111,0.4032173551
2.02,-0.03258534297,0.4118625254
2.03,-0.01033617521,0.4187522407
2.04,0.0134001522,0.4234551885
2.05,0.03818055011,0.4256433115
2.06,0.06349151656,0.4251167884
2.07,0.08878979264,0.4218167299
2.08,0.1135439662,0.415824996
2.09,0.1372730855,0.4073518454
2.1,0.1595789033,0.3967132624
2.11,0.1801692211,0.3843006528
2.12,0.1988708226,0.3705461042
2.13,0.2156315415,0.3558865584
2.14,0.2305119949,0.3407300819
2.15,0.2436683614,0.3254270098
2.16,0.2553282442,0.3102481414
2.17,0.26576211,0.2953714388
2.18,0.2752530277,0.2808778927
2.19,0.2840674305,0.2667564176
2.2,0.2924294187,0.2529168875
2.21,0.300500722,0.239209773
2.22,0.3083678896,0.2254503256
2.23,0.3160376096,0.2114449098
2.24,0.3234403164,0.1970169318
2.25,0.3304414721,0.1820298794
2.26,0.3368591664,0.1664052928
2.27,0.3424860609,0.1501340214
2.28,0.347113281,0.1332798523
2.29,0.3505537104,0.1159754304
2.3,0.3526622951,0.0984112298
2.31,0.3533513822,0.0808190617
2.32,0.3525997639,0.06345213693
2.33,0.350454861,0.04656397403
2.34,0.3470282857,0.03038844288
2.35,0.3424857668,0.01512295594
2.36,0.3370330144,0.000916302888
2.37,0.330899457,-0.01213806489
2.38,0.3243218583,-0.02400325316
2.39,0.3175295986,-0.03469530825
2.4,0.3107329438,-0.04427596782
2.41,0.3041150173,-0.05284327702
2.42,0.2978275643,-0.06052159695
2.43,0.2919900511,-0.06745232775
2.44,0.2866912576,-0.07378630228
2.45,0.2819923156,-0.07967836047
2.46,0.2779301338,-0.08528416397
2.47,0.2745202856,-0.09075891605
2.48,0.2717587031,-0.09625736014
2.49,0.2696218526,-0.1019342717
2.5,0.2680654121,-0.107944645
2.51,0.2670217723,-0.1144428931
2.52,0.2663968904,-0.1215805814
2.53,0.2660671295,-0.1295024562
2.54,0.2658767274,-0.1383407482
2.55,0.2656364984,-0.1482079155
2.56,0.2651243042,-0.1591881303
2.57,0.2640877689,-0.1713279393
2.58,0.2622496385,-0.1846266596
2.59,0.2593160789,-0.1990272178
2.6,0.2549880489,-0.2144082956
2.61,0.2489756391,-0.2305787691
2.62,0.2410149528,-0.2472754951
2.63,0.2308867273,-0.2641654481
2.64,0.2184355039,-0.2808530235
2.65,0.203587804,-0.2968929746
2.66,0.1863675324,-0.3118089505
2.67,0.1669067686,-0.3251169975
2.68,0.1454502731,-0.3363527421
2.69,0.1223524358,-0.3451003808
2.7,0.09806602237,-0.3510211555
2.71,0.0731228497,-0.3538787792
2.72,0.04810737301,-0.3535593341
2.73,0.02362498032,-0.3500835377
2.74,0.0002674491372,-0.3436099183
2.75,-0.02142157261,-0.334428311
2.76,-0.04097812637,-0.322944065
2.77,-0.05804389614,-0.3096543049
2.78,-0.07238452474,-0.2951183762
2.79,-0.08389911464,-0.279925099
2.8,-0.09262068202,-0.2646595963
2.81,-0.09870822437,-0.249872254
2.82,-0.1024317698,-0.236051877
2.83,-0.1041522194,-0.2236044425
2.84,-0.1042979518,-0.2128381383
2.85,-0.1033400576,-0.2039547234
2.86,-0.101767781,-0.1970467425
2.87,-0.1000653383,-0.1920998085
2.88,-0.09869086605,-0.1889990476
2.89,-0.09805787785,-0.1875388534
2.9,-0.09851936917,-0.1874352661
2.91,-0.1003546045,-0.1883405043
2.92,-0.1037586625,-0.1898593513
2.93,-0.1088349432,-0.1915671755
2.94,-0.115590994,-0.1930293104
2.95,-0.1239381092,-0.1938213483
2.96,-0.1336951445,-0.1935496534
2.97,-0.1445968385,-0.1918711467
2.98,-0.1563066468,-0.1885112226
2.99,-0.168433729,-0.1832785857
3,-0.1805533198,-0.1760758779
3.01,-0.1922293586,-0.1669051961
3.02,-0.2030379784,-0.1558679651
3.03,-0.2125903317,-0.1431590652
3.04,-0.2205532581,-0.1290555732
3.05,-0.2266664771,-0.1139008882
3.06,-0.230755283,-0.09808533809
3.07,-0.2327380878,-0.08202456513
3.08,-0.2326285366,-0.06613706252
3.09,-0.2305322848,-0.05082219823
3.1,-0.2266388295,-0.0364399365
3.11,-0.2212090234,-0.02329329345
3.12,-0.2145590737,-0.01161436447
3.13,-0.2070419513,-0.001554559271
3.14,-0.1990272226,0.006820519278
3.15,-0.190880386,0.01353132045
3.16,-0.1829428385,0.01867970251
3.17,-0.1755136163,0.02243963462
3.18,-0.1688340174,0.02504375124
3.19,-0.1630760996,0.02676655561
3.2,-0.1583358469,0.02790534517
3.21,-0.154631495,0.02876015569
3.22,-0.1519071233,0.02961415186
3.23,-0.1500411987,0.03071589446
3.24,-0.1488593336,0.03226477362
3.25,-0.1481501652,0.03440061912
3.26,-0.1476830173,0.03719811408
3.27,-0.1472259036,0.0406661957
3.28,-0.1465624876,0.04475218501
3.29,-0.145506805,0.04935000331
3.3,-0.1439148565,0.05431155209
3.31,-0.1416925315,0.05946018245
3.32,-0.1387996747,0.06460516201
3.33,-0.1352504115,0.06955614214
3.34,-0.1311100635,0.07413679646
3.35,-0.1264891027,0.07819699285
3.36,-0.1215346322,0.08162303043
3.37,-0.1164198671,0.0843455879
3.38,-0.1113320708,0.0863450839
3.39,-0.1064594242,0.08765416356
3.4,-0.1019773751,0.08835703424
3.41,-0.09803514343,0.08858542341
3.42,-0.09474320436,0.08851105668
3.43,-0.09216269854,0.08833477186
3.44,-0.09029776936,0.08827268577
3.45,-0.08909176243,0.08854018286
3.46,-0.08842801192,0.08933484287
3.47,-0.08813558159,0.09081970651
3.48,-0.08799985273,0.09310842604
3.49,-0.08777731503,0.09625381219
3.5,-0.08721339815,0.1002410456
3.51,-0.08606177045,0.1049863836
3.52,-0.08410330243,0.1103416173
3.53,-0.08116289458,0.116103897
3.54,-0.07712260801,0.1220299571
3.55,-0.07192997572,0.1278533079
3.56,-0.06560094111,0.1333027063
3.57,-0.05821747671,0.1381201904
3.58,-0.04992048757,0.1420771531
3.59,-0.04089902038,0.1449872976
3.6,-0.03137703194,0.1467157806
3.61,-0.0215990049,0.1471843291
3.62,-0.01181555954,0.1463725243
3.63,-0.002269954377,0.1443157313
3.64,0.006813931248,0.1411002889
3.65,0.01524181041,0.1368565632
3.66,0.02285726364,0.1317503729
3.67,0.02954802217,0.1259731545
3.68,0.03525018583,0.1197311231
3.69,0.03995021565,0.1132336445
3.7,0.04368443938,0.1066810928
3.71,0.04653574994,0.1002526153
3.72,0.04862721239,0.09409444632
3.73,0.05011246035,0.08830963409
3.74,0.05116306045,0.08295020921
3.75,0.05195342286,0.0780128581
3.76,0.05264426916,0.07343901814
3.77,0.05336604912,0.06911997166
3.78,0.0542039349,0.06490701508
3.79,0.05518604945,0.060626189
3.8,0.05627637951,0.0560964712
3.81,0.05737340077,0.05114985519
3.82,0.05831486339,0.04565144048
3.83,0.05888853294,0.03951759344
3.84,0.05884804848,0.03273040744
3.85,0.05793253207,0.0253470714
3.86,0.05588823058,0.01750328736
3.87,0.05249033078,0.009410483797
3.88,0.04756316773,0.001347163842
3.89,0.04099731357,-0.006354772163
3.9,0.03276243088,-0.0133275401
3.91,0.02291522566,-0.01918745655
3.92,0.01160226918,-0.02355601821
3.93,-0.000942182146,-0.02608081713
3.94,-0.01440298092,-0.02645522174
3.95,-0.02839495304,-0.02443596414
3.96,-0.0424772135,-0.01985796311
3.97,-0.05617028732,-0.01264585737
3.98,-0.06897537152,-0.002821822955
3.99,-0.0803950382,0.009490680985
4,-0.08995460996,0.02406752361
4.01,-0.09722334249,0.04058905527
4.02,-0.1018344488,0.05864982887
4.03,-0.1035029294,0.07777269649
4.04,-0.1020401692,0.09742681657
4.05,-0.09736435177,0.1170488154
4.06,-0.08950593076,0.1360660751
4.07,-0.07860768268,0.1539209081
4.08,-0.06491920939,0.1700942623
4.09,-0.04878613554,0.184127592
4.1,-0.03063460736,0.1956416417
4.11,-0.01095200995,0.2043511024
4.12,0.009734952469,0.2100743911
4.13,0.03088354295,0.2127381382
4.14,0.05195835102,0.2123763041
4.15,0.07245349446,0.2091241523
4.16,0.0919125585,0.2032075653
4.17,0.1099453273,0.1949283972
4.18,0.1262405406,0.1846467206
4.19,0.1405741021,0.1727609662
4.2,0.152812383,0.1596870635
4.21,0.1629105138,0.1458377781
4.22,0.1709058477,0.131603469
4.23,0.1769070923,0.1173354561
4.24,0.1810799332,0.1033330495
4.25,0.1836302655,0.08983506406
4.26,0.1847863843,0.07701630059
4.27,0.1847816125,0.06498906349
4.28,0.1838388321,0.05380931314
4.29,0.1821582127,0.04348658968
4.3,0.179909091,0.03399644708
4.31,0.1772264733,0.02529387441
4.32,0.1742120805,0.01732610941
4.33,0.1709392891,0.01004339384
4.34,0.1674608651,0.003406569036
4.35,0.1638180837,-0.00260908907
4.36,0.1600497555,-0.008013825058
4.37,0.1561998275,-0.01280663127
4.38,0.152322572,-0.01698079453
4.39,0.1484848563,-0.02053055553
4.4,0.1447655137,-0.02345763599
4.41,0.141252314,-0.02577656537
4.42,0.1380373883,-0.02751809049
4.43,0.1352121234,-0.02873040651
4.44,0.132862493,-0.02947841521
4.45,0.1310655445,-0.02984160149
4.46,0.1298873761,-0.02991134574
4.47,0.1293825006,-0.0297885116
4.48,0.1295940955,-0.02958196679
4.49,0.1305543826,-0.02940834963
4.5,0.1322843046,-0.02939296467
4.51,0.1347918107,-0.0296712717
4.52,0.1380683846,-0.03039012005
4.53,0.1420838929,-0.0317077448
4.54,0.1467802962,-0.03379162135
4.55,0.1520651645,-0.03681355638
4.56,0.1578061765,-0.04094182737
4.57,0.1638278264,-0.04633068589
4.58,0.1699113916,-0.05310802206
4.59,0.1757988668,-0.06136236646
4.6,0.1812011047,-0.07113062291
4.61,0.1858098934,-0.08238795376
4.62,0.1893132135,-0.09504108008
4.63,0.1914125322,-0.1089259418
4.64,0.1918407406,-0.1238102352
4.65,0.1903792571,-0.139400871
4.66,0.1868729062,-0.1553559364
4.67,0.181241402,-0.1713003639
4.68,0.173486579,-0.186844238
4.69,0.1636948678,-0.2016025292
4.7,0.1520348482,-0.2152150119
4.71,0.138750011,-0.2273651738
4.72,0.1241471037,-0.2377970213
4.73,0.108580642,-0.246328802
4.74,0.09243435219,-0.2528627972
4.75,0.07610048335,-0.2573904885
4.76,0.05995810327,-0.2599925915
4.77,0.0443516382,-0.2608336942
4.78,0.02957102489,-0.2601515449
4.79,0.01583487159,-0.2582413949
4.8,0.003277946604,-0.2554361994
4.81,-0.008055893231,-0.2520838696
4.82,-0.01821456171,-0.2485231083
4.83,-0.02733207693,-0.2450595922
4.84,-0.0356165951,-0.2419443466
4.85,-0.04333293093,-0.2393560501
4.86,-0.05078086336,-0.2373887204
4.87,-0.05827092002,-0.236045775
4.88,-0.06609955743,-0.2352409017
4.89,-0.07452567635,-0.2348055682
4.9,-0.08375023696,-0.2345024364
4.91,-0.09390039557,-0.2340434875
4.92,-0.1050191296,-0.2331113502
4.93,-0.1170608153,-0.2313821944
4.94,-0.1298927416,-0.2285485805
4.95,-0.1433021333,-0.2243408222
4.96,-0.1570079577,-0.2185456778
4.97,-0.170676602,-0.2110214684
4.98,-0.1839404207,-0.2017090041
4.99,-0.1964181381,-0.1906379348
5,-0.2077361035,-0.1779283359
5.01,-0.2175494216,-0.1637874918
5.02,-0.2255619874,-0.1485019812
5.03,-0.2315444595,-0.132425322
5.04,-0.2353492087,-0.1159616086
5.05,-0.2369213221,-0.09954579999
5.06,-0.2363048454,-0.08362155675
5.07,-0.2336436345,-0.06861777667
5.08,-0.2291764795,-0.05492518547
5.09,-0.2232265363,-0.04287446317
5.1,-0.2161855325,-0.03271738589
5.11,-0.2084936472,-0.02461231328
5.12,-0.2006163346,-0.01861505713
5.13,-0.1930196255,-0.01467575562
5.14,-0.1861455478,-0.01264190184
5.15,-0.1803892554,-0.01226719567
5.16,-0.1760792532,-0.01322546428
5.17,-0.1734617911,-0.01512857559
5.18,-0.1726901199,-0.0175470774
5.19,-0.1738189148,-0.02003223961
5.2,-0.1768038151,-0.02213824063
5.21,-0.1815057517,-0.02344339138
5.22,-0.1876995427,-0.02356948691
5.23,-0.1950861344,-0.022198575
5.24,-0.2033078213,-0.01908659994
5.25,-0.2119657698,-0.01407350387
5.26,-0.2206391491,-0.007089453827
5.27,-0.2289051305,0.001843064766
5.28,-0.2363589402,0.01261145755
5.29,-0.2426330658,0.02501956643
5.3,-0.2474146433,0.03879838703
5.31,-0.2504600453,0.05362054356
5.32,-0.2516057575,0.06911782496
5.33,-0.2507748159,0.08490081419
5.34,-0.2479783506,0.1005794256
5.35,-0.2433121476,0.1157830476
5.36,-0.2369485279,0.1301789989
5.37,-0.229124224,0.1434881579
5.38,-0.2201252315,0.1554969026
5.39,-0.2102697945,0.166064858
5.4,-0.1998907174,0.175128344
5.41,-0.1893180824,0.1826997716
5.42,-0.1788632299,0.1888635073
5.43,-0.1688045713,0.1937688675
5.44,-0.1593755153,0.1976209139
5.45,-0.1507545638,0.2006696106
5.46,-0.143057512,0.2031977298
5.47,-0.1363316851,0.2055076978
5.48,-0.1305522591,0.2079074456
5.49,-0.1256208927,0.2106952934
5.5,-0.1213670799,0.2141440002
5.51,-0.1175527612,0.2184843315
5.52,-0.1138807243,0.2238888
5.53,-0.1100071765,0.2304565526
5.54,-0.1055585542,0.238200635
5.55,-0.1001522049,0.2470389982
5.56,-0.09342007848,0.2567905653
5.57,-0.08503408271,0.2671774431
5.58,-0.07473136223,0.2778339436
5.59,-0.06233751824,0.2883225244
5.6,-0.04778574467,0.2981561271
5.61,-0.03113002987,0.3068257612
5.62,-0.01255095084,0.3138316288
5.63,0.007646871808,0.3187156771
5.64,0.02904594681,0.3210932501
5.65,0.05113532761,0.3206814953
5.66,0.0733372471,0.3173223685
5.67,0.09503940187,0.3109984274
5.68,0.1156308939,0.3018400765
5.69,0.1345395562,0.2901234735
5.7,0.1512682499,0.2762588954
5.71,0.1654277155,0.2607699598
5.72,0.1767636918,0.2442646839
5.73,0.1851762672,0.2273999208
5.74,0.1907298146,0.2108412163
5.75,0.1936523684,0.1952205619
5.76,0.1943239389,0.1810948328
5.77,0.1932539961,0.1689078647
5.78,0.1910491692,0.1589590858
5.79,0.1883730324,0.1513813478
5.8,0.1859006181,0.1461300771
5.81,0.1842709151,0.1429850899
5.82,0.1840409972,0.1415654455
5.83,0.1856454987,0.1413566085
5.84,0.1893648778,0.1417480757
5.85,0.1953052671,0.1420786095
5.86,0.2033917621,0.1416854385
5.87,0.2133758098,0.1399533295
5.88,0.2248560748,0.1363593895
5.89,0.2373109031,0.1305098283
5.9,0.2501394332,0.1221656732
5.91,0.2627076357,0.1112555031
5.92,0.2743951886,0.0978745194
5.93,0.2846391454,0.08227056543
5.94,0.2929708107,0.0648188922
5.95,0.2990430344,0.04598841943
5.96,0.302646165,0.02630287282
5.97,0.3037120431,0.006300439985
5.98,0.3023065375,-0.01350451927
5.99,0.298612122,-0.03265460847
6,0.2929027634,-0.05077496831
