"Freq [GHz]","re(S(Tx_p1,Tx_p1)) []","im(S(Tx_p1,Tx_p1)) []"
1,0.2889014713,-0.228772726
1.01,0.285859386,-0.2500397577
1.02,0.2801852916,-0.2711935401
1.03,0.2721040714,-0.2918463769
1.04,0.2618796064,-0.3117347067
1.05,0.2497616142,-0.3307079444
1.06,0.2359443918,-0.3486967751
1.07,0.2205448371,-0.3656680368
1.08,0.2036035115,-0.3815757243
1.09,0.1851081426,-0.3963184599
1.1,0.1650345579,-0.4097125667
1.11,0.1433966119,-0.4214868341
1.12,0.1202949914,-0.431300927
1.13,0.09595486785,-0.4387851389
1.14,0.07074399087,-0.443595148
1.15,0.04516628326,-0.4454723061
1.16,0.01983040108,-0.4442988798
1.17,-0.004603001578,-0.440138308
1.18,-0.02748778567,-0.4332528399
1.19,-0.04826266678,-0.4240945882
1.2,-0.06651462857,-0.4132702922
1.21,-0.08202565166,-0.4014843702
1.22,-0.09479564864,-0.3894682683
1.23,-0.1050381873,-0.3779061901
1.24,-0.1131497482,-0.3673677332
1.25,-0.1196571658,-0.3582568608
1.26,-0.1251512824,-0.3507841185
1.27,-0.1302167889,-0.3449651349
1.28,-0.1353683552,-0.3406444637
1.29,-0.1410020616,-0.3375400821
1.3,-0.1473684411,-0.3353006669
1.31,-0.1545697406,-0.3335662196
1.32,-0.1625802628,-0.3320224998
1.33,-0.1712850389,-0.3304409866
1.34,-0.1805292661,-0.3286987502
1.35,-0.1901694986,-0.3267761559
1.36,-0.2001176779,-0.324734009
1.37,-0.2103704553,-0.3226751012
1.38,-0.221019026,-0.3206978443
1.39,-0.2322384445,-0.3188506973
1.4,-0.2442588327,-0.3170955237
1.41,-0.2573239401,-0.3152863333
1.42,-0.2716445801,-0.3131669008
1.43,-0.2873550143,-0.31038741
1.44,-0.3044796584,-0.3065369897
1.45,-0.3229153359,-0.301186258
1.46,-0.3424312476,-0.293932628
1.47,-0.3626857039,-0.2844411716
1.48,-0.3832559809,-0.2724750086
1.49,-0.4036754834,-0.2579112418
1.5,-0.4234713367,-0.2407416276
1.51,-0.4421964263,-0.2210602306
1.52,-0.4594516527,-0.1990422217
1.53,-0.4748963651,-0.174919307
1.54,-0.4882477276,-0.148957385
1.55,-0.4992720556,-0.1214408368
1.56,-0.5077727405,-0.09266593629
1.57,-0.5135798985,-0.06294333161
1.58,-0.5165461215,-0.03260720587
1.59,-0.5165511117,-0.00202701909
1.6,-0.5135158685,0.02838317763
1.61,-0.5074246518,0.05816288005
1.62,-0.4983505853,0.08681445522
1.63,-0.4864795058,0.1138251274
1.64,-0.4721263377,0.1387008702
1.65,-0.4557386398,0.1610088934
1.66,-0.4378838002,0.1804231614
1.67,-0.4192187907,0.1967663354
1.68,-0.4004439737,0.2100412484
1.69,-0.3822452368,0.2204457864
1.7,-0.3652310108,0.2283670101
1.71,-0.3498720326,0.2343530406
1.72,-0.3364519953,0.2390641586
1.73,-0.3250365726,0.2432076444
1.74,-0.3154661661,0.2474636773
1.75,-0.30737476,0.2524110633
1.76,-0.3002342291,0.2584621978
1.77,-0.2934198171,0.2658162783
1.78,-0.2862893008,0.2744376734
1.79,-0.2782661738,0.2840633961
1.8,-0.268916009,0.2942398115
1.81,-0.2580057773,0.304384578
1.82,-0.2455379361,0.3138664305
1.83,-0.2317540801,0.3220927689
1.84,-0.2171069723,0.3285934356
1.85,-0.2022044289,0.3330893624
1.86,-0.1877323794,0.3355371091
1.87,-0.1743669268,0.3361433968
1.88,-0.1626870081,0.3353475463
1.89,-0.1530992635,0.3337744378
1.9,-0.1457846826,0.332164656
1.91,-0.1406734269,0.3312914056
1.92,-0.137450132,0.3318753302
1.93,-0.1355877734,0.334508167
1.94,-0.1344043821,0.3395945659
1.95,-0.1331339332,0.3473184239
1.96,-0.1310012285,0.3576361921
1.97,-0.1272908642,0.3702955374
1.98,-0.1214020985,0.3848744608
1.99,-0.1128838971,0.40083346
2,-0.101448016,0.4175717858
2.01,-0.08696174168,0.4344793692
2.02,-0.06942461703,0.4509775964
2.03,-0.04893573711,0.4665443891
2.04,-0.02565926024,0.4807223739
2.05,0.0002048316017,0.4931120824
2.06,0.02843921211,0.5033546224
2.07,0.05881378908,0.5111101373
2.08,0.09107634279,0.5160390762
2.09,0.1249321933,0.5177924537
2.1,0.1600180262,0.516015516
2.11,0.1958766579,0.5103668897
2.12,0.2319400626,0.5005519899
2.13,0.2675267558,0.4863664248
2.14,0.3018575919,0.4677429573
2.15,0.3340911615,0.4447941025
2.16,0.3633765956,0.4178424194
2.17,0.3889185841,0.3874317836
2.18,0.4100468458,0.3543152209
2.19,0.4262808187,0.3194183469
2.2,0.4373806466,0.2837812574
2.21,0.4433773155,0.2484847715
2.22,0.4445771916,0.2145691523
2.23,0.441539548,0.1829550612
2.24,0.4350298268,0.1543762482
2.25,0.4259545272,0.1293314108
2.26,0.4152857205,0.1080600375
2.27,0.4039843734,0.09054364979
2.28,0.3929311832,0.07653029109
2.29,0.3828719265,0.06557720222
2.3,0.3743816157,0.05710456916
2.31,0.3678484898,0.05045264175
2.32,0.3634759609,0.04493533063
2.33,0.3612984871,0.03988506432
2.34,0.3612059405,0.03468593245
2.35,0.3629707647,0.02879494092
2.36,0.3662735014,0.02175351536
2.37,0.3707239699,0.01319252621
2.38,0.3758772446,0.002834777096
2.39,0.3812458443,-0.00950152479
2.4,0.3863109892,-0.02389641558
2.41,0.3905362454,-0.04031881954
2.42,0.3933866374,-0.05861594131
2.43,0.3943550876,-0.07850483191
2.44,0.3929960573,-0.09957037829
2.45,0.388964211,-0.1212737359
2.46,0.382054117,-0.1429743449
2.47,0.3722353322,-0.1639668779
2.48,0.3596767556,-0.1835317727
2.49,0.3447549029,-0.2009956588
2.5,0.3280420785,-0.2157959198
2.51,0.3102728095,-0.2275419866
2.52,0.2922898002,-0.2360655842
2.53,0.2749734913,-0.241452716
2.54,0.2591620471,-0.2440518765
2.55,0.2455703417,-0.2444558764
2.56,0.2347169305,-0.2434577912
2.57,0.2268675437,-0.2419845237
2.58,0.2220022413,-0.2410145296
2.59,0.2198104358,-0.2414886989
2.6,0.2197143843,-0.2442240741
2.61,0.2209185706,-0.2498396366
2.62,0.2224792659,-0.2587020439
2.63,0.2233861127,-0.2708964813
2.64,0.2226465434,-0.2862244646
2.65,0.2193640384,-0.3042270722
2.66,0.2128027241,-0.3242290929
2.67,0.2024331967,-0.3453975576
2.68,0.1879572465,-0.3668071424
2.69,0.1693120313,-0.3875050096
2.7,0.146656865,-0.4065688829
2.71,0.1203474097,-0.4231543763
2.72,0.0909024806,-0.4365298206
2.73,0.05896851973,-0.4460989202
2.74,0.02528560328,-0.4514135755
2.75,-0.009343122984,-0.4521800164
2.76,-0.04407830357,-0.4482612589
2.77,-0.07806868332,-0.4396783024
2.78,-0.1104750302,-0.4266111373
2.79,-0.1404958589,-0.4093990307
2.8,-0.1673964469,-0.388538304
2.81,-0.1905415077,-0.3646749563
2.82,-0.2094302968,-0.3385891745
2.83,-0.2237312652,-0.3111694665
2.84,-0.2333124108,-0.2833755099
2.85,-0.23826297,-0.2561902984
2.86,-0.2389021524,-0.2305640797
2.87,-0.2357717121,-0.2073543367
2.88,-0.2296107703,-0.1872671792
2.89,-0.2213133047,-0.1708060802
2.9,-0.2118709084,-0.1582335346
2.91,-0.2023051776,-0.1495500917
2.92,-0.1935954247,-0.1444937079
2.93,-0.1866083461,-0.1425603608
2.94,-0.1820363183,-0.1430444244
2.95,-0.1803499504,-0.1450951942
2.96,-0.1817691284,-0.1477845362
2.97,-0.1862550945,-0.1501794049
2.98,-0.1935237609,-0.1514124479
2.99,-0.2030782638,-0.1507444454
3,-0.2142569729,-0.1476133818
3.01,-0.2262917707,-0.1416665634
3.02,-0.2383707601,-0.1327741688
3.03,-0.2496995717,-0.1210245656
3.04,-0.2595561033,-0.1067035781
3.05,-0.2673348433,-0.09026130159
3.06,-0.272578564,-0.07227072467
3.07,-0.2749966499,-0.05338248344
3.08,-0.2744707243,-0.03427979562
3.09,-0.2710494527,-0.01563672641
3.1,-0.2649348636,0.001918258603
3.11,-0.2564625654,0.01783240158
3.12,-0.2460781038,0.03165226157
3.13,-0.2343110877,0.04304135255
3.14,-0.2217480157,0.05179246412
3.15,-0.2090042756,0.05783516703
3.16,-0.1966954811,0.06123871834
3.17,-0.1854082577,0.06221013731
3.18,-0.175670919,0.0610868626
3.19,-0.1679249342,0.05832340141
3.2,-0.1624984586,0.05447151115
3.21,-0.1595836876,0.05015377197
3.22,-0.1592200708,0.04603114435
3.23,-0.161285261,0.0427658207
3.24,-0.1654953836,0.04098132487
3.25,-0.1714155989,0.04122242602
3.26,-0.1784811209,0.04391771072
3.27,-0.1860280614,0.04934773888
3.28,-0.1933325452,0.05762159183
3.29,-0.199655644,0.06866407158
3.3,-0.2042911359,0.08221499855
3.31,-0.2066127854,0.0978412887
3.32,-0.2061175537,0.1149615882
3.33,-0.2024612468,0.1328820922
3.34,-0.1954836451,0.1508412309
3.35,-0.1852207889,0.1680601421
3.36,-0.1719029884,0.1837951423
3.37,-0.1559382981,0.1973880199
3.38,-0.1378824525,0.2083099445
3.39,-0.1183975751,0.216195157
3.4,-0.09820312362,0.2208614571
3.41,-0.07802334937,0.2223156908
3.42,-0.05853598026,0.2207438468
3.43,-0.04032679698,0.2164869414
3.44,-0.02385409201,0.21000537
3.45,-0.009425867755,0.2018354628
3.46,0.002808681873,0.1925426738
3.47,0.012853457,0.1826760922
3.48,0.02084712224,0.1727285166
3.49,0.02703495581,0.163105441
3.5,0.03173452637,0.1541051357
3.51,0.03529923182,0.1459105714
3.52,0.03808351778,0.1385925263
3.53,0.04041294111,0.1321220722
3.54,0.04256129278,0.1263898161
3.55,0.04473581126,0.121228872
3.56,0.04707036768,0.1164386878
3.57,0.04962563392,0.1118073351
3.58,0.05239460465,0.1071305614
3.59,0.05531155568,0.1022267959
3.6,0.05826267201,0.09694813081
3.61,0.06109698766,0.09118791724
3.62,0.06363690396,0.08488599018
3.63,0.06568824656,0.07803252704
3.64,0.06705035235,0.07067121916
3.65,0.06752700045,0.06290193233
3.66,0.06693906502,0.05488237422
3.67,0.06513942013,0.04682760278
3.68,0.06202990265,0.03900581461
3.69,0.05757931358,0.03172884143
3.7,0.05184058156,0.02533609394
3.71,0.04496443002,0.02017146984
3.72,0.03720651936,0.01655392298
3.73,0.02892518766,0.01474370576
3.74,0.02056762552,0.0149075815
3.75,0.0126436124,0.01708728294
3.76,0.005687625938,0.02117591783
3.77,0.0002119917263,0.02690677279
3.78,-0.003344496622,0.03385795082
3.79,-0.004666743873,0.04147453776
3.8,-0.00360599858,0.04910778266
3.81,-0.0002089603518,0.0560684186
3.82,0.005271460776,0.06168902722
3.83,0.01238645247,0.06538869963
3.84,0.02052279015,0.06673252624
3.85,0.02895289155,0.06547872539
3.86,0.03689830618,0.06160753093
3.87,0.04359966693,0.05532817187
3.88,0.04838526325,0.04706301664
3.89,0.05073059861,0.03741081401
3.9,0.05030254839,0.02709354262
3.91,0.04698386143,0.01689327558
3.92,0.04087637308,0.007586388856
3.93,0.03228400889,-0.0001176654746
3.94,0.02167909026,-0.005626904635
3.95,0.009657200047,-0.008502473672
3.96,-0.003113300505,-0.008477528368
3.97,-0.01594111496,-0.00545980797
3.98,-0.0281562052,0.000479606023
3.99,-0.03914492981,0.009127465621
4,-0.04837461767,0.02015498255
4.01,-0.0554079464,0.03314561919
4.02,-0.05990902919,0.04762068335
4.03,-0.06164402681,0.06306076784
4.04,-0.06047930429,0.07892262091
4.05,-0.05637968753,0.09465244412
4.06,-0.04940834089,0.1096976306
4.07,-0.03972842709,0.1235193424
4.08,-0.02760536403,0.1356080341
4.09,-0.01340742465,0.145503149
4.1,0.002398131064,0.1528169048
4.11,0.01925609802,0.1572606174
4.12,0.03654347777,0.1586706853
4.13,0.05359934071,0.157030442
4.14,0.06976331168,0.1524838045
4.15,0.08441985389,0.1453371203
4.16,0.09704405736,0.1360468007
4.17,0.1072437122,0.1251920924
4.18,0.1147922887,0.113434425
4.19,0.119648157,0.1014668289
4.2,0.1219568769,0.08995859343
4.21,0.1220354779,0.07950133767
4.22,0.120340045,0.07056278746
4.23,0.1174202172,0.0634537122
4.24,0.1138660216,0.05831179722
4.25,0.1102535143,0.0551039535
4.26,0.1070957777,0.05364604927
4.27,0.1048049236,0.05363669872
4.28,0.1036690242,0.05469993689
4.29,0.103845613,0.05643061956
4.3,0.1053709438,0.05843636582
4.31,0.1081819597,0.06037079277
4.32,0.1121462711,0.0619544935
4.33,0.1170946031,0.06298238781
4.34,0.1228502824,0.06331835956
4.35,0.1292513254,0.06288009291
4.36,0.1361623633,0.06161841256
4.37,0.1434756905,0.05949600697
4.38,0.1511027666,0.056470102
4.39,0.158959199,0.05248255504
4.4,0.1669472888,0.04745918922
4.41,0.1749405127,0.04131828687
4.42,0.1827737923,0.03398634802
4.43,0.1902422038,0.02541780872
4.44,0.1971091343,0.01561463253
4.45,0.2031230854,0.004641649003
4.46,0.2080406712,-0.007365786563
4.47,0.211652145,-0.02020393099
4.48,0.2138052024,-0.03361302321
4.49,0.2144229648,-0.04729854342
4.5,0.2135128955,-0.06095844863
4.51,0.2111648225,-0.0743123704
4.52,0.2075379852,-0.08712831227
4.53,0.2028388234,-0.09924266743
4.54,0.1972927729,-0.1105703603
4.55,0.1911143815,-0.1211034447
4.56,0.1844804137,-0.1308983279
4.57,0.1775102195,-0.1400536391
4.58,0.1702565259,-0.1486823232
4.59,0.1627081565,-0.1568825442
4.6,0.1548042408,-0.1647122521
4.61,0.1464575587,-0.1721717386
4.62,0.137583103,-0.1791972439
4.63,0.1281270012,-0.1856668709
4.64,0.1180907918,-0.1914180111
4.65,0.1075467542,-0.1962735269
4.66,0.09664142992,-0.2000724074
4.67,0.08558642737,-0.2026997913
4.68,0.07463773254,-0.2041112834
4.69,0.06406669888,-0.2043473854
4.7,0.05412732135,-0.2035354739
4.71,0.04502505989,-0.2018788242
4.72,0.03689225032,-0.1996343345
4.73,0.02977405587,-0.1970825006
4.74,0.02362715222,-0.1944944795
4.75,0.01833120412,-0.1921015533
4.76,0.01371105106,-0.1900718649
4.77,0.009565741564,-0.188498037
4.78,0.005699444598,-0.1873974124
4.79,0.001949008116,-0.1867245024
4.8,-0.001796435617,-0.1863931641
4.81,-0.005587017182,-0.1863043979
4.82,-0.009416098211,-0.1863747276
4.83,-0.0132357952,-0.1865600502
4.84,-0.016981211,-0.1868706232
4.85,-0.02059902127,-0.1873743604
4.86,-0.02407528284,-0.1881875903
4.87,-0.02745740269,-0.1894545548
4.88,-0.03086611802,-0.1913188545
4.89,-0.03449494017,-0.1938914531
4.9,-0.03859654717,-0.197220515
4.91,-0.04345774235,-0.2012681536
4.92,-0.04936648342,-0.2058981462
4.93,-0.05657582279,-0.2108769811
4.94,-0.06527016719,-0.2158885215
4.95,-0.07553896441,-0.220560419
4.96,-0.08736179697,-0.2244985455
4.97,-0.1006070823,-0.2273244437
4.98,-0.1150444309,-0.228710326
4.99,-0.1303685488,-0.2284065867
5,-0.1462307494,-0.226258056
5.01,-0.16227298,-0.2222071205
5.02,-0.1781589654,-0.2162840506
5.03,-0.1935977005,-0.2085870263
5.04,-0.208355981,-0.1992560684
5.05,-0.2222586998,-0.1884460554
5.06,-0.235177909,-0.1763040513
5.07,-0.247013741,-0.1629552674
5.08,-0.2576718286,-0.1485002883
5.09,-0.2670425706,-0.1330239924
5.1,-0.2749873272,-0.1166142867
5.11,-0.2813354233,-0.09938676101
5.12,-0.2858938884,-0.08151000972
5.13,-0.2884695095,-0.06322592959
5.14,-0.288900412,-0.04485985677
5.15,-0.2870924255,-0.02681689167
5.16,-0.2830542846,-0.009562930412
5.17,-0.2769254692,0.006408579985
5.18,-0.2689912587,0.02062073257
5.19,-0.2596812433,0.03266273656
5.2,-0.2495498324,0.04223848258
5.21,-0.2392398638,0.04920743813
5.22,-0.2294328454,0.05361204015
5.23,-0.2207912936,0.05568742953
5.24,-0.2138997855,0.0558516373
5.25,-0.2092115719,0.05467684016
5.26,-0.2070068932,0.05284469216
5.27,-0.2073676346,0.05109067867
5.28,-0.2101708755,0.05014366967
5.29,-0.2151015594,0.05066723479
5.3,-0.2216822475,0.05320881174
5.31,-0.2293160301,0.05816159433
5.32,-0.2373373929,0.06574223487
5.33,-0.2450652981,0.07598541307
5.34,-0.2518529762,0.0887543025
5.35,-0.257129832,0.1037642374
5.36,-0.2604322913,0.1206156653
5.37,-0.2614220895,0.1388318926
5.38,-0.2598921865,0.1578972109
5.39,-0.2557619316,0.1772916635
5.4,-0.2490640992,0.196519809
5.41,-0.2399268769,0.2151321394
5.42,-0.2285537926,0.2327390823
5.43,-0.2152040124,0.2490185469
5.44,-0.2001745755,0.2637186036
5.45,-0.1837851888,0.2766570624
5.46,-0.1663653519,0.2877194542
5.47,-0.1482430351,0.2968563346
5.48,-0.1297339666,0.3040801085
5.49,-0.1111308103,0.3094609161
5.5,-0.09269205082,0.3131206896
5.51,-0.07463109235,0.3152244144
5.52,-0.05710674511,0.3159679475
5.53,-0.04021670136,0.3155623903
5.54,-0.02399568334,0.3142158499
5.55,-0.008419599939,0.3121142669
5.56,0.006583692388,0.3094036298
5.57,0.02111744369,0.3061761829
5.58,0.03529441118,0.3024630465
5.59,0.04921313279,0.2982350025
5.6,0.06293526743,0.2934121266
5.61,0.07646738771,0.2878816429
5.62,0.08975026176,0.2815220463
5.63,0.1026577801,0.2742304042
5.64,0.1150063868,0.2659490275
5.65,0.1265743687,0.2566875298
5.66,0.1371288504,0.2465367078
5.67,0.1464570658,0.2356716573
5.68,0.1543976509,0.2243429758
5.69,0.1608674664,0.2128565645
5.7,0.1658798637,0.2015442229
5.71,0.169551333,0.1907286702
5.72,0.172094997,0.180687605
5.73,0.1738012269,0.1716217665
5.74,0.1750075156,0.1636316102
5.75,0.1760613848,0.1567061698
5.76,0.1772812502,0.1507260586
5.77,0.1789206521,0.1454806012
5.78,0.1811409697,0.1406970295
5.79,0.1839966646,0.1360778364
5.8,0.1874353802,0.1313410587
5.81,0.191313088,0.1262576593
5.82,0.1954222044,0.1206804483
5.83,0.1995285805,0.1145601275
5.84,0.2034118125,0.1079459029
5.85,0.2069026771,0.1009704184
5.86,0.2099117801,0.09382120468
5.87,0.2124447669,0.08670300996
5.88,0.2146014586,0.07979689938
5.89,0.216558752,0.07322264599
5.9,0.2185396895,0.06701056437
5.91,0.2207733476,0.06108756756
5.92,0.2234517346,0.05528008567
5.93,0.2266904899,0.04933389103
5.94,0.2304997192,0.04294822797
5.95,0.23476985,0.03581937841
5.96,0.2392751733,0.02768725253
5.97,0.2436950894,0.01837800917
5.98,0.247650386,0.007836201118
5.99,0.2507495926,-0.003858570448
6,0.2526389183,-0.01649328739
