"Freq [GHz]","re(S(Tx_p1,Tx_p1)) []","im(S(Tx_p1,Tx_p1)) []"
1,0.3401979667,-0.3148483421
1.01,0.3314017738,-0.3354702368
1.02,0.3209016425,-0.3561021925
1.03,0.3085860347,-0.3765878342
1.04,0.2943559896,-0.3967270317
1.05,0.2781397713,-0.416276109
1.06,0.2599077578,-0.4349527094
1.07,0.2396861214,-0.4524453721
1.08,0.2175678566,-0.4684274202
1.09,0.1937198702,-0.4825743363
1.1,0.1683851076,-0.4945834213
1.11,0.1418791026,-0.5041942627
1.12,0.1145807378,-0.5112083777
1.13,0.08691752974,-0.5155063793
1.14,0.05934619671,-0.517061138
1.15,0.03232969535,-0.515945662
1.16,0.006312245369,-0.5123347858
1.17,-0.01830591697,-0.5065002057
1.18,-0.04119222792,-0.4987988972
1.19,-0.06210215243,-0.4896554555
1.2,-0.08089462471,-0.4795393819
1.21,-0.09754131053,-0.4689387456
1.22,-0.1121288543,-0.4583319656
1.23,-0.1248537749,-0.4481596394
1.24,-0.136010212,-0.4387983886
1.25,-0.1459712631,-0.4305385785
1.26,-0.1551651374,-0.4235675112
1.27,-0.1640477608,-0.4179593034
1.28,-0.1730737428,-0.4136721662
1.29,-0.1826677515,-0.4105532503
1.3,-0.1931983069,-0.4083506412
1.31,-0.2049558063,-0.4067315457
1.32,-0.218136246,-0.4053052436
1.33,-0.2328316324,-0.4036490356
1.34,-0.2490275239,-0.4013352271
1.35,-0.266607566,-0.3979571736
1.36,-0.2853643285,-0.3931525684
1.37,-0.3050152793,-0.3866224713
1.38,-0.3252223816,-0.378145013
1.39,-0.345613608,-0.3675832269
1.4,-0.3658046498,-0.3548869956
1.41,-0.3854192428,-0.3400896002
1.42,-0.4041068304,-0.3232997726
1.43,-0.4215566752,-0.3046904335
1.44,-0.4375079863,-0.2844854252
1.45,-0.4517560697,-0.2629455199
1.46,-0.4641548994,-0.240354804
1.47,-0.4746167888,-0.2170082534
1.48,-0.4831099896,-0.193200961
1.49,-0.4896550493,-0.1692191167
1.5,-0.4943206234,-0.1453325184
1.51,-0.4972191985,-0.1217881686
1.52,-0.4985028737,-0.09880440862
1.53,-0.4983590357,-0.07656507895
1.54,-0.4970054862,-0.0552133689
1.55,-0.4946844088,-0.03484529772
1.56,-0.4916545135,-0.01550311457
1.57,-0.4881808065,0.002830740389
1.58,-0.4845216889,0.02023816615
1.59,-0.4809134684,0.03686727624
1.6,-0.4775528366,0.05293042463
1.61,-0.4745783481,0.0686973191
1.62,-0.47205239,0.08448247522
1.63,-0.4699454638,0.1006267489
1.64,-0.4681247776,0.1174732976
1.65,-0.4663491044,0.1353390014
1.66,-0.4642715929,0.1544830513
1.67,-0.4614517142,0.1750750066
1.68,-0.4573768312,0.1971650581
1.69,-0.4514930245,0.220659444
1.7,-0.4432438912,0.2453039101
1.71,-0.4321151257,0.2706777509
1.72,-0.4176818907,0.2962003389
1.73,-0.3996553847,0.3211511609
1.74,-0.3779246781,0.3447033143
1.75,-0.3525898886,0.3659692473
1.76,-0.3239831121,0.3840563637
1.77,-0.2926742269,0.3981290586
1.78,-0.2594596946,0.4074729175
1.79,-0.2253337312,0.4115562824
1.8,-0.1914426109,0.4100842399
1.81,-0.1590242849,0.4030403456
1.82,-0.1293368148,0.3907120764
1.83,-0.1035802186,0.3736970534
1.84,-0.08281710083,0.3528884297
1.85,-0.06789779484,0.3294393859
1.86,-0.05939565089,0.304708295
1.87,-0.05755753773,0.2801876637
1.88,-0.06227363171,0.2574213003
1.89,-0.07306921618,0.2379151752
1.9,-0.08911961572,0.2230480331
1.91,-0.1092876778,0.2139879321
1.92,-0.1321815342,0.2116205116
1.93,-0.1562288668,0.2164939488
1.94,-0.1797627017,0.2287843386
1.95,-0.2011129477,0.2482837155
1.96,-0.2186975628,0.2744112771
1.97,-0.2311073698,0.3062466885
1.98,-0.2371791515,0.3425828088
1.99,-0.2360526471,0.3819938904
2,-0.2272083668,0.4229143661
2.01,-0.2104846088,0.4637228171
2.02,-0.1860735764,0.5028256295
2.03,-0.1544979257,0.5387351744
2.04,-0.1165703152,0.5701380431
2.05,-0.07333948922,0.5959498396
2.06,-0.02602705281,0.615354187
2.07,0.02404063177,0.6278248286
2.08,0.07550107232,0.6331308916
2.09,0.1270208167,0.6313264518
2.1,0.1773538012,0.6227264059
2.11,0.2253902883,0.6078712876
2.12,0.2701946671,0.5874840424
2.13,0.3110312472,0.5624218891
2.14,0.3473779826,0.5336263033
2.15,0.3789287414,0.5020738664
2.16,0.4055852839,0.4687303189
2.17,0.4274404875,0.4345096672
2.18,0.4447545836,0.4002396814
2.19,0.4579262572,0.3666346305
2.2,0.4674604281,0.3342756528
2.21,0.4739344229,0.3035987835
2.22,0.4779640773,0.2748903575
2.23,0.4801711158,0.2482892713
2.24,0.4811529553,0.2237954246
2.25,0.4814558849,0.2012835362
2.26,0.4815523954,0.1805214487
2.27,0.4818232637,0.1611919706
2.28,0.4825448392,0.142917253
2.29,0.4838818201,0.1252846572
2.3,0.4858856427,0.107873032
2.31,0.4884984231,0.09027830415
2.32,0.4915621997,0.07213728385
2.33,0.4948330072,0.05314862758
2.34,0.4979990958,0.03308998223
2.35,0.5007023948,0.01183046891
2.36,0.5025621206,-0.01066214156
2.37,0.5031992743,-0.03431996031
2.38,0.5022606749,-0.05897932016
2.39,0.4994411479,-0.08439069298
2.4,0.4945025547,-0.1102336094
2.41,0.4872885055,-0.1361356745
2.42,0.4777338465,-0.1616944842
2.43,0.4658683465,-0.1865010254
2.44,0.4518143955,-0.210163021
2.45,0.4357789503,-0.2323266665
2.46,0.418040383,-0.2526953165
2.47,0.3989312606,-0.2710439078
2.48,0.3788183879,-0.2872282416
2.49,0.3580816338,-0.3011886554
2.5,0.3370931262,-0.3129480742
2.51,0.3161983203,-0.3226048814
2.52,0.2957002359,-0.330321462
2.53,0.2758478334,-0.3363095974
2.54,0.2568290882,-0.3408140986
2.55,0.2387688751,-0.3440961372
2.56,0.2217313267,-0.3464176595
2.57,0.2057259396,-0.3480280599
2.58,0.1907163986,-0.3491539716
2.59,0.1766309128,-0.3499926429
2.6,0.1633728161,-0.3507089416
2.61,0.1508302865,-0.3514356338
2.62,0.1388842588,-0.3522762404
2.63,0.1274139268,-0.3533095393
2.64,0.1162995975,-0.3545946629
2.65,0.1054230454,-0.3561757629
2.66,0.09466585562,-0.3580853563
2.67,0.08390651689,-0.3603457179
2.68,0.07301718837,-0.3629680075
2.69,0.06186110737,-0.3659491738
2.7,0.05029152442,-0.3692670245
2.71,0.03815286016,-0.3728741426
2.72,0.02528449973,-0.3766915425
2.73,0.01152730828,-0.3806030609
2.74,-0.003267395291,-0.3844514681
2.75,-0.01922699261,-0.3880371559
2.76,-0.03644569853,-0.3911200386
2.77,-0.05497270103,-0.3934250027
2.78,-0.07480141192,-0.3946509069
2.79,-0.09586089723,-0.3944827866
2.8,-0.1180104166,-0.392606604
2.81,-0.1410377727,-0.3887256266
2.82,-0.1646618769,-0.3825773422
2.83,-0.1885396062,-0.3739497411
2.84,-0.2122766909,-0.3626958181
2.85,-0.2354420584,-0.3487452696
2.86,-0.257584801,-0.3321125636
2.87,-0.2782527493,-0.3129008257
2.88,-0.2970115321,-0.291301292
2.89,-0.3134629977,-0.2675883859
2.9,-0.327261951,-0.242110776
2.91,-0.3381303194,-0.2152790185
2.92,-0.3458680745,-0.1875505803
2.93,-0.3503604876,-0.1594131523
2.94,-0.3515815604,-0.1313671975
2.95,-0.3495937188,-0.1039086414
2.96,-0.3445440726,-0.07751250801
2.97,-0.3366577057,-0.05261815194
2.98,-0.3262285684,-0.02961656146
2.99,-0.31360858,-0.00884001894
3,-0.2991955407,0.009445764162
3.01,-0.2834203871,0.02504706292
3.02,-0.2667342426,0.0378452312
3.03,-0.2495956078,0.04779765344
3.04,-0.2324579477,0.05493675364
3.05,-0.2157578533,0.05936724219
3.06,-0.1999039149,0.06126174352
3.07,-0.1852664289,0.06085490658
3.08,-0.1721680788,0.0584360693
3.09,-0.1608757704,0.05434054037
3.1,-0.1515938432,0.04893958423
3.11,-0.1444589238,0.04262924908
3.12,-0.1395366982,0.03581825945
3.13,-0.1368208693,0.02891529216
3.14,-0.1362345056,0.02231605513
3.15,-0.1376338915,0.01639067433
3.16,-0.1408148615,0.01147195091
3.17,-0.1455214409,0.007845064194
3.18,-0.1514564609,0.005739260398
3.19,-0.1582936588,0.005321978371
3.2,-0.1656906577,0.006695729088
3.21,-0.1733021373,0.009897874455
3.22,-0.1807924852,0.01490326003
3.23,-0.1878472502,0.02162946318
3.24,-0.1941828102,0.02994424226
3.25,-0.1995538051,0.03967463009
3.26,-0.2037580586,0.05061702025
3.27,-0.2066389057,0.06254755476
3.28,-0.208085035,0.07523213989
3.29,-0.2080281331,0.08843548917
3.3,-0.2064387622,0.1019287111
3.31,-0.2033210076,0.1154951112
3.32,-0.1987064824,0.1289340507
3.33,-0.1926482801,0.1420628791
3.34,-0.1852154183,0.1547171246
3.35,-0.176488224,0.1667492683
3.36,-0.1665549852,0.1780265357
3.37,-0.1555100453,0.1884282079
3.38,-0.143453353,0.1978429742
3.39,-0.1304913226,0.2061668244
3.4,-0.1167387129,0.2133019079
3.41,-0.1023211094,0.2191566784
3.42,-0.08737751224,0.2236475
3.43,-0.07206248465,0.2267017298
3.44,-0.05654732729,0.2282621146
3.45,-0.04101979723,0.2282921753
3.46,-0.0256819996,0.226782098
3.47,-0.01074623077,0.2237545354
3.48,0.00357126156,0.2192696505
3.49,0.01705842798,0.2134287182
3.5,0.02951709116,0.2063756511
3.51,0.04077356019,0.1982959249
3.52,0.05068943809,0.1894125529
3.53,0.05917176284,0.1799789803
3.54,0.06618157739,0.1702690242
3.55,0.07174005555,0.1605642525
3.56,0.07593142204,0.1511394541
3.57,0.07890209293,0.1422470743
3.58,0.08085571419,0.1341016562
3.59,0.0820440751,0.1268654183
3.6,0.08275419411,0.1206361012
3.61,0.08329219259,0.1154381246
3.62,0.08396485771,0.111217914
3.63,0.08506002456,0.1078439963
3.64,0.08682705805,0.1051121458
3.65,0.08945877157,0.1027555019
3.66,0.09307607541,0.1004592244
3.67,0.09771650406,0.09787890497
3.68,0.103327538,0.09466166807
3.69,0.1097653295,0.09046867072
3.7,0.1167990861,0.08499758651
3.71,0.1241209864,0.07800362765
3.72,0.1313611313,0.06931773404
3.73,0.1381066917,0.05886072755
3.74,0.143924133,0.04665248238
3.75,0.1483831893,0.03281547929
3.76,0.151081146,0.01757246856
3.77,0.1516659676,0.001238339422
3.78,0.1498568854,-0.01579334405
3.79,0.1454612245,-0.03306835242
3.8,0.1383864867,-0.05009328447
3.81,0.1286470066,-0.06635928179
3.82,0.1163648307,-0.08136658132
3.83,0.1017648216,-0.09464849047
3.84,0.0851643298,-0.1057934237
3.85,0.06695809583,-0.1144637748
3.86,0.04759931022,-0.120410606
3.87,0.02757797337,-0.1234833973
3.88,0.007397831933,-0.1236344017
3.89,-0.01244676983,-0.120917479
3.9,-0.03149280575,-0.115481603
3.91,-0.04932802933,-0.1075595487
3.92,-0.06560692781,-0.09745254245
3.93,-0.08006234349,-0.08551187859
3.94,-0.09251221134,-0.07211867454
3.95,-0.1028611665,-0.05766302188
3.96,-0.1110970922,-0.04252380799
3.97,-0.1172829895,-0.02705041719
3.98,-0.121544832,-0.01154738248
3.99,-0.1240563154,0.003737145985
4,-0.1250215886,0.01861850751
4.01,-0.1246571707,0.03297790132
4.02,-0.1231742883,0.0467600246
4.03,-0.1207628248,0.05996629654
4.04,-0.1175779423,0.07264427872
4.05,-0.1137302434,0.08487415255
4.06,-0.1092800841,0.09675330548
4.07,-0.1042363515,0.1083801961
4.08,-0.09855970564,0.1198387057
4.09,-0.09216996739,0.1311841364
4.1,-0.08495704385,0.1424318894
4.11,-0.07679453501,0.1535496577
4.12,-0.06755497844,0.1644537098
4.13,-0.05712557704,0.1750095471
4.14,-0.04542322413,0.1850369016
4.15,-0.03240769207,0.1943187341
4.16,-0.0180919818,0.2026136033
4.17,-0.002549030081,0.2096705431
4.18,0.01408577444,0.2152453984
4.19,0.03161652458,0.2191174697
4.2,0.04979312729,0.2211052826
4.21,0.06832168107,0.2210803512
4.22,0.08687826221,0.2189779311
4.23,0.1051252431,0.2148039507
4.24,0.1227290824,0.208637559
4.25,0.1393784114,0.2006290168
4.26,0.1548012001,0.1909929651
4.27,0.1687798272,0.1799974206
4.28,0.1811629959,0.1679491381
4.29,0.1918736253,0.1551762406
4.3,0.200912101,0.1420092208
4.31,0.2083545662,0.1287615534
4.32,0.2143462614,0.1157112157
4.33,0.2190902611,0.1030843821
4.34,0.2228322753,0.09104244471
4.35,0.2258424742,0.07967331073
4.36,0.2283955219,0.06898765825
4.37,0.230750161,0.05892050479
4.38,0.2331297546,0.04933808081
4.39,0.2357051573,0.04004962911
4.4,0.2385811588,0.03082339466
4.41,0.2417875142,0.02140575706
4.42,0.2452752772,0.01154221198
4.43,0.2489187826,0.0009987503599
4.44,0.2525232349,-0.0104178712
4.45,0.2558374514,-0.02284242256
4.46,0.2585709381,-0.0363373471
4.47,0.2604141504,-0.05088379805
4.48,0.2610605516,-0.06637826035
4.49,0.2602289378,-0.08263506082
4.5,0.2576844691,-0.09939465071
4.51,0.2532569283,-0.1163371309
4.52,0.2468549252,-0.1331001151
4.53,0.2384750501,-0.1492997161
4.54,0.228205344,-0.164553224
4.55,0.2162228582,-0.1785019295
4.56,0.2027854961,-0.1908325553
4.57,0.1882187304,-0.2012958702
4.58,0.1728981382,-0.209721288
4.59,0.1572289691,-0.2160265538
4.6,0.1416241373,-0.2202219913
4.61,0.1264820946,-0.2224091724
4.62,0.1121659957,-0.2227742636
4.63,0.09898542077,-0.2215766576
4.64,0.08718168377,-0.219133788
4.65,0.07691745356,-0.2158032353
4.66,0.06827108234,-0.2119633423
4.67,0.0612356934,-0.2079935686
4.68,0.05572276494,-0.2042557305
4.69,0.05156968092,-0.2010771123
4.7,0.04855052273,-0.1987362139
4.71,0.04638925854,-0.1974516495
4.72,0.04477445171,-0.1973744586
4.73,0.04337464753,-0.1985838533
4.74,0.04185369468,-0.2010862375
4.75,0.03988539271,-0.2048171942
4.76,0.03716700662,-0.2096460607
4.77,0.03343133161,-0.2153826926
4.78,0.02845710628,-0.22178604
4.79,0.02207764885,-0.2285742139
4.8,0.01418762272,-0.2354357772
4.81,0.004747830173,-0.2420420446
4.82,-0.006212103509,-0.2480601872
4.83,-0.01859333937,-0.2531669179
4.84,-0.0322299477,-0.2570624608
4.85,-0.04689376883,-0.2594844065
4.86,-0.06230219105,-0.2602209259
4.87,-0.07812892035,-0.2591226882
4.88,-0.09401764944,-0.256112726
4.89,-0.1095983129,-0.251193437
4.9,-0.1245053582,-0.2444499341
4.91,-0.138397196,-0.2360490645
4.92,-0.1509757483,-0.2262336219
4.93,-0.1620048247,-0.215311569
4.94,-0.1713259535,-0.2036404512
4.95,-0.1788703092,-0.1916075861
4.96,-0.1846655107,-0.17960703
4.97,-0.1888363383,-0.1680146915
4.98,-0.1915988016,-0.1571632657
4.99,-0.1932474741,-0.1473188394
5,-0.1941365493,-0.1386610549
5.01,-0.1946556217,-0.131268591
5.02,-0.1952017108,-0.1251114264
5.03,-0.1961494604,-0.1200509037
5.04,-0.1978217367,-0.1158480458
5.05,-0.2004629542,-0.112179924
5.06,-0.2042173792,-0.1086632084
5.07,-0.2091143772,-0.1048833835
5.08,-0.2150621041,-0.100427569
5.09,-0.2218505151,-0.09491848356
5.1,-0.229163839,-0.08804688051
5.11,-0.2366018852,-0.07959979762
5.12,-0.2437087966,-0.06948220454
5.13,-0.2500071928,-0.05773009164
5.14,-0.2550351346,-0.04451369027
5.15,-0.2583830333,-0.03013029607
5.16,-0.2597275584,-0.01498701653
5.17,-0.2588597873,0.0004253919886
5.18,-0.2557052708,0.01556567245
5.19,-0.250334331,0.02987967066
5.2,-0.2429617088,0.04283947422
5.21,-0.2339355625,0.05398103144
5.22,-0.2237167033,0.06293733018
5.23,-0.2128497635,0.06946461176
5.24,-0.2019286407,0.07345971453
5.25,-0.1915589879,0.07496742503
5.26,-0.1823206925,0.07417758658
5.27,-0.1747331768,0.07141258771
5.28,-0.1692259889,0.06710664134
5.29,-0.1661165682,0.06177889152
5.3,-0.1655963292,0.05600278769
5.31,-0.1677253977,0.05037431234
5.32,-0.1724355334,0.04548152816
5.33,-0.1795400774,0.04187754888
5.34,-0.1887492364,0.04005848183
5.35,-0.1996887137,0.04044721201
5.36,-0.211919644,0.04338317866
5.37,-0.2249579837,0.04911762448
5.38,-0.2382919052,0.05781325287
5.39,-0.2513963004,0.06954687378
5.4,-0.2637441241,0.0843134918
5.41,-0.2748149255,0.1020304012
5.42,-0.2841014339,0.1225401815
5.43,-0.2911154261,0.1456119828
5.44,-0.2953942376,0.1709410893
5.45,-0.2965091837,0.1981473562
5.46,-0.2940768278,0.2267736561
5.47,-0.2877735097,0.2562858562
5.48,-0.2773529013,0.2860760194
5.49,-0.2626656565,0.3154704413
5.5,-0.2436795752,0.3437437995
5.51,-0.2204981881,0.3701401176
5.52,-0.1933753664,0.393900504
5.53,-0.1627235293,0.4142967757
5.54,-0.1291132845,0.430669234
5.55,-0.09326288462,0.4424661105
5.56,-0.05601667811,0.4492816442
5.57,-0.01831270146,0.4508894663
5.58,0.01885938748,0.4472680047
5.59,0.05450781203,0.4386149905
5.6,0.08769250122,0.4253488489
5.61,0.117579469,0.4080957164
5.62,0.1434916407,0.3876619797
5.63,0.1649520448,0.3649934597
5.64,0.1817156922,0.3411235602
5.65,0.1937872228,0.3171137364
5.66,0.2014224546,0.2939904187
5.67,0.2051132253,0.2726829617
5.68,0.2055562643,0.2539672295
5.69,0.2036081429,0.238419064
5.7,0.2002295021,0.2263811421
5.71,0.1964226433,0.2179456682
5.72,0.1931670943,0.2129540788
5.73,0.1913578949,0.2110135578
5.74,0.1917510598,0.2115288223
5.75,0.1949200055,0.213746442
5.76,0.2012257454,0.2168080301
5.77,0.2108024512,0.2198080586
5.78,0.2235586709,0.2218518574
5.79,0.2391932175,0.2221095651
5.8,0.2572236043,0.2198623719
5.81,0.2770240184,0.2145382639
5.82,0.2978692595,0.2057355534
5.83,0.3189808757,0.1932336365
5.84,0.3395718878,0.1769915468
5.85,0.3588869888,0.1571358607
5.86,0.3762358504,0.1339402584
5.87,0.3910180817,0.1077995009
5.88,0.4027393506,0.079200717
5.89,0.4110190943,0.04869470688
5.9,0.4155910126,0.01686952164
5.91,0.4162980796,-0.0156720789
5.92,0.4130840868,-0.04833044652
5.93,0.4059837214,-0.08052207133
5.94,0.3951129212,-0.1116884304
5.95,0.3806607692,-0.1413017953
5.96,0.3628835885,-0.1688694386
5.97,0.3421012374,-0.1939377287
5.98,0.3186949995,-0.2160974149
5.99,0.2931059709,-0.2349910007
6,0.2658325581,-0.2503225531
