"Freq [GHz]","re(S(Tx_p1,Tx_p1)) []","im(S(Tx_p1,Tx_p1)) []"
1,0.2424765032,-0.3840729665
1.01,0.227822431,-0.3893821828
1.02,0.2140164111,-0.3937630963
1.03,0.201143776,-0.3975386126
1.04,0.1892053831,-0.4010325061
1.05,0.1781219773,-0.4045489349
1.06,0.1677433799,-0.4083543026
1.07,0.1578615258,-0.4126625575
1.08,0.1482261467,-0.4176246461
1.09,0.1385618164,-0.4233224256
1.1,0.1285851294,-0.4297669538
1.11,0.1180209528,-0.4369007479
1.12,0.1066169391,-0.4446033759
1.13,0.09415577287,-0.4526996258
1.14,0.08046489796,-0.4609694926
1.15,0.06542369719,-0.4691593031
1.16,0.04896824775,-0.4769934409
1.17,0.03109384021,-0.4841862915
1.18,0.0118554342,-0.4904541679
1.19,-0.008633848714,-0.4955270629
1.2,-0.03020619176,-0.499160093
1.21,-0.05264459099,-0.5011444417
1.22,-0.07569052363,-0.5013174941
1.23,-0.0990538586,-0.4995717106
1.24,-0.1224249691,-0.4958616451
1.25,-0.1454888046,-0.4902084252
1.26,-0.1679404211,-0.4827010017
1.27,-0.1895011891,-0.4734935761
1.28,-0.2099346476,-0.4627988314
1.29,-0.2290607953,-0.4508769108
1.3,-0.2467675447,-0.4380204857
1.31,-0.263018149,-0.4245366749
1.32,-0.27785364,-0.4107269736
1.33,-0.2913896856,-0.3968666652
1.34,-0.3038077489,-0.3831853697
1.35,-0.3153409592,-0.369850398
1.36,-0.3262556245,-0.3569544231
1.37,-0.336829762,-0.3445086412
1.38,-0.3473303496,-0.332442133
1.39,-0.3579911509,-0.3206075776
1.4,-0.3689929318,-0.3087928943
1.41,-0.3804476655,-0.2967378522
1.42,-0.3923879409,-0.2841542596
1.43,-0.4047622943,-0.270748062
1.44,-0.4174366366,-0.2562415813
1.45,-0.430201412,-0.2403942057
1.46,-0.4427836585,-0.2230200894
1.47,-0.4548627955,-0.204001787
1.48,-0.4660887719,-0.1832991882
1.49,-0.4761011714,-0.1609535736
1.5,-0.4845479862,-0.1370870186
1.51,-0.4911029926,-0.1118976976
1.52,-0.4954809598,-0.08565184338
1.53,-0.4974502352,-0.05867319734
1.54,-0.4968425318,-0.03133075166
1.55,-0.4935599646,-0.004025464105
1.56,-0.4875795056,0.0228235408
1.57,-0.4789550677,0.04879294104
1.58,-0.4678173791,0.07346914804
1.59,-0.4543717201,0.09646206053
1.6,-0.4388934878,0.1174184939
1.61,-0.4217214732,0.1360350557
1.62,-0.4032487232,0.152070104
1.63,-0.3839109207,0.1653542711
1.64,-0.3641723703,0.1757989088
1.65,-0.3445099039,0.1834017402
1.66,-0.3253952873,0.1882490377
1.67,-0.3072769807,0.1905137835
1.68,-0.2905623267,0.1904495269
1.69,-0.2756013689,0.1883799944
1.7,-0.2626735077,0.1846849051
1.71,-0.2519780543,0.1797828428
1.72,-0.2436294574,0.1741123745
1.73,-0.2376575757,0.1681128409
1.74,-0.2340128891,0.1622063266
1.75,-0.2325760519,0.1567822333
1.76,-0.2331707438,0.1521856212
1.77,-0.235578441,0.1487100825
1.78,-0.2395535467,0.14659541
1.79,-0.2448373256,0.1460297864
1.8,-0.2511692748,0.1471557081
1.81,-0.2582949245,0.1500784483
1.82,-0.26596954,0.1548755949
1.83,-0.2739577382,0.1616061251
1.84,-0.2820295695,0.1703175873
1.85,-0.2899540731,0.1810502582
1.86,-0.2974916424,0.1938375742
1.87,-0.3043866894,0.208702655
1.88,-0.3103620616,0.2256512682
1.89,-0.315116447,0.2446620719
1.9,-0.3183256349,0.2656753395
1.91,-0.3196480332,0.2885815964
1.92,-0.3187343368,0.3132116414
1.93,-0.315240759,0.3393292999
1.94,-0.3088448366,0.3666279773
1.95,-0.299262543,0.3947316987
1.96,-0.2862653133,0.4232008779
1.97,-0.2696956114,0.4515426183
1.98,-0.2494798253,0.4792249566
1.99,-0.2256375413,0.5056941568
2,-0.1982865767,0.5303939728
2.01,-0.1676434849,0.5527857237
2.02,-0.134019577,0.5723680623
2.03,-0.0978127616,0.5886954303
2.04,-0.05949570569,0.6013943656
2.05,-0.01960093768,0.6101770102
2.06,0.02129642639,0.6148513465
2.07,0.06259763769,0.6153278391
2.08,0.1037002604,0.6116222739
2.09,0.1440184218,0.6038546737
2.1,0.1830026676,0.5922442449
2.11,0.2201586904,0.5771003875
2.12,0.2550641529,0.5588099127
2.13,0.2873827867,0.5378207613
2.14,0.3168749378,0.5146227141
2.15,0.343403778,0.4897258207
2.16,0.3669365331,0.463637524
2.17,0.3875403019,0.4368396893
2.18,0.4053723614,0.4097669263
2.19,0.4206652498,0.3827876683
2.2,0.4337073552,0.3561894255
2.21,0.4448201743,0.3301694369
2.22,0.45433378,0.3048315964
2.23,0.4625623024,0.2801900677
2.24,0.4697813365,0.2561794406
2.25,0.4762091182,0.2326707011
2.26,0.4819930414,0.209491734
2.27,0.4872026529,0.186450628
2.28,0.4918296871,0.1633597589
2.29,0.4957950547,0.1400585303
2.3,0.498962045,0.1164327705
2.31,0.5011544174,0.09242911153
2.32,0.5021776091,0.06806317259
2.33,0.5018410212,0.04342098968
2.34,0.4999793001,0.01865379668
2.35,0.4964707008,-0.006033099714
2.36,0.4912509796,-0.0303960707
2.37,0.4843217787,-0.05417187997
2.38,0.4757530518,-0.07709751354
2.39,0.465679687,-0.09892929434
2.4,0.4542930235,-0.1194596616
2.41,0.4418283844,-0.1385303594
2.42,0.4285500129,-0.1560412431
2.43,0.4147348879,-0.1719544111
2.44,0.4006568109,-0.1862938412
2.45,0.386571935,-0.1991410994
2.46,0.3727065866,-0.2106279513
2.47,0.3592478672,-0.2209268345
2.48,0.3463371787,-0.2302401346
2.49,0.3340665269,-0.2387890849
2.5,0.3224772666,-0.2468029078
2.51,0.3115608668,-0.25450859
2.52,0.3012612914,-0.2621214729
2.53,0.2914786837,-0.2698366913
2.54,0.2820741834,-0.2778214166
2.55,0.272875835,-0.2862078813
2.56,0.263685646,-0.2950872486
2.57,0.2542878747,-0.304504525
2.58,0.2444585686,-0.3144548592
2.59,0.2339762285,-0.3248816757
2.6,0.2226332714,-0.3356771256
2.61,0.210247732,-0.3466852798
2.62,0.196674438,-0.3577083145
2.63,0.1818147464,-0.3685156846
2.64,0.1656238915,-0.3788559472
2.65,0.1481150848,-0.388470558
2.66,0.1293597296,-0.3971086488
2.67,0.109483456,-0.4045415683
2.68,0.08865810073,-0.4105758777
2.69,0.06709020652,-0.4150635466
2.7,0.04500702829,-0.4179083245
2.71,0.0226413591,-0.419067625
2.72,0.0002166662074,-0.4185497297
2.73,-0.02206596531,-0.4164066345
2.74,-0.04403776106,-0.4127233527
2.75,-0.06556807965,-0.4076048975
2.76,-0.08656561822,-0.4011624325
2.77,-0.1069750241,-0.3935001628
2.78,-0.1267694674,-0.3847044369
2.79,-0.14594019,-0.3748362439
2.8,-0.1644843766,-0.363927863
2.81,-0.1823928509,-0.351983917
2.82,-0.1996390724,-0.3389865518
2.83,-0.2161706941,-0.3249039905
2.84,-0.2319045862,-0.3097013515
2.85,-0.2467257801,-0.2933524133
2.86,-0.2604903015,-0.2758509785
2.87,-0.2730314193,-0.2572206328
2.88,-0.2841684852,-0.2375219762
2.89,-0.2937173231,-0.216856777
2.9,-0.3015010714,-0.1953689116
2.91,-0.3073604727,-0.1732423283
2.92,-0.3111628278,-0.1506965788
2.93,-0.3128091265,-0.1279806341
2.94,-0.3122391958,-0.1053657508
2.95,-0.3094349972,-0.08313806062
2.96,-0.3044224218,-0.06159137051
2.97,-0.2972720338,-0.04102040876
2.98,-0.2880991971,-0.02171449682
2.99,-0.2770638848,-0.003951417152
3,-0.2643702628,0.01200887519
3.01,-0.2502658884,0.02593105586
3.02,-0.2350401387,0.03761199406
3.03,-0.2190213167,0.04688910172
3.04,-0.2025718385,0.05364921118
3.05,-0.186080977,0.05783742135
3.06,-0.1699548546,0.05946509121
3.07,-0.1546036935,0.05861599028
3.08,-0.1404267225,0.05544958092
3.09,-0.1277955324,0.05020052763
3.1,-0.1170370206,0.04317380189
3.11,-0.1084172968,0.03473515177
3.12,-0.1021280028,0.02529718547
3.13,-0.09827640408,0.0153018161
3.14,-0.09688033047,0.005200263099
3.15,-0.09786862015,-0.004567859622
3.16,-0.1010871911,-0.0135946666
3.17,-0.1063102962,-0.02152165479
3.18,-0.1132559859,-0.02805342481
3.19,-0.1216043697,-0.03296639668
3.2,-0.1310169944,-0.03611196459
3.21,-0.1411555746,-0.03741411623
3.22,-0.1516984353,-0.03686211443
3.23,-0.1623533307,-0.03449933219
3.24,-0.1728657619,-0.0304096863
3.25,-0.1830224523,-0.02470328962
3.26,-0.1926502014,-0.01750292038
3.27,-0.2016108433,-0.008932698049
3.28,-0.2097934299,0.0008900075484
3.29,-0.2171049972,0.01185887292
3.3,-0.2234613329,0.02387906712
3.31,-0.2287790452,0.03686427072
3.32,-0.2329699648,0.0507310855
3.33,-0.2359385358,0.06539191939
3.34,-0.2375824197,0.08074754341
3.35,-0.2377961133,0.09668047331
3.36,-0.2364770143,0.1130501453
3.37,-0.2335331025,0.1296905679
3.38,-0.2288912645,0.1464107861
3.39,-0.2225052819,0.1629981418
3.4,-0.2143626109,0.1792239967
3.41,-0.2044892857,0.1948513471
3.42,-0.192952529,0.2096436139
3.43,-0.1798609233,0.2233738504
3.44,-0.1653622382,0.2358336659
3.45,-0.1496391933,0.2468412806
3.46,-0.1329035582,0.2562482921
3.47,-0.11538903,0.2639449004
3.48,-0.09734331289,0.2698634858
3.49,-0.07901975958,0.2739805366
3.5,-0.06066886098,0.2763169798
3.51,-0.04252979869,0.2769369711
3.52,-0.0248222397,0.2759451759
3.53,-0.00773855518,0.2734825356
3.54,0.008563309442,0.2697204876
3.55,0.02396601133,0.2648536216
3.56,0.03839764888,0.2590908129
3.57,0.05183481108,0.2526449928
3.58,0.0643033649,0.2457218718
3.59,0.07587655173,0.2385081226
3.6,0.08667008583,0.2311597072
3.61,0.09683414622,0.2237911837
3.62,0.1065424148,0.2164669023
3.63,0.1159786108,0.2091949897
3.64,0.1253212685,0.2019248988
3.65,0.134727763,0.1945490768
3.66,0.1443187685,0.1869089934
3.67,0.1541644048,0.1788053984
3.68,0.1642732761,0.1700122938
3.69,0.1745854258,0.1602937398
3.7,0.1849699371,0.1494223296
3.71,0.195227537,0.1371979786
3.72,0.2050981404,0.1234656187
3.73,0.2142728594,0.1081304693
3.74,0.222409634,0.09116975847
3.75,0.2291513644,0.07264007643
3.76,0.2341452568,0.05267991139
3.77,0.2370620572,0.03150731254
3.78,0.2376139275,0.009412994891
3.79,0.2355699045,-0.01325048501
3.8,0.230768141,-0.03608262605
3.81,0.223124423,-0.05865096707
3.82,0.2126367582,-0.08050814512
3.83,0.1993860953,-0.1012090712
3.84,0.18353345,-0.1203273898
3.85,0.1653138592,-0.1374705469
3.86,0.1450276709,-0.1522929597
3.87,0.123029699,-0.1645069346
3.88,0.09971676556,-0.1738911035
3.89,0.07551412078,-0.1802962377
3.9,0.05086120683,-0.1836483535
3.91,0.02619721819,-0.1839490647
3.92,0.001946924229,-0.1812731667
3.93,-0.02149275183,-0.175763491
3.94,-0.04376486654,-0.1676231435
3.95,-0.06456274569,-0.1571053513
3.96,-0.08363787787,-0.1445012879
3.97,-0.1008049142,-0.1301264079
3.98,-0.1159433906,-0.1143059828
3.99,-0.1289959658,-0.09736066657
4,-0.139963201,-0.07959299771
4.01,-0.148895172,-0.0612757536
4.02,-0.1558804786,-0.04264298771
4.03,-0.161033464,-0.02388440702
4.04,-0.1644806416,-0.005143490734
4.05,-0.1663474295,0.01348056229
4.06,-0.1667462837,0.03192730941
4.07,-0.1657672071,0.05016654155
4.08,-0.1634713848,0.06818761534
4.09,-0.1598884039,0.08598768345
4.1,-0.1550171615,0.1035599486
4.11,-0.148830217,0.1208830306
4.12,-0.1412810233,0.1379123878
4.13,-0.132313226,0.154574493
4.14,-0.1218710674,0.1707641606
4.15,-0.1099098952,0.1863450979
4.16,-0.0964058423,0.2011534429
4.17,-0.08136390738,0.2150037972
4.18,-0.06482389274,0.2276970844
4.19,-0.04686391187,0.2390294824
4.2,-0.0276014322,0.2488016897
4.21,-0.007192030642,0.2568278744
4.22,0.01417380842,0.262943801
4.23,0.03627544516,0.2670138023
4.24,0.05886797295,0.2689364282
4.25,0.08168888252,0.2686487339
4.26,0.1044652283,0.2661292517
4.27,0.126921119,0.2613997132
4.28,0.1487854298,0.2545255565
4.29,0.1697996683,0.2456151918
4.3,0.1897259064,0.2348179216
4.31,0.2083546179,0.2223203578
4.32,0.2255121487,0.2083411634
4.33,0.2410674181,0.1931239991
4.34,0.2549373304,0.1769286719
4.35,0.2670903089,0.1600206675
4.36,0.277547363,0.1426594667
4.37,0.2863801962,0.1250862857
4.38,0.2937060469,0.1075120818
4.39,0.2996792331,0.09010680973
4.4,0.3044796962,0.07299095231
4.41,0.3082991947,0.05623027182
4.42,0.3113261165,0.03983452003
4.43,0.3137301282,0.02376052646
4.44,0.3156480107,0.007919678671
4.45,0.3171720207,-0.007810635407
4.46,0.3183419505,-0.02357248497
4.47,0.319141751,-0.03951097857
4.48,0.3195011572,-0.05575744227
4.49,0.3193022628,-0.07241375809
4.5,0.3183904845,-0.08953934863
4.51,0.3165889004,-0.1071420489
4.52,0.3137145955,-0.1251737189
4.53,0.3095954407,-0.1435309648
4.54,0.3040857064,-0.1620608114
4.55,0.2970790538,-0.1805706619
4.56,0.2885177584,-0.1988414606
4.57,0.2783974432,-0.2166426768
4.58,0.2667670955,-0.2337476049
4.59,0.2537246371,-0.2499475131
4.6,0.2394087649,-0.2650633826
4.61,0.2239881171,-0.2789543164
4.62,0.2076490178,-0.2915221133
4.63,0.1905830917,-0.3027119517
4.64,0.1729759293,-0.3125095432
4.65,0.1549977415,-0.3209354519
4.66,0.136796614,-0.3280374964
4.67,0.11849461,-0.3338822347
4.68,0.1001866149,-0.3385464847
4.69,0.08194152923,-0.3421096694
4.7,0.06380521688,-0.3446475349
4.71,0.04580453095,-0.3462275088
4.72,0.02795176549,-0.3469056997
4.73,0.0102490011,-0.346725317
4.74,-0.007308003541,-0.3457161484
4.75,-0.02472651251,-0.3438946857
4.76,-0.04201404877,-0.3412645327
4.77,-0.05917596188,-0.3378168453
4.78,-0.07621305012,-0.3335307208
4.79,-0.09311897021,-0.328373625
4.8,-0.1098772571,-0.3223020976
4.81,-0.126457926,-0.3152630649
4.82,-0.1428138093,-0.3071961109
4.83,-0.158876959,-0.298036985
4.84,-0.1745555848,-0.2877224882
4.85,-0.18973207,-0.2761966791
4.86,-0.2042625992,-0.2634181242
4.87,-0.2179788293,-0.2493677054
4.88,-0.2306918621,-0.2340563368
4.89,-0.2421985388,-0.2175318533
4.9,-0.2522898216,-0.199884331
4.91,-0.2607607805,-0.1812492008
4.92,-0.2674215007,-0.1618076894
4.93,-0.2721081025,-0.1417843681
4.94,-0.2746930255,-0.1214418565
4.95,-0.2750937935,-0.1010729974
4.96,-0.2732796197,-0.08099104434
4.97,-0.2692754238,-0.061518562
4.98,-0.2631630811,-0.04297581661
4.99,-0.2550799712,-0.02566941807
5,-0.2452151151,-0.009881879357
5.01,-0.2338033516,0.00413739962
5.02,-0.2211180948,0.01617941112
5.03,-0.2074632278,0.02608096879
5.04,-0.1931646307,0.03372835
5.05,-0.1785617308,0.03905934351
5.06,-0.1639993245,0.04206396204
5.07,-0.1498197817,0.04278408335
5.08,-0.1363556299,0.04131223037
5.09,-0.1239224423,0.03778960924
5.1,-0.1128119434,0.03240341681
5.11,-0.1032852843,0.02538333114
5.12,-0.09556652706,0.01699703385
5.13,-0.08983649097,0.007544597664
5.14,-0.08622723316,-0.002648384926
5.15,-0.08481752835,-0.01323895879
5.16,-0.08562976692,-0.02387613549
5.17,-0.08862868183,-0.03421111871
5.18,-0.09372224218,-0.0439079901
5.19,-0.1007649157,-0.05265428886
5.2,-0.1095633203,-0.06017083926
5.21,-0.1198840754,-0.06622016908
5.22,-0.1314634563,-0.07061292443
5.23,-0.1440182724,-0.07321182003
5.24,-0.157257264,-0.07393285425
5.25,-0.1708922496,-0.07274374392
5.26,-0.1846482748,-0.06965976862
5.27,-0.1982721082,-0.06473743074
5.28,-0.2115385838,-0.0580665109
5.29,-0.224254496,-0.0497612105
5.3,-0.2362599727,-0.03995111312
5.31,-0.2474274747,-0.02877266421
5.32,-0.2576587553,-0.01636177127
5.33,-0.2668802634,-0.002847979979
5.34,-0.2750375548,0.01164949379
5.35,-0.2820893068,0.02702378061
5.36,-0.2880014976,0.04318049881
5.37,-0.2927422382,0.0600362408
5.38,-0.2962776377,0.07751573098
5.39,-0.2985689613,0.09554804618
5.4,-0.299571218,0.1140623156
5.41,-0.299233205,0.1329833095
5.42,-0.2974989375,0.1522272967
5.43,-0.2943103216,0.1716985053
5.44,-0.2896108643,0.1912864706
5.45,-0.2833501691,0.2108645036
5.46,-0.2754889283,0.2302894552
5.47,-0.2660040833,0.249402897
5.48,-0.2548937973,0.2680337729
5.49,-0.2421818563,0.2860024966
5.5,-0.2279211056,0.3031263782
5.51,-0.2121955387,0.3192261568
5.52,-0.1951206967,0.3341333018
5.53,-0.1768421171,0.3476976328
5.54,-0.1575316901,0.3597947174
5.55,-0.1373819359,0.3703324412
5.56,-0.1165984029,0.379256135
5.57,-0.09539057468,0.3865516881
5.58,-0.07396186022,0.3922461938
5.59,-0.0524993861,0.3964058396
5.6,-0.03116439894,0.3991309862
5.61,-0.0100841031,0.400548624
5.62,0.01065431043,0.4008026562
5.63,0.03100683934,0.4000426832
5.64,0.05097266764,0.3984121346
5.65,0.07059087696,0.3960366912
5.66,0.08993405626,0.3930139382
5.67,0.1090992758,0.3894050972
5.68,0.1281971276,0.3852295001
5.69,0.1473396968,0.3804622213
5.7,0.1666284013,0.3750349977
5.71,0.1861426094,0.3688402763
5.72,0.205929828,0.361737974
5.73,0.2259980618,0.3535643354
5.74,0.2463107085,0.344142162
5.75,0.2667841033,0.3332916598
5.76,0.2872876028,0.3208412142
5.77,0.3076459163,0.3066375288
5.78,0.3276432899,0.2905547371
5.79,0.347029116,0.2725022751
5.8,0.365524587,0.2524314645
5.81,0.3828301053,0.2303408653
5.82,0.3986332921,0.2062805055
5.83,0.412617554,0.1803550696
5.84,0.424471258,0.1527260466
5.85,0.4338975926,0.1236127129
5.86,0.4406251497,0.09329169319
5.87,0.4444191481,0.06209473389
5.88,0.4450930415,0.03040426761
5.89,0.4425200511,-0.001353624503
5.9,0.4366439552,-0.03271912959
5.91,0.4274883058,-0.06321156815
5.92,0.4151631579,-0.09234499841
5.93,0.3998684126,-0.1196460332
5.94,0.3818930118,-0.1446730266
5.95,0.3616094734,-0.1670355181
5.96,0.3394636017,-0.1864126412
5.97,0.3159596136,-0.2025691439
5.98,0.2916413404,-0.2153677477
5.99,0.2670705516,-0.2247767947
6,0.242803744,-0.2308724677
