"Freq [GHz]","re(S(Tx_p1,Tx_p1)) []","im(S(Tx_p1,Tx_p1)) []"
1,0.2004426419,-0.2886510332
1.01,0.1893235717,-0.2976069633
1.02,0.1777688445,-0.3055426962
1.03,0.1659812855,-0.3124848002
1.04,0.1541441808,-0.3185036894
1.05,0.1424128352,-0.3237087681
1.06,0.1309061908,-0.3282422639
1.07,0.1196986997,-0.3322709608
1.08,0.1088132641,-0.3359751509
1.09,0.09821658043,-0.3395345779
1.1,0.08781846655,-0.3431118866
1.11,0.07747658759,-0.3468349508
1.12,0.06700736571,-0.3507802093
1.13,0.05620285642,-0.3549595406
1.14,0.044852207,-0.3593130845
1.15,0.03276527451,-0.3637097289
1.16,0.01979534718,-0.3679558421
1.17,0.005857855235,-0.3718114991
1.18,-0.009057499591,-0.3750122139
1.19,-0.02488273772,-0.3772933138
1.2,-0.04147596081,-0.3784137403
1.21,-0.05863300718,-0.3781763085
1.22,-0.07610427029,-0.3764422299
1.23,-0.09361394415,-0.373138854
1.24,-0.1108789403,-0.3682608564
1.25,-0.1276252808,-0.3618662031
1.26,-0.1436007579,-0.3540688987
1.27,-0.158583793,-0.3450306251
1.28,-0.172389423,-0.3349529029
1.29,-0.1848739195,-0.3240705287
1.3,-0.1959395807,-0.3126460172
1.31,-0.2055407344,-0.300963907
1.32,-0.2136911071,-0.2893232984
1.33,-0.2204716762,-0.2780270221
1.34,-0.2260371924,-0.2673664018
1.35,-0.2306189892,-0.257601576
1.36,-0.2345216517,-0.2489385753
1.37,-0.2381116984,-0.2415055455
1.38,-0.2417975431,-0.2353313538
1.39,-0.2460014674,-0.2303300883
1.4,-0.2511258128,-0.2262945406
1.41,-0.2575167819,-0.2229007186
1.42,-0.2654298616,-0.2197239738
1.43,-0.2750008363,-0.2162657608
1.44,-0.2862256936,-0.2119886622
1.45,-0.2989516095,-0.2063563462
1.46,-0.3128798554,-0.1988746916
1.47,-0.3275801469,-0.1891304239
1.48,-0.3425148488,-0.1768241756
1.49,-0.3570707266,-0.1617957533
1.5,-0.3705956395,-0.144040362
1.51,-0.3824376736,-0.1237153942
1.52,-0.3919845757,-0.1011379811
1.53,-0.3987017614,-0.07677377015
1.54,-0.4021674484,-0.05121741139
1.55,-0.4021034932,-0.02516516724
1.56,-0.3984003094,0.0006198812626
1.57,-0.3911339448,0.02534923473
1.58,-0.3805732044,0.04825554509
1.59,-0.3671748177,0.06864204331
1.6,-0.3515651933,0.08593157998
1.61,-0.3345083087,0.09971126237
1.62,-0.3168606788,0.1097682852
1.63,-0.2995159455,0.1161127281
1.64,-0.2833431982,0.1189839234
1.65,-0.2691243633,0.1188384643
1.66,-0.2574966378,0.1163198633
1.67,-0.2489057816,0.1122120123
1.68,-0.2435750923,0.107380577
1.69,-0.241493182,0.1027079472
1.7,-0.2424215309,0.09902809054
1.71,-0.2459205479,0.0970675291
1.72,-0.2513908883,0.09739771682
1.73,-0.258125333,0.1004025446
1.74,-0.265365801,0.1062628114
1.75,-0.2723600697,0.1149575893
1.76,-0.2784134347,0.1262807521
1.77,-0.2829316471,0.1398697423
1.78,-0.28545278,0.1552429981
1.79,-0.2856669515,0.1718423391
1.8,-0.2834238901,0.1890768571
1.81,-0.2787290889,0.2063653304
1.82,-0.2717297876,0.2231746739
1.83,-0.2626923415,0.2390523903
1.84,-0.2519727893,0.2536513496
1.85,-0.2399827051,0.2667455768
1.86,-0.2271527179,0.2782361237
1.87,-0.2138963767,0.2881466437
1.88,-0.2005772366,0.2966089849
1.89,-0.1874820385,0.3038399846
1.9,-0.1748025456,0.3101115921
1.91,-0.1626279084,0.3157173502
1.92,-0.150948345,0.3209389372
1.93,-0.1396695325,0.3260167094
1.94,-0.1286356124,0.3311278473
1.95,-0.1176573817,0.3363747231
1.96,-0.1065413938,0.3417846009
1.97,-0.09511552637,0.3473199739
1.98,-0.08324720266,0.3528970886
1.99,-0.07085177562,0.3584088515
2,-0.05789037746,0.3637476243
2.01,-0.04435846523,0.3688235444
2.02,-0.030267996,0.3735749334
2.03,-0.01562732812,0.3779689133
2.04,-0.0004233478154,0.3819922559
2.05,0.01539011553,0.3856343875
2.06,0.03189471713,0.38886601
2.07,0.04919972477,0.3916176769
2.08,0.06742462324,0.3937627332
2.09,0.08667471417,0.3951082867
2.1,0.1070134745,0.3953965049
2.11,0.1284359784,0.3943168111
2.12,0.1508474781,0.3915278248
2.13,0.1740503787,0.3866864651
2.14,0.1977415489,0.3794807206
2.15,0.2215204483,0.3696622962
2.16,0.2449072011,0.3570756262
2.17,0.2673687099,0.3416804666
2.18,0.2883502989,0.323566236
2.19,0.3073102116,0.3029572374
2.2,0.3237544507,0.280208693
2.21,0.3372697913,0.2557940689
2.22,0.3475531415,0.2302844632
2.23,0.3544356605,0.2043209906
2.24,0.3579001429,0.1785812457
2.25,0.3580901989,0.1537411852
2.26,0.3553098279,0.1304341987
2.27,0.3500122302,0.1092097002
2.28,0.3427772403,0.09049417184
2.29,0.3342776353,0.07455805754
2.3,0.3252357306,0.06149206266
2.31,0.3163729784,0.05119611113
2.32,0.3083565312,0.04338335556
2.33,0.3017476575,0.03760025423
2.34,0.2969572627,0.03326196559
2.35,0.2942134317,0.02970042404
2.36,0.2935448237,0.02622076671
2.37,0.2947820597,0.02216058388
2.38,0.2975771888,0.01694598831
2.39,0.3014392237,0.01013882579
2.4,0.3057819311,0.001470424431
2.41,0.3099787969,-0.00914108419
2.42,0.313419527,-0.02159090686
2.43,0.3155626158,-0.03560429738
2.44,0.3159793366,-0.05076727851
2.45,0.3143857905,-0.0665676459
2.46,0.3106611559,-0.08244192868
2.47,0.3048517538,-0.09782396114
2.48,0.2971617819,-0.1121911572
2.49,0.2879324585,-0.1251052945
2.5,0.2776118406,-0.136245418
2.51,0.2667178183,-0.1454312108
2.52,0.2557968644,-0.1526357974
2.53,0.2453811389,-0.157987437
2.54,0.2359465966,-0.1617600214
2.55,0.2278748005,-0.1643527933
2.56,0.2214211564,-0.1662603101
2.57,0.2166921495,-0.1680344111
2.58,0.2136337697,-0.1702407435
2.59,0.212032608,-0.1734131422
2.6,0.2115300781,-0.1780096868
2.61,0.211648949,-0.1843744196
2.62,0.2118300361,-0.1927083791
2.63,0.2114756948,-0.2030527614
2.64,0.2099959256,-0.2152857369
2.65,0.2068525977,-0.229132898
2.66,0.2015976216,-0.2441897429
2.67,0.1939018059,-0.259953273
2.68,0.183572471,-0.2758589276
2.69,0.1705594276,-0.2913188267
2.7,0.1549503748,-0.3057576739
2.71,0.1369578912,-0.3186435684
2.72,0.1169007812,-0.3295121886
2.73,0.09518254529,-0.3379840656
2.74,0.07226921997,-0.343775698
2.75,0.04866797227,-0.3467058595
2.76,0.02490688386,-0.3466985358
2.77,0.001515587657,-0.3437835334
2.78,-0.02099397362,-0.3380951046
2.79,-0.04214732335,-0.32986817
2.8,-0.06152791265,-0.3194311265
2.81,-0.07879763813,-0.3071940198
2.82,-0.09371595159,-0.2936311089
2.83,-0.1061554487,-0.2792575394
2.84,-0.1161115616,-0.2646008447
2.85,-0.1237042225,-0.2501690804
2.86,-0.1291701128,-0.2364183342
2.87,-0.1328452576,-0.2237228987
2.88,-0.1351390527,-0.2123514077
2.89,-0.1365020575,-0.2024516635
2.9,-0.1373907946,-0.1940458266
2.91,-0.1382331854,-0.1870362989
2.92,-0.139398045,-0.1812212618
2.93,-0.1411713273,-0.1763177102
2.94,-0.1437407284,-0.1719891349
2.95,-0.1471890572,-0.1678748413
2.96,-0.1514957136,-0.1636182263
2.97,-0.1565448615,-0.1588920172
2.98,-0.1621385521,-0.1534193255
2.99,-0.1680131301,-0.1469901513
3,-0.1738576353,-0.1394735342
3.01,-0.179333432,-0.1308257672
3.02,-0.1840947558,-0.1210949891
3.03,-0.1878101131,-0.1104221292
3.04,-0.1901844021,-0.0990377687
3.05,-0.1909812664,-0.08725417925
3.06,-0.1900446346,-0.07545176605
3.07,-0.1873178202,-0.06405944723
3.08,-0.1828581314,-0.05352914004
3.09,-0.1768448406,-0.0443053804
3.1,-0.1695786685,-0.03679200636
3.11,-0.1614716439,-0.03131858613
3.12,-0.1530272118,-0.02810969286
3.13,-0.144811596,-0.02726010996
3.14,-0.137418488,-0.02871857419
3.15,-0.1314299234,-0.03228180628
3.16,-0.1273766044,-0.03759949618
3.17,-0.1257008741,-0.04418979727
3.18,-0.1267251046,-0.05146392696
3.19,-0.1306275464,-0.0587578061
3.2,-0.1374268668,-0.06536835128
3.21,-0.1469758405,-0.07059203648
3.22,-0.158964057,-0.07376356764
3.23,-0.1729291319,-0.07429283996
3.24,-0.1882757187,-0.07169864947
3.25,-0.2043015473,-0.0656378238
3.26,-0.2202296422,-0.05592849928
3.27,-0.2352457123,-0.04256624489
3.28,-0.2485393822,-0.02573171484
3.29,-0.2593474675,-0.005788619466
3.3,-0.2669969622,0.01672885376
3.31,-0.2709449268,0.04113940945
3.32,-0.2708122218,0.06664815492
3.33,-0.2664081296,0.09238856202
3.34,-0.2577434425,0.1174701685
3.35,-0.245030535,0.1410285039
3.36,-0.2286701645,0.1622733096
3.37,-0.2092260889,0.1805312072
3.38,-0.1873898076,0.1952795552
3.39,-0.1639386431,0.2061692411
3.4,-0.1396908255,0.213035409
3.41,-0.1154611748,0.2158964016
3.42,-0.09202044064,0.2149422913
3.43,-0.07006050417,0.2105151107
3.44,-0.05016665699,0.2030831879
3.45,-0.03279727042,0.193211863
3.46,-0.0182705206,0.1815324169
3.47,-0.006757537573,0.1687104666
3.48,0.001718606562,0.1554145573
3.49,0.007278366067,0.142285389
3.5,0.0101755797,0.1299061208
3.51,0.01078140291,0.1187745044
3.52,0.00956201935,0.1092780872
3.53,0.007050205384,0.1016742236
3.54,0.003811517024,0.0960769453
3.55,0.0004067687343,0.09245269394
3.56,-0.002646615144,0.09062642876
3.57,-0.004911097579,0.09029869601
3.58,-0.006059809169,0.09107301315
3.59,-0.005898295077,0.09249158152
3.6,-0.004374713449,0.09407614788
3.61,-0.001577224294,0.09537002189
3.62,0.002281182546,0.09597699163
3.63,0.006888660318,0.09559322715
3.64,0.01186826239,0.09402916879
3.65,0.0168156697,0.09121970264
3.66,0.02133685149,0.08722240017
3.67,0.02508197444,0.08220499209
3.68,0.02777269791,0.07642433607
3.69,0.02922110167,0.07019977757
3.7,0.02933966389,0.06388394333
3.71,0.02814273088,0.05783370283
3.72,0.02574063955,0.05238342228
3.73,0.0223280021,0.04782190259
3.74,0.01816766467,0.04437372129
3.75,0.01357161586,0.04218522586
3.76,0.008879799022,0.04131521296
3.77,0.004437526074,0.04173034953
3.78,0.0005721104978,0.04330554833
3.79,-0.002430528508,0.04582966762
3.8,-0.004348229456,0.04901692732
3.81,-0.005042479085,0.05252423144
3.82,-0.004474078833,0.05597413431
3.83,-0.002712729534,0.05898253659
3.84,6.113041816E-05,0.06118946117
3.85,0.003563375659,0.06229058932
3.86,0.007422469157,0.06206678614
3.87,0.01120432205,0.0604087278
3.88,0.01444410891,0.05733401533
3.89,0.0166825734,0.05299479489
3.9,0.01750381295,0.04767481016
3.91,0.01657135287,0.04177584175
3.92,0.01365951622,0.03579448617
3.93,0.008677604053,0.03029105226
3.94,0.001685111368,0.02585291898
3.95,-0.0071030094,0.02305497409
3.96,-0.01732127802,0.02241977072
3.97,-0.02846841791,0.02437986595
3.98,-0.03993100994,0.02924453183
3.99,-0.05101482564,0.03717272656
4,-0.06098230848,0.0481539263
4.01,-0.06909440094,0.06199814402
4.02,-0.07465462414,0.07833616046
4.03,-0.0770530064,0.09663060363
4.04,-0.07580717532,0.1161979822
4.05,-0.07059775845,0.1362410823
4.06,-0.06129527827,0.1558903091
4.07,-0.04797606001,0.1742516748
4.08,-0.03092533199,0.1904583368
4.09,-0.01062666242,0.2037220085
4.1,0.01226194971,0.2133803348
4.11,0.03694377361,0.2189365207
4.12,0.06252815398,0.2200881368
4.13,0.08808090223,0.2167430317
4.14,0.1126763193,0.2090215295
4.15,0.1354469461,0.1972453837
4.16,0.1556276376,0.1819151126
4.17,0.1725914025,0.1636781901
4.18,0.1858754725,0.143291006
4.19,0.1951970844,0.1215775422
4.2,0.2004592986,0.09938739146
4.21,0.2017477466,0.07755522521
4.22,0.1993194622,0.05686324093
4.23,0.1935849549,0.0380076317
4.24,0.1850845416,0.02156982009
4.25,0.1744597851,0.007993103238
4.26,0.1624208309,-0.002434573133
4.27,0.1497105483,-0.009590859811
4.28,0.1370667059,-0.01352134788
4.29,0.125183864,-0.01443321116
4.3,0.1146771482,-0.01267973667
4.31,0.1060504124,-0.008735999071
4.32,0.09967136809,-0.003166806442
4.33,0.09575594599,0.003411023288
4.34,0.09436345357,0.01036918541
4.35,0.09540306237,0.01710782955
4.36,0.09865095823,0.02309145452
4.37,0.1037763087,0.02787768818
4.38,0.1103732494,0.03113671306
4.39,0.1179955274,0.03266023434
4.4,0.1261903591,0.0323601389
4.41,0.13452846,0.0302581546
4.42,0.1426280002,0.02646869934
4.43,0.1501712683,0.02117758114
4.44,0.1569138906,0.01461923038
4.45,0.1626873656,0.007054759001
4.46,0.1673962881,-0.001247526745
4.47,0.1710118778,-0.01002831626
4.48,0.1735633163,-0.01905006365
4.49,0.1751280155,-0.02810672764
4.5,0.1758214284,-0.0370311018
4.51,0.1757865342,-0.04570028838
4.52,0.1751828073,-0.05403957652
4.53,0.1741744099,-0.06202458751
4.54,0.1729175285,-0.06968119077
4.55,0.1715471621,-0.07708250279
4.56,0.1701641291,-0.08434233775
4.57,0.1688234696,-0.09160479382
4.58,0.16752564,-0.09903017297
4.59,0.1662118629,-0.106778033
4.6,0.1647646821,-0.1149887257
4.61,0.1630142428,-0.1237651643
4.62,0.1607501549,-0.1331567132
4.63,0.1577381283,-0.1431469662
4.64,0.1537399954,-0.1536468161
4.65,0.1485353447,-0.1644936729
4.66,0.1419428304,-0.1754570563
4.67,0.133839289,-0.1862501686
4.68,0.1241750577,-0.1965465238
4.69,0.1129842865,-0.2060003285
4.7,0.1003894822,-0.2142690935
4.71,0.08659996691,-0.2210368876
4.72,0.07190432181,-0.2260366806
4.73,0.05665722003,-0.2290703234
4.74,0.04126134284,-0.2300248405
4.75,0.02614534901,-0.2288838625
4.76,0.0117391456,-0.2257332272
4.77,-0.001552016008,-0.22076005
4.78,-0.01337285644,-0.2142449491
4.79,-0.02344089051,-0.2065476102
4.8,-0.03156486119,-0.1980864534
4.81,-0.03765711363,-0.1893137838
4.82,-0.04173869059,-0.1806883459
4.83,-0.04393659364,-0.1726475897
4.84,-0.04447345679,-0.1655820816
4.85,-0.0436507121,-0.1598143099
4.86,-0.04182705618,-0.1555836383
4.87,-0.03939452539,-0.1530384061
4.88,-0.03675466082,-0.1522352761
4.89,-0.03429705238,-0.1531450314
4.9,-0.03238202533,-0.1556632812
4.91,-0.03132846329,-0.1596240692
4.92,-0.03140689104,-0.1648142733
4.93,-0.03283712674,-0.1709869354
4.94,-0.03578920306,-0.1778722182
4.95,-0.04038595613,-0.1851854154
4.96,-0.04670572766,-0.1926321998
4.97,-0.05478398807,-0.1999119231
4.98,-0.06461326668,-0.2067201585
4.99,-0.07614143048,-0.2127517487
5,-0.08926893839,-0.2177053931
5.01,-0.1038460935,-0.2212903589
5.02,-0.1196714539,-0.2232353488
5.03,-0.1364924398,-0.2232990286
5.04,-0.1540088441,-0.2212813271
5.05,-0.1718795125,-0.2170344292
5.06,-0.1897320086,-0.2104724109
5.07,-0.2071747289,-0.2015786723
5.08,-0.2238107359,-0.190410629
5.09,-0.2392525545,-0.1771014406
5.1,-0.2531372907,-0.1618587804
5.11,-0.2651416098,-0.1449607473
5.12,-0.2749962499,-0.1267489707
5.13,-0.2824997727,-0.1076188233
5.14,-0.2875311217,-0.08800651923
5.15,-0.2900602833,-0.06837284878
5.16,-0.2901560115,-0.04918345909
5.17,-0.2879892864,-0.03088598158
5.18,-0.2838310687,-0.01388488766
5.19,-0.2780430819,0.001484358867
5.2,-0.2710608541,0.01497963593
5.21,-0.2633690668,0.02647231458
5.22,-0.2554702918,0.03596044585
5.23,-0.2478493027,0.04357252492
5.24,-0.2409361189,0.04956015758
5.25,-0.2350715968,0.05427913343
5.26,-0.2304795543,0.05815983809
5.27,-0.2272490181,0.0616694038
5.28,-0.2253292207,0.06526926764
5.29,-0.2245385632,0.06937266106
5.3,-0.2245870764,0.07430683419
5.31,-0.2251102061,0.08028445348
5.32,-0.2257102731,0.08738763326
5.33,-0.2260009151,0.09556659951
5.34,-0.2256493772,0.1046532365
5.35,-0.2244117154,0.1143879732
5.36,-0.2221568027,0.1244568646
5.37,-0.2188763381,0.1345345138
5.38,-0.214679696,0.1443278045
5.39,-0.2097741996,0.1536153312
5.4,-0.2044330504,0.1622779127
5.41,-0.1989545234,0.1703165729
5.42,-0.1936170047,0.1778557467
5.43,-0.1886349185,0.185131055
5.44,-0.1841205414,0.1924626393
5.45,-0.1800561456,0.200216574
5.46,-0.1762799211,0.2087581617
5.47,-0.1724877904,0.2184018319
5.48,-0.1682516771,0.2293628439
5.49,-0.1630531519,0.2417159834
5.5,-0.1563298029,0.2553659411
5.51,-0.1475302908,0.2700330975
5.52,-0.1361730004,0.2852570742
5.53,-0.1219025874,0.3004187489
5.54,-0.1045386534,0.3147796137
5.55,-0.0841112879,0.3275355542
5.56,-0.06087930453,0.3378805345
5.57,-0.03532857146,0.3450744796
5.58,-0.008149749997,0.3485090142
5.59,0.01980319058,0.3477647355
5.6,0.04757035778,0.3426543991
5.61,0.07415426244,0.3332477021
5.62,0.09859301113,0.3198751284
5.63,0.1200318148,0.3031103561
5.64,0.1377864819,0.283732797
5.65,0.1513934323,0.2626736907
5.66,0.1606421695,0.2409506245
5.67,0.1655878921,0.2195962363
5.68,0.1665438089,0.1995871316
5.69,0.1640545109,0.1817787135
5.7,0.1588532869,0.1668507889
5.71,0.1518073987,0.1552676114
5.72,0.1438560074,0.1472546162
5.73,0.1359456628,0.1427926608
5.74,0.1289680827,0.1416292354
5.75,0.1237044393,0.1433049386
5.76,0.1207796345,0.1471925875
5.77,0.1206291535,0.1525456526
5.78,0.1234801206,0.1585522789
5.79,0.1293471724,0.1643909645
5.8,0.1380427574,0.1692839975
5.81,0.1492004976,0.1725450238
5.82,0.1623093441,0.1736176122
5.83,0.1767554961,0.1721024179
5.84,0.1918684931,0.1677714927
5.85,0.2069676146,0.1605693943
5.86,0.2214048002,0.1506019295
5.87,0.2346007608,0.1381144924
5.88,0.2460717771,0.1234629062
5.89,0.2554458054,0.1070802968
5.9,0.2624678025,0.08944372083
5.91,0.266995475,0.07104398511
5.92,0.2689877661,0.05236134314
5.93,0.268489139,0.03384863685
5.94,0.265612976,0.01592212571
5.95,0.2605271277,-0.001041075318
5.96,0.2534438589,-0.01670112686
5.97,0.2446152704,-0.03075202983
5.98,0.2343339254,-0.04291963872
5.99,0.2229371058,-0.05296371831
6,0.2108121024,-0.0606857113
