"Freq [GHz]","re(S(Tx_p1,Tx_p1)) []","im(S(Tx_p1,Tx_p1)) []"
1,0.3591879315,-0.3129347842
1.01,0.3489988275,-0.3348365934
1.02,0.3370065996,-0.3563075847
1.03,0.3232149618,-0.3771682341
1.04,0.3076494234,-0.3972270406
1.05,0.2903624187,-0.4162838728
1.06,0.2714378225,-0.4341349689
1.07,0.2509943668,-0.4505794737
1.08,0.2291874886,-0.4654272572
1.09,0.2062092013,-0.4785076213
1.1,0.1822856771,-0.4896783724
1.11,0.1576723716,-0.4988346384
1.12,0.132646691,-0.5059167431
1.13,0.1074984014,-0.5109164365
1.14,0.08251818108,-0.5138808245
1.15,0.05798491309,-0.514913443
1.16,0.03415248091,-0.5141720851
1.17,0.01123694948,-0.5118632051
1.18,-0.01059492685,-0.5082329702
1.19,-0.03123494406,-0.5035553021
1.2,-0.05063960502,-0.4981175133
1.21,-0.06883253334,-0.4922043815
1.22,-0.08590272588,-0.4860816874
1.23,-0.1019985177,-0.4799803598
1.24,-0.1173174586,-0.4740823973
1.25,-0.1320926292,-0.4685096724
1.26,-0.1465762336,-0.4633165596
1.27,-0.1610215605,-0.4584870854
1.28,-0.1756645894,-0.4539369758
1.29,-0.1907066072,-0.4495206115
1.3,-0.2062991779,-0.4450425125
1.31,-0.2225326821,-0.440272599
1.32,-0.2394294048,-0.4349641417
1.33,-0.256941819,-0.4288730558
1.34,-0.2749563198,-0.4217770352
1.35,-0.2933022201,-0.4134929792
1.36,-0.3117653837,-0.4038912517
1.37,-0.3301054571,-0.392905525
1.38,-0.3480753267,-0.3805372887
1.39,-0.3654411895,-0.3668545243
1.4,-0.3820015153,-0.3519845291
1.41,-0.3976032178,-0.3361013779
1.42,-0.4121535305,-0.3194089916
1.43,-0.4256264101,-0.3021212051
1.44,-0.4380627271,-0.284440536
1.45,-0.4495640269,-0.2665375355
1.46,-0.4602802065,-0.2485326146
1.47,-0.4703920061,-0.230482089
1.48,-0.4800897031,-0.2123698722
1.49,-0.489549787,-0.1941057926
1.5,-0.4989116254,-0.1755309576
1.51,-0.5082562002,-0.1564299809
1.52,-0.5175888735,-0.1365492782
1.53,-0.5268278448,-0.1156200894
1.54,-0.5357995114,-0.09338443909
1.55,-0.5442413798,-0.06962195734
1.56,-0.5518125429,-0.04417537027
1.57,-0.5581111063,-0.01697255025
1.58,-0.5626973577,0.0119567203
1.59,-0.5651209992,0.04247069237
1.6,-0.564950428,0.07431317656
1.61,-0.5618019013,0.1071189138
1.62,-0.5553664534,0.1404264272
1.63,-0.5454326515,0.1736974117
1.64,-0.5319036438,0.2063412366
1.65,-0.5148074465,0.2377427921
1.66,-0.4942999654,0.267291731
1.67,-0.4706608197,0.2944111489
1.68,-0.4442825644,0.3185839036
1.69,-0.415654347,0.3393750712
1.7,-0.3853413615,0.3564494371
1.71,-0.3539616378,0.3695833771
1.72,-0.3221617371,0.3786709584
1.73,-0.2905928171,0.3837245184
1.74,-0.2598883062,0.3848703458
1.75,-0.2306441194,0.3823403407
1.76,-0.2034020035,0.376460672
1.77,-0.1786362453,0.3676384667
1.78,-0.156743668,0.356347473
1.79,-0.1380365968,0.3431134626
1.8,-0.12273832,0.3284999031
1.81,-0.1109805249,0.3130941776
1.82,-0.1028022257,0.297494397
1.83,-0.09814983379,0.2822966597
1.84,-0.09687819918,0.2680825068
1.85,-0.09875266364,0.2554062957
1.86,-0.103452362,0.2447822874
1.87,-0.1105751626,0.2366713943
1.88,-0.1196447191,0.2314677484
1.89,-0.1301200918,0.2294854948
1.9,-0.1414082859,0.2309464527
1.91,-0.1528798436,0.2359694817
1.92,-0.1638873386,0.244562507
1.93,-0.1737862897,0.2566181708
1.94,-0.1819576616,0.271913966
1.95,-0.1878308156,0.2901174773
1.96,-0.1909055364,0.3107970129
1.97,-0.1907716426,0.3334374883
1.98,-0.1871247143,0.3574609588
1.99,-0.1797766418,0.3822507424
2,-0.1686600248,0.4071776812
2.01,-0.1538259034,0.4316267973
2.02,-0.1354348317,0.4550224661
2.03,-0.113741883,0.4768502614
2.04,-0.08907672016,0.4966738472
2.05,-0.06182033324,0.5141456765
2.06,-0.0323803767,0.5290107855
2.07,-0.00116719395,0.5411035867
2.08,0.03142743015,0.5503382089
2.09,0.06504699636,0.5566935409
2.1,0.099381138,0.5601946454
2.11,0.1341698042,0.5608925554
2.12,0.1692006607,0.5588446261
2.13,0.2043002731,0.5540975475
2.14,0.2393202756,0.5466748523
2.15,0.2741202461,0.536570286
2.16,0.3085493622,0.5237478001
2.17,0.3424290543,0.5081482433
2.18,0.3755387949,0.489702119
2.19,0.4076068671,0.4683471361
2.2,0.4383074772,0.4440487595
2.21,0.4672649533,0.4168216157
2.22,0.4940650777,0.386749474
2.23,0.5182728931,0.354001601
2.24,0.5394556783,0.3188435832
2.25,0.5572092613,0.2816411843
2.26,0.5711854816,0.2428564173
2.27,0.5811184596,0.2030356945
2.28,0.5868473858,0.1627906233
2.29,0.5883338033,0.1227726564
2.3,0.5856717971,0.08364334846
2.31,0.5790900742,0.04604234845
2.32,0.5689455725,0.010555456
2.33,0.5557089115,-0.0223149349
2.34,0.5399426381,-0.0521748776
2.35,0.5222737633,-0.07875764059
2.36,0.5033625029,-0.1019349451
2.37,0.4838693764,-0.1217200064
2.38,0.4644228859,-0.1382623367
2.39,0.445589884,-0.151834873
2.4,0.4278504624,-0.1628145297
2.41,0.411578785,-0.171657696
2.42,0.3970307967,-0.1788724851
2.43,0.384339192,-0.184989663
2.44,0.3735154972,-0.1905341536
2.45,0.3644586304,-0.1959988347
2.46,0.3569689094,-0.2018220448
2.47,0.3507661918,-0.2083698327
2.48,0.3455106828,-0.2159235598
2.49,0.3408249234,-0.2246730344
2.5,0.3363155701,-0.2347149654
2.51,0.3315937712,-0.2460561991
2.52,0.3262932081,-0.2586209687
2.53,0.3200851585,-0.2722612481
2.54,0.3126902369,-0.2867692644
2.55,0.3038867244,-0.3018912667
2.56,0.2935156128,-0.317341757
2.57,0.2814826343,-0.3328175354
2.58,0.2677576275,-0.3480110685
2.59,0.2523716134,-0.3626228358
2.6,0.2354119318,-0.3763724235
2.61,0.2170157456,-0.3890082113
2.62,0.1973621666,-0.4003155311
2.63,0.1766632249,-0.4101231783
2.64,0.1551538942,-0.4183081348
2.65,0.1330814094,-0.424798339
2.66,0.1106941729,-0.4295733284
2.67,0.08823062051,-0.4326625992
2.68,0.06590850732,-0.4341415867
2.69,0.04391514488,-0.4341252713
2.7,0.02239916885,-0.4327595539
2.71,0.001464413511,-0.4302107111
2.72,-0.01883358539,-0.4266534131
2.73,-0.03848805423,-0.422257952
2.74,-0.05753817587,-0.417177456
2.75,-0.07606299265,-0.4115359471
2.76,-0.09417223433,-0.4054181086
2.77,-0.1119945296,-0.3988615778
2.78,-0.1296636829,-0.3918524437
2.79,-0.1473038812,-0.3843244417
2.8,-0.1650148187,-0.3761620944
2.81,-0.1828577818,-0.3672077765
2.82,-0.2008437119,-0.3572724047
2.83,-0.2189241657,-0.3461491861
2.84,-0.2369859237,-0.3336296326
2.85,-0.254849775,-0.3195208677
2.86,-0.272273743,-0.3036631407
2.87,-0.2889607344,-0.2859464201
2.88,-0.3045703067,-0.266324974
2.89,-0.3187339871,-0.244828942
2.9,-0.3310733383,-0.2215720775
2.91,-0.341219788,-0.1967550492
2.92,-0.3488351125,-0.1706639551
2.93,-0.3536314077,-0.1436639736
2.94,-0.3553893942,-0.1161883663
2.95,-0.3539739829,-0.088723315
2.96,-0.3493461718,-0.06178932202
2.97,-0.3415705433,-0.03592010483
2.98,-0.3308178735,-0.01164006309
2.99,-0.3173626317,0.0105585184
3,-0.3015754328,0.03023735057
3.01,-0.2839107752,0.04703197564
3.02,-0.2648906525,0.06066854307
3.03,-0.2450848397,0.0709766826
3.04,-0.2250888201,0.07789784521
3.05,-0.2055004259,0.08148872685
3.06,-0.1868963099,0.08191964664
3.07,-0.1698093493,0.07946800574
3.08,-0.1547080066,0.0745071905
3.09,-0.1419785545,0.06749149121
3.1,-0.1319109019,0.05893777689
3.11,-0.1246885771,0.04940479111
3.12,-0.1203832142,0.03947101158
3.13,-0.1189536819,0.0297120474
3.14,-0.1202497904,0.02067853602
3.15,-0.1240203194,0.01287545006
3.16,-0.1299249417,0.006743638867
3.17,-0.1375494632,0.00264431532
3.18,-0.1464236845,0.0008470597943
3.19,-0.1560410922,0.001521757083
3.2,-0.1658795326,0.004734711494
3.21,-0.1754219919,0.01044900744
3.22,-0.1841766212,0.01852900295
3.23,-0.191695188,0.02874866881
3.24,-0.1975892225,0.04080332443
3.25,-0.2015432425,0.05432418078
3.26,-0.2033245848,0.06889498894
3.27,-0.2027895401,0.08407001669
3.28,-0.1998856652,0.09939254009
3.29,-0.1946503281,0.1144130439
3.3,-0.1872057119,0.1287063737
3.31,-0.1777506562,0.141887169
3.32,-0.1665498339,0.1536230227
3.33,-0.1539208543,0.1636449512
3.34,-0.1402199265,0.1717549038
3.35,-0.125826738,0.1778301926
3.36,-0.1111291759,0.1818248545
3.37,-0.09650847727,0.1837680849
3.38,-0.08232532275,0.1837599738
3.39,-0.06890731402,0.1819648578
3.4,-0.05653818879,0.1786026495
3.41,-0.04544904657,0.1739385432
3.42,-0.03581177921,0.168271516
3.43,-0.02773482697,0.1619220496
3.44,-0.02126131175,0.1552195005
3.45,-0.01636953321,0.1484895416
3.46,-0.01297574839,0.1420420858
3.47,-0.01093909022,0.1361600845
3.48,-0.01006841493,0.1310895654
3.49,-0.01013080498,0.127031235
3.5,-0.01086139519,0.1241339174
3.51,-0.01197414054,0.1224900328
3.52,-0.01317310871,0.1221332404
3.53,-0.01416386315,0.1230382829
3.54,-0.01466450699,0.1251229757
3.55,-0.01441598373,0.1282521995
3.56,-0.01319127801,0.1322436701
3.57,-0.01080322321,0.1368752028
3.58,-0.0071106983,0.1418931364
3.59,-0.002023076759,0.1470215645
3.6,0.004497130691,0.1519720165
3.61,0.01243342608,0.156453246
3.62,0.02171619324,0.1601808151
3.63,0.03222516571,0.1628861988
3.64,0.04379334006,0.1643251761
3.65,0.05621215985,0.1642853131
3.66,0.06923778227,0.1625923796
3.67,0.08259823112,0.1591155718
3.68,0.09600123288,0.1537714382
3.69,0.1091425246,0.1465264339
3.7,0.1217144129,0.1373980502
3.71,0.1334143527,0.1264544963
3.72,0.1439533062,0.1138129451
3.73,0.1530636374,0.09963639507
3.74,0.1605063034,0.08412924483
3.75,0.1660771177,0.06753172719
3.76,0.1696118895,0.05011339517
3.77,0.1709902861,0.03216589424
3.78,0.1701383152,0.01399528526
3.79,0.1670293891,-0.004085800361
3.8,0.1616839915,-0.0217658918
3.81,0.1541680351,-0.03874203136
3.82,0.1445900499,-0.0547265161
3.83,0.1330973866,-0.06945284089
3.84,0.1198716496,-0.08268070936
3.85,0.1051235878,-0.09420003582
3.86,0.08908766692,-0.1038339181
3.87,0.0720165352,-0.1114406116
3.88,0.05417556252,-0.1169145774
3.89,0.03583760134,-0.1201867079
3.9,0.01727807664,-0.1212238545
3.91,-0.001229527518,-0.1200277878
3.92,-0.01941775537,-0.116633718
3.93,-0.03702884455,-0.1111084922
3.94,-0.0538179998,-0.1035485628
3.95,-0.06955632465,-0.09407779775
3.96,-0.08403347045,-0.0828451711
3.97,-0.097060062,-0.07002234652
3.98,-0.1084699495,-0.05580113413
3.99,-0.1181223168,-0.04039077943
4,-0.1259036496,-0.02401502572
4.01,-0.1317295326,-0.006908885339
4.02,-0.1355462091,0.01068493899
4.03,-0.1373318015,0.02852002182
4.04,-0.1370970618,0.04635057718
4.05,-0.1348855038,0.06393617578
4.06,-0.130772765,0.08104672392
4.07,-0.1248650619,0.09746755395
4.08,-0.1172966413,0.1130044227
4.09,-0.1082261803,0.1274881711
4.1,-0.09783216378,0.1407787716
4.11,-0.08630734656,0.1527684871
4.12,-0.07385249081,0.1633838882
4.13,-0.06066964792,0.1725865222
4.14,-0.04695531426,0.1803721037
4.15,-0.03289383,0.1867681868
4.16,-0.01865140019,0.1918303814
4.17,-0.004371096948,0.1956372817
4.18,0.009830849884,0.1982843689
4.19,0.02386724302,0.1998772271
4.2,0.03768045581,0.2005244669
4.21,0.0512412923,0.2003307692
4.22,0.06454625228,0.1993904572
4.23,0.07761338501,0.1977819635
4.24,0.09047699958,0.1955634992
4.25,0.1031815625,0.192770148
4.26,0.1157751506,0.1894125203
4.27,0.1283028401,0.1854770043
4.28,0.1408003999,0.1809275652
4.29,0.1532886275,0.1757089589
4.3,0.1657686198,0.1697511645
4.31,0.1782182112,0.162974781
4.32,0.1905897528,0.1552971027
4.33,0.2028093352,0.1466385596
4.34,0.2147774957,0.1369292016
4.35,0.226371381,0.1261149061
4.36,0.237448275,0.1141630001
4.37,0.2478503381,0.1010670152
4.38,0.2574103505,0.08685032406
4.39,0.2659581975,0.0715684571
4.4,0.2733277942,0.0553099552
4.41,0.279364118,0.03819568141
4.42,0.2839299989,0.02037659264
4.43,0.2869123252,0.002030052385
4.44,0.2882273425,-0.0166451537
4.45,0.2878247701,-0.03543486318
4.46,0.285690522,-0.05411634526
4.47,0.2818478959,-0.07246552967
4.48,0.2763571864,-0.09026429144
4.49,0.2693137649,-0.1073074284
4.5,0.2608447596,-0.1234089954
4.51,0.2511045446,-0.1384077057
4.52,0.2402693052,-0.1521711792
4.53,0.2285309866,-0.1645988906
4.54,0.2160909483,-0.1756237573
4.55,0.2031536404,-0.1852123859
4.56,0.1899205891,-0.1933640675
4.57,0.1765849394,-0.2001086775
4.58,0.1633267456,-0.205503673
4.59,0.150309142,-0.2096304154
4.6,0.1376754645,-0.2125900524
4.61,0.125547337,-0.2144991916
4.62,0.1140236834,-0.2154855815
4.63,0.1031805831,-0.2156839902
4.64,0.0930718525,-0.2152324384
4.65,0.08373021009,-0.2142689059
4.66,0.07516886573,-0.2129285931
4.67,0.06738336626,-0.2113417731
4.68,0.06035353146,-0.2096322321
4.69,0.0540453237,-0.2079162533
4.7,0.04841251309,-0.2063020611
4.71,0.043398028,-0.2048896091
4.72,0.038934917,-0.2037705676
4.73,0.03494689223,-0.2030283483
4.74,0.03134847395,-0.2027379967
4.75,0.02804480871,-0.2029657891
4.76,0.024931285,-0.2037683944
4.77,0.02189311708,-0.2051914966
4.78,0.01880510405,-0.2072678274
4.79,0.01553179407,-0.2100146193
4.8,0.01192828777,-0.2134305647
4.81,0.00784189877,-0.2174924388
4.82,0.003114850821,-0.2221516167
4.83,-0.002411868631,-0.2273307791
4.84,-0.008893458541,-0.2329211488
4.85,-0.01647511303,-0.2387806254
4.86,-0.02528484965,-0.2447331895
4.87,-0.03542562709,-0.2505699187
4.88,-0.04696712763,-0.2560518986
4.89,-0.05993767216,-0.2609152252
4.9,-0.07431680755,-0.2648781755
4.91,-0.09002914843,-0.267650485
4.92,-0.1069400619,-0.2689445134
4.93,-0.1248537477,-0.2684879173
4.94,-0.1435141849,-0.2660372888
4.95,-0.1626092912,-0.2613920785
4.96,-0.181778469,-0.25440801
4.97,-0.200623513,-0.245009124
4.98,-0.218722623,-0.2331975752
4.99,-0.2356470302,-0.2190603552
5,-0.2509795191,-0.2027722265
5.01,-0.2643339247,-0.1845943305
5.02,-0.2753745327,-0.1648681729
5.03,-0.2838342208,-0.1440049646
5.04,-0.289530168,-0.1224706096
5.05,-0.2923760326,-0.1007669381
5.06,-0.2923896579,-0.07941007647
5.07,-0.2896956081,-0.05890708738
5.08,-0.2845221378,-0.03973219128
5.09,-0.2771925532,-0.0223039663
5.1,-0.2681112874,-0.00696491604
5.11,-0.2577453731,0.006035318131
5.12,-0.246602315,0.01655203006
5.13,-0.2352056148,0.02455202575
5.14,-0.2240693694,0.03011427111
5.15,-0.2136734292,0.03342455818
5.16,-0.2044405603,0.03476452074
5.17,-0.1967169162,0.0344956855
5.18,-0.1907568935,0.03303954622
5.19,-0.1867131511,0.0308548725
5.2,-0.1846322298,0.02841359915
5.21,-0.1844558601,0.02617668021
5.22,-0.1860277016,0.0245712364
5.23,-0.1891049566,0.02397018736
5.24,-0.1933740521,0.02467535657
5.25,-0.1984694076,0.02690478932
5.26,-0.203994202,0.03078475385
5.27,-0.2095420227,0.03634662523
5.28,-0.2147183093,0.04352859908
5.29,-0.2191605932,0.05218196107
5.3,-0.2225566533,0.06208145779
5.31,-0.2246598511,0.07293917672
5.32,-0.2253010612,0.08442124569
5.33,-0.2243967648,0.09616659994
5.34,-0.2219530116,0.1078070279
5.35,-0.2180650931,0.1189876881
5.36,-0.2129128914,0.1293872824
5.37,-0.2067519911,0.1387370655
5.38,-0.1999007697,0.1468378794
5.39,-0.1927238136,0.1535744084
5.4,-0.1856121609,0.1589258839
5.41,-0.178961033,0.162972521
5.42,-0.1731458891,0.1658970609
5.43,-0.1684978134,0.1679809316
5.44,-0.1652793998,0.1695947325
5.45,-0.1636624274,0.171182992
5.46,-0.1637086933,0.1732434489
5.47,-0.1653553716,0.1763014447
5.48,-0.1684061795,0.1808803721
5.49,-0.1725294468,0.1874694792
5.5,-0.1772638926,0.1964906513
5.51,-0.182032525,0.2082660417
5.52,-0.1861646063,0.2229885833
5.53,-0.1889251017,0.2406974414
5.54,-0.1895504772,0.261260356
5.55,-0.1872891862,0.2843645557
5.56,-0.1814447213,0.3095175088
5.57,-0.1714187534,0.3360582275
5.58,-0.1567516776,0.3631791927
5.59,-0.1371578611,0.3899582549
5.6,-0.1125530558,0.4153991502
5.61,-0.08307181387,0.4384786051
5.62,-0.04907328929,0.4581974377
5.63,-0.01113451493,0.4736326638
5.64,0.0299689531,0.483987405
5.65,0.07329428183,0.4886354205
5.66,0.1177729277,0.4871573314
5.67,0.16226021,0.4793660863
5.68,0.2055899842,0.4653198817
5.69,0.2466311128,0.4453215642
5.7,0.2843422711,0.4199044402
5.71,0.3178217114,0.3898053287
5.72,0.3463489485,0.3559265522
5.73,0.3694158796,0.319289292
5.74,0.3867455896,0.2809812886
5.75,0.3982979372,0.242102196
5.76,0.4042619255,0.2037099885
5.77,0.4050357357,0.1667716524
5.78,0.4011960989,0.1321210062
5.79,0.393459325,0.1004259099
5.8,0.3826367592,0.07216640045
5.81,0.3695876694,0.04762448798
5.82,0.3551725723,0.02688553617
5.83,0.340209791,0.009850384806
5.84,0.3254376375,-0.003743280042
5.85,0.311484066,-0.01429230525
5.86,0.298845002,-0.02229451697
5.87,0.2878718775,-0.02831267865
5.88,0.2787682486,-0.03293834435
5.89,0.2715947827,-0.03675776205
5.9,0.26628143,-0.04032161892
5.91,0.2626452567,-0.04411996504
5.92,0.2604122293,-0.04856315062
5.93,0.2592412039,-0.05396911053
5.94,0.2587484708,-0.06055686901
5.95,0.258531416,-0.06844575198
5.96,0.258190144,-0.07765950571
5.97,0.2573462392,-0.08813434136
5.98,0.2556581749,-0.09972985389
5.99,0.2528331931,-0.1122417912
6,0.2486357373,-0.1254157556
