"Freq [GHz]","re(S(Rx_p1,Tx_p1)) []","im(S(Rx_p1,Tx_p1)) []"
1,-0.1697071196,-0.009717055389
1.01,-0.1516214933,0.1204212429
1.02,-0.02550348135,0.1816522267
1.03,0.07790393544,0.1245140464
1.04,0.09194075804,0.05102340761
1.05,0.08418100651,0.02331917594
1.06,0.09786650114,-0.002865952725
1.07,0.09900013418,-0.05410249779
1.08,0.06734778948,-0.1064428167
1.09,0.004978429971,-0.1442078124
1.1,-0.09077121807,-0.1389512568
1.11,-0.1692433028,-0.05065402181
1.12,-0.1463820175,0.07085609335
1.13,-0.04982262137,0.1104246051
1.14,-0.003319275579,0.06849144489
1.15,-0.02320457704,0.06249691101
1.16,0.001680804383,0.114199041
1.17,0.09887911637,0.11253982
1.18,0.1598693932,0.01422504108
1.19,0.1202034923,-0.09060329592
1.2,0.03290567534,-0.1267341033
1.21,-0.03869281871,-0.1038267141
1.22,-0.07218745202,-0.05346245934
1.23,-0.0621789201,-0.0110317817
1.24,-0.04439370023,-0.01162811508
1.25,-0.07610242401,-0.02094182256
1.26,-0.1237853479,0.04117190065
1.27,-0.08017344953,0.149707119
1.28,0.05405816955,0.1749105504
1.29,0.1460085517,0.08186226205
1.3,0.1310546257,-0.01833255237
1.31,0.08477966565,-0.05324729599
1.32,0.06495269869,-0.06898251833
1.33,0.03763650309,-0.1013753194
1.34,-0.02005620321,-0.117746822
1.35,-0.08194752296,-0.09740654121
1.36,-0.1325238241,-0.04646107322
1.37,-0.1535490606,0.04217963804
1.38,-0.09890409798,0.1406696021
1.39,0.01915676482,0.1653675834
1.4,0.1008231491,0.09669660681
1.41,0.0997864446,0.02478560162
1.42,0.08466052516,0.002081081678
1.43,0.09584826256,-0.02577348173
1.44,0.07847153617,-0.08436723898
1.45,0.01202790982,-0.1116945736
1.46,-0.04061036085,-0.08382751423
1.47,-0.05433391864,-0.0544577151
1.48,-0.07136107198,-0.04059409659
1.49,-0.09563833827,-0.004754473272
1.5,-0.08830181004,0.04883348629
1.51,-0.0537353488,0.08339870094
1.52,-0.01611588301,0.1037065044
1.53,0.04090363279,0.1158803367
1.54,0.1134229156,0.07999375803
1.55,0.1381925094,-0.006236078597
1.56,0.09713759689,-0.07051676578
1.57,0.05584457397,-0.08515793441
1.58,0.03632819613,-0.1065240692
1.59,-0.02069045099,-0.1432153308
1.6,-0.1199859203,-0.1206583091
1.61,-0.1754526018,-0.01902550198
1.62,-0.1431762302,0.08543211947
1.63,-0.06678061627,0.1373329337
1.64,0.01357637768,0.1428007018
1.65,0.08377926048,0.1065396594
1.66,0.1139469612,0.03818004703
1.67,0.09659385886,-0.01559315069
1.68,0.07825092391,-0.03613807571
1.69,0.07520806453,-0.06735383301
1.7,0.0369103087,-0.1181419544
1.71,-0.04633082828,-0.1246503409
1.72,-0.103614237,-0.06521809542
1.73,-0.1004944055,-0.003007814369
1.74,-0.08274449571,0.02658752417
1.75,-0.0730501962,0.05575209659
1.76,-0.04104020001,0.09115680301
1.77,0.01180368966,0.09738272411
1.78,0.04943512411,0.07575674075
1.79,0.07441638657,0.0539111394
1.8,0.104225887,0.01863342609
1.81,0.1092679698,-0.04660619759
1.82,0.06310219129,-0.1025451204
1.83,-3.95491635E-05,-0.1130403913
1.84,-0.04788622488,-0.09867966623
1.85,-0.09426782606,-0.07254412734
1.86,-0.1305416962,-0.01060797181
1.87,-0.1110623918,0.06986621298
1.88,-0.0449779456,0.1062659467
1.89,0.003931356716,0.09439323056
1.9,0.02769069417,0.08762987131
1.91,0.07225963626,0.08496531791
1.92,0.1262311081,0.03546420892
1.93,0.1271504692,-0.05156282582
1.94,0.06808485382,-0.1113051191
1.95,-0.002923306052,-0.1197238626
1.96,-0.05996079441,-0.09494108096
1.97,-0.0947345563,-0.04544636867
1.98,-0.08993615268,0.00970727248
1.99,-0.06201319451,0.03362371174
2,-0.05673690695,0.03872296024
2.01,-0.05939354806,0.07683046064
2.02,-0.005510236156,0.1293514519
2.03,0.09227167407,0.1138407533
2.04,0.1406560261,0.02262799755
2.05,0.1066485177,-0.05891705944
2.06,0.05020827758,-0.08344023658
2.07,0.0138472909,-0.08198512234
2.08,-0.01510320744,-0.07951765679
2.09,-0.04520875662,-0.06935895969
2.1,-0.0733576217,-0.05108653909
2.11,-0.1049617587,-0.01723519475
2.12,-0.1173564691,0.05232025024
2.13,-0.06408627407,0.1276794549
2.14,0.03544235286,0.1352876224
2.15,0.09514413928,0.07040731979
2.16,0.08790728017,0.01160091377
2.17,0.07415651451,-0.006369276825
2.18,0.08239873627,-0.03016044766
2.19,0.06915454982,-0.0802416703
2.2,0.01379241949,-0.113042927
2.21,-0.04827737583,-0.1021838335
2.22,-0.09126868189,-0.06442346434
2.23,-0.1132240318,-0.01080563729
2.24,-0.1019977801,0.05063393189
2.25,-0.05749767922,0.09052727802
2.26,-0.01158644671,0.09829409493
2.27,0.02586443484,0.09962784421
2.28,0.08079205364,0.09125411067
2.29,0.1373651666,0.0318427504
2.3,0.1308425987,-0.06558456981
2.31,0.05425475545,-0.1217970457
2.32,-0.01851478403,-0.1060721771
2.33,-0.04546119016,-0.0722176136
2.34,-0.06117928155,-0.05676394131
2.35,-0.09025204105,-0.0326283205
2.36,-0.1049649114,0.01959805061
2.37,-0.08184618631,0.07616769937
2.38,-0.02833999563,0.1107403615
2.39,0.03974414112,0.1079467326
2.4,0.09168586188,0.05830011503
2.41,0.08880650136,-0.00841454617
2.42,0.04741681852,-0.03297556489
2.43,0.03547563698,-0.01652381442
2.44,0.06250265653,-0.03041947167
2.45,0.05294998776,-0.09390377513
2.46,-0.02780751758,-0.1293314436
2.47,-0.1114020366,-0.08219721536
2.48,-0.1302661531,0.004102255544
2.49,-0.09552981693,0.06756705185
2.5,-0.04486820796,0.09580841465
2.51,0.004443774965,0.09673553486
2.52,0.04044984574,0.07901196818
2.53,0.06445026712,0.06095928625
2.54,0.09815601972,0.03782908569
2.55,0.1277837363,-0.02549437448
2.56,0.09362312462,-0.1153320137
2.57,-0.008963326272,-0.1495053429
2.58,-0.09347225882,-0.09356464514
2.59,-0.1017807106,-0.01633566664
2.6,-0.07494240766,0.019928368
2.61,-0.06146369645,0.0352962896
2.62,-0.04801604061,0.05997575243
2.63,-0.01569508027,0.07938750276
2.64,0.02271329223,0.07902732154
2.65,0.0590955763,0.06320015463
2.66,0.08935053584,0.02535178338
2.67,0.08782858861,-0.03085548618
2.68,0.04832063059,-0.06622964161
2.69,0.01263252906,-0.0638329903
2.7,0.0006354553585,-0.06208023448
2.71,-0.02640835942,-0.07647141756
2.72,-0.08128676618,-0.06050396468
2.73,-0.1089849445,0.00499846661
2.74,-0.07762265586,0.06597091438
2.75,-0.02828160833,0.08246179783
2.76,0.003701167536,0.07914879616
2.77,0.03476235463,0.07752450423
2.78,0.07517716272,0.05847449714
2.79,0.101409373,0.01217461834
2.8,0.09776722477,-0.04350904431
2.81,0.06446861654,-0.09398570168
2.82,-0.001002067544,-0.1210726023
2.83,-0.07580394215,-0.09390760361
2.84,-0.1044822088,-0.02186477627
2.85,-0.07438632652,0.03069593941
2.86,-0.04420579696,0.03475872786
2.87,-0.04779730386,0.04004991175
2.88,-0.0385621815,0.08007617481
2.89,0.02134805405,0.1076188558
2.9,0.09041932235,0.07418152075
2.91,0.1125575834,0.003015797448
2.92,0.08581079227,-0.05645493418
2.93,0.03705091143,-0.08350732726
2.94,-0.009811099871,-0.07667025651
2.95,-0.03171909416,-0.05020729167
2.96,-0.03095452955,-0.03794965193
2.97,-0.04734653763,-0.04489068035
2.98,-0.09126327494,-0.02273862395
2.99,-0.1045195567,0.05005378988
3,-0.04668920646,0.1130391753
3.01,0.03432970848,0.1078259088
3.02,0.07538931818,0.05876528777
3.03,0.07949429361,0.01629024795
3.04,0.07524599016,-0.01476637426
3.05,0.06218086788,-0.0455299182
3.06,0.03592834145,-0.06766689739
3.07,0.00569737159,-0.07833553117
3.08,-0.03206673836,-0.0814872773
3.09,-0.07941108234,-0.05916271167
3.1,-0.103611371,-0.000664105442
3.11,-0.07836490316,0.05680214947
3.12,-0.03270560301,0.07595910721
3.13,-0.002010873379,0.07389903081
3.14,0.02675356315,0.07451138709
3.15,0.06783276517,0.05783868044
3.16,0.09143050521,0.009337921543
3.17,0.07581731038,-0.03900225953
3.18,0.04539429337,-0.06182806548
3.19,0.01901301737,-0.07439463969
3.2,-0.01749296249,-0.08327928423
3.21,-0.06337833031,-0.06679687456
3.22,-0.09034744834,-0.0224244874
3.23,-0.08794427615,0.0257428365
3.24,-0.06550597016,0.06678699157
3.25,-0.02057010385,0.09573385178
3.26,0.03964378243,0.08888153177
3.27,0.07528573021,0.04221396633
3.28,0.06726205666,-0.001348525456
3.29,0.05208672261,-0.01482277569
3.3,0.05528164057,-0.02909793868
3.31,0.04487963957,-0.06628250403
3.32,-0.003785152223,-0.09074173772
3.33,-0.05780836834,-0.06990472099
3.34,-0.08023663171,-0.02397574454
3.35,-0.07501240414,0.01718640862
3.36,-0.05474499257,0.04822554084
3.37,-0.02258755631,0.06383451908
3.38,0.005928162282,0.05876385674
3.39,0.01985849756,0.05155308308
3.4,0.04097236005,0.05319388961
3.41,0.08040333816,0.03335171704
3.42,0.09778520957,-0.02666697078
3.43,0.05991762223,-0.08449835743
3.44,-0.001764252501,-0.09521917837
3.45,-0.04375648424,-0.07261984391
3.46,-0.06835920075,-0.04499948352
3.47,-0.08543650134,-0.007396009283
3.48,-0.07745439903,0.0408368069
3.49,-0.04063606246,0.07198900709
3.5,-0.001810960221,0.07519112498
3.51,0.02818197899,0.06810314996
3.52,0.06013226137,0.0515981387
3.53,0.08278151153,0.01213216861
3.54,0.07349189586,-0.03476495336
3.55,0.0422415997,-0.06135549075
3.56,0.01105676542,-0.07029315007
3.57,-0.02360052321,-0.07057636991
3.58,-0.06061456592,-0.04735809818
3.59,-0.07058774564,-0.001898531724
3.6,-0.04711236976,0.02764989066
3.61,-0.02891833286,0.02720922571
3.62,-0.0330344891,0.03292377639
3.63,-0.02384802986,0.06275752023
3.64,0.02108958599,0.08097604583
3.65,0.07199028295,0.05683429111
3.66,0.09345756254,0.004298299763
3.67,0.07906767421,-0.04878657412
3.68,0.03637306155,-0.08240432075
3.69,-0.01531758393,-0.08048189936
3.7,-0.04446913388,-0.05058130605
3.71,-0.04653483917,-0.02806634281
3.72,-0.05582887115,-0.02234294449
3.73,-0.0819098939,0.003932291626
3.74,-0.07927695786,0.06489120707
3.75,-0.0197740403,0.1103709403
3.76,0.05492557139,0.09466687567
3.77,0.09071569605,0.03761577332
3.78,0.08323933304,-0.0154080185
3.79,0.05617950233,-0.0466662694
3.8,0.02554154032,-0.05775542551
3.81,0.002430240034,-0.05488958752
3.82,-0.01190961425,-0.05309495814
3.83,-0.03563600265,-0.05513898886
3.84,-0.07244838424,-0.034971931
3.85,-0.08678695947,0.01837869442
3.86,-0.05425309617,0.06647686235
3.87,-0.005455002617,0.07345517985
3.88,0.02239465441,0.056551076
3.89,0.03746219257,0.0442059591
3.9,0.05746533027,0.02792868519
3.91,0.06838628464,-0.005422844855
3.92,0.05534856732,-0.03963647704
3.93,0.02971866122,-0.05899585659
3.94,0.0008448918746,-0.06788331763
3.95,-0.03454187823,-0.06381927871
3.96,-0.06495927838,-0.03660070632
3.97,-0.07176940429,0.002221217332
3.98,-0.06053412188,0.03293918259
3.99,-0.04271959925,0.05856996708
4,-0.00766634261,0.08053998762
4.01,0.04420714177,0.07334896905
4.02,0.07554387543,0.02819643377
4.03,0.06416506675,-0.01650370231
4.04,0.0403122222,-0.03085935161
4.05,0.0325058472,-0.0362592842
4.06,0.02246721428,-0.05616033184
4.07,-0.01201694111,-0.07170757143
4.08,-0.05551151938,-0.05713687849
4.09,-0.08104009189,-0.01613037208
4.1,-0.0769207178,0.03350357937
4.11,-0.04107339699,0.07134157422
4.12,0.01038324884,0.07327532107
4.13,0.03924524417,0.04120410867
4.14,0.03250037968,0.016507891
4.15,0.0291053794,0.02140292094
4.16,0.05639100334,0.0182971924
4.17,0.07669302152,-0.02716874337
4.18,0.04464396838,-0.08194752069
4.19,-0.02126327203,-0.09157996734
4.2,-0.06847311185,-0.05289639559
4.21,-0.07525760931,-0.002197316365
4.22,-0.05366773129,0.03267845997
4.23,-0.02447317268,0.04254558203
4.24,-0.008558890186,0.03547959753
4.25,-0.008095947845,0.03673583851
4.26,0.005705648341,0.05489427232
4.27,0.04881119622,0.05573999357
4.28,0.08385552432,0.01105721445
4.29,0.06843541676,-0.04704689092
4.3,0.02042686539,-0.06803274094
4.31,-0.01294747526,-0.05355433002
4.32,-0.02377373651,-0.03874909396
4.33,-0.03461970848,-0.03189064124
4.34,-0.05005380557,-0.01755729484
4.35,-0.0580384216,0.007729034203
4.36,-0.05275762755,0.03781815962
4.37,-0.02902587486,0.06695530576
4.38,0.01554375272,0.07791721173
4.39,0.05931684051,0.05378361444
4.4,0.07332255189,0.009702563492
4.41,0.06135491709,-0.02391334998
4.42,0.04521000597,-0.04508130176
4.43,0.02174780989,-0.06601375304
4.44,-0.02000158992,-0.07222111771
4.45,-0.05806160695,-0.04457633678
4.46,-0.06338605923,-0.002649566593
4.47,-0.04636984948,0.02145556751
4.48,-0.03370490229,0.03051697986
4.49,-0.02369837643,0.04324432731
4.5,-0.001754138251,0.05524363739
4.51,0.02777151019,0.05205419164
4.52,0.05249378752,0.03264581677
4.53,0.06517098502,0.000289214236
4.54,0.05461623093,-0.03785371623
4.55,0.01927428703,-0.05806775011
4.56,-0.01237602734,-0.04624845302
4.57,-0.01679347364,-0.02880710344
4.58,-0.01724598657,-0.03346421101
4.59,-0.04440722572,-0.03758781458
4.6,-0.07670382801,-0.004258984361
4.61,-0.06925229369,0.05259522116
4.62,-0.02005629558,0.08613134709
4.63,0.03478281775,0.07687148083
4.64,0.06733353211,0.03919350354
4.65,0.06930204914,-0.004912466629
4.66,0.04700228084,-0.03386143166
4.67,0.02368741975,-0.03893255273
4.68,0.01568345485,-0.03997243267
4.69,0.003735689662,-0.055539285
4.7,-0.03475809208,-0.06297343797
4.71,-0.07592996824,-0.030133956
4.72,-0.07710687237,0.02652646293
4.73,-0.03958133651,0.06151965906
4.74,0.0004298273205,0.06166998493
4.75,0.02469751781,0.04632984504
4.76,0.03756159228,0.02788715783
4.77,0.0409176741,0.009028009865
4.78,0.03807330842,-0.004361226575
4.79,0.03821968862,-0.01570789955
4.8,0.03518545127,-0.03701897123
4.81,0.01086346822,-0.05958356201
4.82,-0.02859173382,-0.05766665705
4.83,-0.05436825298,-0.02930647391
4.84,-0.05664408518,0.002050915463
4.85,-0.04817903851,0.02599110317
4.86,-0.03141027146,0.0471928452
4.87,-0.001679655504,0.05746526336
4.88,0.02705216915,0.04610956369
4.89,0.03900889127,0.02602406513
4.9,0.04410991986,0.01241329829
4.91,0.05368782874,-0.005776030745
4.92,0.05117592649,-0.03922436353
4.93,0.02013546919,-0.06769637995
4.94,-0.02370390811,-0.06703605855
4.95,-0.0550277718,-0.04093466578
4.96,-0.06601747795,-0.004860501909
4.97,-0.05554474424,0.03095883122
4.98,-0.02564637156,0.05145268258
4.99,0.003615981703,0.04632729781
5,0.01341799623,0.03337647515
5.01,0.01867146741,0.03395338921
5.02,0.04162685317,0.03252083709
5.03,0.06512926971,0.002602353171
5.04,0.0558682861,-0.04184737706
5.05,0.01775757638,-0.06438835654
5.06,-0.01886635483,-0.05708051163
5.07,-0.04037971479,-0.03619915896
5.08,-0.04850125337,-0.01129120819
5.09,-0.04287185792,0.01127151007
5.1,-0.03100134676,0.02265747753
5.11,-0.02526251909,0.02984744289
5.12,-0.01620256179,0.04679501644
5.13,0.01488933932,0.05976862782
5.14,0.05383196876,0.04139556478
5.15,0.06612296196,-0.001043675202
5.16,0.04810252601,-0.03395953181
5.17,0.02358736303,-0.04659634957
5.18,0.001287564179,-0.05042155116
5.19,-0.0231769854,-0.04512132814
5.2,-0.04079560965,-0.02573721721
5.21,-0.04287295888,-0.004292897161
5.22,-0.04000216196,0.009737004553
5.23,-0.03817587734,0.02655393529
5.24,-0.02343078477,0.04879555632
5.25,0.008305032354,0.05758235612
5.26,0.03804795323,0.04350743097
5.27,0.05347685042,0.01867024859
5.28,0.05761052847,-0.009676134982
5.29,0.04581044652,-0.04104065345
5.3,0.01309361482,-0.0594238623
5.31,-0.02056406278,-0.04959423872
5.32,-0.03258059981,-0.02797351648
5.33,-0.03434236215,-0.01786988163
5.34,-0.04663742966,-0.008810444665
5.35,-0.05655821894,0.0204467638
5.36,-0.03763221565,0.05745656823
5.37,0.005882756892,0.07108812618
5.38,0.04650740454,0.05215908326
5.39,0.06495867647,0.01370518917
5.4,0.05478508317,-0.02568550351
5.41,0.02309575013,-0.04439986262
5.42,-0.003003601122,-0.03419815178
5.43,-0.003336593976,-0.02005428135
5.44,0.001136183061,-0.02886349813
5.45,-0.02128526804,-0.0425433336
5.46,-0.05641059345,-0.02359251379
5.47,-0.0618109866,0.02228870745
5.48,-0.03058462463,0.05378464681
5.49,0.005867111182,0.05294042413
5.5,0.02622349448,0.03581017813
5.51,0.03285228877,0.01845228473
5.52,0.03287027115,0.005921774095
5.53,0.03402952242,-0.002029304745
5.54,0.03992572048,-0.0161179132
5.55,0.03433138777,-0.04485791941
5.56,-0.001009723939,-0.06748821744
5.57,-0.04764134774,-0.05315096139
5.58,-0.06638705049,-0.009591872312
5.59,-0.05152159227,0.02595626636
5.6,-0.02923976531,0.04023546902
5.61,-0.01014649855,0.04717074282
5.62,0.01402491341,0.048360639
5.63,0.03765811172,0.03337944426
5.64,0.04605246667,0.008283225168
5.65,0.04108161442,-0.0123845701
5.66,0.0315517435,-0.02790030803
5.67,0.01559961862,-0.04039922706
5.68,-0.006324343263,-0.04267978876
5.69,-0.02434336766,-0.03370696738
5.7,-0.03676411887,-0.02104099429
5.71,-0.0472860577,-0.001778408312
5.72,-0.04407590172,0.02819422838
5.73,-0.01601586738,0.04942826241
5.74,0.01615294113,0.04068278218
5.75,0.02371281126,0.01779730208
5.76,0.01579159739,0.01169597967
5.77,0.02243817583,0.01815510349
5.78,0.04327678906,0.007715223855
5.79,0.04935447812,-0.025431429
5.8,0.02545038508,-0.0569827392
5.81,-0.01653410197,-0.06347906977
5.82,-0.05278098716,-0.0386401495
5.83,-0.06041246297,0.004094087993
5.84,-0.03588225786,0.03396863282
5.85,-0.007929042772,0.03171543523
5.86,-0.005240767229,0.01916775955
5.87,-0.0120444664,0.02940162279
5.88,0.008719683499,0.05094926476
5.89,0.05208697612,0.04134338913
5.9,0.0726170329,-0.006547824635
5.91,0.0478378024,-0.05278617618
5.92,0.001929631131,-0.06384367355
5.93,-0.03147815061,-0.04322062074
5.94,-0.03900300263,-0.01356095481
5.95,-0.02746812344,0.004012806405
5.96,-0.01795206447,0.002652696304
5.97,-0.02656779211,0.0007062022054
5.98,-0.03735558194,0.02170943368
5.99,-0.01859182574,0.05336579359
6,0.02559121983,0.05657024214
