"Freq [GHz]","re(S(Rx_p1,Tx_p1)) []","im(S(Rx_p1,Tx_p1)) []"
1,0.06763148062,-0.02080085829
1.01,0.01803161265,-0.01033050833
1.02,0.03175475476,0.01315814456
1.03,0.05735877794,-0.009004128269
1.04,0.05043118401,-0.04745158341
1.05,0.02041755893,-0.07460310179
1.06,-0.02779848151,-0.08297268405
1.07,-0.07879915962,-0.04961774257
1.08,-0.08436975417,0.01488545007
1.09,-0.04179461331,0.04867400154
1.1,-0.01242537927,0.03746162079
1.11,-0.01234453753,0.03387524749
1.12,0.002919681128,0.04554941949
1.13,0.02743156411,0.03088303508
1.14,0.01780033164,0.009939605778
1.15,0.007847694797,0.0309394396
1.16,0.05475347227,0.04673640559
1.17,0.1018400899,-0.01500150242
1.18,0.05732552834,-0.09801985886
1.19,-0.0364928432,-0.09431163554
1.2,-0.06734833327,-0.0220475327
1.21,-0.02769186863,0.01798734039
1.22,0.006209231825,-0.001274296447
1.23,-0.002691327707,-0.03604322925
1.24,-0.04772650064,-0.04978908209
1.25,-0.1058519795,-0.01007112868
1.26,-0.1100102222,0.08977751021
1.27,-0.009548463505,0.1635637737
1.28,0.1145039988,0.1137199661
1.29,0.1309761459,-0.00628065206
1.3,0.05685592391,-0.0550602539
1.31,0.02357289501,-0.01956389005
1.32,0.06209117514,-0.01303445182
1.33,0.07750344474,-0.07796553845
1.34,0.01524763764,-0.1411276512
1.35,-0.08488852237,-0.1387945542
1.36,-0.1663289928,-0.06569786695
1.37,-0.182367548,0.05485497237
1.38,-0.1042633146,0.1591100934
1.39,0.01987899473,0.1706569202
1.4,0.09231823098,0.1024778372
1.41,0.09644037235,0.04410275417
1.42,0.1009837638,0.01980548021
1.43,0.1202124998,-0.02661086248
1.44,0.09596619155,-0.09937986402
1.45,0.02200206157,-0.1352719331
1.46,-0.0448282825,-0.1192237444
1.47,-0.0894089952,-0.08943890829
1.48,-0.1338248177,-0.04448068053
1.49,-0.1538225767,0.03933161092
1.5,-0.1078475979,0.1286900157
1.51,-0.01446898922,0.1671009123
1.52,0.07787484295,0.1460190774
1.53,0.1452665439,0.08112754697
1.54,0.1653512394,-0.01541534525
1.55,0.1186658469,-0.1015434897
1.56,0.04177240392,-0.1292276428
1.57,-0.008899432931,-0.1191880235
1.58,-0.04889043972,-0.1202023351
1.59,-0.1231190561,-0.1053480777
1.6,-0.1920234073,-0.01534589571
1.61,-0.1709300673,0.1175528393
1.62,-0.059884762,0.1960976641
1.63,0.06259847369,0.1819690898
1.64,0.1409455828,0.1087511296
1.65,0.1631832292,0.01622221102
1.66,0.1337565176,-0.06149491701
1.67,0.08319390505,-0.09981756196
1.68,0.04432538461,-0.118829257
1.69,-0.005718601422,-0.1474242668
1.7,-0.100452653,-0.1453179048
1.71,-0.1854846968,-0.05513636949
1.72,-0.1712824508,0.07669365435
1.73,-0.07368873692,0.1427841548
1.74,0.009512683545,0.124550957
1.75,0.04238873228,0.09047625884
1.76,0.06449116024,0.07173978129
1.77,0.0926470425,0.04405653365
1.78,0.1080042353,-0.0005067492356
1.79,0.1039099049,-0.05196549146
1.8,0.07181021656,-0.1085746542
1.81,-0.005842478107,-0.1421995098
1.82,-0.09534425536,-0.104497999
1.83,-0.1214667754,-0.01467952402
1.84,-0.07834515874,0.0431459195
1.85,-0.04054320559,0.04395941354
1.86,-0.03727547978,0.04658897836
1.87,-0.01907629949,0.07409235518
1.88,0.03179106812,0.07792327701
1.89,0.06693594237,0.03899892116
1.9,0.06347683593,-0.001124214275
1.91,0.05041871437,-0.02144714173
1.92,0.03855658026,-0.0405267505
1.93,0.01154836552,-0.05631604428
1.94,-0.02118569736,-0.04822210425
1.95,-0.03593699589,-0.02491607013
1.96,-0.03728649652,-0.006077568354
1.97,-0.03439390995,0.01262184596
1.98,-0.01608474601,0.02905121103
1.99,0.008687890875,0.02037899627
2,0.005022408703,-0.003250638108
2.01,-0.01956801054,0.00303034209
2.02,-0.01242757227,0.03669935745
2.03,0.03153050654,0.03952540795
2.04,0.05247505988,-0.004060939234
2.05,0.02344217524,-0.03892807348
2.06,-0.01163257605,-0.02967395096
2.07,-0.01487217456,-0.005434331834
2.08,-0.0008995863206,-0.0007111053608
2.09,0.002555640085,-0.01325982171
2.1,-0.0134191745,-0.02381236775
2.11,-0.04079945266,-0.01236139024
2.12,-0.05029070435,0.02953797858
2.13,-0.01180470253,0.06994827902
2.14,0.05099471043,0.05686681319
2.15,0.07162118401,-0.004522404199
2.16,0.033092385,-0.04591439778
2.17,-0.00601424026,-0.03268688857
2.18,-0.002182374248,-0.008353842027
2.19,0.01563776322,-0.01839632407
2.2,0.002649114584,-0.04697364467
2.21,-0.03994156311,-0.0514781788
2.22,-0.07692194671,-0.01554312858
2.23,-0.07573335179,0.04236489596
2.24,-0.03038340057,0.08274378445
2.25,0.02617028889,0.07602800498
2.26,0.05110413901,0.03958768433
2.27,0.04744160188,0.01697611826
2.28,0.05376448139,0.01093795194
2.29,0.07188055288,-0.01549007611
2.3,0.0608116251,-0.06476965348
2.31,0.01045464411,-0.09277428919
2.32,-0.04075700139,-0.07858439391
2.33,-0.06742322584,-0.04581858015
2.34,-0.07789258622,-0.01276653569
2.35,-0.07670618293,0.02242632701
2.36,-0.05937066698,0.05441863152
2.37,-0.03192657251,0.0758877418
2.38,0.004145355269,0.0898707466
2.39,0.05586076737,0.08409570364
2.4,0.09936671689,0.03581414346
2.41,0.09065771126,-0.03127704305
2.42,0.04154126423,-0.05755267477
2.43,0.01605163494,-0.03976236823
2.44,0.02791143283,-0.03894007255
2.45,0.01973981581,-0.07489049615
2.46,-0.03531648782,-0.09358051917
2.47,-0.09192247018,-0.05861485461
2.48,-0.1082412512,0.002825571395
2.49,-0.08890044816,0.05618343948
2.5,-0.04800610414,0.09094081133
2.51,0.003823274017,0.09797451835
2.52,0.04384115122,0.07746779798
2.53,0.06383905754,0.05356666366
2.54,0.08648887828,0.03280930899
2.55,0.1113534875,-0.01423441153
2.56,0.0935048552,-0.08729074977
2.57,0.01933372147,-0.1288209261
2.58,-0.0563221978,-0.1050110058
2.59,-0.08852564185,-0.05239999898
2.6,-0.09312883457,-0.009002314964
2.61,-0.08926594011,0.03280036412
2.62,-0.06213509491,0.07669067762
2.63,-0.009817881128,0.09619836626
2.64,0.03875055237,0.08136819975
2.65,0.06897315617,0.05112119626
2.66,0.08691217094,0.01226500755
2.67,0.08306647761,-0.0380031038
2.68,0.04548744165,-0.07805335366
2.69,-0.005103631977,-0.08392690926
2.7,-0.04241217118,-0.06607579474
2.71,-0.06998063665,-0.04008449848
2.72,-0.0887703748,0.003681101253
2.73,-0.07264698129,0.0607619632
2.74,-0.01740298628,0.0905477745
2.75,0.03458898044,0.07383818468
2.76,0.0557319292,0.04295684813
2.77,0.06781487495,0.02154707741
2.78,0.0851203548,-0.01172138674
2.79,0.07764931883,-0.06928534905
2.8,0.02137300905,-0.1157645088
2.81,-0.05876320439,-0.1102565567
2.82,-0.11598471,-0.0512995579
2.83,-0.1205344786,0.02972241733
2.84,-0.0724701146,0.09013503355
2.85,-0.005836083763,0.09963998482
2.86,0.03401143892,0.07152426255
2.87,0.04311532961,0.05049011734
2.88,0.06143344229,0.04667116953
2.89,0.100424867,0.01821226385
2.9,0.1110934267,-0.05469070974
2.91,0.05441145439,-0.1227816138
2.92,-0.03729880834,-0.1267007353
2.93,-0.09863526589,-0.06738950362
2.94,-0.09946592448,0.005250208713
2.95,-0.05977885753,0.04493432215
2.96,-0.02395823434,0.04197893108
2.97,-0.02153830837,0.029200433
2.98,-0.03118418127,0.04762667989
2.99,-0.001780128719,0.08557006092
3,0.06845713244,0.08094380579
3.01,0.1117345881,0.01055234664
3.02,0.08017574468,-0.06573123367
3.03,0.0108832661,-0.08342471305
3.04,-0.03194533534,-0.05072861446
3.05,-0.0338433009,-0.01545838233
3.06,-0.01911108359,-0.00143409469
3.07,-0.009177290602,-0.005481298284
3.08,-0.01564346366,-0.01414307066
3.09,-0.03404373108,-0.00600827651
3.1,-0.03588379159,0.0238359471
3.11,-0.005581294447,0.04270334159
3.12,0.02470594738,0.02381941234
3.13,0.01938461856,-0.006642017564
3.14,-0.005079455706,-0.009654183606
3.15,-0.01291211931,0.008446519391
3.16,-0.003310669566,0.02116066749
3.17,0.01026917789,0.02636016239
3.18,0.03182510636,0.02455264981
3.19,0.05406356564,-0.0008471938876
3.2,0.04615380146,-0.04383074365
3.21,0.004250402212,-0.06481563131
3.22,-0.03382985765,-0.04758993554
3.23,-0.04512388182,-0.01890928823
3.24,-0.04300503993,0.001397608733
3.25,-0.03698049596,0.01825535815
3.26,-0.02383832038,0.03038412339
3.27,-0.01179647104,0.03372045541
3.28,-0.003418097536,0.04134050598
3.29,0.0222612557,0.05202160716
3.3,0.0633492927,0.03179843391
3.31,0.07216704759,-0.02512444465
3.32,0.02766176115,-0.06439626319
3.33,-0.02051526758,-0.04927950401
3.34,-0.02736192467,-0.01631678337
3.35,-0.01544632947,-0.009026480944
3.36,-0.0212291045,-0.01410585981
3.37,-0.03647653608,-0.001930880599
3.38,-0.03658014644,0.0247484658
3.39,-0.0155335361,0.04830931691
3.4,0.02278712324,0.0535656438
3.41,0.06043193484,0.02379986294
3.42,0.05951774121,-0.03167324823
3.43,0.01093484611,-0.06187496597
3.44,-0.03408261137,-0.03714913489
3.45,-0.03159634059,0.00154191189
3.46,-0.008788541181,0.005738337069
3.47,-0.01153697314,-0.008666520834
3.48,-0.03182614095,-0.0005098977902
3.49,-0.03329781291,0.0298041259
3.5,-0.006694069544,0.05344928858
3.51,0.03333370607,0.05193617762
3.52,0.06575897309,0.0192593692
3.53,0.06368819145,-0.03231766988
3.54,0.02130411526,-0.06338099695
3.55,-0.02227438796,-0.04888745822
3.56,-0.03025232295,-0.01797646002
3.57,-0.0200224406,-0.008709339344
3.58,-0.0240421784,-0.01085833622
3.59,-0.03389283731,0.001317100867
3.6,-0.02897091597,0.01900473734
3.61,-0.01840095294,0.02639501042
3.62,-0.01199271622,0.03390847997
3.63,0.005030688576,0.04568990878
3.64,0.03508651146,0.04049558412
3.65,0.05292332726,0.01244453805
3.66,0.04769308447,-0.01575078766
3.67,0.03392517931,-0.03270937726
3.68,0.01647186084,-0.04476833293
3.69,-0.007993684479,-0.04639654676
3.7,-0.02535337296,-0.03209140141
3.71,-0.02712730423,-0.02042879816
3.72,-0.03506046238,-0.0203689929
3.73,-0.05793888932,-0.004416092073
3.74,-0.06058875038,0.04031666223
3.75,-0.019868519,0.0748286478
3.76,0.03068587259,0.06422931761
3.77,0.05083681142,0.02812148062
3.78,0.04489362416,0.001550843277
3.79,0.03532190518,-0.01041551537
3.8,0.0292115534,-0.01719779384
3.81,0.02668875498,-0.02479916514
3.82,0.02179359715,-0.04124849425
3.83,-0.00368946873,-0.06044645612
3.84,-0.04796891388,-0.05162985019
3.85,-0.07056836383,-0.005337392859
3.86,-0.04743726774,0.03678603343
3.87,-0.01249237681,0.04004456966
3.88,-0.002606519712,0.0274315511
3.89,-0.002429017463,0.0315147404
3.9,0.01558244355,0.03983505303
3.91,0.04102643313,0.02730440879
3.92,0.05110066374,-0.0009941327854
3.93,0.04327271311,-0.02941589727
3.94,0.01956632008,-0.05132733798
3.95,-0.01795902238,-0.05336188009
3.96,-0.04640720548,-0.02515579129
3.97,-0.04193346195,0.01092528329
3.98,-0.01897975258,0.02392523061
3.99,-0.006863109489,0.02003356691
4,-0.002346367542,0.02193312775
4.01,0.01154423717,0.02376037014
4.02,0.02475678911,0.01028824397
4.03,0.02139132195,-0.006589621152
4.04,0.01247491594,-0.01141085721
4.05,0.01034041209,-0.01439148104
4.06,0.00301967578,-0.0239153482
4.07,-0.01633853517,-0.02430615945
4.08,-0.02975104789,-0.006676307924
4.09,-0.02510169745,0.01306655975
4.1,-0.01210669486,0.02239171713
4.11,0.001310746081,0.02415101793
4.12,0.0142007142,0.01798301647
4.13,0.01767519698,0.004478537526
4.14,0.009594584124,-0.001111458307
4.15,0.009694013116,0.00623851081
4.16,0.02588891503,0.002576042702
4.17,0.03013104418,-0.0246670296
4.18,0.002438006357,-0.04586437555
4.19,-0.03139782286,-0.03290882282
4.2,-0.03876585177,-0.002176242904
4.21,-0.02461728108,0.01606946064
4.22,-0.01063428225,0.0182169252
4.23,-0.003603008053,0.01495253913
4.24,-0.002557625988,0.01198377942
4.25,-0.004416659328,0.01587960759
4.26,0.004064990337,0.02650394592
4.27,0.02703070116,0.02395805314
4.28,0.03927324065,-0.002725069317
4.29,0.02128902047,-0.02665524094
4.3,-0.002729076041,-0.02072286394
4.31,-0.001129078115,-0.003581452374
4.32,0.01375568258,-0.008297238625
4.33,0.009613727557,-0.02904211517
4.34,-0.01490005984,-0.03660800219
4.35,-0.0375740317,-0.02256137254
4.36,-0.04602539169,0.002220924412
4.37,-0.03840604099,0.02765225175
4.38,-0.01671347755,0.04290552848
4.39,0.006005737039,0.04085680651
4.4,0.01778177996,0.03220435168
4.41,0.02792360678,0.02853687783
4.42,0.04665369343,0.01758863407
4.43,0.05668470282,-0.01339345903
4.44,0.03876429843,-0.04559805279
4.45,0.007005538539,-0.05452799608
4.46,-0.01527649604,-0.04689971082
4.47,-0.03125113738,-0.03901507428
4.48,-0.05059184142,-0.02463173055
4.49,-0.06158428499,0.005240228542
4.5,-0.05110840618,0.03811036634
4.51,-0.02530017957,0.05901094142
4.52,0.007185001067,0.06595141409
4.53,0.04272560903,0.05492742275
4.54,0.0667495586,0.02182293963
4.55,0.0638943927,-0.01743616976
4.56,0.04349572635,-0.04202933267
4.57,0.02228334361,-0.05545021463
4.58,-0.005910622771,-0.06640578883
4.59,-0.04759211774,-0.05840822382
4.6,-0.07734726076,-0.01686780566
4.61,-0.06762930627,0.03412764063
4.62,-0.03061866005,0.05979050563
4.63,0.003563437715,0.05846838692
4.64,0.02732018689,0.047387556
4.65,0.0466325916,0.02996169239
4.66,0.0574671009,0.002971832281
4.67,0.05322820212,-0.02785795278
4.68,0.03319781531,-0.05532133917
4.69,-0.004229455788,-0.07082986331
4.7,-0.0508068429,-0.0568827946
4.71,-0.07583952867,-0.009593640943
4.72,-0.05757617571,0.03870043965
4.73,-0.01804726746,0.05333242405
4.74,0.006531486993,0.04205116292
4.75,0.0147068097,0.0337257075
4.76,0.02691594749,0.03130729816
4.77,0.04454055023,0.01862553323
4.78,0.05330274063,-0.006819664371
4.79,0.04669481297,-0.03599328905
4.8,0.02276161345,-0.06125152626
4.81,-0.01802939975,-0.068658727
4.82,-0.05690827305,-0.04463811581
4.83,-0.06769518369,-0.001990200734
4.84,-0.05137301296,0.03011248516
4.85,-0.02982306905,0.04464108635
4.86,-0.008321367407,0.05328137157
4.87,0.02036443385,0.05240068936
4.88,0.04456011475,0.03109212722
4.89,0.04656168875,0.00254183586
4.9,0.03588228902,-0.0121616142
4.91,0.03206300153,-0.01930640104
4.92,0.02838074193,-0.03607592123
4.93,0.006542610127,-0.05433053517
4.94,-0.02819231481,-0.05222735344
4.95,-0.05387005718,-0.02633150447
4.96,-0.05741288307,0.009563758985
4.97,-0.03761452986,0.03912108025
4.98,-0.004356712534,0.04625094791
4.99,0.01819415767,0.02796355748
5,0.01428402757,0.008252573082
5.01,0.002925755339,0.01132588893
5.02,0.01272406934,0.02411636637
5.03,0.03672445812,0.01563834199
5.04,0.04348711554,-0.01473507134
5.05,0.02348679286,-0.03932057718
5.06,-0.005063730705,-0.04163054732
5.07,-0.02466179009,-0.02684937352
5.08,-0.02885810354,-0.00658374291
5.09,-0.01963514582,0.006358391179
5.1,-0.01094507082,0.00512661193
5.11,-0.01557920426,0.002623315328
5.12,-0.0214445212,0.01590876413
5.13,-0.006889809028,0.03388013709
5.14,0.02021009366,0.03017032585
5.15,0.0311873548,0.006580474408
5.16,0.02122278202,-0.0105325524
5.17,0.0104283554,-0.01265251341
5.18,0.006508446915,-0.01295179299
5.19,0.0008891442917,-0.01533632554
5.2,-0.006471384247,-0.01301356412
5.21,-0.009540011568,-0.00828037631
5.22,-0.01216247471,-0.005711415934
5.23,-0.01694256348,0.0008709141461
5.24,-0.01434632742,0.013211943
5.25,-0.001379521562,0.01901696628
5.26,0.009409422195,0.01296884791
5.27,0.01166375015,0.005134716092
5.28,0.01206972052,-2.132574698E-06
5.29,0.01078462402,-0.007218023074
5.3,0.002453413423,-0.011880874
5.31,-0.004766161302,-0.006378068438
5.32,-0.0007537432635,-0.0008761356206
5.33,0.003066409393,-0.007713748302
5.34,-0.008152224093,-0.01464115003
5.35,-0.02270180917,-0.00355353168
5.36,-0.01945606389,0.01711579398
5.37,-0.0007631483811,0.02577103491
5.38,0.01580947293,0.01792635392
5.39,0.02135364684,0.002814845612
5.4,0.01492299695,-0.01076422631
5.41,0.0009141556889,-0.01286649514
5.42,-0.004543326614,-0.001110606685
5.43,0.00836915478,0.004832093039
5.44,0.01846035133,-0.01256401544
5.45,2.86561823E-05,-0.03299826727
5.46,-0.03115600766,-0.02297377693
5.47,-0.03658675952,0.0102623297
5.48,-0.01287390639,0.02845305101
5.49,0.007687064018,0.01885641829
5.5,0.006920343975,0.004137319007
5.51,-0.003025797466,0.00368528035
5.52,-0.00451787361,0.01537662497
5.53,0.01006733315,0.02568529263
5.54,0.03464790206,0.01767144766
5.55,0.04564509163,-0.0143484343
5.56,0.02285071823,-0.04628087477
5.57,-0.01680759677,-0.04517120016
5.58,-0.03415386594,-0.0155967005
5.59,-0.02145699973,0.004970147664
5.6,-0.009286364875,0.0006382510402
5.61,-0.01719167977,-0.006166342946
5.62,-0.03052592998,0.005450748855
5.63,-0.02825857024,0.0294950344
5.64,-0.005868393839,0.04788507919
5.65,0.02727190785,0.04608010269
5.66,0.05205777555,0.01959119355
5.67,0.05021080475,-0.01652327633
5.68,0.02644756695,-0.03661947286
5.69,0.005173053434,-0.03536207431
5.7,-0.003997399472,-0.03112677235
5.71,-0.01471612918,-0.03209224133
5.72,-0.0326706251,-0.02534944693
5.73,-0.04445916142,-0.004852553225
5.74,-0.04197232801,0.01870485242
5.75,-0.02943185684,0.0383484243
5.76,-0.006470778694,0.05287588467
5.77,0.02709481794,0.05144106145
5.78,0.05407183983,0.02504600345
5.79,0.05530644148,-0.01188573507
5.8,0.03553483886,-0.03659580066
5.81,0.01179117033,-0.04501130964
5.82,-0.01053583154,-0.04385412867
5.83,-0.03109399873,-0.0325705635
5.84,-0.04250589769,-0.01153555936
5.85,-0.04144279602,0.0103876076
5.86,-0.0327338722,0.02925797084
5.87,-0.01434144149,0.04619137585
5.88,0.01759377099,0.04991934913
5.89,0.04652802253,0.0268941361
5.9,0.04807991831,-0.009572687331
5.91,0.02588851797,-0.03013564068
5.92,0.006075210788,-0.02890839294
5.93,-0.001295281153,-0.02430916724
5.94,-0.008050768571,-0.02548410071
5.95,-0.02161786245,-0.0239751235
5.96,-0.03647549873,-0.01167382209
5.97,-0.04297696053,0.01239605674
5.98,-0.02984346281,0.0410578769
5.99,0.005359626997,0.05365644845
6,0.03945738106,0.03329383418
