"Freq [GHz]","re(S(Rx_p1,Tx_p1)) []","im(S(Rx_p1,Tx_p1)) []"
1,-0.06531250721,0.01547665326
1.01,-0.04129343944,0.04323562706
1.02,-0.01989751379,0.0480013526
1.03,-0.008150575241,0.06227168666
1.04,0.03611213417,0.08188589601
1.05,0.1027828987,0.04704651638
1.06,0.1150194617,-0.03892313273
1.07,0.06065614558,-0.09517731244
1.08,0.007693159527,-0.09938845569
1.09,-0.02850037101,-0.100055844
1.1,-0.08630016063,-0.09039485428
1.11,-0.1360713624,-0.025607303
1.12,-0.1184979384,0.05441842102
1.13,-0.07224835992,0.08292025974
1.14,-0.05910875721,0.1000288432
1.15,-0.02355790494,0.1616562231
1.16,0.1006343206,0.1893081582
1.17,0.2253192859,0.0872521467
1.18,0.224750597,-0.07540022071
1.19,0.1283596315,-0.1681098498
1.2,0.03784927999,-0.1878234367
1.21,-0.04208976384,-0.1927319219
1.22,-0.1419263086,-0.1607246911
1.23,-0.2105469408,-0.05885523995
1.24,-0.1963872854,0.05559510069
1.25,-0.1396150685,0.1236008637
1.26,-0.08265729978,0.167580261
1.27,-0.000250970584,0.2028930989
1.28,0.1100775666,0.1831707783
1.29,0.1855153655,0.0955120738
1.3,0.195744347,-0.004318117874
1.31,0.171703593,-0.08641002177
1.32,0.1178714767,-0.1642614076
1.33,0.01150341397,-0.2104958697
1.34,-0.1081635207,-0.1724229819
1.35,-0.1630989947,-0.07238235036
1.36,-0.1461327741,0.01091523871
1.37,-0.1150643554,0.05197098353
1.38,-0.09422143085,0.0861508968
1.39,-0.05741461133,0.1297651367
1.4,0.01399451873,0.1578594093
1.41,0.1063667606,0.1376009352
1.42,0.1779260182,0.0515084438
1.43,0.1715181807,-0.07380447061
1.44,0.0733109652,-0.1568737963
1.45,-0.04206046155,-0.1375194118
1.46,-0.08630134469,-0.05800264524
1.47,-0.06477868766,-0.006569317271
1.48,-0.04680802118,-0.0008950456784
1.49,-0.0564652129,0.007402574883
1.5,-0.05944696819,0.04215362017
1.51,-0.02953280899,0.08047643445
1.52,0.02786455116,0.09261974741
1.53,0.08799456049,0.05938356636
1.54,0.1097073371,-0.01430400183
1.55,0.06880828922,-0.08017423168
1.56,0.003075612393,-0.08966695904
1.57,-0.0298662862,-0.06234002188
1.58,-0.03735537874,-0.05181299811
1.59,-0.06817885088,-0.05217325591
1.6,-0.1155513777,-0.01074592922
1.61,-0.1179368336,0.07534443986
1.62,-0.04937172415,0.1454162755
1.63,0.051563285,0.1496501244
1.64,0.1290872097,0.08767245891
1.65,0.1459124374,-0.004757269808
1.66,0.102112185,-0.07362285692
1.67,0.04575375368,-0.08746396203
1.68,0.02363417026,-0.07902907827
1.69,0.01312563893,-0.09863977113
1.7,-0.04029471462,-0.1269472866
1.71,-0.1241113472,-0.09998649176
1.72,-0.1692261206,-0.01213516465
1.73,-0.1475891741,0.07960396252
1.74,-0.08676392344,0.1377415391
1.75,-0.0103436923,0.1591882534
1.76,0.06491831683,0.1383641973
1.77,0.1081436115,0.08568151005
1.78,0.1171964275,0.04213617925
1.79,0.1347138811,0.01418820292
1.8,0.1645796536,-0.04862683404
1.81,0.1391603241,-0.1557729029
1.82,0.02559951061,-0.2282544222
1.83,-0.1100092798,-0.2031041474
1.84,-0.1929988093,-0.1093585922
1.85,-0.214725612,0.000329490003
1.86,-0.1834930587,0.1066840496
1.87,-0.0954639202,0.1810056315
1.88,0.01278896006,0.1825518905
1.89,0.0769136396,0.1308348478
1.9,0.09695610538,0.09109279029
1.91,0.1297778824,0.06873518969
1.92,0.1774435649,0.006513381621
1.93,0.1724010874,-0.103457103
1.94,0.0837539271,-0.1908448632
1.95,-0.03956993983,-0.198260132
1.96,-0.1339385199,-0.1327884108
1.97,-0.1675046872,-0.03332134776
1.98,-0.1364489594,0.05488061356
1.99,-0.07128707335,0.09218185082
2,-0.02564553546,0.08309637781
2.01,-0.01384861892,0.07844958777
2.02,0.01025885838,0.1007209724
2.03,0.07696937154,0.1034104249
2.04,0.1424239839,0.04006283053
2.05,0.1412887945,-0.06355599738
2.06,0.06481857655,-0.1370851095
2.07,-0.03715583774,-0.136205624
2.08,-0.104095293,-0.07022649698
2.09,-0.1047791568,0.01233945248
2.1,-0.05681233379,0.0589723523
2.11,-0.009925212384,0.05672460571
2.12,0.006773562483,0.03878364738
2.13,0.01063723984,0.03567787715
2.14,0.02808246436,0.03858733974
2.15,0.0554198644,0.02314203651
2.16,0.06951660241,-0.01551405005
2.17,0.05319960983,-0.06187451862
2.18,0.004212914673,-0.09064088584
2.19,-0.05707063557,-0.07761613017
2.2,-0.09258043863,-0.02492910374
2.21,-0.08332837982,0.03172731439
2.22,-0.04989706527,0.06258070655
2.23,-0.01761861346,0.07293768292
2.24,0.01401658755,0.07568456224
2.25,0.04944354917,0.06501981848
2.26,0.07739049582,0.03576544334
2.27,0.08889582388,-0.003908202711
2.28,0.0820614132,-0.04875973793
2.29,0.04732559155,-0.09022616212
2.3,-0.01196133691,-0.1002906204
2.31,-0.0567061376,-0.06719146333
2.32,-0.06003150284,-0.02998635801
2.33,-0.05606337474,-0.02356911849
2.34,-0.08330536575,-0.01585834582
2.35,-0.1094173946,0.03868932576
2.36,-0.07669133061,0.1140432731
2.37,0.008077833039,0.1446555191
2.38,0.08848663315,0.1112806495
2.39,0.128608817,0.0417296895
2.4,0.1206981688,-0.03340152069
2.41,0.07016990349,-0.08173347625
2.42,0.01441952911,-0.07821187271
2.43,0.0007210336529,-0.05129016657
2.44,0.01220926163,-0.06017290519
2.45,-0.01872740328,-0.09768025388
2.46,-0.09758925208,-0.08734157215
2.47,-0.1442489763,-0.002841574203
2.48,-0.1080287,0.08675907231
2.49,-0.0306964321,0.1160824522
2.5,0.0275563452,0.09445190204
2.51,0.05382247478,0.05958754598
2.52,0.05909362971,0.02946710389
2.53,0.05480211538,0.01260429564
2.54,0.06069072466,0.005863504191
2.55,0.08044590176,-0.01976752225
2.56,0.07474521324,-0.07854486775
2.57,0.01022630524,-0.1260371618
2.58,-0.07850227515,-0.1062232632
2.59,-0.1229632643,-0.02728785564
2.6,-0.09975755907,0.05134059112
2.61,-0.03953767566,0.08679171193
2.62,0.01742219475,0.07574039547
2.63,0.0448867402,0.03817016039
2.64,0.03862211421,0.005702702793
2.65,0.02375531515,-0.0008996616467
2.66,0.02804221702,0.001496503658
2.67,0.03956513886,-0.01818178767
2.68,0.02233681584,-0.05251797413
2.69,-0.0258814004,-0.06047975492
2.7,-0.06576036116,-0.0241914048
2.71,-0.06442146326,0.03078409978
2.72,-0.02387110411,0.06679731095
2.73,0.02869117161,0.06206422463
2.74,0.05787768958,0.02194780157
2.75,0.04579750435,-0.01883784953
2.76,0.01649708227,-0.02655060489
2.77,0.01019640931,-0.01261067464
2.78,0.02527614221,-0.01856522107
2.79,0.01964481971,-0.05120137997
2.8,-0.02440209099,-0.06953629022
2.81,-0.07390864835,-0.04260840288
2.82,-0.08892969274,0.01472353448
2.83,-0.06069088847,0.06591024091
2.84,-0.008254809714,0.08360875421
2.85,0.03612123088,0.06287483711
2.86,0.04828849374,0.02763357644
2.87,0.0390004904,0.01029544653
2.88,0.04074792895,0.009692718677
2.89,0.05681966935,-0.005415469889
2.9,0.05546736072,-0.04208586347
2.91,0.02310011239,-0.06949781505
2.92,-0.01627819084,-0.067216252
2.93,-0.04089716123,-0.04714983361
2.94,-0.0511329658,-0.02445865294
2.95,-0.05137061718,-0.004789446518
2.96,-0.04877087489,0.006769130163
2.97,-0.05594946967,0.01906983042
2.98,-0.06093846517,0.05486181724
2.99,-0.02538927857,0.1031146194
3,0.05136949894,0.1096091036
3.01,0.1098218433,0.05231631238
3.02,0.1082347904,-0.02088826127
3.03,0.07178477749,-0.06344092154
3.04,0.03349908555,-0.08161011919
3.05,-0.009585719579,-0.08625469844
3.06,-0.05217439389,-0.06276904035
3.07,-0.06424877892,-0.01915830135
3.08,-0.04739110001,0.006310025921
3.09,-0.03902673086,0.009349607273
3.1,-0.04348384574,0.02353208552
3.11,-0.02807844909,0.05000310566
3.12,0.007429462865,0.0542014911
3.13,0.02865730119,0.03295459203
3.14,0.02945989424,0.01511832631
3.15,0.02962813754,0.0051287112
3.16,0.02618889038,-0.008959851213
3.17,0.01057348003,-0.01385465829
3.18,0.00604211468,0.0001620450726
3.19,0.02680307387,0.0017089897
3.2,0.03594331712,-0.0309027031
3.21,0.001537428194,-0.05972101601
3.22,-0.04445882847,-0.04220088671
3.23,-0.05328876909,0.003061344734
3.24,-0.02651848457,0.02984892756
3.25,0.001522017406,0.02505632922
3.26,0.01005869972,0.005305405507
3.27,-0.002870002448,-0.009036007572
3.28,-0.02380836283,-0.0001259896137
3.29,-0.02353471422,0.02996864855
3.3,0.009999560082,0.04643582715
3.31,0.04343728232,0.02280950107
3.32,0.03921428668,-0.01602469428
3.33,0.009311191208,-0.02813096341
3.34,-0.007676509145,-0.01254241758
3.35,-0.001521586974,0.001144605609
3.36,0.00944693502,-0.001667109292
3.37,0.01019762874,-0.01372612575
3.38,-0.002114698299,-0.02218555301
3.39,-0.01895024336,-0.01517894701
3.4,-0.02101440995,0.005207780828
3.41,-0.00212043313,0.01488352563
3.42,0.01247121015,-0.001422914815
3.43,-0.0008821519098,-0.02150429691
3.44,-0.02725480055,-0.01608341336
3.45,-0.03690750371,0.0102073718
3.46,-0.02433974036,0.03410963833
3.47,-0.0002228114989,0.0446377452
3.48,0.02677230588,0.03807167289
3.49,0.04243722915,0.01392445683
3.5,0.03520573068,-0.01013048843
3.51,0.0209354024,-0.0146800429
3.52,0.02237238311,-0.01302804691
3.53,0.02684767827,-0.02961966651
3.54,0.006838581371,-0.0522469843
3.55,-0.02940320675,-0.04993251061
3.56,-0.05172813644,-0.02285109945
3.57,-0.05258017342,0.007518614316
3.58,-0.0386780806,0.03247830996
3.59,-0.01062811632,0.04414982023
3.6,0.01505508118,0.02870491825
3.61,0.009060442674,0.003858124058
3.62,-0.01516922376,0.01210582099
3.63,-0.004859606153,0.0480766372
3.64,0.04672162577,0.05244610127
3.65,0.08067232935,0.002755538218
3.66,0.05953121277,-0.05302255773
3.67,0.01068674292,-0.07063808954
3.68,-0.02843073222,-0.054280549
3.69,-0.04552367352,-0.02236478922
3.7,-0.03524985601,0.008327499807
3.71,-0.008349587737,0.01181114519
3.72,-0.005011429505,-0.01263168497
3.73,-0.03929507463,-0.01612986447
3.74,-0.05822673507,0.03038056476
3.75,-0.01597555825,0.07629160476
3.76,0.04858510375,0.06047115707
3.77,0.06678207824,0.001098261082
3.78,0.03277836292,-0.03850224916
3.79,-0.008304745562,-0.03335689091
3.8,-0.02332868326,-0.002808421586
3.81,-0.005476657886,0.02422737009
3.82,0.03053969337,0.02018432743
3.83,0.04518673556,-0.02036130882
3.84,0.01150220648,-0.05611973538
3.85,-0.03722629735,-0.04198197395
3.86,-0.04537750151,0.003657302851
3.87,-0.01441658899,0.02425677327
3.88,0.00651224153,0.007053076672
3.89,-0.004431618733,-0.0112875878
3.9,-0.02538950952,-0.005102515103
3.91,-0.0318572895,0.01964020717
3.92,-0.01399738528,0.04538200517
3.93,0.02417434906,0.04952127641
3.94,0.05460278024,0.01765204463
3.95,0.04467007701,-0.02662485216
3.96,0.005266309073,-0.03873317127
3.97,-0.01662505994,-0.01385982126
3.98,-0.002995568298,0.007170751017
3.99,0.01657499128,-0.001493814878
4,0.01391840828,-0.02350338229
4.01,-0.008149318033,-0.033396196
4.02,-0.03191024163,-0.02157280185
4.03,-0.03877388369,0.00670759415
4.04,-0.01888151637,0.02974302815
4.05,0.009602922754,0.02344875361
4.06,0.01240909756,-0.002617976101
4.07,-0.01198433285,-0.009330870426
4.08,-0.02487095157,0.0164561711
4.09,-0.002166524188,0.04184168476
4.1,0.03493188941,0.03446649917
4.11,0.05182294308,-0.0013419796
4.12,0.03438981207,-0.03789088826
4.13,-0.005893892511,-0.04675544448
4.14,-0.03528824135,-0.01770738814
4.15,-0.02235115263,0.020515658
4.16,0.01715061673,0.02077437284
4.17,0.02827189448,-0.01813055584
4.18,-0.007540768778,-0.04155980049
4.19,-0.04339828423,-0.01605846954
4.2,-0.03605431471,0.02546248655
4.21,-0.0005877968625,0.0375663929
4.22,0.02430278238,0.01742570115
4.23,0.02209431992,-0.01109454367
4.24,-0.003307404682,-0.02534702117
4.25,-0.03220616897,-0.008358968495
4.26,-0.03027835886,0.03160622778
4.27,0.01144019142,0.05020006717
4.28,0.04791605183,0.01991180029
4.29,0.03675628037,-0.02199312769
4.3,0.002651365661,-0.02518971941
4.31,-0.003171929543,-0.001286491446
4.32,0.01895056467,0.002442221494
4.33,0.02897658478,-0.02329495501
4.34,0.009476859784,-0.04970688005
4.35,-0.0272318673,-0.05535516453
4.36,-0.0645504578,-0.03309747393
4.37,-0.07993923298,0.01631376818
4.38,-0.0518949714,0.06687042658
4.39,0.004176704052,0.07845533513
4.4,0.0418599201,0.04815727794
4.41,0.0426886768,0.01552772026
4.42,0.03305599408,0.005138243078
4.43,0.03534839639,0.002041118484
4.44,0.0416962653,-0.01130062121
4.45,0.03877279429,-0.03255933506
4.46,0.02219358855,-0.05386581814
4.47,-0.01016501673,-0.06501762343
4.48,-0.04833854115,-0.05038467472
4.49,-0.06580205797,-0.01144926546
4.5,-0.05156939912,0.0228466735
4.51,-0.02863622571,0.03244713625
4.52,-0.01893586676,0.03184982305
4.53,-0.01357526402,0.04032210215
4.54,0.004540436762,0.05180177188
4.55,0.0337200566,0.04979267893
4.56,0.06080640298,0.02789385538
4.57,0.07161568683,-0.01128186218
4.58,0.05262458009,-0.05327935735
4.59,0.007944932393,-0.07075026975
4.6,-0.03125472069,-0.0517221277
4.61,-0.04028712171,-0.02046000485
4.62,-0.03229557356,-0.005364505981
4.63,-0.03230153976,-0.001252703091
4.64,-0.03809998016,0.01257681231
4.65,-0.03071926329,0.03592271137
4.66,-0.005110767535,0.05139040265
4.67,0.02790193781,0.04640192083
4.68,0.05178979629,0.0185401682
4.69,0.04877540001,-0.02054977341
4.7,0.01727359844,-0.04309455892
4.71,-0.01471763287,-0.03210612848
4.72,-0.01958223648,-0.007814215924
4.73,-0.007474833116,-0.0009728383226
4.74,-0.007053398823,-0.009265912798
4.75,-0.02120804101,-0.007729108398
4.76,-0.02930393089,0.01135698441
4.77,-0.01834397722,0.03459763151
4.78,0.01056066917,0.04627448752
4.79,0.04644640614,0.03213749874
4.8,0.06313078832,-0.01112344052
4.81,0.03765411984,-0.05573112814
4.82,-0.01272280138,-0.06240774849
4.83,-0.04320714278,-0.03121130802
4.84,-0.038976672,-0.0006989349189
4.85,-0.02631925675,0.007853509364
4.86,-0.02508342187,0.009607829657
4.87,-0.02722828982,0.02002414449
4.88,-0.02122659939,0.03655759869
4.89,-0.002729179343,0.05270467223
4.9,0.03178360985,0.057272743
4.91,0.07010999322,0.0314033642
4.92,0.07874156698,-0.02188573007
4.93,0.04392356393,-0.06336994668
4.94,-0.001525145542,-0.06364035007
4.95,-0.02143061207,-0.04193492461
4.96,-0.02274373324,-0.03180169055
4.97,-0.03287342278,-0.03306233779
4.98,-0.05577416141,-0.02287465419
4.99,-0.07300840266,0.009091353976
5,-0.06616165682,0.05438475819
5.01,-0.02599352102,0.09203874877
5.02,0.03648429207,0.09394024854
5.03,0.08422565075,0.05022315547
5.04,0.0863489308,-0.008991365225
5.05,0.05529601053,-0.04321623416
5.06,0.02697680439,-0.04833809527
5.07,0.01257028535,-0.04884539052
5.08,-0.003685290396,-0.05488934427
5.09,-0.03042028895,-0.05395696574
5.1,-0.05802213275,-0.03469944509
5.11,-0.07133476994,0.001754029764
5.12,-0.05811141289,0.04252866695
5.13,-0.01978622592,0.06441555831
5.14,0.01878330398,0.05300508928
5.15,0.03126340333,0.02544449969
5.16,0.02397359116,0.01157257737
5.17,0.02406607022,0.012828939
5.18,0.03668033027,0.005872504198
5.19,0.04130181505,-0.01724785235
5.2,0.02593301552,-0.04012956384
5.21,-0.001157859075,-0.04762626789
5.22,-0.02675611331,-0.03701121215
5.23,-0.03917234498,-0.01309771115
5.24,-0.03174434991,0.009707388318
5.25,-0.01557600212,0.01540807861
5.26,-0.01139034328,0.009604432774
5.27,-0.01812716266,0.0147100458
5.28,-0.01221639378,0.03359718627
5.29,0.01482301993,0.04241503176
5.3,0.04298707045,0.02533337636
5.31,0.05142695696,-0.007827600609
5.32,0.03610250042,-0.03887137174
5.33,0.003465161937,-0.05311965399
5.34,-0.03041142704,-0.04106469438
5.35,-0.04387363243,-0.01087014298
5.36,-0.03398379335,0.01245730151
5.37,-0.02207744324,0.01886334994
5.38,-0.01903194795,0.02526082338
5.39,-0.008526312635,0.04091096935
5.4,0.02005522912,0.04771633501
5.41,0.05021875032,0.02996049915
5.42,0.06293020628,-0.004437266773
5.43,0.05410034191,-0.04180008832
5.44,0.02237888851,-0.07151488499
5.45,-0.02732844769,-0.07497317982
5.46,-0.06752057121,-0.04116563943
5.47,-0.07101665422,0.00682871881
5.48,-0.04810608717,0.03521517781
5.49,-0.02802114668,0.04345315942
5.5,-0.01367029065,0.05210228894
5.51,0.01097440954,0.06043837821
5.52,0.04316516437,0.05144861189
5.53,0.06546508117,0.02428856367
5.54,0.07203515293,-0.009884351464
5.55,0.06243326201,-0.04685816956
5.56,0.02974316623,-0.07784447552
5.57,-0.01966908606,-0.0816521765
5.58,-0.05743424874,-0.05278152534
5.59,-0.0660935997,-0.0151178419
5.6,-0.05855792481,0.01045758894
5.61,-0.05045732366,0.02874734948
5.62,-0.03798028144,0.04874658856
5.63,-0.0138947819,0.06472638384
5.64,0.01807108764,0.06780484164
5.65,0.0509249371,0.05480034933
5.66,0.07624573706,0.02340563277
5.67,0.07968547909,-0.02151356423
5.68,0.05436940606,-0.06017046045
5.69,0.01429696456,-0.07459077011
5.7,-0.02094053289,-0.06691221328
5.71,-0.04570903835,-0.04854983955
5.72,-0.06172258837,-0.02347976341
5.73,-0.06620958898,0.007110714522
5.74,-0.05641053137,0.03760140805
5.75,-0.03289925793,0.06231396252
5.76,0.004006392047,0.07421854985
5.77,0.04645604919,0.06130502608
5.78,0.07231160692,0.02164834096
5.79,0.06516592981,-0.02313278904
5.8,0.03565837295,-0.04784114337
5.81,0.006479822973,-0.05016691962
5.82,-0.01404723898,-0.04263625179
5.83,-0.02926765993,-0.03093427231
5.84,-0.03936036383,-0.01456740061
5.85,-0.04258063978,0.004921502364
5.86,-0.03757678225,0.02685545306
5.87,-0.01819815729,0.04777140461
5.88,0.01658636762,0.05230347416
5.89,0.04701429521,0.02819365536
5.9,0.04906174975,-0.009605248557
5.91,0.02607604172,-0.03208499756
5.92,0.002788945983,-0.03123695793
5.93,-0.007442995889,-0.02196445502
5.94,-0.01000382196,-0.0165456337
5.95,-0.01333308991,-0.01596157831
5.96,-0.02313766692,-0.01536333901
5.97,-0.03873382918,-0.003460238697
5.98,-0.04312579617,0.02683695084
5.99,-0.01720551984,0.05704069919
6,0.02699953653,0.05608700274
