"Freq [GHz]","re(S(Rx_p1,Tx_p1)) []","im(S(Rx_p1,Tx_p1)) []"
1,-0.1381653278,-0.08681137667
1.01,-0.1542496607,0.03469470341
1.02,-0.07207965998,0.1053053815
1.03,0.0008651918626,0.08686534239
1.04,0.01827128931,0.05632773318
1.05,0.02951177591,0.04987819743
1.06,0.05360003803,0.03346081593
1.07,0.06324950944,0.0003047092877
1.08,0.05697852298,-0.03094856702
1.09,0.03746772025,-0.06503961823
1.1,-0.01539457387,-0.08640261616
1.11,-0.0757107756,-0.05092535083
1.12,-0.07595384167,0.01839072026
1.13,-0.02744594237,0.04075497994
1.14,-0.01228814598,0.01675360241
1.15,-0.03350961785,0.0241242819
1.16,-0.01609381676,0.06428577391
1.17,0.04087922962,0.06196862477
1.18,0.06378342865,0.0123380421
1.19,0.04272631423,-0.01937922884
1.2,0.02873456017,-0.02312350641
1.21,0.02518413098,-0.03586073504
1.22,0.004720338145,-0.05181953965
1.23,-0.02082196303,-0.05126417243
1.24,-0.0439730223,-0.04970848389
1.25,-0.08964824296,-0.03546460882
1.26,-0.1279790189,0.03916729465
1.27,-0.07789500699,0.1406330182
1.28,0.04483904772,0.1587191767
1.29,0.1214732722,0.07815225254
1.3,0.1114992112,0.001718903581
1.31,0.09011624277,-0.02549556532
1.32,0.08792047077,-0.05845789171
1.33,0.0541443606,-0.1097867552
1.34,-0.01656552877,-0.1250852523
1.35,-0.07361708389,-0.09626181595
1.36,-0.1100363203,-0.05697931255
1.37,-0.1399537139,0.002327023131
1.38,-0.1260458658,0.08996413032
1.39,-0.04719503664,0.1469937578
1.4,0.03610789178,0.1336184782
1.41,0.07846165769,0.09533626381
1.42,0.1117710867,0.06306112784
1.43,0.1437966342,0.001951276178
1.44,0.1220893041,-0.08218964685
1.45,0.04912450992,-0.1204661227
1.46,-0.004112573226,-0.1046722172
1.47,-0.02630082107,-0.09569764483
1.48,-0.06948076762,-0.09626360015
1.49,-0.1262777757,-0.05314855821
1.5,-0.1383454436,0.02677370082
1.51,-0.1022731392,0.09038715188
1.52,-0.04954889442,0.1286691094
1.53,0.02333204616,0.1457549707
1.54,0.1056899084,0.1097512933
1.55,0.1385318551,0.02547699012
1.56,0.1101602846,-0.03820975694
1.57,0.08230172399,-0.06056347011
1.58,0.0689432106,-0.09423400996
1.59,0.01467626753,-0.1395638386
1.6,-0.07618750187,-0.1281699046
1.61,-0.1268866061,-0.05429539468
1.62,-0.1174695081,0.01363671807
1.63,-0.09480198876,0.05339989841
1.64,-0.06642113805,0.09291666828
1.65,-0.008438279351,0.119084267
1.66,0.05521653036,0.1004210235
1.67,0.08874816631,0.05723049722
1.68,0.1051252162,0.01541390384
1.69,0.1104303645,-0.04171107251
1.7,0.06963321154,-0.1056501916
1.71,-0.01035926824,-0.1196557044
1.72,-0.06269535401,-0.07670760874
1.73,-0.06827025104,-0.03777692966
1.74,-0.07556734912,-0.0219458869
1.75,-0.09460545024,0.01263522577
1.76,-0.08181318446,0.06952305552
1.77,-0.03079947041,0.1044323077
1.78,0.02463884586,0.1050588984
1.79,0.07626022818,0.0848333023
1.8,0.1206658607,0.03215178468
1.81,0.1196812905,-0.04943714242
1.82,0.06062427284,-0.1053098672
1.83,-0.004913929317,-0.1045785408
1.84,-0.04147171024,-0.08301301884
1.85,-0.07231614884,-0.0642393456
1.86,-0.1043614639,-0.02398297811
1.87,-0.103427143,0.03661191273
1.88,-0.06813256432,0.07775690275
1.89,-0.03254294531,0.09575076654
1.9,0.008594355349,0.1147328097
1.91,0.07933033876,0.110971237
1.92,0.1423948059,0.04506060724
1.93,0.1380354705,-0.05042800093
1.94,0.07771397176,-0.1083768025
1.95,0.01423111619,-0.1193662048
1.96,-0.03894381492,-0.109226788
1.97,-0.08631535177,-0.07702178142
1.98,-0.1077539174,-0.02341890204
1.99,-0.09890000055,0.02206200812
2,-0.08766265996,0.05414664815
2.01,-0.06958838647,0.100065883
2.02,-0.0063335178,0.1435279173
2.03,0.08629858939,0.1265756382
2.04,0.1377296112,0.04784800494
2.05,0.124512929,-0.02896027505
2.06,0.08720066914,-0.07079377293
2.07,0.049256201,-0.09496699349
2.08,0.003088696848,-0.1056074832
2.09,-0.04136465893,-0.09238418531
2.1,-0.07080303788,-0.06873635188
2.11,-0.09991995348,-0.04247847935
2.12,-0.127344066,0.0108259041
2.13,-0.1110057718,0.0894875417
2.14,-0.03869283244,0.1389160182
2.15,0.03973426408,0.1286187444
2.16,0.08787358802,0.0888961582
2.17,0.117899353,0.04252826323
2.18,0.1295039972,-0.02098764375
2.19,0.09791133349,-0.08663690017
2.2,0.03595470182,-0.1143458251
2.21,-0.01397123737,-0.1061036366
2.22,-0.04962767788,-0.09429446264
2.23,-0.09442528448,-0.07288861406
2.24,-0.1310831629,-0.01560315678
2.25,-0.1228040815,0.06024203149
2.26,-0.07306995663,0.11525908
2.27,-0.005326538651,0.1387034884
2.28,0.07242629813,0.1261931269
2.29,0.1354017351,0.06195931727
2.3,0.1371687451,-0.03080853314
2.31,0.08068595947,-0.08799058353
2.32,0.02681312649,-0.09122576718
2.33,0.001338073094,-0.08683485585
2.34,-0.03239081088,-0.09484349609
2.35,-0.0888421913,-0.07721926185
2.36,-0.1266896118,-0.01411661579
2.37,-0.1136282955,0.06180656983
2.38,-0.05845455657,0.1137586917
2.39,0.01681673552,0.1235242457
2.4,0.08053807627,0.08299134485
2.41,0.094941661,0.01730448349
2.42,0.0674618839,-0.01996440715
2.43,0.05361045495,-0.02142285616
2.44,0.06701275151,-0.04102741045
2.45,0.05102309803,-0.09644899923
2.46,-0.02279094204,-0.1280499107
2.47,-0.1025929049,-0.09091287348
2.48,-0.1337717826,-0.01344591073
2.49,-0.115157053,0.0593093314
2.5,-0.06379485238,0.1077559084
2.51,0.003210320159,0.1177504984
2.52,0.05390702036,0.08980279608
2.53,0.0748131169,0.05709911002
2.54,0.09571366521,0.03413529923
2.55,0.1247795917,-0.01470662614
2.56,0.1105340578,-0.0988845542
2.57,0.02689284224,-0.1548656143
2.58,-0.06893175947,-0.1337239575
2.59,-0.1175065751,-0.06822954871
2.6,-0.125567892,-0.005575309515
2.61,-0.1133951345,0.05155148792
2.62,-0.07309982367,0.1011295255
2.63,-0.0116942869,0.1183097566
2.64,0.03924409658,0.1024436305
2.65,0.07418128432,0.07792824144
2.66,0.1076944057,0.04287308406
2.67,0.1239994925,-0.01773377942
2.68,0.09721765317,-0.08179922396
2.69,0.04176735723,-0.1150040861
2.7,-0.01401962009,-0.1190131684
2.71,-0.0694357722,-0.1039578547
2.72,-0.1192505065,-0.05658503525
2.73,-0.1300277007,0.0183585034
2.74,-0.09220207974,0.07730124955
2.75,-0.04313172526,0.09719161494
2.76,-0.006437865207,0.1021192701
2.77,0.03592381468,0.1059182595
2.78,0.09119310925,0.08568401334
2.79,0.1316574466,0.02855640658
2.8,0.1330907998,-0.04663656503
2.81,0.09105385041,-0.1150838145
2.82,0.01028046575,-0.1498511983
2.83,-0.07822228774,-0.122738674
2.84,-0.1199497723,-0.04677036441
2.85,-0.1015798868,0.01775396338
2.86,-0.07201149807,0.04085713837
2.87,-0.06193881577,0.05825529955
2.88,-0.03905675926,0.0945900073
2.89,0.02139920728,0.114084431
2.9,0.08573721798,0.08330077198
2.91,0.1139692831,0.02081508279
2.92,0.1029506055,-0.04133057558
2.93,0.06134455753,-0.08644813289
2.94,0.002050790571,-0.09650050944
2.95,-0.04092288924,-0.06795504525
2.96,-0.04816508867,-0.03637529173
2.97,-0.05051098015,-0.02757886481
2.98,-0.07322737302,-0.01172480301
2.99,-0.08228236941,0.03785184297
3,-0.04343928224,0.0852154196
3.01,0.01475862915,0.0880165808
3.02,0.05087849983,0.0602937954
3.03,0.06748548452,0.0304729538
3.04,0.07519728165,-0.003841274871
3.05,0.0621938568,-0.0414941981
3.06,0.03134699507,-0.06131930555
3.07,0.005421650758,-0.06387844322
3.08,-0.01876594734,-0.06766280678
3.09,-0.05832261017,-0.05998841607
3.1,-0.09159749162,-0.01661804515
3.11,-0.08309140205,0.04133754134
3.12,-0.04327420965,0.07375986907
3.13,-0.003745926055,0.07988840966
3.14,0.03395925753,0.07438086898
3.15,0.07108711267,0.04693948573
3.16,0.08150965668,-0.001956919169
3.17,0.05849406265,-0.03718098023
3.18,0.03653317603,-0.04569619275
3.19,0.02772803722,-0.05856629282
3.2,-0.0008033713343,-0.08325659113
3.21,-0.05711014166,-0.08008979394
3.22,-0.09876390093,-0.03153983636
3.23,-0.09695134962,0.02962254492
3.24,-0.06433131786,0.07354322461
3.25,-0.0161398293,0.09431916987
3.26,0.03635118243,0.08389314954
3.27,0.06640016478,0.0447874327
3.28,0.06346640407,0.01019835875
3.29,0.05892279884,-0.002327670172
3.3,0.07020664692,-0.02376728611
3.31,0.06101924461,-0.0721894966
3.32,0.005049012941,-0.1061313972
3.33,-0.0607048092,-0.08627665872
3.34,-0.08992856356,-0.03333548196
3.35,-0.08387500241,0.01350540243
3.36,-0.06332603357,0.04473884872
3.37,-0.03578506087,0.06260495127
3.38,-0.009100743851,0.06653457608
3.39,0.01146606006,0.06760972972
3.4,0.04165669112,0.07049125846
3.41,0.08735478901,0.0490615634
3.42,0.1121624891,-0.01276307817
3.43,0.08337929253,-0.0788585417
3.44,0.02285756445,-0.105389779
3.45,-0.03022003952,-0.09499368343
3.46,-0.06877699732,-0.06830859303
3.47,-0.09429944754,-0.02594255747
3.48,-0.09196741506,0.02656250862
3.49,-0.06148246834,0.06398021949
3.5,-0.02609300758,0.07822744776
3.51,0.007450921957,0.08380651815
3.52,0.05002842804,0.07684341133
3.53,0.08815671497,0.03943111404
3.54,0.0927930633,-0.01611576285
3.55,0.06528927338,-0.05740027852
3.56,0.0283754361,-0.07589534495
3.57,-0.01075103342,-0.07813109132
3.58,-0.04752359497,-0.05882601347
3.59,-0.0622192022,-0.02280953264
3.6,-0.05350821447,0.002355001202
3.61,-0.05018662177,0.01101757021
3.62,-0.05776720283,0.03323502373
3.63,-0.04071573091,0.07531761426
3.64,0.01527896136,0.09632228482
3.65,0.07283833799,0.06830275804
3.66,0.09470538341,0.01245687803
3.67,0.08031134162,-0.03851661465
3.68,0.04418537163,-0.0692194858
3.69,0.002582246719,-0.07272085891
3.7,-0.02378416593,-0.05645281866
3.71,-0.03428560602,-0.04537005062
3.72,-0.05611900857,-0.04173389063
3.73,-0.09137102761,-0.01049032565
3.74,-0.09315157967,0.05777743233
3.75,-0.034238846,0.1107950309
3.76,0.04326934599,0.1015622469
3.77,0.08424585801,0.04844702009
3.78,0.08250360954,-0.003780981984
3.79,0.05987740015,-0.03658389199
3.8,0.03212841681,-0.0492690613
3.81,0.01347000751,-0.04742779073
3.82,0.006658700797,-0.05154868904
3.83,-0.0150598768,-0.06938888679
3.84,-0.06714081556,-0.06517981012
3.85,-0.1080004335,-0.008262429102
3.86,-0.08848246281,0.06573516183
3.87,-0.0253335322,0.09721782319
3.88,0.02786231066,0.0807044276
3.89,0.05306001335,0.05006945379
3.9,0.06250715779,0.02073162363
3.91,0.05952057483,-0.006460134509
3.92,0.04863041056,-0.0233549087
3.93,0.04438708204,-0.03553209269
3.94,0.03772006605,-0.06294583324
3.95,-0.001310225094,-0.09368022512
3.96,-0.06621810119,-0.08498944814
3.97,-0.10830283,-0.02738711035
3.98,-0.09997611388,0.03982098906
3.99,-0.05808146445,0.08214254823
4,-0.006371192964,0.09377985723
4.01,0.03947995013,0.07665442784
4.02,0.06210359168,0.04138241702
4.03,0.06120296514,0.01359454225
4.04,0.06270073902,0.0001047774914
4.05,0.07428595586,-0.02639000023
4.06,0.06242100231,-0.07642741628
4.07,0.005299037198,-0.1118848174
4.08,-0.06604713666,-0.09509408273
4.09,-0.1058301182,-0.03630133503
4.1,-0.09994940206,0.02784843903
4.11,-0.06144186573,0.06968911818
4.12,-0.01459805572,0.07724794256
4.13,0.01389141444,0.06105491085
4.14,0.02208232998,0.05147767717
4.15,0.04130507578,0.05654705944
4.16,0.0845088034,0.04010211204
4.17,0.1101092403,-0.02234625649
4.18,0.07584343045,-0.09306795129
4.19,0.001142947373,-0.1164286717
4.2,-0.06100083018,-0.08609063555
4.21,-0.08557107037,-0.03521803114
4.22,-0.07989508713,0.009306921487
4.23,-0.05908004764,0.03674032973
4.24,-0.03957352246,0.04864829945
4.25,-0.02651647792,0.06162809692
4.26,0.0004610955313,0.08293441395
4.27,0.05495339747,0.08390375607
4.28,0.1039953881,0.03621084405
4.29,0.1028216657,-0.03532729313
4.3,0.05731990189,-0.07977354392
4.31,0.008820645869,-0.08506121654
4.32,-0.02500105077,-0.07395128369
4.33,-0.05226398866,-0.05680808317
4.34,-0.07308431469,-0.02943507088
4.35,-0.08153203062,0.004963958576
4.36,-0.07760865657,0.04347906226
4.37,-0.05274004728,0.08618775857
4.38,0.004547454993,0.112557864
4.39,0.07339690967,0.09208169977
4.4,0.1102189329,0.03088912919
4.41,0.1016276042,-0.03138758622
4.42,0.06861734274,-0.07264816503
4.43,0.02422524563,-0.09487581499
4.44,-0.0276662964,-0.0919405335
4.45,-0.06631503463,-0.05940205078
4.46,-0.07566272704,-0.02009622609
4.47,-0.07310569215,0.006101537453
4.48,-0.07410001191,0.03464174146
4.49,-0.05706957393,0.07772142659
4.5,-0.003901032041,0.1064961568
4.51,0.05906882679,0.09080794319
4.52,0.09554646037,0.04198178136
4.53,0.09889986606,-0.01264907546
4.54,0.07556142828,-0.05897330399
4.55,0.03184425842,-0.08345638148
4.56,-0.01019680623,-0.0770655407
4.57,-0.03041943457,-0.05998252296
4.58,-0.04641276759,-0.05529154017
4.59,-0.08287494891,-0.04212354394
4.6,-0.1141891901,0.0130823253
4.61,-0.09169441846,0.08938695685
4.62,-0.01737219687,0.1286844448
4.63,0.05882702418,0.1083491997
4.64,0.1001830216,0.05292548283
4.65,0.1024473765,-0.006871669906
4.66,0.0757247134,-0.05036627918
4.67,0.04043296706,-0.06752340524
4.68,0.0156441929,-0.07105266825
4.69,-0.008248435717,-0.08046224307
4.7,-0.05330394039,-0.08222914875
4.71,-0.1039091094,-0.04366937984
4.72,-0.114936431,0.02889699827
4.73,-0.07335679511,0.08877619484
4.74,-0.01053735871,0.1062897291
4.75,0.04276808419,0.08832517589
4.76,0.07507308787,0.05009017667
4.77,0.08096932326,0.005996554569
4.78,0.06637288914,-0.0260566656
4.79,0.05037328464,-0.04399743764
4.8,0.03506075142,-0.06470858932
4.81,5.78111515E-05,-0.08602197062
4.82,-0.05346163435,-0.07830878275
4.83,-0.08995780869,-0.03241845828
4.84,-0.08735631993,0.02196019377
4.85,-0.059394433,0.05867595677
4.86,-0.02252559893,0.0764056053
4.87,0.01793134909,0.07462919294
4.88,0.04882897971,0.05149739155
4.89,0.0591257456,0.02269455881
4.9,0.0616854136,0.001865473195
4.91,0.06664342836,-0.02473001077
4.92,0.05257938538,-0.06588126932
4.93,0.003376720725,-0.09221971011
4.94,-0.05288902918,-0.07469558752
4.95,-0.07917682628,-0.02852481798
4.96,-0.07433777891,0.014236029
4.97,-0.05477990955,0.04390071649
4.98,-0.02664978213,0.06102759565
4.99,0.00321687551,0.06228117253
5,0.0257237925,0.05429781995
5.01,0.04797828626,0.04491222406
5.02,0.07549269738,0.01971691419
5.03,0.08271516719,-0.03177196018
5.04,0.04561025631,-0.07851069138
5.05,-0.01135460277,-0.08242819151
5.06,-0.04583062424,-0.05280293243
5.07,-0.05375847159,-0.02361862064
5.08,-0.05487948435,-0.00250884577
5.09,-0.05191552098,0.01958794352
5.1,-0.03975378305,0.03975207746
5.11,-0.02230120416,0.05505358751
5.12,0.004263614326,0.06834789931
5.13,0.04693795965,0.06478322172
5.14,0.08313712981,0.02486600582
5.15,0.07815989088,-0.03174738682
5.16,0.03886028943,-0.06249330115
5.17,0.003084008207,-0.06060718296
5.18,-0.01733632358,-0.05101204753
5.19,-0.03579500993,-0.0404646343
5.2,-0.05027204404,-0.01983401963
5.21,-0.05093467266,0.003495574012
5.22,-0.04640821199,0.02031066535
5.23,-0.04157347413,0.0415524366
5.24,-0.01812725302,0.06851043223
5.25,0.02852601907,0.07351245243
5.26,0.06730975942,0.04156077088
5.27,0.07325757745,-0.003697751358
5.28,0.05560551763,-0.036610449
5.29,0.02950819622,-0.05474789778
5.3,-0.0006208965837,-0.05834184642
5.31,-0.02450259537,-0.04576521014
5.32,-0.03390738058,-0.03062188699
5.33,-0.04331750967,-0.0232891495
5.34,-0.06326495857,-0.005059422662
5.35,-0.06799041292,0.03929730459
5.36,-0.03060386525,0.0813357903
5.37,0.02873891853,0.081521162
5.38,0.06685943877,0.04223411361
5.39,0.06848949702,-0.003755492257
5.4,0.04654962461,-0.03366820509
5.41,0.01879761898,-0.04136912669
5.42,0.002435301135,-0.03302887379
5.43,0.001795200046,-0.02960499649
5.44,-0.005881014762,-0.04253010083
5.45,-0.03916647468,-0.04634523165
5.46,-0.07203964849,-0.01202084296
5.47,-0.064102373,0.04111839416
5.48,-0.02022913922,0.06747146221
5.49,0.02007950034,0.05612814721
5.5,0.03731423335,0.03136553591
5.51,0.03942767326,0.01067503824
5.52,0.03532107297,-0.00341233083
5.53,0.03174509496,-0.01148912345
5.54,0.03326918053,-0.02301015955
5.55,0.02574086334,-0.04763951738
5.56,-0.009823258296,-0.06684522048
5.57,-0.05678518193,-0.04887236758
5.58,-0.07400469556,0.0006082727247
5.59,-0.05182805721,0.04162680556
5.6,-0.01797102768,0.05420128734
5.61,0.008536767476,0.0500474537
5.62,0.02889733722,0.03796519517
5.63,0.04043677522,0.01822736036
5.64,0.04003765871,-0.0003763624684
5.65,0.03750591096,-0.01323125794
5.66,0.03471839305,-0.0315408294
5.67,0.01465375545,-0.05421681032
5.68,-0.02397032337,-0.05619025684
5.69,-0.05234343987,-0.02779426859
5.7,-0.05210612665,0.007064501983
5.71,-0.03604948766,0.0281873646
5.72,-0.01715599374,0.0383468699
5.73,0.004264002994,0.03865984593
5.74,0.01940893029,0.02571516393
5.75,0.01898741474,0.01326609962
5.76,0.01871385362,0.01482783716
5.77,0.0351195332,0.01254718707
5.78,0.04812544695,-0.01477305591
5.79,0.02964790921,-0.04821363182
5.8,-0.008509916912,-0.05437798543
5.81,-0.03430177084,-0.03421651496
5.82,-0.04013899037,-0.01046671036
5.83,-0.03566763318,0.007859367909
5.84,-0.02466186818,0.01954731694
5.85,-0.01433302072,0.02098721516
5.86,-0.01427970871,0.0226569746
5.87,-0.01036115414,0.03959912217
5.88,0.02068634268,0.05417607965
5.89,0.0624119515,0.03152565105
5.9,0.06978856985,-0.02143974104
5.91,0.03399294259,-0.05800250441
5.92,-0.00803010496,-0.05509901105
5.93,-0.02794804295,-0.03266159742
5.94,-0.02962427885,-0.01388563709
5.95,-0.0256444709,-0.004468305986
5.96,-0.02536391718,-0.001846693668
5.97,-0.03384064702,0.005246365093
5.98,-0.03755038203,0.02971260137
5.99,-0.01319359965,0.05793757322
6,0.03166160347,0.05590512028
