"Freq [GHz]","re(S(Rx_p1,Tx_p1)) []","im(S(Rx_p1,Tx_p1)) []"
1,0.02812066739,0.02460788419
1.01,0.03205869763,0.03697079216
1.02,0.06789480679,0.02373628867
1.03,0.07743600834,-0.0260724723
1.04,0.04794385742,-0.0636783332
1.05,0.01159196248,-0.07598244003
1.06,-0.02663920547,-0.07489920869
1.07,-0.06358238645,-0.0486439564
1.08,-0.06995328602,-0.005260882797
1.09,-0.05251922669,0.0161800753
1.1,-0.05163048172,0.02397137222
1.11,-0.04990801579,0.05830084446
1.12,-0.001624988375,0.08894329574
1.13,0.05403964485,0.05894694135
1.14,0.04951527866,0.00931457799
1.15,0.02440912141,0.01255659911
1.16,0.05211541709,0.02801837017
1.17,0.08811255919,-0.0203328341
1.18,0.04926362456,-0.08688357777
1.19,-0.02590096151,-0.0809878107
1.2,-0.04582382832,-0.02652602353
1.21,-0.01791072432,-0.005958240211
1.22,-0.007451353209,-0.02508475888
1.23,-0.02907110457,-0.0408274974
1.24,-0.06680699684,-0.03415331297
1.25,-0.1052087019,0.01168172195
1.26,-0.093579164,0.09894308071
1.27,0.003741831021,0.15263697
1.28,0.1076792887,0.09657799408
1.29,0.1092284225,-0.007119389545
1.3,0.0430270534,-0.03450579472
1.31,0.03184134165,0.004945797366
1.32,0.08482162794,-0.003434731363
1.33,0.09739842552,-0.08629425876
1.34,0.02186171657,-0.1566968457
1.35,-0.08878656675,-0.1488008156
1.36,-0.1691246531,-0.06709757148
1.37,-0.1779119213,0.05215468048
1.38,-0.1017405819,0.1466929139
1.39,0.008991691973,0.1568622006
1.4,0.07350284776,0.1019581088
1.41,0.08534040043,0.05640121573
1.42,0.1022917429,0.03197566139
1.43,0.1266925316,-0.022082977
1.44,0.1006808744,-0.1019675678
1.45,0.01954795973,-0.1416629991
1.46,-0.05703575266,-0.1199793568
1.47,-0.1007913077,-0.07477291405
1.48,-0.1278940077,-0.02248684709
1.49,-0.1333580966,0.04840938368
1.5,-0.09270064829,0.1222521783
1.51,-0.009946178425,0.1621267343
1.52,0.08662537004,0.1480359924
1.53,0.1647108566,0.07566483021
1.54,0.1828913075,-0.03875882863
1.55,0.1197645149,-0.1378884111
1.56,0.01826714674,-0.1665019014
1.57,-0.05806835712,-0.1384620358
1.58,-0.1054687772,-0.1012871241
1.59,-0.1532663102,-0.05259683919
1.6,-0.181818261,0.03797942309
1.61,-0.1410900696,0.1474335426
1.62,-0.03133796059,0.210293758
1.63,0.0941933224,0.1920789435
1.64,0.1832123227,0.1054776697
1.65,0.2041475944,-0.01360738951
1.66,0.1530289696,-0.1141932493
1.67,0.06828113563,-0.1581658773
1.68,-0.004785980888,-0.1591153319
1.69,-0.06966724725,-0.1477429993
1.7,-0.1452562993,-0.1070206281
1.71,-0.1937469623,-0.007829277966
1.72,-0.1583795411,0.1084466635
1.73,-0.05847444123,0.1632769885
1.74,0.03083141479,0.1434607396
1.75,0.07711135938,0.09779342632
1.76,0.09972501213,0.05412324118
1.77,0.1081870884,0.007882270464
1.78,0.09773222567,-0.03626093935
1.79,0.07564753804,-0.07203858963
1.8,0.03992586341,-0.1063729957
1.81,-0.02620211803,-0.1227412275
1.82,-0.09944989422,-0.0817294053
1.83,-0.1164545402,0.004052658278
1.84,-0.06617517366,0.06079273174
1.85,-0.01456312523,0.05524514591
1.86,-0.004054302408,0.03536993327
1.87,-0.00234788505,0.03953518098
1.88,0.01987906472,0.04262884678
1.89,0.0390297201,0.02186734375
1.9,0.03560047513,-0.000801560315
1.91,0.02781783476,-0.009761984286
1.92,0.02444780682,-0.02038754072
1.93,0.00879440595,-0.03392974463
1.94,-0.01670816088,-0.02889553625
1.95,-0.02686653306,-0.005569697949
1.96,-0.01656758539,0.01283496475
1.97,-0.0003529506628,0.01782076801
1.98,0.01621776274,0.01164916408
1.99,0.0245319201,-0.01038263152
2,0.004623686993,-0.03444371667
2.01,-0.03195601858,-0.02442734235
2.02,-0.03613506998,0.01709119059
2.03,0.002592367317,0.03382875741
2.04,0.02714478895,0.001051262309
2.05,-0.0004268745844,-0.0291698362
2.06,-0.03817193272,-0.007936044131
2.07,-0.02976864741,0.03776536093
2.08,0.01701455233,0.04980067894
2.09,0.05028784254,0.0146346358
2.1,0.03717226458,-0.03133131626
2.11,-0.009259357824,-0.04247083297
2.12,-0.04057107061,-0.004546097785
2.13,-0.0162047057,0.04211089589
2.14,0.04121780431,0.03636126501
2.15,0.05950768671,-0.02336451445
2.16,0.01102947849,-0.06559213651
2.17,-0.04505978764,-0.04014233797
2.18,-0.04420045967,0.01482298767
2.19,0.0004794959666,0.03080432442
2.2,0.0267331387,-0.003763977629
2.21,0.001751386292,-0.04175037172
2.22,-0.05000231247,-0.03532185808
2.23,-0.07548193432,0.01891612305
2.24,-0.04377309704,0.07560069387
2.25,0.01914362737,0.08490982929
2.26,0.05947936566,0.04945531532
2.27,0.06339857718,0.01326522739
2.28,0.06068130943,-0.006804452412
2.29,0.06083189506,-0.03238566844
2.3,0.04079774085,-0.06493467858
2.31,0.0005391194651,-0.07609840155
2.32,-0.03054311719,-0.0619536627
2.33,-0.04650189184,-0.0467845299
2.34,-0.06603475654,-0.03262943552
2.35,-0.08546957176,-0.001014215658
2.36,-0.08321979835,0.04448278832
2.37,-0.05558761329,0.08482037249
2.38,-0.007110691906,0.1104137612
2.39,0.05938827456,0.1039855302
2.4,0.11057673,0.04625793681
2.41,0.09905153984,-0.02928366797
2.42,0.04394638915,-0.05421781065
2.43,0.02185000799,-0.02888456609
2.44,0.04762021174,-0.02939396271
2.45,0.048103435,-0.0827112852
2.46,-0.01720171799,-0.1216456369
2.47,-0.09623199921,-0.09179422418
2.48,-0.1295815915,-0.01888130714
2.49,-0.1143143383,0.05046078318
2.5,-0.06888859659,0.0969673523
2.51,-0.009175024161,0.1097791706
2.52,0.03797340266,0.08889451055
2.53,0.05947943003,0.0617808577
2.54,0.07902411622,0.04284852331
2.55,0.1055864879,0.004661589371
2.56,0.09981601373,-0.06173442349
2.57,0.04174425749,-0.1075803209
2.58,-0.02299816805,-0.09811095912
2.59,-0.05378731046,-0.06499720542
2.6,-0.06972815303,-0.04081631031
2.61,-0.08955294946,-0.006991986931
2.62,-0.08466138982,0.04889764424
2.63,-0.03578546177,0.08982272092
2.64,0.02434035619,0.08387389415
2.65,0.05863375951,0.04697436078
2.66,0.06465487451,0.006857784762
2.67,0.05111555673,-0.02567873781
2.68,0.02476191594,-0.04210065401
2.69,0.002041059264,-0.04012790684
2.7,-0.009975349548,-0.03694033766
2.71,-0.03031872786,-0.03792443538
2.72,-0.06245711209,-0.01558053117
2.73,-0.06698885278,0.03949929139
2.74,-0.01925472986,0.08197374663
2.75,0.04243856546,0.07036878302
2.76,0.0692534318,0.02542999242
2.77,0.06473804248,-0.01083845797
2.78,0.05609417654,-0.03565565468
2.79,0.0406852135,-0.06577821312
2.8,0.0002648599147,-0.09131054052
2.81,-0.05810162716,-0.08500955046
2.82,-0.1036016241,-0.03837089048
2.83,-0.1093496659,0.02926389047
2.84,-0.07130314464,0.08383072824
2.85,-0.01422472923,0.09958768144
2.86,0.02783878855,0.0838393628
2.87,0.05029778021,0.06639356174
2.88,0.07788253236,0.05253069493
2.89,0.1130489215,0.01353150719
2.9,0.116800806,-0.05917282305
2.91,0.06217489809,-0.1232646489
2.92,-0.02244537993,-0.1317849362
2.93,-0.08383327269,-0.08559741338
2.94,-0.09670472229,-0.02478983148
2.95,-0.07730596063,0.01317760744
2.96,-0.06165561329,0.02373058163
2.97,-0.06674568446,0.03809885814
2.98,-0.06210010409,0.08364518631
2.99,-0.003599923322,0.1307032908
3,0.09073005644,0.1134168967
3.01,0.1407200229,0.02281278745
3.02,0.1040663493,-0.0664035513
3.03,0.02991052598,-0.08878768237
3.04,-0.0140589831,-0.06050825958
3.05,-0.01888901866,-0.03329572009
3.06,-0.01371885592,-0.02673781925
3.07,-0.01806409085,-0.03122892306
3.08,-0.0370639153,-0.03116254748
3.09,-0.06042246954,-0.008285017775
3.1,-0.05726420259,0.036211071
3.11,-0.01409728445,0.06291386808
3.12,0.02993438747,0.04113039174
3.13,0.03098422029,0.0001843325002
3.14,0.003413846974,-0.0122388011
3.15,-0.01136110799,0.003102930233
3.16,-0.006853689427,0.01804383732
3.17,0.004192445203,0.02736278172
3.18,0.02584008446,0.03120472764
3.19,0.05273029782,0.01132947178
3.2,0.05312718215,-0.03033043014
3.21,0.01909020425,-0.05514130917
3.22,-0.01294607802,-0.0450481922
3.23,-0.02042944548,-0.02816392936
3.24,-0.02296998711,-0.02481300876
3.25,-0.03575059988,-0.02052187899
3.26,-0.04777377899,-0.004167424875
3.27,-0.05155985159,0.01906983804
3.28,-0.04371941124,0.0497526071
3.29,-0.008113663329,0.07865646763
3.3,0.04993267851,0.07019393295
3.31,0.08055554313,0.01462941902
3.32,0.05449624717,-0.03630681221
3.33,0.01365872606,-0.03927629562
3.34,0.004777324169,-0.02248029442
3.35,0.009285079517,-0.02824445286
3.36,-0.01005046585,-0.04190402061
3.37,-0.04148085585,-0.02776829064
3.38,-0.04964738576,0.00985337892
3.39,-0.02646237281,0.04101105949
3.4,0.01281986324,0.04588450734
3.41,0.04483412094,0.01769565427
3.42,0.0407468207,-0.02875769693
3.43,-0.002915994115,-0.05072490424
3.44,-0.04185705477,-0.02399793069
3.45,-0.03643913455,0.01621416296
3.46,-0.008164375662,0.02418561053
3.47,-0.000761119869,0.009225567221
3.48,-0.01314415638,0.009380912227
3.49,-0.01335518532,0.02960844474
3.5,0.01019275277,0.04514367001
3.51,0.04432044571,0.03768383249
3.52,0.06863460493,0.003265363291
3.53,0.06087956717,-0.0451488365
3.54,0.01758481511,-0.07392986374
3.55,-0.02851950323,-0.06155241073
3.56,-0.04551727411,-0.02996406138
3.57,-0.04332060384,-0.009870022671
3.58,-0.04394339928,0.003215520001
3.59,-0.04055117311,0.02290309482
3.6,-0.02324724841,0.03707644605
3.61,-0.007515035924,0.03646758941
3.62,-0.00126857532,0.03782060065
3.63,0.01445006971,0.04631340093
3.64,0.04389675099,0.03871016637
3.65,0.06086547447,0.007341348254
3.66,0.05226737413,-0.02447692271
3.67,0.03231733587,-0.0420565973
3.68,0.009789887388,-0.04930974193
3.69,-0.01352135647,-0.0436455931
3.7,-0.02359892183,-0.02661330427
3.71,-0.01899246535,-0.020575418
3.72,-0.02870955869,-0.02982147372
3.73,-0.06089628187,-0.0179896999
3.74,-0.07253536925,0.03130778796
3.75,-0.03452347356,0.07434874369
3.76,0.01837540477,0.07043716019
3.77,0.04221175462,0.03841952573
3.78,0.04068635108,0.01488227203
3.79,0.03705188978,0.004330364963
3.8,0.03737024495,-0.003943706033
3.81,0.04023282565,-0.01576822577
3.82,0.03874302534,-0.03879855921
3.83,0.01296102821,-0.06610903313
3.84,-0.03603050832,-0.0637042231
3.85,-0.06439860007,-0.0197117781
3.86,-0.04494762204,0.02129909082
3.87,-0.0148239016,0.02126676135
3.88,-0.0154784379,0.007328764214
3.89,-0.02769344346,0.01928252852
3.9,-0.01441027668,0.04373875147
3.91,0.0176241428,0.04679653691
3.92,0.04112425216,0.02682097475
3.93,0.04778803537,-0.001531687355
3.94,0.03560008442,-0.03013415317
3.95,0.003791984501,-0.04231479015
3.96,-0.0240168228,-0.02321365993
3.97,-0.02011459139,0.005522408871
3.98,0.00122256834,0.009408692028
3.99,0.005517841057,-0.004958562319
4,-0.005341723917,-0.007359057285
4.01,-0.006540573563,0.001660818962
4.02,0.0006761051183,0.002117276756
4.03,0.0004616414267,-0.003351230023
4.04,-0.002875922681,-0.00291478407
4.05,-0.001637903946,-0.003267247183
4.06,-0.006172136013,-0.008524521949
4.07,-0.01889480281,-0.003703999484
4.08,-0.0208146764,0.01475976885
4.09,-0.004997404397,0.02675520507
4.1,0.01146638163,0.02220110352
4.11,0.0183902519,0.01210131894
4.12,0.02054262241,0.00261838853
4.13,0.01737708827,-0.007236796353
4.14,0.008779452963,-0.01006978309
4.15,0.007744939592,-0.005125343012
4.16,0.0160297073,-0.01023431897
4.17,0.01092309497,-0.02902109431
4.18,-0.01521474015,-0.03460568117
4.19,-0.03423784461,-0.01329754422
4.2,-0.02666826656,0.009869217925
4.21,-0.01102094678,0.01268883919
4.22,-0.00821811348,0.006404759851
4.23,-0.01309594232,0.007874153816
4.24,-0.01418389714,0.01681332794
4.25,-0.007466096265,0.02852219399
4.26,0.01141266689,0.03607073817
4.27,0.03621388399,0.0243029817
4.28,0.042094815,-0.006129532407
4.29,0.02078118198,-0.02502681793
4.3,0.002657215131,-0.01524533177
4.31,0.01138971237,-0.003973877415
4.32,0.02448577829,-0.01927352656
4.33,0.01076052123,-0.04505032819
4.34,-0.02293198923,-0.04947825188
4.35,-0.049607132,-0.02851396187
4.36,-0.05722415008,0.002302836293
4.37,-0.04694149325,0.03036617202
4.38,-0.02473795122,0.04601931301
4.39,-0.003859010257,0.04703812764
4.4,0.009632980166,0.0457471345
4.41,0.02884387723,0.047252592
4.42,0.05844405081,0.03301736399
4.43,0.07359126272,-0.006708154653
4.44,0.05530811363,-0.04648809303
4.45,0.0219192663,-0.06095858793
4.46,-0.0031278212,-0.05906661153
4.47,-0.02480914067,-0.05613137551
4.48,-0.05189608035,-0.0438303235
4.49,-0.07141852459,-0.0130349885
4.5,-0.07003899797,0.02490414927
4.51,-0.05056302269,0.05710187384
4.52,-0.01589515212,0.07865859011
4.53,0.03091535013,0.0776631839
4.54,0.06885937168,0.04519685883
4.55,0.07593226566,-0.000767659257
4.56,0.05910671782,-0.03455338068
4.57,0.03605792986,-0.05537175129
4.58,0.00410061247,-0.06936977574
4.59,-0.03892453961,-0.06156833731
4.6,-0.06732582472,-0.02220880818
4.61,-0.05836721692,0.02282899338
4.62,-0.02768584239,0.04292767826
4.63,-0.003185445614,0.04129127619
4.64,0.01220986617,0.03605801697
4.65,0.02815150622,0.02856098817
4.66,0.04266190711,0.0113628518
4.67,0.04706844817,-0.01547635472
4.68,0.03350275675,-0.0462582957
4.69,-0.004462885308,-0.06592423966
4.7,-0.05403719569,-0.04991298996
4.71,-0.07620137739,0.003717224569
4.72,-0.04775194121,0.05413385963
4.73,0.002642230295,0.06122681212
4.74,0.03025697176,0.03467211176
4.75,0.02881435223,0.01171363495
4.76,0.02265635989,0.00620001914
4.77,0.02647548368,0.005507708574
4.78,0.03679716615,-0.003848272102
4.79,0.04171468886,-0.02788133568
4.8,0.02375278242,-0.05973345835
4.81,-0.0223293693,-0.07216390879
4.82,-0.06799578878,-0.04254439497
4.83,-0.07591037362,0.01096935549
4.84,-0.04696558827,0.04743465071
4.85,-0.01293272376,0.05367754058
4.86,0.009760211717,0.04624549688
4.87,0.02592231179,0.0344640686
4.88,0.03433559244,0.0169088763
4.89,0.03082847428,0.002149970955
4.9,0.02678004085,-0.001897049176
4.91,0.03247875609,-0.007616673635
4.92,0.03453894298,-0.02787949166
4.93,0.01564248704,-0.05018942691
4.94,-0.01749276543,-0.05303226957
4.95,-0.04433782262,-0.03303560642
4.96,-0.05244813869,-0.00174751889
4.97,-0.03920985058,0.02641068013
4.98,-0.01225356095,0.03615390127
4.99,0.007241328395,0.02338949908
5,0.004182037265,0.007939500007
5.01,-0.007189103547,0.01199775351
5.02,-0.001447304934,0.02833078379
5.03,0.0218000743,0.03148350617
5.04,0.04093416768,0.01329726728
5.05,0.04216979954,-0.01310887104
5.06,0.02719333641,-0.03380027672
5.07,0.003463566641,-0.04067857348
5.08,-0.01705244112,-0.03114170684
5.09,-0.02340091061,-0.01474476019
5.1,-0.0201438739,-0.005761449128
5.11,-0.02075530424,-0.002966085088
5.12,-0.02445434869,0.005490668746
5.13,-0.01986859085,0.01818244238
5.14,-0.008360744257,0.02392608976
5.15,0.0004625382115,0.02392050365
5.16,0.009626190174,0.02518754601
5.17,0.02522158043,0.02033647339
5.18,0.03543932639,0.0003713607175
5.19,0.02553443063,-0.02205805184
5.2,0.004017632371,-0.02738435697
5.21,-0.00905743609,-0.01718948936
5.22,-0.00937773306,-0.007348610719
5.23,-0.006469173944,-0.004742607027
5.24,-0.006968484806,-0.005672901909
5.25,-0.01174816442,-0.004714961643
5.26,-0.01668916352,0.003280689987
5.27,-0.0119376636,0.01637946196
5.28,0.004743841438,0.02043441559
5.29,0.01711292877,0.007285712206
5.3,0.01112120155,-0.007948603075
5.31,-0.001741872159,-0.007328795785
5.32,-0.002310672256,0.001999887233
5.33,0.005995340557,0.00150634388
5.34,0.006016323775,-0.008500040932
5.35,-0.005238669403,-0.01280846831
5.36,-0.01605795196,-0.004692439559
5.37,-0.01671449626,0.01015157468
5.38,-0.004835899272,0.02174783904
5.39,0.01331526661,0.01981731238
5.4,0.02237397815,0.00386390081
5.41,0.01471708519,-0.009578532046
5.42,0.005484993573,-0.007811907127
5.43,0.01021399012,-0.004542628377
5.44,0.01549481088,-0.01791876497
5.45,-0.001091680558,-0.03519707804
5.46,-0.03059775154,-0.02876181247
5.47,-0.04265189653,0.0002754321053
5.48,-0.02912758854,0.02433932068
5.49,-0.009534241511,0.02911267562
5.5,0.001146547497,0.024547734
5.51,0.005758663085,0.02231828845
5.52,0.01234334849,0.02364459723
5.53,0.0258353258,0.02277446776
5.54,0.04358872972,0.009159384077
5.55,0.04920018618,-0.02185803432
5.56,0.02642826066,-0.05254801206
5.57,-0.01343927905,-0.05552741293
5.58,-0.03834609249,-0.02995265967
5.59,-0.03584879365,-0.003982752188
5.6,-0.02510631413,0.00406806373
5.61,-0.02434118905,0.004699042043
5.62,-0.02893132364,0.01360290051
5.63,-0.02559331253,0.03091647
5.64,-0.008451410691,0.04688169876
5.65,0.02013548121,0.05035625264
5.66,0.04864361356,0.03287701975
5.67,0.05953953169,-0.0009992363437
5.68,0.04642337532,-0.03226772792
5.69,0.02141941326,-0.04691909514
5.7,-0.002248592001,-0.04753619717
5.71,-0.02222468193,-0.03989419461
5.72,-0.03675690639,-0.02425766408
5.73,-0.0409355223,-0.004998002788
5.74,-0.03786783707,0.01027546045
5.75,-0.03422590805,0.02451750489
5.76,-0.02330149841,0.04402591416
5.77,0.005910563026,0.05753826755
5.78,0.04300412162,0.04515467557
5.79,0.06162167087,0.008274130459
5.8,0.05042838365,-0.02934323101
5.81,0.02124398044,-0.04841207868
5.82,-0.008952403543,-0.04629819832
5.83,-0.02893990615,-0.02953581738
5.84,-0.03426063566,-0.008915803199
5.85,-0.03026116851,0.005982816646
5.86,-0.02558285481,0.01686894919
5.87,-0.01701737723,0.03058563671
5.88,0.004698588393,0.04001121691
5.89,0.03175000053,0.02916848894
5.9,0.04201954881,0.0003887744863
5.91,0.02872140644,-0.02384249971
5.92,0.008118622755,-0.02970147852
5.93,-0.004792793428,-0.02472026595
5.94,-0.01134006048,-0.0204041074
5.95,-0.01934532562,-0.01769528173
5.96,-0.03117300606,-0.009651293994
5.97,-0.03959374631,0.01062066438
5.98,-0.02988670316,0.03915856205
5.99,0.003714968188,0.05474965353
6,0.04056859117,0.03793370505
