"Freq [GHz]","re(S(Antenna1_1_1,Antenna1_1_1)) []","im(S(Antenna1_1_1,Antenna1_1_1)) []"
3,-0.188707368861393,-0.172839958882326
3.0175,-0.201559415660113,-0.154879656277694
3.035,-0.206271162916577,-0.137618285731135
3.0525,-0.211778013873528,-0.124061201321154
3.07,-0.218888345898973,-0.107717839562774
3.0875,-0.217009993321216,-0.0890386069943111
3.105,-0.220508838771493,-0.0826639550526729
3.1225,-0.226617768507642,-0.0618336877649398
3.14,-0.224407209380517,-0.0459607588518418
3.1575,-0.223839453099542,-0.0322656039933299
3.175,-0.225537844815947,-0.0141321756873757
3.1925,-0.216686892605167,0.004437786623697
3.21,-0.212133646688643,0.0140214939368935
3.2275,-0.208315909467898,0.033362493574907
3.245,-0.192799700978588,0.0457278491915647
3.2625,-0.188824775398122,0.0470507880704738
3.28,-0.192271671871695,0.0681920346184707
3.2975,-0.169273001383446,0.0881689518720073
3.315,-0.157114980129238,0.0853999610397836
3.3325,-0.153505144973174,0.0997835012583471
3.35,-0.13514203567653,0.112454549860248
3.3675,-0.116703127647088,0.113676249317012
3.385,-0.109834536665526,0.116743545673613
3.4025,-0.0947083473306052,0.123975796012757
3.42,-0.0822854532071445,0.126356675316361
3.4375,-0.0673095759120872,0.132613292340451
3.455,-0.0441965318420284,0.132263996416013
3.4725,-0.034673286359579,0.121514089533226
3.49,-0.0253428487497215,0.129805085709546
3.5075,-0.000584748099451296,0.125873645956848
3.525,0.0114524079120739,0.109736936948772
3.5425,0.0109779319891429,0.108978170644134
3.56,0.0354681437062276,0.113425534729644
3.5775,0.0515593612799105,0.0935658040422556
3.595,0.0590066973479724,0.0834429414865434
3.6125,0.067456757398613,0.0734714231505833
3.63,0.0794808320446697,0.057874917150455
3.6475,0.0775925738854567,0.0484011540821825
3.665,0.0928192683245196,0.0379137927172499
3.6825,0.0944294291538762,0.0202197907802759
3.7,0.0971148559689312,0.0106371361349543
3.7175,0.111303942276053,-0.00272401954230017
3.735,0.108438765877726,-0.0323865775991986
3.7525,0.100284010553902,-0.0414221470174919
3.77,0.10104600921263,-0.0526625790009587
3.7875,0.103849515668125,-0.0712712384795199
3.805,0.0907720877060687,-0.0882404806072459
3.8225,0.0886528492510634,-0.097535633626711
3.84,0.0807618609803762,-0.110823013138784
3.8575,0.0768676902881956,-0.124883123865082
3.875,0.0703758010353063,-0.13941915375343
3.8925,0.0518315452870333,-0.1615851591983
3.91,0.0322119481062703,-0.159044960656277
3.9275,0.0278676252207426,-0.168138614466269
3.945,0.0142150236023108,-0.179824690688373
3.9625,-0.00655705808004431,-0.188408723581447
3.98,-0.017237815666502,-0.18646102652805
3.9975,-0.0318690547545682,-0.198344562652147
4.015,-0.0502428585261807,-0.202854407949408
4.0325,-0.074056192155359,-0.199179662542456
4.05,-0.0834415067845466,-0.197509398077087
4.0675,-0.0997373731561226,-0.193923189557049
4.085,-0.112874434155618,-0.198799656510608
4.1025,-0.133927933272241,-0.191248815055202
4.12,-0.148958291344759,-0.186742954719821
4.1375,-0.160037787070726,-0.177770724270431
4.155,-0.180263420892065,-0.177872064265412
4.1725,-0.196463704825562,-0.159943344170485
4.19,-0.206925466204005,-0.14616716498446
4.2075,-0.207566321566315,-0.139103873080789
4.225,-0.229474757813167,-0.135032019283547
4.2425,-0.23910448038638,-0.116521574010886
4.26,-0.24802726224887,-0.10145606215855
4.2775,-0.252862824925481,-0.093499914506592
4.295,-0.270559962039024,-0.0758050084900934
4.3125,-0.271853107626881,-0.0541923743920176
4.33,-0.269137441758705,-0.0372679709913655
4.3475,-0.270995243275056,-0.032682446273722
4.365,-0.278002153143581,-0.0142312882680522
4.3825,-0.28162830758843,0.00197688188200819
4.4,-0.275610314180727,0.0240950356206782
4.4175,-0.270592001903044,0.0324933148276563
4.435,-0.272336568088116,0.0433134877053901
4.4525,-0.274548469800435,0.0665219740699779
4.47,-0.257071693393239,0.0820360320436535
4.4875,-0.253180162581216,0.0857655229258658
4.505,-0.255516093878207,0.0991140878021633
4.5225,-0.245189043617515,0.121419821643054
4.54,-0.231862925672458,0.127902215907831
4.5575,-0.225127555739841,0.138767686012871
4.575,-0.214453222358566,0.14877770294168
4.5925,-0.204865474655067,0.155331603686228
4.61,-0.197140648745411,0.167161428937137
4.6275,-0.180312760731317,0.173721439674902
4.645,-0.175339557089872,0.175171503816599
4.6625,-0.167339489671147,0.188967881803165
4.68,-0.148203612117064,0.200209304762152
4.6975,-0.129969297802744,0.194621864317509
4.715,-0.125690578365839,0.197819340065153
4.7325,-0.108661500626118,0.202969147561432
4.75,-0.097512832301468,0.197948722063609
4.7675,-0.0931424948164555,0.200209492474773
4.785,-0.081472160154277,0.206845913243492
4.8025,-0.0686628882811192,0.205351344990443
4.82,-0.0573310973622895,0.209309906671483
4.8375,-0.0386710312205009,0.20458748564025
4.855,-0.0317214979170797,0.194488017379508
4.8725,-0.0286189325951133,0.195493542081945
4.89,-0.0133051552681593,0.196013367685687
4.9075,-0.00458275505774051,0.18499290545014
4.925,-0.0026741104509066,0.186100388410167
4.9425,0.0123560496866301,0.187990854367452
4.96,0.0285192653822632,0.177104399823209
4.9775,0.0309615084450577,0.165976161825144
4.995,0.0377796925575626,0.161852924143487
5.0125,0.0421634822771308,0.156678460369735
5.03,0.0530715984292055,0.152021915725859
5.0475,0.0598146062703529,0.141937058569656
5.065,0.0634430632145996,0.132908921732011
5.0825,0.0682136352047459,0.131297227637224
5.1,0.0818275683026856,0.119287051846745
5.1175,0.0809062632191929,0.103559108582713
5.135,0.0774466700831779,0.0987504957290376
5.1525,0.0852819643553382,0.0974700057578158
5.17,0.0932467102723881,0.0834944816849518
5.1875,0.0929032094104432,0.0720956988338456
5.205,0.0927232624895545,0.063364729500402
5.2225,0.0951762334454245,0.0548327011810642
5.24,0.0954697485794786,0.0439294371445276
5.2575,0.0939187479732319,0.032563753006498
5.275,0.0894867480915632,0.0263120662779234
5.2925,0.0907220131805072,0.0208270818512887
5.31,0.0950414716378538,0.0107591087718651
5.3275,0.0899858582245827,-0.00619319826437303
5.345,0.0826461514654454,-0.0117999730474889
5.3625,0.0801217557314344,-0.0195454007980674
5.38,0.0768055023540566,-0.0292050543353153
5.3975,0.067623633698197,-0.03751221003298
5.415,0.0639681266337697,-0.0408681174267799
5.4325,0.0600731326935566,-0.0474862697271256
5.45,0.0582994830029112,-0.0569734542284465
5.4675,0.0500953510868184,-0.0682707054001215
5.485,0.0380718878769024,-0.0763171217726569
5.5025,0.0281966944571373,-0.0775334989050727
5.52,0.0220116188842837,-0.0826032787142703
5.5375,0.0127845700436005,-0.0863663851233017
5.555,0.00394249442945612,-0.0887071434318556
5.5725,0.000194675019508924,-0.0907700167379362
5.59,-0.00761550322536771,-0.100495741693778
5.6075,-0.0208406412226019,-0.106234331600661
5.625,-0.037449561960742,-0.105512939940896
5.6425,-0.0445580492656086,-0.102265705380251
5.66,-0.0543769757528226,-0.104482342356048
5.6775,-0.0649798688647964,-0.105070895184808
5.695,-0.0769451635256867,-0.103103653833482
5.7125,-0.0843385546158132,-0.102276109178882
5.73,-0.0956064458479999,-0.102943199363091
5.7475,-0.110383145441565,-0.103587764125834
5.765,-0.127661079794691,-0.0935042735802316
5.7825,-0.131931762932146,-0.0826665466323394
5.8,-0.135674105512322,-0.0819031588813716
5.8175,-0.149685926325006,-0.0826576571268683
5.835,-0.164851507008793,-0.0713525794256766
5.8525,-0.170839727924472,-0.0612685485172676
5.87,-0.179051588667807,-0.0564102167249935
5.8875,-0.192881013994814,-0.0461291009288878
5.905,-0.199442307660953,-0.0305873304857854
5.9225,-0.200724534970443,-0.0178790804103432
5.94,-0.201967680293436,-0.0137470710751264
5.9575,-0.21380014235002,-0.00754488503467296
5.975,-0.224345095997146,0.00724972172544814
5.9925,-0.227505462878806,0.0262088911379522
6.01,-0.226184156852265,0.03630099187953
6.0275,-0.233364341074147,0.0490268855257622
6.045,-0.233410890278859,0.0693528279230283
6.0625,-0.224724790613567,0.0810627726001774
6.08,-0.225832649198794,0.0865041575177963
6.0975,-0.231152582806116,0.101102675958055
6.115,-0.228851814024495,0.118788066603457
6.1325,-0.226044078057825,0.134429225370443
6.15,-0.218592997803508,0.150647945307846
6.1675,-0.21118968293848,0.163235206825836
6.185,-0.204213477282381,0.176145610830477
6.2025,-0.194838268162651,0.189470694652513
6.22,-0.1838075790134,0.197152648766835
6.2375,-0.181129922890203,0.206434445086841
6.255,-0.172192444286575,0.224249043960906
6.2725,-0.155654449854957,0.236074196826342
6.29,-0.142481307385736,0.242875813373913
6.3075,-0.130033016402128,0.251360172925655
6.325,-0.115749440636799,0.258901823473327
6.3425,-0.100932799287867,0.264010855841787
6.36,-0.0869989952573586,0.268020770897556
6.3775,-0.075844953624211,0.271347046556889
6.395,-0.0631597221363478,0.281813161711489
6.4125,-0.0395097990769966,0.288042283802555
6.43,-0.0180833923778665,0.282364026363866
6.4475,-0.00782826533571783,0.275998619412856
6.465,0.00420840632145817,0.279766259505836
6.4825,0.0230010944936387,0.278911768420461
6.5,0.0395987661027054,0.272407394485988
6.5175,0.0496490618280139,0.268024379800494
6.535,0.0675011893931921,0.267211018574715
6.5525,0.0875447843978551,0.259930832545096
6.57,0.10631219254659,0.242982329264472
6.5875,0.111215285926648,0.228224018298847
6.605,0.117904132391225,0.221338198720186
6.6225,0.132337965353068,0.21725586576292
6.64,0.147547293530412,0.19952500488165
6.6575,0.151971150462874,0.185879462469874
6.675,0.161015116823175,0.177489944559489
6.6925,0.176683293176379,0.161290215617062
6.71,0.179425071973827,0.137682723470003
6.7275,0.178670007666092,0.123399651655239
6.745,0.178230634949845,0.1128554192977
6.7625,0.186362807519058,0.101479713381197
6.78,0.189527107172852,0.0832723982863089
6.7975,0.190268150381342,0.0650057875995611
6.815,0.186698872127619,0.0506183943098632
6.8325,0.187528688808557,0.0336432251195727
6.85,0.180527918918892,0.0161600382509874
6.8675,0.172186377573962,0.00257668323924663
6.885,0.166433679038163,-0.00455620212423048
6.9025,0.166397724660284,-0.0193006029313602
6.92,0.159625701048951,-0.0363695566958151
6.9375,0.146383633263896,-0.0510810749818646
6.955,0.136579785118566,-0.0579421926274855
6.9725,0.1279240241804,-0.0680905410765988
6.99,0.115266112680978,-0.079452493446422
7.0075,0.100542091222724,-0.0824828594482591
7.025,0.0927339282708601,-0.0864753407434676
7.0425,0.0863080114752222,-0.091703882510099
7.06,0.0752568530740219,-0.105737120658183
7.0775,0.0562424981372321,-0.109766086560255
7.095,0.0407461060860477,-0.109782416315119
7.1125,0.0327914757241339,-0.107273185145934
7.13,0.0200646823962505,-0.113811168319607
7.1475,0.00592243930713735,-0.110361986764721
7.165,-0.0044810584141072,-0.107093616053977
7.1825,-0.00788403815307885,-0.107535459658091
7.2,-0.0238110353423512,-0.114986035470834
7.2175,-0.0412914408243441,-0.110643205843105
7.235,-0.0556017473144095,-0.100031979837165
7.2525,-0.0585543102888132,-0.0933273711795898
7.27,-0.0675267394466158,-0.09180208750751
7.2875,-0.079405489554152,-0.0880674572514793
7.305,-0.0876237079911235,-0.076543015597451
7.3225,-0.0898756792632059,-0.0740383665986166
7.34,-0.0999852705717853,-0.073460687322509
7.3575,-0.117488200857224,-0.0651617613382372
7.375,-0.120371877222135,-0.0466385657741326
7.3925,-0.120634277275409,-0.0424795300496223
7.41,-0.12555235297089,-0.0397700951177168
7.4275,-0.135105600730028,-0.0309048394878337
7.445,-0.136144984688904,-0.0227539410353081
7.4625,-0.141002629587268,-0.0163849319567478
7.48,-0.145161203084991,-0.011455465163114
7.4975,-0.154306882516468,-0.00087704294880649
7.515,-0.154313443515697,0.0128010586306188
7.5325,-0.149430744958218,0.0206488708428245
7.55,-0.15310720081984,0.0193157145126137
7.5675,-0.161281169696679,0.0311723450466073
7.585,-0.160599802866726,0.0436500147874763
7.6025,-0.156750906209736,0.0492682455736889
7.62,-0.162610517680827,0.056065470954796
7.6375,-0.161572117815596,0.0687903346949339
7.655,-0.157300011072672,0.0788751720966468
7.6725,-0.152305407285761,0.0818187123798262
7.69,-0.154755363823832,0.0863071952101602
7.7075,-0.158148788377688,0.0942696943685824
7.725,-0.155976468476449,0.110081767523303
7.7425,-0.148094011781015,0.11574087625044
7.76,-0.145308332556011,0.121230928452573
7.7775,-0.146117334896475,0.129272740371005
7.795,-0.135825092293067,0.142432324304515
7.8125,-0.127970385306972,0.138867352218179
7.83,-0.131456015223124,0.143194227110131
7.8475,-0.132859014439767,0.155709155102705
7.865,-0.122540834917722,0.168631435528318
7.8825,-0.114214962298619,0.173626770460682
7.9,-0.105873030251017,0.178032319479729
7.9175,-0.101462881251516,0.183101484815263
7.935,-0.0928553265197891,0.18943871238096
7.9525,-0.0831279316634035,0.191362952888395
7.97,-0.0819389590556506,0.190359700381411
7.9875,-0.0804131057996356,0.203765433155742
8.005,-0.0647584937230984,0.213029933521593
8.0225,-0.0495523630519963,0.211825337383101
8.04,-0.0454611914238569,0.209335141225456
8.0575,-0.036257198084325,0.214348504698127
8.075,-0.0266653101330794,0.214988228112251
8.0925,-0.0165759633481349,0.214006366952187
8.11,-0.0122115646903889,0.213890447771258
8.1275,-0.0021984439925453,0.218718561302494
8.145,0.0108466873319109,0.220313569153409
8.1625,0.0266121974038925,0.213958985108173
8.18,0.031053728973997,0.206391164183539
8.1975,0.0356834388181831,0.205263513812219
8.215,0.0474344764717723,0.207051787004569
8.2325,0.0587109247415329,0.197551343416672
8.25,0.0627291144525975,0.192452079580957
8.2675,0.070660873094122,0.190651569055193
8.285,0.084051873825397,0.183970823376677
8.3025,0.0904674799208252,0.17114690292133
8.32,0.0940106074532101,0.1618709916027
8.3375,0.0948706912251186,0.156518661143882
8.355,0.103736389675335,0.151877688486257
8.3725,0.11106900343292,0.141806502802812
8.39,0.114813529172987,0.127309630000229
8.4075,0.113064986277831,0.120110607192694
8.425,0.11889809866563,0.11161269923056
8.4425,0.120211765477399,0.0974722799477089
8.46,0.11470729244431,0.086418176624438
8.4775,0.113092641260534,0.0837346132662222
8.495,0.117291670339076,0.0750476453660666
8.5125,0.118534876853389,0.0612518015490646
8.53,0.111560203222922,0.0490243802452002
8.5475,0.107219107877163,0.0410865136252136
8.565,0.102086263670396,0.0326961351550779
8.5825,0.0970792034484908,0.0225040063641863
8.6,0.0868960745591182,0.0154800637620525
8.6175,0.0794650986868371,0.0126481991530484
8.635,0.0781858148232602,0.0101875742949463
8.6525,0.0751023593778316,-0.00356137947457229
8.67,0.0615964103744071,-0.012976708450697
8.6875,0.0473968733696478,-0.0150139432013242
8.705,0.0417434163080111,-0.0154235631057742
8.7225,0.0289566585289694,-0.0212430663626067
8.74,0.0167707741609035,-0.0183475831474644
8.7575,0.00873477901265332,-0.015856843785287
8.775,0.00344544794545882,-0.0163775987052467
8.7925,-0.00683346001147011,-0.0184074594012832
8.81,-0.018521783259514,-0.0206513391235973
8.8275,-0.0354717698477873,-0.0137193895145614
8.845,-0.0408767011804032,-0.0046709418931655
8.8625,-0.0466600260121449,-0.00256045829180947
8.88,-0.0592096558309567,0.000752362066119377
8.8975,-0.067928776603229,0.012954941754442
8.915,-0.0692973479341093,0.018705028684068
8.9325,-0.0786000641306565,0.0214229992092138
8.95,-0.0896605702742445,0.0310850117076354
8.9675,-0.0946972853412438,0.0447022507238563
8.985,-0.0970550967309091,0.0553937409914962
9.0025,-0.0981437037340628,0.0635000927460538
9.02,-0.10328270445556,0.0713799257946579
9.0375,-0.10786384359613,0.0838956451656258
9.055,-0.106375383560875,0.0973147735706286
9.0725,-0.105210159368447,0.103440587867882
9.09,-0.112109613072105,0.115013147465121
9.1075,-0.109153099977284,0.134917128850692
9.125,-0.0970539014354824,0.144725562173632
9.1425,-0.0959553973973455,0.146303890606345
9.16,-0.0961425874748088,0.159652165450844
9.1775,-0.0892431399699476,0.171100575029752
9.195,-0.0825989487896929,0.179738017851963
9.2125,-0.076400276270597,0.188649804915453
9.23,-0.0696058980594098,0.197371781241595
9.2475,-0.0618541244351708,0.208672799144431
9.265,-0.0460883203989223,0.216226169151119
9.2825,-0.0367268546217482,0.214751296503372
9.3,-0.0346866871896911,0.219807241181817
9.3175,-0.0244327582806704,0.232538676903499
9.335,-0.00799374195340401,0.234898868955522
9.3525,0.000259115323403725,0.234991676383461
9.37,0.00898867498190107,0.240718428090573
9.3875,0.0245952430195427,0.244993204742342
9.405,0.0378681180927782,0.241877367840011
9.4225,0.0484649287577726,0.239858141517597
9.44,0.0560585467445613,0.237466757059697
9.4575,0.065497767814874,0.239445842650729
9.475,0.0784712624301599,0.240285577892014
9.4925,0.0937552429054206,0.235138500198171
9.51,0.101699877517513,0.228797132808766
9.5275,0.113832635695099,0.226255361420259
9.545,0.124773442273481,0.217016828887008
9.5625,0.130792866354016,0.208265977357611
9.58,0.135712751998188,0.206276695417994
9.5975,0.147793327875003,0.20050838747014
9.615,0.156174848432562,0.191044228642498
9.6325,0.162244710276873,0.181292180372844
9.65,0.167459813675937,0.173015144246966
9.6675,0.173413409138214,0.164278724191389
9.685,0.178636440337082,0.154177940093686
9.7025,0.181923144587211,0.142614131034316
9.72,0.18150893253727,0.133704825767475
9.7375,0.185458132048401,0.129716412665267
9.755,0.194477930554808,0.115872963844863
9.7725,0.191709250410076,0.10085882325135
9.79,0.187974836781484,0.0914254273502009
9.8075,0.188291350963181,0.0864035336811244
9.825,0.190462561384853,0.0731828403219727
9.8425,0.185985645491953,0.0626135384082821
9.86,0.181629989282278,0.0536629436829164
9.8775,0.180654963569753,0.0479582265769625
9.895,0.180002666731397,0.0342520643360346
9.9125,0.172271835585748,0.0210972452406217
9.93,0.159508167557159,0.0138693348576966
9.9475,0.154024994648583,0.0126676861253116
9.965,0.152759360477842,0.00512950165629542
9.9825,0.143207284968553,-0.0086403247292786
10,0.128662882470836,-0.0100928533518527
