"Freq [GHz]","re(S(Antenna1_1_1,Antenna1_1_1)) []","im(S(Antenna1_1_1,Antenna1_1_1)) []"
3,-0.184799965761393,-0.176058730602326
3.0175,-0.204604359633113,-0.161138550370694
3.035,-0.213771924924577,-0.138079716198135
3.0525,-0.213204484375528,-0.119228122930154
3.07,-0.220434905910973,-0.105548999346774
3.0875,-0.215404331641216,-0.0821692056510111
3.105,-0.212467946995493,-0.0801448569726729
3.1225,-0.220663862985642,-0.0683346210349398
3.14,-0.225813186631517,-0.0533125836818418
3.1575,-0.227585079897542,-0.03627128112333
3.175,-0.234275483201947,-0.0168111625273757
3.1925,-0.223971739950567,0.015524045551397
3.21,-0.204820213192643,0.0209905188658935
3.2275,-0.203927155952898,0.032700426354907
3.245,-0.188330757774488,0.0440653826615647
3.2625,-0.188132192839122,0.0449737734204738
3.28,-0.188067243271695,0.0637070248984707
3.2975,-0.176968166758446,0.0785166111200073
3.315,-0.166293177471238,0.0932980211357836
3.3325,-0.150135374713174,0.103539325818347
3.35,-0.13600325710653,0.116457988744248
3.3675,-0.110333081414088,0.116758108008012
3.385,-0.106006942575526,0.111030376540613
3.4025,-0.0988369116706052,0.122329790381757
3.42,-0.0766778230671445,0.128695672974861
3.4375,-0.0685259398520872,0.119357192709451
3.455,-0.0598242410520284,0.137889526149013
3.4725,-0.028443780209579,0.133359285475226
3.49,-0.0194957036997215,0.125053689325546
3.5075,-0.00466951963645129,0.124305436956848
3.525,0.0143246330420739,0.117303993068772
3.5425,0.0219464122391429,0.102285698975134
3.56,0.0273674727532276,0.103766079819644
3.5775,0.0473981722379105,0.0966767883622556
3.595,0.0534300137989724,0.0826646364165434
3.6125,0.066269602842613,0.0810864834605833
3.63,0.0808482425772797,0.063440821300455
3.6475,0.0878433967384567,0.0506115750621825
3.665,0.0938473643985196,0.0323272670472499
3.6825,0.0984703281058762,0.0192733881802759
3.7,0.100976390671931,-0.000662988775045724
3.7175,0.0932294335617535,-0.0127286264023002
3.735,0.0987565535537256,-0.0141215902891986
3.7525,0.108124449403902,-0.0358194504074919
3.77,0.10392700285263,-0.0497344655509587
3.7875,0.110036717478125,-0.0676562749695199
3.805,0.101602983266069,-0.0954043229536459
3.8225,0.0831229438010634,-0.104296863004711
3.84,0.0856285127003762,-0.116734682150784
3.8575,0.0620831685181956,-0.135879641634082
3.875,0.0537971193453063,-0.12825493418463
3.8925,0.0575130792870333,-0.1397701032703
3.91,0.0490134040662703,-0.163541285636277
3.9275,0.0266153795707426,-0.172726956475269
3.945,0.0169461501523108,-0.181485836048373
3.9625,-0.00493061228004431,-0.193786911771447
3.98,-0.025438724377502,-0.18990382758805
3.9975,-0.0308572444445682,-0.193954348362147
4.015,-0.0542444266781807,-0.203110462049408
4.0325,-0.071649671343359,-0.195975524382456
4.05,-0.0818244696545466,-0.195226085507086
4.0675,-0.0962239140151226,-0.201466954957049
4.085,-0.122573236117618,-0.196977723420608
4.1025,-0.132639830142241,-0.183634441095202
4.12,-0.140041257053759,-0.184790441329821
4.1375,-0.160381571849726,-0.184502575750431
4.155,-0.175837587459065,-0.176199908165412
4.1725,-0.197519417395562,-0.172374976660485
4.19,-0.219443960904005,-0.14768600417446
4.2075,-0.214366841603315,-0.127635256653689
4.225,-0.222794286363167,-0.130488036173547
4.2425,-0.23872975694638,-0.111032329785886
4.26,-0.23661371291887,-0.10180749432255
4.2775,-0.250242093145481,-0.098043423781592
4.295,-0.265671927599024,-0.0848671430340934
4.3125,-0.279668321066881,-0.0643244029510176
4.33,-0.284096867758705,-0.0396268494243655
4.3475,-0.280288082495056,-0.014708095238722
4.365,-0.266070825083581,-0.00288970227505218
4.3825,-0.26898739484843,-0.00191690744099181
4.4,-0.275442771670727,0.0155713126006782
4.4175,-0.272071517383044,0.0303210087076563
4.435,-0.272347907088116,0.0409592487853901
4.4525,-0.278615511460435,0.0589795749899779
4.47,-0.270023058107239,0.0872177169336535
4.4875,-0.251948998706216,0.0984787700058658
4.505,-0.244799185927207,0.105208528332163
4.5225,-0.235726018774515,0.114843163033054
4.54,-0.230392289653458,0.117962371397831
4.5575,-0.233942393556841,0.132471108122871
4.575,-0.219444455191566,0.15167254803168
4.5925,-0.209342062825067,0.156732451266228
4.61,-0.201531025765411,0.174106947567137
4.6275,-0.176137125211317,0.184081813684902
4.645,-0.162796196379872,0.177555129286599
4.6625,-0.156922336591147,0.180557408281165
4.68,-0.150331026757064,0.183765650202152
4.6975,-0.143040038852744,0.191416501914509
4.715,-0.133771354845839,0.200841251957153
4.7325,-0.114364362926118,0.211292020606432
4.75,-0.096393096181468,0.206362835673609
4.7675,-0.0878039884964555,0.208714460476773
4.785,-0.069442333864277,0.208603256160092
4.8025,-0.0578992047811192,0.197732490975443
4.82,-0.0584576561422895,0.192664211610483
4.8375,-0.0531514181405009,0.20085537702525
4.855,-0.0374160004670797,0.201911924309508
4.8725,-0.0270126047851133,0.197715061721945
4.89,-0.0185535708641593,0.197391498265687
4.9075,-0.00252695244774051,0.19556120154014
4.925,0.0057608964140934,0.186455894240167
4.9425,0.0176466871156301,0.185813519027452
4.96,0.0314818729622632,0.169946061083209
4.9775,0.0264543697677577,0.159570436925144
4.995,0.0318374760668626,0.163755526713487
5.0125,0.0423182713981308,0.156563242269735
5.03,0.0475741100052055,0.153082079255859
5.0475,0.0576554045093529,0.148695209609656
5.065,0.0697328562425996,0.140137540854011
5.0825,0.0764773574937459,0.126627949962224
5.1,0.0807582605106856,0.114731536036745
5.1175,0.0813420296141929,0.102347613862713
5.135,0.0775708157631779,0.0936193265990376
5.1525,0.0783429106753382,0.0940430543748158
5.17,0.0858992738723881,0.0883073239662518
5.1875,0.0932135172104432,0.0811485192948456
5.205,0.0997934122355545,0.067616142803402
5.2225,0.102564132365424,0.0524903057625642
5.24,0.0970079211594786,0.0365228514931276
5.2575,0.0908891122132319,0.030105416769098
5.275,0.0879618330615632,0.0238295610289234
5.2925,0.0857091114005072,0.0182154197692887
5.31,0.0864816215968538,0.0159619828718651
5.3275,0.0938641027495827,0.00476122142562697
5.345,0.0905346550984455,-0.0109786495274889
5.3625,0.0870057338234344,-0.0227457912100674
5.38,0.0771902989120566,-0.0381933259393153
5.3975,0.061552372048197,-0.04083664213298
5.415,0.0593095269317697,-0.0389211981467799
5.4325,0.0590260964005566,-0.0457205301371256
5.45,0.0566317245899112,-0.0542510230784465
5.4675,0.0502477088908184,-0.0641917602101214
5.485,0.0434858679249024,-0.0727344154026569
5.5025,0.0333682625981373,-0.0816004487350727
5.52,0.0218117685602837,-0.0870074811442703
5.5375,0.0104147893836005,-0.0899946003233017
5.555,-0.000813154735543878,-0.0887591161218556
5.5725,-0.00200869910049108,-0.0864830026579362
5.59,-0.00347557264536771,-0.0984956095837783
5.6075,-0.0213525484526019,-0.109993325656661
5.625,-0.040315995280742,-0.104393369067896
5.6425,-0.0460129683656086,-0.0994836408302515
5.66,-0.0523605611528226,-0.100585258045048
5.6775,-0.0597075119847964,-0.103380670805808
5.695,-0.0703338819656867,-0.108856271829483
5.7125,-0.0894626601358132,-0.109688466872782
5.73,-0.0998722088379999,-0.100793338853091
5.7475,-0.109902660601565,-0.104739489155834
5.765,-0.133614842338691,-0.0956851335002316
5.7825,-0.137685948352145,-0.0757268090893394
5.8,-0.134454698542322,-0.0722827656808716
5.8175,-0.138027000035006,-0.0739474158248683
5.835,-0.148655613008793,-0.0811697825456766
5.8525,-0.173357402234472,-0.0795362842572676
5.87,-0.193773447377807,-0.0613833826349935
5.8875,-0.200712974481814,-0.0400326025288878
5.905,-0.202098359431453,-0.0253609307357854
5.9225,-0.203271346040443,-0.0113811304043432
5.94,-0.198025999463436,-0.00276050449512643
5.9575,-0.19993979683202,-0.00409178723467296
5.975,-0.211131971061146,-0.00227485240455186
5.9925,-0.228323701907806,0.00680434798795216
6.01,-0.243797025975265,0.02872009710953
6.0275,-0.246271601624147,0.0579119206857622
6.045,-0.234784159768859,0.0806721968050283
6.0625,-0.220780969193567,0.0905474239091774
6.08,-0.215275604806294,0.0907111861177963
6.0975,-0.220794458251116,0.095910721348055
6.115,-0.226951218584495,0.107503648013457
6.1325,-0.232146939747825,0.126028194098443
6.15,-0.229522160813508,0.150650229715846
6.1675,-0.21704798160848,0.170000234399836
6.185,-0.204257676892381,0.186014603307477
6.2025,-0.185701037792651,0.194123561180513
6.22,-0.1775360408734,0.194785385856835
6.2375,-0.174652180890203,0.200681287861541
6.255,-0.174978826326575,0.213049678682906
6.2725,-0.166661254804957,0.233067547856342
6.29,-0.150401474165736,0.250115844033913
6.3075,-0.128538829382128,0.259809348925655
6.325,-0.110125866951799,0.263339586143327
6.3425,-0.0940834463898673,0.262210135671787
6.36,-0.0862629229273586,0.263666935747556
6.3775,-0.0750505889642109,0.270889862056889
6.395,-0.0598659697863478,0.276381266581489
6.4125,-0.0466572867219966,0.279333966052555
6.43,-0.0304243099318665,0.286953371053866
6.4475,-0.00797709467771783,0.288952536172856
6.465,0.0133110533623582,0.283933183045836
6.4825,0.0293552918716386,0.275322446930461
6.5,0.0386859742117054,0.267055929875988
6.5175,0.0480175061730139,0.268781527260494
6.535,0.0705694876331922,0.267074491324715
6.5525,0.0880895265578551,0.253102385965096
6.57,0.0983480809365904,0.240714953634472
6.5875,0.105119572756648,0.233170725227847
6.605,0.120497338721225,0.230363598843186
6.6225,0.138610159383068,0.21588855804292
6.64,0.147839217360412,0.19851410778865
6.6575,0.153928507892874,0.186250573887874
6.675,0.164658496093175,0.174076505712489
6.6925,0.173029300726379,0.157071371349162
6.71,0.178527856563827,0.138114480770003
6.7275,0.174646971186092,0.121478794725239
6.745,0.175312410989845,0.1164563481557
6.7625,0.185955939399058,0.105895177633197
6.78,0.193676023632852,0.0861207129263089
6.7975,0.193948873641342,0.0651181033795611
6.815,0.190333100497619,0.0461934074598632
6.8325,0.184376270058557,0.0306951788595727
6.85,0.179660836789892,0.0168589195609874
6.8675,0.174042773517962,0.00111504598924663
6.885,0.161825027068863,-0.0101745513042305
6.9025,0.159462757402284,-0.0136567493113602
6.92,0.159838788893951,-0.0297055281758151
6.9375,0.153304509254896,-0.0458176875318646
6.955,0.143011037585566,-0.0620378701874855
6.9725,0.1277192275204,-0.0731481368365988
6.99,0.113873144380978,-0.080428711066422
7.0075,0.100512388442724,-0.0849689059982591
7.025,0.0900207213908601,-0.0885229935934676
7.0425,0.0803655451652222,-0.0927740878700991
7.06,0.0717747787340219,-0.0975906868381834
7.0775,0.0602879821472321,-0.105036530840255
7.095,0.0469088554960477,-0.107467818349119
7.1125,0.0381050255441339,-0.111705739669934
7.13,0.0217580745862505,-0.119379238383607
7.1475,0.00206121969713735,-0.116107974005721
7.165,-0.00948877059410719,-0.109718666693977
7.1825,-0.0182583959230788,-0.105023935288091
7.2,-0.0246178357323512,-0.102650632758834
7.2175,-0.0331048347043441,-0.104766370511105
7.235,-0.0484013240644095,-0.102807863127165
7.2525,-0.0553026774988132,-0.0942436989295898
7.27,-0.0594368507086158,-0.09922559033751
7.2875,-0.083499163014152,-0.102515110130479
7.305,-0.104247711821124,-0.082688081697451
7.3225,-0.105925151633206,-0.0623079055486166
7.34,-0.101021316777785,-0.052277228852509
7.3575,-0.0968882718812244,-0.0508042141582372
7.375,-0.101671348212135,-0.0584766108741326
7.3925,-0.119071473288409,-0.0563382609296223
7.41,-0.12817679881189,-0.0475409037977168
7.4275,-0.139143804973028,-0.0429290265678337
7.445,-0.156136273159904,-0.0277165309453081
7.4625,-0.157733605918168,-0.00190211909674777
7.48,-0.144917586254991,0.014749657366886
7.4975,-0.128889471666468,0.0127437864511935
7.515,-0.130850913635697,8.14634618789833E-07
7.5325,-0.147930306328218,-0.00424459595017551
7.55,-0.16778426047984,0.00824831246461367
7.5675,-0.174688827455679,0.0316556283596073
7.585,-0.169779458326726,0.0490479934864763
7.6025,-0.163833234689736,0.0616901346840889
7.62,-0.156624175540827,0.070508676799796
7.6375,-0.146028014035596,0.0762678373899339
7.655,-0.140218696642672,0.0679227065476468
7.6725,-0.152409028075761,0.0643299428298262
7.69,-0.166488955123832,0.0750194072901602
7.7075,-0.173478265430518,0.0977265784685824
7.725,-0.161566306174449,0.121324785919303
7.7425,-0.142910942551015,0.12547007961044
7.76,-0.139672145526011,0.122915201082573
7.7775,-0.138415856149475,0.129008751431005
7.795,-0.134544576353067,0.135199401084515
7.8125,-0.129137076285972,0.137581242168179
7.83,-0.132209813160024,0.140579319340131
7.8475,-0.134690202858767,0.153306698862705
7.865,-0.127228917025722,0.169007935758318
7.8825,-0.115372941805619,0.176105786330682
7.9,-0.107066487076017,0.181558897439729
7.9175,-0.0976158929595164,0.184678534155263
7.935,-0.0931749481397891,0.18743459527096
7.9525,-0.0853594690334035,0.194564553598395
7.97,-0.0749340941956506,0.196514957961411
7.9875,-0.0704628734896356,0.195120374945742
8.005,-0.0684953536030984,0.200711707758593
8.0225,-0.0631000899119963,0.207312145649101
8.04,-0.0556546213538569,0.218726352593456
8.0575,-0.035161968634325,0.228071074699127
8.075,-0.0144647514330794,0.219260457069281
8.0925,-0.0115622000381349,0.209646992511187
8.11,-0.00772025549038889,0.210790197146758
8.1275,-0.000607344272545295,0.211760348573494
8.145,0.00791926518191091,0.212204470504409
8.1625,0.0156778188238925,0.210461306708173
8.18,0.020155347663997,0.213083122753539
8.1975,0.0354459492281831,0.220154646862219
8.215,0.0582930056537723,0.214719792344569
8.2325,0.0723361663745329,0.194953189756672
8.25,0.0670716821405975,0.179685904106957
8.2675,0.065478344140122,0.182042078645193
8.285,0.075052331345197,0.181757619516677
8.3025,0.0857546162058252,0.17561395517133
8.32,0.0921725222292101,0.1655873895827
8.3375,0.0950773899553186,0.159693552623882
8.355,0.103764627328335,0.157690026736257
8.3725,0.11923877967292,0.145385271342812
8.39,0.123178190832987,0.122736502080229
8.4075,0.112910202417831,0.108234518524694
8.425,0.10903298046963,0.10904451510056
8.4425,0.115711073877399,0.102284971127709
8.46,0.11647498778431,0.090859989381438
8.4775,0.115524935550534,0.0813423659862222
8.495,0.112923788529076,0.0735503156560666
8.5125,0.113952852823389,0.0691472142470646
8.53,0.121759243662922,0.0568853656717402
8.5475,0.117091750767163,0.0335675156852136
8.565,0.100532928500396,0.0220063714270779
8.5825,0.0891617478084908,0.0201225416391863
8.6,0.0831194862491182,0.0168848414500525
8.6175,0.0757571972768371,0.0151693039440484
8.635,0.0763749298632602,0.0139439832979463
8.6525,0.0752171737878315,0.00222192612542771
8.67,0.0662055291144071,-0.00670659703069697
8.6875,0.0604083563696478,-0.0144758153113242
8.705,0.0478527257980111,-0.0289078765057742
8.7225,0.0211592685886694,-0.0320968316826067
8.74,0.00595754085890345,-0.0187670674774644
8.7575,0.00105645440065332,-0.010751276475287
8.775,-0.000633991692641178,-0.00512780815224666
8.7925,0.00277203189052989,-0.00726956710128319
8.81,-0.00484849187951401,-0.0231520710935973
8.8275,-0.0307422249997873,-0.0252191995545614
8.845,-0.0452076566874032,-0.0126328855231655
8.8625,-0.0533768395801449,-0.00702491022180947
8.88,-0.0690104905209567,0.00279772973611938
8.8975,-0.071677721683229,0.021544704325442
8.915,-0.0684972410141093,0.026767040667068
8.9325,-0.0697800970086565,0.0302569202662138
8.95,-0.0736881511482445,0.0273749104676354
8.9675,-0.0899154042412438,0.0269832611548563
8.985,-0.110848290000909,0.0418368647684962
9.0025,-0.115326399084063,0.0705380832960538
9.02,-0.10415857964556,0.0848924325216579
9.0375,-0.10152538249613,0.0904372112546258
9.055,-0.100619162030875,0.0981342443936286
9.0725,-0.100230801598447,0.103840104754882
9.09,-0.104303573772105,0.110829958286121
9.1075,-0.106874921717284,0.123176818536692
9.125,-0.107853390025482,0.133656166079632
9.1425,-0.112343154587345,0.150698242386345
9.16,-0.100899069024809,0.176552966160844
9.1775,-0.0760665120509476,0.181793202629752
9.195,-0.0708844036816929,0.173348945961963
9.2125,-0.076987145682597,0.180311150175453
9.23,-0.0724763661814098,0.195606586441595
9.2475,-0.0625379547421708,0.206616741414431
9.265,-0.0498921881799223,0.214849245681119
9.2825,-0.0396382977967482,0.216258857653372
9.3,-0.0366180504548911,0.223093836101817
9.3175,-0.0234981756006704,0.236765151243499
9.335,-0.00240611152340401,0.237105704265522
9.3525,0.00377295657340372,0.229626850589461
9.37,0.00569941305590107,0.238000596720573
9.3875,0.0229140243195427,0.246325027332342
9.405,0.0390435532427782,0.242084009340011
9.4225,0.0471557679577726,0.239071943463597
9.44,0.0571903043245613,0.237677288169697
9.4575,0.062774675194874,0.237167422423729
9.475,0.0753308255501599,0.243907764035014
9.4925,0.0964907397854206,0.239727823423171
9.51,0.106554637397513,0.227425821902766
9.5275,0.113496335885099,0.223434544015259
9.545,0.125498037603481,0.216520225597008
9.5625,0.130741147544016,0.205582610327611
9.58,0.132925101238188,0.204147971937994
9.5975,0.144924769785003,0.20165557659314
9.615,0.152761953332562,0.192187735992498
9.6325,0.161249299996873,0.189275508999844
9.65,0.176282600410937,0.176616554736966
9.6675,0.179598063364214,0.158591032441389
9.685,0.177488370608082,0.146784755013686
9.7025,0.176648228573211,0.140290156904316
9.72,0.17788023811327,0.134767076497475
9.7375,0.182601912447401,0.130873845815267
9.755,0.191587378825508,0.121577495974863
9.7725,0.195725948269076,0.10546287084135
9.79,0.192637253650484,0.0935356042402009
9.8075,0.195428160676181,0.0834258103611244
9.825,0.191954270324853,0.0654620983119727
9.8425,0.181058807541953,0.0565525120982821
9.86,0.175404042092278,0.0537346326229164
9.8775,0.175335448799753,0.0493452268209625
9.895,0.175076018421397,0.0423414379130346
9.9125,0.177989533805748,0.0307567226710617
9.93,0.170181586837159,0.0130202364626966
9.9475,0.157025659698583,0.00642585359531163
9.965,0.153238680297842,0.00169001602629542
9.9825,0.144017258728553,-0.0137674125782786
10,0.123773998940836,-0.0167632207748527
