"Freq [GHz]","re(S(Antenna1_1_1,Antenna1_1_1)) []","im(S(Antenna1_1_1,Antenna1_1_1)) []"
3,-0.191540131020393,-0.168174500600326
3.0175,-0.199437593272113,-0.155250941743693
3.035,-0.209761056680577,-0.140276540355135
3.0525,-0.215105778969528,-0.118904998569154
3.07,-0.214140744767973,-0.102933200696774
3.0875,-0.214403725931216,-0.0932668100543111
3.105,-0.222261795913493,-0.0788690282826729
3.1225,-0.218272349904642,-0.0624731348849398
3.14,-0.223221126341517,-0.0569368807518418
3.1575,-0.235069837478542,-0.03551726162333
3.175,-0.228965999300947,-0.0078626755683757
3.1925,-0.217344658568567,0.007629096417697
3.21,-0.211217756825643,0.0187268487168935
3.2275,-0.203356196870898,0.035707438704907
3.245,-0.190318963646488,0.0438044510315647
3.2625,-0.184609320044122,0.0482759640504738
3.28,-0.185293203361695,0.0591717651684707
3.2975,-0.180651431188446,0.0751222878300073
3.315,-0.168423571961238,0.0951247727477836
3.3325,-0.153601702513174,0.104928100723347
3.35,-0.13429491765653,0.120049951356248
3.3675,-0.110693956920088,0.119488049946812
3.385,-0.0985468026465257,0.113901053070613
3.4025,-0.0925138864106052,0.115854149494757
3.42,-0.0822490979071445,0.119507986328361
3.4375,-0.0716523404620872,0.122647393858451
3.455,-0.0645873877420284,0.131212976755013
3.4725,-0.039176523189579,0.143601652405226
3.49,-0.0122729119697215,0.136704785769546
3.5075,0.0073932373555487,0.122904839366848
3.525,0.0143708801980739,0.109285621737772
3.5425,0.0225686780791429,0.103696910956134
3.56,0.0306544583432276,0.0942734057516442
3.5775,0.0361310469679105,0.0928015517722556
3.595,0.0492106120389724,0.0887949410965434
3.6125,0.063177208051613,0.0853402727705833
3.63,0.0847461395772797,0.072077078620455
3.6475,0.0949249118834567,0.0497849687321825
3.665,0.10031198667952,0.0295962040572499
3.6825,0.0968239737278762,0.0103392053322759
3.7,0.0950478908539312,-0.00230490799504572
3.7175,0.0896813391580535,-0.00778390094230017
3.735,0.102177903901726,-0.0149216786391986
3.7525,0.104605789493902,-0.0346995614274919
3.77,0.10503771864263,-0.0473112638609587
3.7875,0.113211702278125,-0.0664231817695199
3.805,0.102186224826069,-0.0976817224152459
3.8225,0.0850441175210634,-0.108073406767411
3.84,0.0755619476003762,-0.114844651414784
3.8575,0.0721084622081956,-0.127532526624082
3.875,0.0565177782453063,-0.14025759534963
3.8925,0.0468771271970333,-0.1413646043463
3.91,0.0486770296262703,-0.151807927733277
3.9275,0.0368492834007426,-0.175270198405269
3.945,0.0127238766023108,-0.187971898878373
3.9625,-0.00686859666004431,-0.189040656541447
3.98,-0.019856905716502,-0.19348961142805
3.9975,-0.0398529518015682,-0.197230696392147
4.015,-0.0545385894511807,-0.195102686729408
4.0325,-0.068767483052359,-0.195598795462456
4.05,-0.0802387386185466,-0.195439913127087
4.0675,-0.0961976172341226,-0.196934843317049
4.085,-0.110535706252618,-0.200410970170608
4.1025,-0.135542417797241,-0.197675512025202
4.12,-0.153898068855759,-0.187160462789821
4.1375,-0.165139436513726,-0.174168988570431
4.155,-0.174974258301065,-0.172126422765412
4.1725,-0.195610943265562,-0.165854716930485
4.19,-0.210742786104005,-0.14312743877246
4.2075,-0.206190987439315,-0.133973629907789
4.225,-0.218511926863167,-0.136649538263547
4.2425,-0.24345026380638,-0.127108470724886
4.26,-0.25322108187887,-0.0993861933315502
4.2775,-0.254109068985481,-0.090479327865592
4.295,-0.268251125609024,-0.0764122460450934
4.3125,-0.273982635476881,-0.0550493526080176
4.33,-0.273216688278705,-0.0374822441413655
4.3475,-0.271563710395056,-0.023019014268722
4.365,-0.270015555723581,-0.0122330225150522
4.3825,-0.27342843283843,-0.00149548176599181
4.4,-0.276286795260727,0.0129914207306782
4.4175,-0.278075173773044,0.0285282925476563
4.435,-0.279625178608116,0.0481743357553901
4.4525,-0.271283876260435,0.0685021481299779
4.47,-0.264077674747239,0.0823010085836535
4.4875,-0.253218221628216,0.0969033442658658
4.505,-0.242092224144207,0.105996785432163
4.5225,-0.235536359270515,0.108320621773054
4.54,-0.236619927177258,0.119845790447831
4.5575,-0.231090909239541,0.135285025782871
4.575,-0.218414533305566,0.14798504061168
4.5925,-0.215066676900767,0.157624886626228
4.61,-0.198514720332411,0.178472300347137
4.6275,-0.174691775781317,0.182461510914902
4.645,-0.162855310069872,0.176024315066599
4.6625,-0.159343322241147,0.181913588183165
4.68,-0.148348575737064,0.185489933357152
4.6975,-0.140770529092744,0.191183784518509
4.715,-0.132023015505839,0.198142854905153
4.7325,-0.117920295836118,0.206741623767432
4.75,-0.101437273921468,0.212342303497609
4.7675,-0.0801409238064555,0.210248185789773
4.785,-0.072447408264277,0.202047431337492
4.8025,-0.0619182428511192,0.202816714129443
4.82,-0.0528914449322895,0.194831920530483
4.8375,-0.0529073530205009,0.19407993837525
4.855,-0.0447547839870797,0.204692226893508
4.8725,-0.0230743695451133,0.203875989242945
4.89,-0.0133063544581593,0.193974453945687
4.9075,-0.0069913556237405,0.19344882501014
4.925,0.0104637004840934,0.190706277130167
4.9425,0.0201313431556301,0.176354055747452
4.96,0.0210141532172632,0.167328979063209
4.9775,0.0240362680450577,0.168845953315144
4.995,0.0355014196128626,0.164089939233487
5.0125,0.0423932999731308,0.159461814079735
5.03,0.0514659979232055,0.153836339355859
5.0475,0.0620440136773528,0.146435439659656
5.065,0.0691455800825996,0.134959992392011
5.0825,0.0740237628697459,0.123420814272224
5.1,0.0750139141766856,0.114782651146745
5.1175,0.0782929317091929,0.106162555952713
5.135,0.0787967652031779,0.0998072054790376
5.1525,0.0833511048253382,0.0953529907868158
5.17,0.0911607284223881,0.0868134405499518
5.1875,0.0937196379304432,0.0735618171258456
5.205,0.0936446810895545,0.065706832780702
5.2225,0.0996390968954245,0.0562144209795642
5.24,0.0988460113394786,0.0384575507091276
5.2575,0.0902258159232319,0.030032143051098
5.275,0.0882674893115632,0.0264991768009234
5.2925,0.0905809719605072,0.0200832995612887
5.31,0.0901851632668538,0.00868510790986511
5.3275,0.0873650942875827,0.000565985385626973
5.345,0.0857164871504454,-0.00836729548748892
5.3625,0.0848150209104344,-0.0180652830780674
5.38,0.0802040898650566,-0.0313646284153153
5.3975,0.070555201119197,-0.04202824321698
5.415,0.0607532190977697,-0.0458010099767799
5.4325,0.0564669226195566,-0.0495183741471256
5.45,0.0525528834279112,-0.0555010420984465
5.4675,0.0470392962318184,-0.0638847681801215
5.485,0.0392415768499024,-0.0696910083826569
5.5025,0.0329824293241373,-0.0743402141150727
5.52,0.0289996242162837,-0.0812477413642703
5.5375,0.0202498404166005,-0.0937664133733017
5.555,0.00133040813045612,-0.100520195247856
5.5725,-0.0118272110844911,-0.0934539481579362
5.59,-0.0130397069153677,-0.0933575578937783
5.6075,-0.0218647410026019,-0.101701204470661
5.625,-0.036670145570742,-0.099814201135896
5.6425,-0.0393671493956086,-0.0973996982602515
5.66,-0.0464149559328226,-0.105327276740048
5.6775,-0.0605342383947964,-0.111728824400808
5.695,-0.0779304448356867,-0.111131719142483
5.7125,-0.0921424850858132,-0.107515198888782
5.73,-0.105846170498,-0.0992032043723912
5.7475,-0.112627895561565,-0.0922908517851344
5.765,-0.118067110444691,-0.0872710898149316
5.7825,-0.125170505432146,-0.0879088737973394
5.8,-0.136841373292322,-0.0861433432343716
5.8175,-0.150703767505006,-0.0812853695568683
5.835,-0.160437815198793,-0.0760576968456766
5.8525,-0.178272637041472,-0.0681532164072676
5.87,-0.188135295332807,-0.0499695197149935
5.8875,-0.189451854626814,-0.0361840045488878
5.905,-0.191411467654953,-0.0312107396657854
5.9225,-0.199343515839443,-0.0225430262003432
5.94,-0.203605200482436,-0.0142830259651264
5.9575,-0.21262764434902,-0.00813931323467296
5.975,-0.224296748439146,0.00500597786544814
5.9925,-0.230162546485806,0.0224456003579522
6.01,-0.232754858975265,0.04009010175953
6.0275,-0.230346371595147,0.0557136526357622
6.045,-0.228401152611859,0.0677085655830283
6.0625,-0.225464138047567,0.0784363382901774
6.08,-0.226153929138794,0.0881273459677963
6.0975,-0.228448853806116,0.099405724898055
6.115,-0.230674409394495,0.116726262953457
6.1325,-0.226095930187825,0.133684148138443
6.15,-0.221694457913508,0.149270226641846
6.1675,-0.21470685919848,0.167279955499036
6.185,-0.200461213042381,0.180334821950477
6.2025,-0.190725874282651,0.186415481461513
6.22,-0.1877486961534,0.194742312004835
6.2375,-0.179740782500203,0.212616683598541
6.255,-0.165138120026575,0.219921687707906
6.2725,-0.159520697684957,0.228763170681342
6.29,-0.149263124415736,0.244223540663913
6.3075,-0.131309694862128,0.255479974395655
6.325,-0.115059167706799,0.262349090863327
6.3425,-0.0977959847378673,0.265053298311787
6.36,-0.0861895245573586,0.267791556797556
6.3775,-0.073333381354211,0.273113376066889
6.395,-0.0573904191073478,0.278201591881489
6.4125,-0.0415251693049966,0.279203805422555
6.43,-0.0270991191428665,0.280342428363866
6.4475,-0.0124958082947178,0.282113452172856
6.465,0.00311670100085817,0.284869105835836
6.4825,0.0270148922186387,0.285518228680461
6.5,0.0459282932307054,0.272449295595988
6.5175,0.0553190380150139,0.265678988520494
6.535,0.0697048957531922,0.261160885864715
6.5525,0.0868080306878551,0.251528043365096
6.57,0.0944740691865904,0.238495701984472
6.5875,0.102649527696648,0.236476868727847
6.605,0.120064464111225,0.232218661203186
6.6225,0.139178477363068,0.21874468660292
6.64,0.151030967510412,0.20098238383465
6.6575,0.159454328012874,0.184276404941874
6.675,0.165205681423175,0.168485242502489
6.6925,0.170332967266379,0.152617126382162
6.71,0.171097320973827,0.136603270890003
6.7275,0.169542393416092,0.128817048978239
6.745,0.179432107829845,0.1233004453441
6.7625,0.191717818549058,0.105868754510197
6.78,0.196260049212852,0.0838952650763089
6.7975,0.196093486801342,0.0629491439195611
6.815,0.190171213867619,0.0417454147698632
6.8325,0.181756254768557,0.0282475204995727
6.85,0.176572505116892,0.0151415546109874
6.8675,0.167606889607762,0.00166646282924663
6.885,0.157932131623863,-0.00155807093423048
6.9025,0.165625965835284,-0.00577626032136018
6.92,0.170878495968951,-0.0308766244358151
6.9375,0.154156407296896,-0.0564266773718646
6.955,0.137745999324566,-0.0612911841774855
6.9725,0.1305039059824,-0.0734383975165988
6.99,0.113260909870978,-0.084987070636422
7.0075,0.0941356463327243,-0.0877123010282591
7.025,0.0845640701708601,-0.0833507320234677
7.0425,0.0806849091352222,-0.0856161080460991
7.06,0.0781734094840219,-0.0935817668901834
7.0775,0.0669379433672321,-0.107415628910255
7.095,0.0485227133860477,-0.114687644185119
7.1125,0.0327733254341339,-0.115351505085934
7.13,0.0183323451462505,-0.116271181545607
7.1475,0.00418418509713735,-0.114927377613721
7.165,-0.0107436947441072,-0.112087206602977
7.1825,-0.0219422423130789,-0.102980510978091
7.2,-0.0231022098223512,-0.0972858273988337
7.2175,-0.0273049830343441,-0.104311556121105
7.235,-0.0445854064944095,-0.108640913481165
7.2525,-0.0610321020288132,-0.10119693128959
7.27,-0.0688118688766158,-0.09437972927751
7.2875,-0.080739269124152,-0.0922163242714793
7.305,-0.0949629699611235,-0.081776355837451
7.3225,-0.101058496953206,-0.0684395408186166
7.34,-0.101350241668785,-0.058702585582509
7.3575,-0.103054120383224,-0.0581166587082372
7.375,-0.111864407213135,-0.0543394938441326
7.3925,-0.120236714558409,-0.0502619422296223
7.41,-0.12932016263689,-0.0421044033177168
7.4275,-0.135681337748028,-0.0343688872178337
7.445,-0.142901768473904,-0.0241046076753081
7.4625,-0.145554261377268,-0.0128343178167478
7.48,-0.147472730674991,-0.00315033718311403
7.4975,-0.144871612996468,0.00483039455119351
7.515,-0.146983520905696,0.00694030330061879
7.5325,-0.152602360618218,0.0123366993948245
7.55,-0.15877663232984,0.0226005998326137
7.5675,-0.157467104116679,0.0331535393486073
7.585,-0.159838797316726,0.0373737824914763
7.6025,-0.166697154809736,0.0503533563025889
7.62,-0.160347916390827,0.065251784979796
7.6375,-0.154706078315596,0.0689700899919339
7.655,-0.155252121722672,0.0722158413076468
7.6725,-0.158701813755761,0.0813041283798262
7.69,-0.154270470003832,0.0909361699901602
7.7075,-0.153043597277688,0.0954196009185824
7.725,-0.154187309086449,0.102370235633303
7.7425,-0.155839150247015,0.11386177454044
7.76,-0.149182759588011,0.128117146192573
7.7775,-0.138925002989475,0.133541916391005
7.795,-0.134497282373067,0.135889330654515
7.8125,-0.131855230911972,0.140272241558179
7.83,-0.130428575976524,0.146187714240131
7.8475,-0.128055475586767,0.155739260962705
7.865,-0.120991275547722,0.163064837998318
7.8825,-0.118712513188619,0.168530801010682
7.9,-0.114568522960017,0.181400257959729
7.9175,-0.100068407261516,0.192563735925263
7.935,-0.0844834151527891,0.18985686367096
7.9525,-0.0830025380034035,0.187001610548395
7.97,-0.0811152122556506,0.191323303441411
7.9875,-0.0777123691696356,0.200346912585742
8.005,-0.0666972173630984,0.207086716375593
8.0225,-0.0585526259119963,0.210965436703101
8.04,-0.0490947802538569,0.216613523778156
8.0575,-0.034103198764325,0.222025341077127
8.075,-0.0185225545030794,0.216437909368281
8.0925,-0.0120911976581349,0.211285707014187
8.11,-0.00774113076038889,0.207653997768258
8.1275,-0.00625813927254529,0.210302760696494
8.145,0.00190298703191091,0.217466185033409
8.1625,0.0179891609038925,0.220809909778173
8.18,0.031935440233997,0.215472837823539
8.1975,0.0418639161481831,0.211451980422219
8.215,0.0548846949797723,0.206372990704569
8.2325,0.0653198885225329,0.193976967696672
8.25,0.0656615044175975,0.182971686760957
8.2675,0.064191685550122,0.181282424255193
8.285,0.072698340936197,0.183900820276677
8.3025,0.0839403721978252,0.17817104793133
8.32,0.0928987330461101,0.1723269162327
8.3375,0.104382262187719,0.163724648023882
8.355,0.112459343939335,0.148994950516257
8.3725,0.11505814019292,0.134230532372812
8.39,0.112276407102987,0.122941391130229
8.4075,0.112309536147831,0.115049225512694
8.425,0.10984221188163,0.10796533571056
8.4425,0.112986441277399,0.104303421727709
8.46,0.11635417298431,0.095179359111438
8.4775,0.119446894100534,0.0859727482562222
8.495,0.120453320829076,0.0731405623260666
8.5125,0.120147807323389,0.0614633253270646
8.53,0.116268679302922,0.0458666294047402
8.5475,0.106154605967163,0.0339038846132136
8.565,0.0948706325503961,0.0295065623850779
8.5825,0.0915304800984908,0.0281632807791863
8.6,0.0896282504091182,0.0198813600970525
8.6175,0.0813578459768371,0.0122339441070484
8.635,0.0770035456532602,0.00943779215794631
8.6525,0.0742719405078316,0.00055548278542771
8.67,0.0670296905044071,-0.00982667272069697
8.6875,0.0544742566096478,-0.0203994868413241
8.705,0.0372337346410111,-0.0229099697457742
8.7225,0.0247590035139694,-0.0197057334226067
8.74,0.0161851625289035,-0.0169000975174644
8.7575,0.00903099296165332,-0.017391526195287
8.775,-0.00213894962904118,-0.0162790338552467
8.7925,-0.00867548880597011,-0.0123475984412832
8.81,-0.014869724334514,-0.0125287647535973
8.8275,-0.0230149809267873,-0.0152012549545614
8.845,-0.0388720017114032,-0.0159892087631655
8.8625,-0.0538980451801449,-0.00741051982180947
8.88,-0.0631471714109567,0.00338084298611938
8.8975,-0.068368656543229,0.012646574564442
8.915,-0.0750966806341093,0.018644652994068
8.9325,-0.0819668489406565,0.0310296772322138
8.95,-0.0799984052942445,0.0384686367586354
8.9675,-0.0858390988412438,0.0399214052088563
8.985,-0.0945719951809091,0.0469811843484962
9.0025,-0.102800464594063,0.0569915962630538
9.02,-0.10977744192556,0.0698269795336579
9.0375,-0.11373861460613,0.0869569026936258
9.055,-0.108914139530875,0.102991921277629
9.0725,-0.104605944488447,0.110714184796882
9.09,-0.102519293072105,0.121945335306121
9.1075,-0.0971662233272837,0.126749914200692
9.125,-0.0998750962154824,0.132725811375632
9.1425,-0.103077444107345,0.143104233660345
9.16,-0.102172935564809,0.160048329890843
9.1775,-0.0941196912099476,0.174966770219752
9.195,-0.0841444028046929,0.186218723791963
9.2125,-0.072932304621597,0.195230181185453
9.23,-0.0613192097774098,0.200827281931595
9.2475,-0.0504989003631708,0.201800477094431
9.265,-0.0493446072899223,0.201194100822119
9.2825,-0.0499064797107482,0.212910188563372
9.3,-0.0396860842646911,0.227584084831817
9.3175,-0.0234920534216704,0.236250517783499
9.335,-0.00875748407340401,0.239530682885522
9.3525,0.00626037628340372,0.240642827933461
9.37,0.0176575070119011,0.238148871970573
9.3875,0.0272465238295427,0.236508488945342
9.405,0.0345723081327782,0.235317370521011
9.4225,0.0399022697577726,0.235835887338597
9.44,0.0470864629745613,0.243675871334697
9.4575,0.065449663744874,0.250392953957729
9.475,0.0879804885101599,0.245169604031014
9.4925,0.0997387728754206,0.231765021593171
9.51,0.105339652867513,0.223947483893766
9.5275,0.111802788255099,0.219704501308259
9.545,0.120749133493481,0.214798197452008
9.5625,0.125757091874016,0.208214177717611
9.58,0.131831137222188,0.208645159899994
9.5975,0.144723272695003,0.20694044277814
9.615,0.161730919282562,0.198536153147498
9.6325,0.170577683216873,0.179823377712844
9.65,0.171115497660937,0.167747719286966
9.6675,0.172900988786214,0.157385901671389
9.685,0.172637392755182,0.150624629163686
9.7025,0.176317133042211,0.145217100504316
9.72,0.18145617388927,0.138248372827475
9.7375,0.186000176941401,0.128950794595267
9.755,0.191233940347508,0.120691646714863
9.7725,0.197726810237476,0.10612384672135
9.79,0.195269629700484,0.0889555979702009
9.8075,0.189801033923181,0.0790733429511244
9.825,0.187229863184853,0.0694559006919727
9.8425,0.181712518811953,0.0613961665882821
9.86,0.179793595952278,0.0546460336029164
9.8775,0.176112060609753,0.0481023663139625
9.895,0.177469936691397,0.0406485099370346
9.9125,0.175291778095748,0.0278120722536217
9.93,0.168453017757159,0.0147273104826966
9.9475,0.158009241568583,0.00780963874531163
9.965,0.153844523387842,-0.000785374177204575
9.9825,0.140326680458553,-0.0119690191192786
10,0.126812885200836,-0.0144825743098527
