"Freq [GHz]","re(S(Antenna1_1_1,Antenna1_1_1)) []","im(S(Antenna1_1_1,Antenna1_1_1)) []"
3,-0.168416528952988,-0.175779822022434
3.0175,-0.178916426362741,-0.163830502059255
3.035,-0.188368667526963,-0.15099843889383
3.0525,-0.196691387720331,-0.137391525171896
3.07,-0.203815458814212,-0.123124252150446
3.0875,-0.209684679259439,-0.108316126065797
3.105,-0.214255784685026,-0.0930901806157804
3.1225,-0.217498313106745,-0.0775715971870005
3.14,-0.219394355903347,-0.0618864367432188
3.1575,-0.219938222215814,-0.046160481204132
3.175,-0.21913603980723,-0.0305181776666469
3.1925,-0.217005310652123,-0.0150816755415792
3.21,-0.213574434814221,3.00547114012312E-05
3.2275,-0.209015504489711,0.0147632751040196
3.245,-0.20336321677089,0.0290384990567954
3.2625,-0.196534252746007,0.0426986148558415
3.28,-0.188591351846805,0.0556430585935899
3.2975,-0.179605494054634,0.0677776477171963
3.315,-0.169655345367858,0.0790151573619294
3.3325,-0.158826678132745,0.089275879806342
3.35,-0.147211757120919,0.0984881675787179
3.3675,-0.134908682955695,0.10658895719816
3.385,-0.122020684666842,0.113524268029211
3.4025,-0.108655354936135,0.119249667481177
3.42,-0.0949238236852683,0.123730692052802
3.4375,-0.0809398680001426,0.126943211152606
3.455,-0.0660612742672906,0.12993418058843
3.4725,-0.050978968110226,0.131499645027217
3.49,-0.035827150506783,0.131627530052356
3.5075,-0.020740291363613,0.130318712488778
3.525,-0.00585180918956604,0.127587003345914
3.5425,0.0087072594604025,0.12345897796693
3.56,0.0228095786948998,0.117973647629111
3.5775,0.0363327963965331,0.111181971131289
3.595,0.0491607668710108,0.10314620902634
3.6125,0.0611846887990211,0.0939391282324511
3.63,0.0723041350212814,0.083643069232196
3.6475,0.0824279530487514,0.072348892555984
3.665,0.0914750184160424,0.0601548250593373
3.6825,0.0993748265953612,0.0471652299836646
3.7,0.106067914178026,0.0334893269245662
3.7175,0.111506104677461,0.0192398892092357
3.735,0.115652579618259,0.0045319464742796
3.7525,0.118481780574811,-0.0105184804674811
3.77,0.119979152575443,-0.0257955874881631
3.7875,0.120140743406283,-0.041184915150821
3.805,0.118972676937271,-0.0565743779741161
3.8225,0.116490520974902,-0.071855179991296
3.84,0.112718572170782,-0.0869226059438613
3.8575,0.107689080772508,-0.101676681892101
3.875,0.101441438452204,-0.116022703318828
3.8925,0.0920763896367907,-0.131555004217682
3.91,0.0812955738890696,-0.146165942935081
3.9275,0.0691955608224918,-0.159743949447842
3.945,0.055880266610734,-0.172187498559088
3.9625,0.0414599378354067,-0.183405387793884
3.98,0.0260501651330402,-0.193316918553568
3.9975,0.00977093410370348,-0.201851991455648
4.015,-0.00725428156466348,-0.208951126887416
4.0325,-0.0248993812858587,-0.214565421310897
4.05,-0.043036452208451,-0.218656449173866
4.0675,-0.0615365370023367,-0.22119611937641
4.085,-0.0802703565068233,-0.222166494163446
4.1025,-0.0991089891092482,-0.221559577036081
4.12,-0.117924509688551,-0.219377075343212
4.1375,-0.136590591220417,-0.215630141991469
4.155,-0.154983072011467,-0.210339099628933
4.1725,-0.172980491795455,-0.203533150037037
4.19,-0.19046459943415,-0.195250070275468
4.2075,-0.207320834849105,-0.185535896966721
4.225,-0.223438787457807,-0.174444599271208
4.2425,-0.238712632933942,-0.162037740754528
4.26,-0.253041549870131,-0.148384130353606
4.2775,-0.266330117454521,-0.133559462091657
4.295,-0.278488695193342,-0.117645943273818
4.3125,-0.289433785087425,-0.100731910944271
4.33,-0.296892013756773,-0.0817942327390981
4.3475,-0.302791366238822,-0.062446166673946
4.365,-0.307118078851288,-0.042815911997835
4.3825,-0.309868228114959,-0.0230309997929986
4.4,-0.311047525668979,-0.00321763009782639
4.4175,-0.31067108059258,0.0164999625094125
4.435,-0.308763132033171,0.0360001148588194
4.4525,-0.305356755290378,0.0551643130293418
4.47,-0.300493543647516,0.0738777429655164
4.4875,-0.294223268413963,0.0920298145885523
4.505,-0.286603518501743,0.109514660664263
4.5225,-0.277699321124628,0.126231611514556
4.54,-0.267582744315769,0.142085646662698
4.5575,-0.256332481607633,0.15698782460738
4.575,-0.244033419003405,0.170855691470254
4.5925,-0.230776183651589,0.183613669218075
4.61,-0.216656673694117,0.195193423775703
4.6275,-0.201775568230619,0.205534212931304
4.645,-0.18623781624074,0.214583213431552
4.6625,-0.170152103260423,0.222295826373386
4.68,-0.153630294551143,0.228635959280979
4.6975,-0.136786853679459,0.233576282752729
4.715,-0.119738235445961,0.237098459244119
4.7325,-0.102602252716239,0.239193340688698
4.75,-0.085497416834958,0.239861131581816
4.7675,-0.0712423362177938,0.238006984680503
4.785,-0.0574326877641251,0.235231981188199
4.8025,-0.0441269372640615,0.231586684465253
4.82,-0.0313788530849982,0.227125468495066
4.8375,-0.0192372130133232,0.221906144402398
4.855,-0.00774553471463413,0.21598955540137
4.8725,0.00305816561124074,0.209439140888548
4.89,0.0131415816474935,0.202320471068505
4.9075,0.0224782878385366,0.194700754414571
4.925,0.0310478682790779,0.186648320897985
4.9425,0.0388359990964981,0.178232084739106
4.96,0.0458344807840027,0.169520991257292
4.9775,0.0520412167907669,0.160583452818895
4.995,0.0574601357387032,0.151486779898809
5.0125,0.0621010551843187,0.142296613429314
5.03,0.0659794856288434,0.133076365350589
5.0475,0.0691163744107186,0.123886674406315
5.065,0.0715377900185305,0.114784884616156
5.0825,0.073274548436403,0.105824553762658
5.1,0.0743617840090772,0.0970549992713757
5.1175,0.0748384684447098,0.0885208887778174
5.135,0.0747468825037738,0.0802618819516575
5.1525,0.0741320459471384,0.0723123300757998
5.17,0.0730411121100413,0.0647010390741219
5.1875,0.0715227344356908,0.057451100805915
5.205,0.0696264129459958,0.0505797967061934
5.2225,0.0674018291706691,0.044098576928623
5.24,0.0648981787698737,0.0380131168413401
5.2575,0.0621635111049218,0.0323234516852638
5.275,0.0592440855014981,0.027024189189743
5.2925,0.0561837538287991,0.0221047982458386
5.31,0.0530233787141865,0.0175499709707625
5.3275,0.0498002968950904,0.0133400539236924
5.345,0.0465478360365006,0.00945154317929569
5.3625,0.0432948934324052,0.00585763680683688
5.38,0.040065583501957,0.00252883710284506
5.3975,0.0368789607151717,-0.000566405668678896
5.415,0.0337488229580398,-0.0034610177315188
5.4325,0.0306835994926521,-0.00618860409943144
5.45,0.0276863263240975,-0.00878273961056003
5.4675,0.0247547102824609,-0.0112762594481681
5.485,0.0218812819254059,-0.0137005603374329
5.5025,0.0190536358748081,-0.0160849236943718
5.52,0.0162547555491708,-0.0184558714289988
5.5375,0.0134634183356797,-0.0208365652795753
5.555,0.010654675275993,-0.0232462595675906
5.5725,0.00780039857536132,-0.0256998166631621
5.59,0.0048698887874114,-0.0282072936573988
5.6075,0.00183053246615425,-0.0307736075414834
5.625,-0.0013514996904906,-0.0333982850615684
5.6425,-0.00559128166596493,-0.0383437678738052
5.66,-0.0104680980592872,-0.043163345265015
5.6775,-0.0159899850564448,-0.0477816492915702
5.695,-0.0221561640491668,-0.0521213400322513
5.7125,-0.028956792293585,-0.0561041451203282
5.73,-0.0363728390043931,-0.0596519247161665
5.7475,-0.044376089023685,-0.0626877462546428
5.765,-0.0529292742372796,-0.065136953241887
5.7825,-0.0619863309048416,-0.0669282125757771
5.8,-0.0714927791632447,-0.0679945250445537
5.8175,-0.0813862188253714,-0.0682741845883269
5.835,-0.0915969343187977,-0.0677116725994345
5.8525,-0.102384867590672,-0.066087453200051
5.87,-0.113607263266607,-0.0632713192952958
5.8875,-0.124808432402759,-0.0593837052678577
5.905,-0.135884589591569,-0.054416308095869
5.9225,-0.146731162483272,-0.0483712859298372
5.94,-0.157243889757245,-0.041261238606877
5.9575,-0.167319897980135,-0.0331090682935045
5.975,-0.176858743711464,-0.0239477255518604
5.9925,-0.185763408568582,-0.0138198475084678
6.01,-0.193941235431586,-0.00277729607946391
6.0275,-0.201304796060434,0.00911939410840544
6.045,-0.207772681171305,0.0218016480159496
6.0625,-0.213270206022442,0.0351935513477576
6.08,-0.217578956139603,0.0503243661292649
6.0975,-0.220605346567982,0.0659447055114458
6.115,-0.222308036131242,0.0819413577843323
6.1325,-0.222655799349429,0.0981985743655544
6.15,-0.221627550015903,0.114598968246084
6.1675,-0.21921228739046,0.131024384762508
6.185,-0.215408971781399,0.147356738413916
6.2025,-0.210226336368565,0.163478810902095
6.22,-0.203682642642544,0.179275006546564
6.2375,-0.195805386471971,0.194632062325478
6.255,-0.186630962141704,0.209439711109474
6.2725,-0.176204290939025,0.223591297330592
6.29,-0.164578420793393,0.236984345604875
6.3075,-0.151814102867222,0.249521083353616
6.325,-0.137979350010782,0.261108919392867
6.3425,-0.123148981963463,0.271660880785119
6.36,-0.107404160546072,0.281096010871502
6.3775,-0.0908319181044293,0.289339731525943
6.395,-0.0735246810629073,0.29632417290711
6.4125,-0.0555797899275458,0.301988473788125
6.43,-0.0370990162713613,0.306279055558341
6.4475,-0.0181880765491375,0.309149872634371
6.465,0.00104385804535922,0.310562641539831
6.4825,0.0204846569808117,0.310487050495454
6.5,0.0400197327640205,0.30890095078397
6.5175,0.0603940268003447,0.303692534637987
6.535,0.0802595945458673,0.296809101244649
6.5525,0.0994804247024357,0.288298377358384
6.57,0.117924548269866,0.278218678293072
6.5875,0.135464815913381,0.266638637627559
6.605,0.151979669122174,0.253636884153774
6.6225,0.16735390184866,0.239301663594499
6.64,0.181479408829403,0.223730402987902
6.6575,0.194255915904499,0.207029215977548
6.675,0.20559168734461,0.189312347388938
6.6925,0.215404204394536,0.170701556445534
6.71,0.223620809081199,0.151325438267185
6.7275,0.230179306483976,0.131318684121128
6.745,0.23502851905802,0.110821281797079
6.7625,0.23812878569812,0.0899776582660463
6.78,0.239452398782829,0.0689357677193411
6.7975,0.238983972146977,0.0478461289771236
6.815,0.236720733435664,0.026860817409057
6.8325,0.232672734284557,0.00613241720193507
6.85,0.226862972819156,-0.0141870591032214
6.8675,0.219327422998825,-0.0339472760678424
6.885,0.2101149665281,-0.0530006971974382
6.9025,0.19928722381606,-0.0712037140018714
6.92,0.186918281331581,-0.0884177723797227
6.9375,0.173094313964758,-0.10451048590619
6.955,0.156768227108998,-0.116428499362864
6.9725,0.139726382769701,-0.126788759753899
6.99,0.122111041058507,-0.135551406608048
7.0075,0.104066688921633,-0.142689290430759
7.025,0.0857389033565304,-0.148188131705389
7.0425,0.067273196407602,-0.152046574526747
7.06,0.0488138526935828,-0.15427613219263
7.0775,0.0305027702031783,-0.154901023177254
7.095,0.012478315716651,-0.153957897381762
7.1125,-0.00512579393523002,-0.151495453477357
7.13,-0.0221815734761751,-0.147573949801849
7.1475,-0.0385678026671082,-0.142264612325236
7.165,-0.0541710010562663,-0.135648944428967
7.1825,-0.0688863338072817,-0.127817944660845
7.2,-0.0826184392627479,-0.11887123945179
7.2175,-0.0952821696235925,-0.108916139190962
7.235,-0.106803237012273,-0.0980666265905761
7.2525,-0.117118758378439,-0.0864422874704009
7.27,-0.12617769368661,-0.0741671945187405
7.2875,-0.133941173222883,-0.0613687552866238
7.305,-0.140382710887585,-0.0481765359805022
7.3225,-0.145488301988297,-0.0347210728222216
7.34,-0.14925640492746,-0.0211326830455053
7.3575,-0.151697807925335,-0.0075402871484839
7.375,-0.152835382926691,0.00592974585428101
7.3925,-0.151843841482451,0.0161633247046307
7.41,-0.150179323920008,0.0258970369619582
7.4275,-0.147913245880705,0.0350896503252888
7.445,-0.145119241755914,0.0437079788259616
7.4625,-0.141872331089805,0.0517269665331865
7.48,-0.13824808771813,0.0591296868393811
7.4975,-0.1343218203448,0.0659072586854891
7.515,-0.130167772902931,0.0720586822043544
7.5325,-0.125858352620176,0.0775905968484711
7.55,-0.121463393278192,0.0825169661328653
7.5675,-0.117049460552144,0.0868586935900997
7.585,-0.112679205623036,0.0906431753782344
7.6025,-0.108410772751815,0.0939037954700334
7.62,-0.104297265421423,0.0966793695789684
7.6375,-0.10038627534273,0.099013544741123
7.655,-0.0967194773342149,0.10095416139288
7.6725,-0.0933322928354191,0.102552585079535
7.69,-0.0902536235129547,0.103863014967282
7.7075,-0.0875056560574846,0.104941776358652
7.725,-0.0851037384233029,0.105846604317708
7.7425,-0.0830563268514582,0.106635925207157
7.76,-0.0813650028753205,0.107368142974267
7.7775,-0.0800245582566804,0.1081009363756
7.795,-0.0790231459232328,0.108890573382165
7.8125,-0.078342493986927,0.109791248316717
7.83,-0.0788945272692742,0.113150548308163
7.8475,-0.0792867675762543,0.116871348204927
7.865,-0.0794669268635876,0.120942777570635
7.8825,-0.0793837756575492,0.125348074432444
7.9,-0.0789877301614017,0.130064708625855
7.9175,-0.0782314241071139,0.13506455879119
7.935,-0.0770702609223749,0.14031414106696
7.9525,-0.0754629419946439,0.145774887215646
7.97,-0.0733719671619179,0.151403469718866
7.9875,-0.0707641035584344,0.157152171052871
8.005,-0.0676108196970776,0.162969294062878
8.0225,-0.0638886813940956,0.168799610447015
8.04,-0.0595797068310131,0.174584843818758
8.0575,-0.0546716781164235,0.180264183951649
8.075,-0.0491584070497267,0.185774828542799
8.0925,-0.0430399529376963,0.191052548763222
8.11,-0.0363227907730987,0.19603227466415
8.1275,-0.029019928202108,0.200648696642264
8.145,-0.0211509698439919,0.20483687873285
8.1625,-0.0127421280921414,0.208532879709314
8.18,-0.00382617953982275,0.211674377775907
8.1975,0.00555763354324348,0.214201294438898
8.215,0.0153637568965537,0.216056413376557
8.2325,0.0255405330312494,0.217185989643009
8.25,0.0360304648279471,0.217540344966215
8.2675,0.0482475988359083,0.215437733326846
8.285,0.0603351825505548,0.212223286838593
8.3025,0.0721904773218643,0.207904206544347
8.32,0.0837111217769357,0.202496899526664
8.3375,0.0947959241469652,0.196026968105823
8.355,0.105345657008097,0.188529134415524
8.3725,0.115263849543933,0.180047099395635
8.39,0.124457572257356,0.170633335764166
8.4075,0.132838209004339,0.16034881488737
8.425,0.140322210972329,0.149262667668191
8.4425,0.146831827068665,0.137451780099318
8.46,0.152295805341188,0.125000324618106
8.4775,0.156650059508072,0.111999228696253
8.495,0.159838295232367,0.0985455827269731
8.5125,0.161812590253368,0.08474198986553
8.53,0.162533923013145,0.0706958607340632
8.5475,0.161972644180716,0.0565186568970183
8.565,0.160108885882643,0.0423250872768315
8.5825,0.156932903709707,0.0282322622581765
8.6,0.15244534675668,0.0143588110838369
8.6175,0.14665745154757,0.000823968463329527
8.635,0.139591155983405,-0.012253363177217
8.6525,0.13127913019383,-0.0247555686484974
8.67,0.121764721687696,-0.0365672846675293
8.6875,0.111101812900038,-0.0475763665425085
8.705,0.0973359657019121,-0.0563006669242491
8.7225,0.0828292474823259,-0.0636591629879256
8.74,0.0677084960044789,-0.0695917423766887
8.7575,0.0521053957967664,-0.0740497425013342
8.775,0.0361554606370506,-0.0769963562373659
8.7925,0.0199969785998272,-0.0784069471344215
8.81,0.00376992799309608,-0.0782692700950642
8.8275,-0.0123851270799631,-0.0765835943410877
8.845,-0.0283281523630904,-0.0733627261651525
8.8625,-0.0439207607462935,-0.0686319304116899
8.88,-0.0590273215151272,-0.0624287498300478
8.8975,-0.0735160516937601,-0.0548027232697262
8.915,-0.0872600797016096,-0.0458150041357848
8.9325,-0.100138471549936,-0.0355378818542548
8.95,-0.112037210284451,-0.024054210143699
8.9675,-0.122850119490769,-0.0114567467300858
8.985,-0.132479722547505,0.00215258972261091
9.0025,-0.140838029553443,0.0166635387948775
9.02,-0.147847244912719,0.0319583863842842
9.0375,-0.153440389247082,0.047912913150918
9.055,-0.157561830330533,0.0643973948423415
9.0725,-0.160167718521233,0.0812776450633418
9.09,-0.161226323549198,0.0984160907383878
9.1075,-0.160718270335505,0.115672870457379
9.125,-0.158636672628674,0.132906945549953
9.1425,-0.153101431774913,0.148749507045399
9.16,-0.146259416929847,0.163961559927405
9.1775,-0.138180226069151,0.178438817118604
9.195,-0.1289415016441,0.192084138788343
9.2125,-0.118628222106302,0.204808131222958
9.23,-0.107331950636176,0.216529675322427
9.2475,-0.0951500483558125,0.227176382039546
9.265,-0.0821848593642529,0.236684972409423
9.2825,-0.0685428751191836,0.245001581178149
9.3,-0.0543338855603129,0.252081983400192
9.3175,-0.0396701243669739,0.257891744204653
9.335,-0.0246654153475149,0.262406293021917
9.3525,-0.00943432698423472,0.265610923556061
9.37,0.00590865850083222,0.267500722296999
9.3875,0.0212499553079201,0.268080428103415
9.405,0.0364776579415373,0.267364226607401
9.4225,0.051482293481968,0.265375483160162
9.44,0.0661575377502779,0.262146418831602
9.4575,0.0804008912363773,0.257717733892689
9.475,0.0941143112022101,0.252138183876461
9.4925,0.107204797285544,0.245464113310339
9.51,0.119584927998718,0.237758952228433
9.5275,0.131173346635649,0.229092681013574
9.545,0.141895195364344,0.219541268699563
9.5625,0.151682496956143,0.209186090097656
9.58,0.159285452032033,0.198272150607794
9.5975,0.165874136155384,0.186943711596374
9.615,0.171429316873774,0.17528954254496
9.6325,0.175939023123987,0.163398636792939
9.65,0.179398421796425,0.15135965885637
9.6675,0.181809654849785,0.139260419436989
9.685,0.183181641563873,0.127187380940626
9.7025,0.183529850876443,0.115225195821805
9.72,0.182876049135609,0.103456279499365
9.7375,0.181248028687639,0.0919604183942983
9.755,0.178679322944232,0.0808144129547774
9.7725,0.175208913170965,0.070091754617605
9.79,0.17069829716223,0.0603404027684663
9.8075,0.165330720895082,0.0516725293796627
9.825,0.159393089274465,0.0436679636147275
9.8425,0.152948142173536,0.036360393313268
9.86,0.146059997680064,0.0297785022930974
9.8775,0.138793851724746,0.0239460417040855
9.895,0.131215715495801,0.0188819058996126
9.9125,0.123392188702624,0.0146002034312895
9.93,0.115390264404733,0.0111103135761021
9.9475,0.107277158946925,0.00841692004364284
9.965,0.0991201583626844,0.00652001408586302
9.9825,0.0909864704928841,0.00541486157692365
10,0.082943070063714,0.00509193060916487
