"Freq [GHz]","re(S(Antenna1_1_1,Antenna1_1_1)) []","im(S(Antenna1_1_1,Antenna1_1_1)) []"
3,-0.168568702952988,-0.175496749244434
3.0175,-0.179053088682741,-0.163517144768255
3.035,-0.188483451996963,-0.15065390942383
3.0525,-0.196777550000331,-0.137016170601896
3.07,-0.203866092814212,-0.122719712670446
3.0875,-0.209692938719439,-0.107885358665797
3.105,-0.214215104945026,-0.0926374481757804
3.1225,-0.217402627916745,-0.0771024236770005
3.14,-0.219238304583347,-0.0614075299832188
3.1575,-0.219717342685814,-0.045679625224132
3.175,-0.21884694335723,-0.0300440972366469
3.1925,-0.216645834944123,-0.0146238761515793
3.21,-0.213143771963221,0.000461468071401232
3.2275,-0.208514661702511,0.0151505975340196
3.245,-0.20279792856789,0.0293637911267954
3.2625,-0.195912505084007,0.0429518802558415
3.28,-0.187922549043805,0.0558154104535899
3.2975,-0.178900294184634,0.0678614900071963
3.315,-0.168925475367858,0.0790043412819294
3.3325,-0.158084732292745,0.089165833416342
3.35,-0.146470982880919,0.0982759972887179
3.3675,-0.134182757675695,0.10627352048816
3.385,-0.121323487286842,0.11310621691921
3.4025,-0.108000736096135,0.118731463251177
3.42,-0.0943253777252683,0.123116591502802
3.4375,-0.0804107101901426,0.126239225642606
3.455,-0.0656257583572906,0.12916717063743
3.4725,-0.050644257010226,0.130681266615217
3.49,-0.035599002286783,0.130770196287356
3.5075,-0.020622989803613,0.129435430381778
3.525,-0.00584811203956603,0.126691206025914
3.5425,0.0085961546404025,0.12256435397693
3.56,0.0225840511648998,0.117093968879111
3.5775,0.0359948015065331,0.110330920911289
3.595,0.0487138183410108,0.10233721161634
3.6125,0.0606338241690211,0.0931851814524511
3.63,0.0716558648012814,0.082956581252196
3.6475,0.0816901938687514,0.071741524265984
3.665,0.0906570106470424,0.0596373394193373
3.6825,0.0984870370743612,0.0467473495736646
3.7,0.105121924550526,0.0331796010545662
3.7175,0.110514486121461,0.0190455718292357
3.735,0.114628754742259,0.0044588863742796
3.7525,0.117439873434811,-0.0104659360374811
3.77,0.118933827905443,-0.0256146743481631
3.7875,0.119107036246283,-0.040874517670821
3.805,0.117965814147271,-0.0561350772941161
3.8225,0.115525736114902,-0.071289283871296
3.84,0.111810915530782,-0.0862341591638613
3.8575,0.106853226522508,-0.100871456442101
3.875,0.100691490882204,-0.115108167638828
3.8925,0.0914430580667907,-0.130550403097682
3.91,0.0807894514990696,-0.145085395855081
3.9275,0.0688255873024918,-0.158602789409842
3.945,0.055653589210734,-0.171002084505888
3.9625,0.0413817929054067,-0.182192900407884
3.98,0.0261237824830402,-0.192095141523568
3.9975,0.00999746602370348,-0.200639080755648
4.015,-0.00687580477466348,-0.207765370897416
4.0325,-0.0243720680658587,-0.213424994750897
4.05,-0.042365537638451,-0.217579164323866
4.0675,-0.0607293413923367,-0.22019917794641
4.085,-0.0793362144168233,-0.221266243403446
4.1025,-0.0980591492892482,-0.220771273856081
4.12,-0.116772006668551,-0.218714661973212
4.1375,-0.135350089894417,-0.215106036841469
4.155,-0.153670687006467,-0.209964006778933
4.1725,-0.171613583925455,-0.203315890447037
4.19,-0.18906155190815,-0.195197437815468
4.2075,-0.205900812379105,-0.185652541726721
4.225,-0.222021481677806,-0.174732940271208
4.2425,-0.237317997903942,-0.162497909914528
4.26,-0.251689531660131,-0.149013948773606
4.2775,-0.265040381964521,-0.134354449341657
4.295,-0.277280358323342,-0.118599359853818
4.3125,-0.288325149587425,-0.101834833394271
4.33,-0.295938802166773,-0.0830232409190981
4.3475,-0.302006868978822,-0.063780605013946
4.365,-0.306512922561288,-0.044233843998835
4.3825,-0.309450266314959,-0.0245095490359986
4.4,-0.310821773628979,-0.00473332842382639
4.4175,-0.31063969431258,0.0149708254204125
4.435,-0.308925430773171,0.0344811462488194
4.4525,-0.305709286000378,0.0536786817393418
4.47,-0.301030185287516,0.0724478591855164
4.4875,-0.294935373013963,0.0906770294885523
4.505,-0.287480085801743,0.108258990234263
4.5225,-0.278727202554628,0.125091488154556
4.54,-0.268746872155769,0.141077701832698
4.5575,-0.257616118507633,0.15612670465738
4.575,-0.245418423033405,0.170153908480254
4.5925,-0.232243283959589,0.183081487778075
4.61,-0.218185751808117,0.194838783855703
4.6275,-0.203345940125619,0.205362688461304
4.645,-0.18782851067374,0.214598005431552
4.6625,-0.171742132030423,0.222497788983386
4.68,-0.155198910791143,0.229023656350979
4.6975,-0.138313794759459,0.234146072372729
4.715,-0.121203947575961,0.237844603054119
4.7325,-0.103988094866239,0.240108134628698
4.75,-0.086785842134958,0.240935054541816
4.7675,-0.0723741572277938,0.239194911720503
4.785,-0.0583999720841251,0.236514198548199
4.8025,-0.0449239542240615,0.232943225655253
4.82,-0.0320020275049982,0.228536331645066
4.8375,-0.0196850611533232,0.223351496252398
4.855,-0.00801858475463413,0.21744992125637
4.8725,0.00295746634124074,0.210895579819548
4.89,0.0132089705874935,0.203754736289505
4.9075,0.0227078003485366,0.196095438784571
4.925,0.031431958209078,0.187986987817985
4.9425,0.0393656653964981,0.179499384889106
4.96,0.0464993985740027,0.170702765537292
4.9775,0.0528298720707669,0.161666822318895
4.995,0.0583599625787032,0.152460223288809
5.0125,0.0630985748543187,0.143150032479314
5.03,0.0670604469788434,0.133801139090589
5.0475,0.0702658951407186,0.124475702366315
5.065,0.0727404985365305,0.115232619566156
5.0825,0.074514726000403,0.106127024132658
5.1,0.0756235069400772,0.0972098214813757
5.1175,0.0761057501957098,0.0885272693478174
5.135,0.0760038153137738,0.0801206094216575
5.1525,0.0753629417171384,0.0720257565257998
5.17,0.0742306420900413,0.0642730509541219
5.1875,0.0726560672156909,0.056887078755915
5.205,0.0706893498859958,0.0498865641661934
5.2225,0.0683809367006691,0.043284337128623
5.24,0.0657809163198737,0.0370873779913401
5.2575,0.0629383537549218,0.0312969402952638
5.275,0.0599006400114981,0.025908751419743
5.2925,0.0567128666487991,0.0209132894698386
5.31,0.0534172347641865,0.0162961339836625
5.3275,0.0500525073650904,0.0120383862506924
5.345,0.0466535139865006,0.00811715435929569
5.3625,0.0432507155424052,0.00450609662683688
5.38,0.039869836801957,0.00117601619284506
5.3975,0.0365315728551717,-0.0019045015786789
5.415,0.0332513750780398,-0.0047684178315188
5.4325,0.0300393207826521,-0.00744954515943144
5.45,0.0269000696140975,-0.00998183887056003
5.4675,0.0238329083424609,-0.0123986855881681
5.485,0.0208318845254059,-0.0147322001674329
5.5025,0.0178860276848081,-0.0170125419843718
5.52,0.0149796558241708,-0.0192672615589988
5.5375,0.0120927631436497,-0.0215206883295753
5.555,0.00920148375899297,-0.0237933693975906
5.5725,0.00627862489536132,-0.0261015690731621
5.59,0.0032942617774114,-0.0284568375873988
5.6075,0.000216385306154251,-0.0308656567114834
5.625,-0.0029884072604906,-0.0333291686915684
5.6425,-0.00719981964596492,-0.0380946722038052
5.66,-0.0120299387092872,-0.042740421195015
5.6775,-0.0174878783764448,-0.0471927698215702
5.695,-0.0235740858791668,-0.0513759321122513
5.7125,-0.030280067853585,-0.0552130101803282
5.73,-0.0375882411343931,-0.0586270513461664
5.7475,-0.045471910953685,-0.0615421185446428
5.765,-0.0538953771572796,-0.063884358195887
5.7825,-0.0628141670248416,-0.065583049958777
5.8,-0.0721753915032447,-0.0665716228055537
5.8175,-0.0819182193553714,-0.0667886227583269
5.835,-0.0919744623187977,-0.0661786182794345
5.8525,-0.102601121590672,-0.0645281409700511
5.87,-0.113658605646607,-0.0617075819152958
5.8875,-0.124697537872759,-0.0578309400478577
5.905,-0.135615328881569,-0.052889209855869
5.9225,-0.146308479503272,-0.0468837859998372
5.94,-0.156673680877245,-0.0398264619068769
5.9575,-0.166608895940136,-0.0317393075235045
5.975,-0.176014408471464,-0.0226544306518604
5.9925,-0.184793826882582,-0.0126136285884678
6.01,-0.192855030925586,-0.00166793768946391
6.0275,-0.200111050829434,0.0101229097784054
6.045,-0.206480869881305,0.0226911113559496
6.0625,-0.211890142842442,0.0359614915477576
6.08,-0.216132390409603,0.0509426666592649
6.0975,-0.219105583427982,0.0664086285614458
6.115,-0.220768652041242,0.0822470193343323
6.1325,-0.221090633019429,0.0983429577955544
6.15,-0.220050691985903,0.114579947196084
6.1675,-0.21763806632046,0.130840754812508
6.185,-0.213851935111399,0.147008257143916
6.2025,-0.208701223628565,0.162966245202095
6.22,-0.202204349342544,0.178600185946564
6.2375,-0.194388917131971,0.193797936706478
6.255,-0.185291371031704,0.208450410854874
6.2725,-0.174956609439025,0.222452193819592
6.29,-0.163437570813393,0.235702109664875
6.3075,-0.150794795717222,0.248103739203616
6.325,-0.137095971060782,0.259565891482867
6.3425,-0.122415461323463,0.270003030915119
6.36,-0.106833830766072,0.279335662991502
6.3775,-0.0904373601644293,0.287490681775943
6.395,-0.0733175602629073,0.29440168247711
6.4125,-0.0555706838675458,0.300009242518125
6.43,-0.0372972372613613,0.304261174408341
6.4475,-0.0186014912091375,0.307112753474371
6.465,0.000409008945359224,0.308526923099831
6.4825,0.0196239352808117,0.308474479775454
6.5,0.0389306727770205,0.30693423956397
6.5175,0.0590792357373447,0.301877435837987
6.535,0.0787368431858673,0.295170092434649
6.5525,0.0977700950324357,0.286858089878384
6.57,0.116049455179866,0.276997614793072
6.5875,0.133449997453381,0.265654906467559
6.605,0.149852146892174,0.252905954233774
6.6225,0.16514241374866,0.238836143034499
6.64,0.179214116539403,0.223539844947902
6.6575,0.191968089984499,0.207119954367547
6.675,0.20331337311461,0.189687365258938
6.6925,0.213167872184536,0.171360389175534
6.71,0.221458992441199,0.152264113407185
6.7275,0.228124232493976,0.132529699295128
6.745,0.23311173471802,0.112293621702079
6.7625,0.23638078463812,0.0916968511630463
6.78,0.237902252592829,0.0708839814993411
6.7975,0.237658970576977,0.0500023064071236
6.815,0.235646037565664,0.0292008495490571
6.8325,0.231871046954557,0.00862935368193507
6.85,0.226354229929156,-0.0115627647432214
6.8675,0.219128509668825,-0.0312274881878424
6.885,0.2102394613981,-0.0502192897374382
6.9025,0.19974517463606,-0.0683962348018714
6.92,0.187716014711581,-0.0856210836097227
6.9375,0.174234281694758,-0.10176238405619
6.955,0.158201889258998,-0.113883003492864
6.9725,0.141426456351701,-0.124474350013899
6.99,0.124047658968507,-0.133493400358048
7.0075,0.106207734081633,-0.140909620490759
7.025,0.0880503605865304,-0.146705157655389
7.0425,0.069719519007602,-0.150874928266747
7.06,0.0513583406035828,-0.15342659865263
7.0775,0.0331079565731783,-0.154380457077254
7.095,0.015106358786651,-0.153769176301762
7.1125,-0.00251271691523002,-0.151637467717357
7.13,-0.0196208734361751,-0.148041628831849
7.1475,-0.0360960901071083,-0.143048987665236
7.165,-0.0518237048662663,-0.136737248478967
7.1825,-0.0666973305872818,-0.129193744660845
7.2,-0.0806196960827479,-0.12051460580979
7.2175,-0.0935034033435925,-0.110803846779962
7.235,-0.105271592922273,-0.100172387750576
7.2525,-0.115858511018439,-0.0887370149804009
7.27,-0.12520997259661,-0.0766192927187405
7.2875,-0.133283716022883,-0.0639444371966238
7.305,-0.140049646307585,-0.0508401640205022
7.3225,-0.145489964958297,-0.0374355207522216
7.34,-0.14959918591746,-0.0238597160755053
7.3575,-0.152384038285335,-0.0102409574484839
7.375,-0.153863257936691,0.003294691604281
7.3925,-0.153127025002451,0.0137168519946307
7.41,-0.151693361510008,0.0236614578519583
7.4275,-0.149631837615705,0.0330846305852888
7.445,-0.147014492707914,0.0419503854359617
7.4625,-0.143915015509805,0.0502307357231865
7.48,-0.14040792568813,0.0579057140993811
7.4975,-0.1365677652948,0.0649633123654891
7.515,-0.132468308322931,0.0713993419143544
7.5325,-0.128181796020176,0.077217218158471
7.55,-0.123778205198192,0.0824276726128653
7.5675,-0.119324556272144,0.0870483973100996
7.585,-0.114884266993036,0.0911036266382344
7.6025,-0.110516557351815,0.0946236622900334
7.62,-0.106275910181423,0.0976443473089684
7.6375,-0.10221159155273,0.100206495781123
7.655,-0.0983672339242149,0.10235528459588
7.6725,-0.0947804847354191,0.104139614217535
7.69,-0.0914827219329547,0.105611445147282
7.7075,-0.0884988375674846,0.106825116948652
7.725,-0.0858470897233029,0.107836656527708
7.7425,-0.0835390224614582,0.108703082077157
7.76,-0.0815794528953205,0.109481709224267
7.7775,-0.0799665239766804,0.1102294651356
7.795,-0.0786918209232328,0.111002216532165
7.8125,-0.077740549096927,0.111854116826717
7.83,-0.0780923315292742,0.115089946328163
7.8475,-0.0783006778962543,0.118668651094927
7.865,-0.0783151172035876,0.122581182720635
7.8825,-0.0780860491245492,0.126812800152444
7.9,-0.0775653063434017,0.131343173805855
7.9175,-0.0767067037161139,0.13614653987119
7.935,-0.0754665704023749,0.14119190321696
7.9525,-0.0738042611746439,0.146443286965646
7.97,-0.0716826432519179,0.151860026638866
7.9875,-0.0690685555184344,0.157397106572871
8.005,-0.0659332367770775,0.163005536022878
8.0225,-0.0622527202440957,0.168632762507015
8.04,-0.0580081915310131,0.174223119378758
8.0575,-0.0531863075164235,0.179718304841649
8.075,-0.0477794738397267,0.185057889402799
8.0925,-0.0417860786776963,0.190179848453222
8.11,-0.0352106810230987,0.19502111672415
8.1275,-0.028064151482108,0.199518161323264
8.145,-0.0203637639239919,0.20360756959085
8.1625,-0.0121332366921414,0.207226648179314
8.18,-0.00340272198982275,0.210314029535907
8.1975,0.00579125756324349,0.212810281748898
8.215,0.0154059259465537,0.214658517696557
8.2325,0.0253924249812494,0.215804999133009
8.25,0.0356960399079471,0.216199731356215
8.2675,0.0477812636959083,0.214186344466846
8.285,0.0597508764405549,0.211073700718593
8.3025,0.0715033846918643,0.206867092934347
8.32,0.0829374174769356,0.201580891446664
8.3375,0.0939525055669652,0.195238567915823
8.355,0.104449867815097,0.187872655505524
8.3725,0.114333199842333,0.179524644105635
8.39,0.123509460113356,0.170244809434166
8.4075,0.131889647934339,0.16009197521737
8.425,0.139389567962329,0.149133207998191
8.4425,0.145930575358665,0.137443444699318
8.46,0.151440295801188,0.125105053408106
8.4775,0.155853314238072,0.112207328466253
8.495,0.159111826162367,0.0988459215769731
8.5125,0.161166245493368,0.08512221104553
8.53,0.161975762693145,0.0711426120940632
8.5475,0.161508847280716,0.0570178317170183
8.565,0.159743688852643,0.0428620723668316
8.5825,0.156668571159707,0.0287921891681765
8.6,0.15228217381668,0.0149268062298369
8.6175,0.14659379718757,0.00138539816032953
8.635,0.139623505873405,-0.011712656407217
8.6525,0.13140218735383,-0.0242490420984974
8.67,0.121971522747696,-0.0361074869775293
8.6875,0.111383867420038,-0.0471747474625085
8.705,0.0976405732419121,-0.0559660094342491
8.7225,0.0831458409123259,-0.0633912130379256
8.74,0.0680268473444789,-0.0693887591066887
8.7575,0.0524158142067664,-0.0739085756713342
8.775,0.0364489760670506,-0.0769125489673659
8.7925,0.0202655080498272,-0.0783748614144215
8.81,0.00400642174309608,-0.0782822323250641
8.8275,-0.0121865616009631,-0.0766340577410877
8.845,-0.0281721507320904,-0.0734424469551525
8.8625,-0.0438106271472935,-0.0687321540216899
8.88,-0.0589649805451272,-0.0625404038200478
8.8975,-0.0735020267737601,-0.0549166132397262
8.915,-0.0872934978416096,-0.0459220091257848
8.9325,-0.100217094029936,-0.0356291458342548
8.95,-0.112157488104451,-0.024121326173699
8.9675,-0.123007272190769,-0.0114919308600858
8.985,-0.132667838607505,0.00215633769261091
9.0025,-0.141050186193443,0.0167122903348775
9.02,-0.148075645012719,0.0320571569642842
9.0375,-0.153676512647082,0.048065554820918
9.055,-0.157796596720532,0.0646065098553415
9.0725,-0.160391659061233,0.0815445217795418
9.09,-0.161429758249198,0.0987406623833877
9.1075,-0.160891488035505,0.116053697037379
9.125,-0.158770110878674,0.133341218789953
9.1425,-0.153164844424913,0.149204717725399
9.16,-0.146250262529847,0.164427309767405
9.1775,-0.138097445749151,0.178904457028604
9.195,-0.1287855330341,0.192538977348343
9.2125,-0.118400984096302,0.205241641252958
9.23,-0.107036799976176,0.216931694702427
9.2475,-0.0947917093958125,0.227537304719546
9.265,-0.0817693289342529,0.236995926339423
9.2825,-0.0680773048991836,0.245254589858149
9.3,-0.0538264446803129,0.252270108250192
9.3175,-0.0391298453329739,0.258009205624653
9.335,-0.0241020266775149,0.262448568061917
9.3525,-0.00885807599423472,0.265574819176061
9.37,0.00648718903083222,0.267384423156999
9.3875,0.0218200330979201,0.267883518863415
9.405,0.0370285860515373,0.267087688917401
9.4225,0.052003590751968,0.265021668090162
9.44,0.0666391113702779,0.261718996001602
9.4575,0.0808331986563773,0.257221619002689
9.475,0.0944885085722102,0.251579446716461
9.4925,0.107512872115544,0.244849868510339
9.51,0.119819814188718,0.237097235528433
9.5275,0.131329020315649,0.228392313855574
9.545,0.141966750544344,0.218811714100663
9.5625,0.151666200426143,0.208437302887656
9.58,0.159177931012033,0.197532047777794
9.5975,0.165678061775384,0.186222700406374
9.615,0.171148464403774,0.17459741089496
9.6325,0.175578150353987,0.162744447502939
9.65,0.178963139356425,0.15075166552637
9.6675,0.181306291869785,0.138706003916989
9.685,0.182617110143873,0.126693012160626
9.7025,0.182911512556443,0.114796409321805
9.72,0.182211586525609,0.103097676079365
9.7375,0.180545324867639,0.0916756803442983
9.755,0.177946350894232,0.0806063357347774
9.7725,0.174453637294965,0.069962291517605
9.79,0.16992777946223,0.0602935811384663
9.8075,0.164552341585082,0.0517119664596627
9.825,0.158615052524465,0.0437938783547275
9.8425,0.152178499273536,0.036572417323268
9.86,0.145306637770064,0.0300757233630974
9.8775,0.138064500394746,0.0243270395740855
9.895,0.130517939095801,0.0193447793196126
9.9125,0.122733402062624,0.0151425876112895
9.93,0.114777739664733,0.0117293879861021
9.9475,0.106718033146925,0.00910940646364284
9.965,0.0986214375526844,0.00728216576586302
9.9825,0.0905550282328841,0.00624244432692365
10,0.082585638593714,0.00598019730716487
