"Freq [GHz]","re(S(Tx_p1,Tx_p1)) []","im(S(Tx_p1,Tx_p1)) []"
1,0.4234859222,-0.2066889408
1.01,0.417282206,-0.2032336398
1.02,0.4113510683,-0.1999354646
1.03,0.4056799044,-0.1967912893
1.04,0.4002566747,-0.1937980773
1.05,0.3950698733,-0.1909528766
1.06,0.3901084981,-0.1882528156
1.07,0.3853620235,-0.1856950993
1.08,0.3808203742,-0.1832770058
1.09,0.3764739008,-0.1809958824
1.1,0.3723133575,-0.1788491428
1.11,0.3683298802,-0.1768342634
1.12,0.3645149665,-0.1749487809
1.13,0.3608604573,-0.1731902888
1.14,0.3573585186,-0.1715564354
1.15,0.3540016249,-0.1700449206
1.16,0.350782544,-0.1686534937
1.17,0.3476943214,-0.1673799514
1.18,0.3447302673,-0.1662221346
1.19,0.3418839429,-0.1651779273
1.2,0.3391491483,-0.1642452538
1.21,0.3365199106,-0.1634220769
1.22,0.3339904736,-0.1627063961
1.23,0.3315552866,-0.1620962455
1.24,0.3292089949,-0.1615896925
1.25,0.3269464311,-0.1611848353
1.26,0.3247626055,-0.160879802
1.27,0.3226526985,-0.1606727486
1.28,0.3206120524,-0.1605618573
1.29,0.3186361645,-0.1605453353
1.3,0.3167206795,-0.1606214134
1.31,0.3148613835,-0.1607883442
1.32,0.3130541976,-0.1610444008
1.33,0.3112951718,-0.1613878757
1.34,0.3095804798,-0.1618170795
1.35,0.3079064133,-0.1623303391
1.36,0.3062693774,-0.1629259972
1.37,0.3046658859,-0.1636024105
1.38,0.3030925566,-0.1643579488
1.39,0.3015461073,-0.165190994
1.4,0.3000233516,-0.1660999385
1.41,0.2985211957,-0.1670831847
1.42,0.2970366342,-0.1681391434
1.43,0.2955667473,-0.1692662335
1.44,0.2941086974,-0.1704628799
1.45,0.2926597261,-0.1717275139
1.46,0.2912171518,-0.1730585709
1.47,0.2897783664,-0.1744544905
1.48,0.2883408337,-0.1759137153
1.49,0.2869020864,-0.1774346897
1.5,0.2854597242,-0.1790158598
1.51,0.284011412,-0.1806556717
1.52,0.2825548774,-0.1823525715
1.53,0.2810879095,-0.1841050043
1.54,0.2796083573,-0.1859114134
1.55,0.2781141276,-0.1877702395
1.56,0.2766031839,-0.1896799206
1.57,0.2750735454,-0.1916388907
1.58,0.2735232851,-0.1936455796
1.59,0.2719505293,-0.1956984125
1.6,0.2703534562,-0.1977958089
1.61,0.2687302951,-0.1999361827
1.62,0.2670793253,-0.2021179414
1.63,0.2653988757,-0.2043394859
1.64,0.2636873238,-0.2065992097
1.65,0.2619430952,-0.2088954991
1.66,0.2601646629,-0.2112267325
1.67,0.2583505467,-0.2135912802
1.68,0.2564993131,-0.2159875041
1.69,0.2546095746,-0.2184137577
1.7,0.2526799895,-0.2208683856
1.71,0.2507092614,-0.2233497236
1.72,0.2486961392,-0.2258560983
1.73,0.2466394169,-0.2283858275
1.74,0.2445379332,-0.2309372198
1.75,0.2423905715,-0.2335085746
1.76,0.24019626,-0.2360981822
1.77,0.2379539712,-0.2387043239
1.78,0.2356627224,-0.2413252724
1.79,0.2333215755,-0.2439592911
1.8,0.2309296367,-0.2466046353
1.81,0.2284860571,-0.2492595518
1.82,0.2259900324,-0.2519222792
1.83,0.2234408031,-0.2545910485
1.84,0.2208376547,-0.257264083
1.85,0.2181799177,-0.2599395992
1.86,0.2154669677,-0.2626158065
1.87,0.2126982257,-0.2652909083
1.88,0.2098731579,-0.2679631023
1.89,0.2069912764,-0.2706305806
1.9,0.2040521389,-0.2732915307
1.91,0.201055349,-0.2759441359
1.92,0.1980005564,-0.278586576
1.93,0.1948874568,-0.2812170276
1.94,0.1917157925,-0.2838336653
1.95,0.1884853521,-0.286434662
1.96,0.1851959707,-0.2890181895
1.97,0.1818475303,-0.2915824199
1.98,0.1784399597,-0.2941255255
1.99,0.1749732343,-0.2966456805
2,0.1714473767,-0.2991410611
2.01,0.1678624565,-0.3016098466
2.02,0.1642185904,-0.3040502206
2.03,0.1605159418,-0.3064603714
2.04,0.1567547216,-0.3088384931
2.05,0.1529351874,-0.3111827869
2.06,0.149057644,-0.3134914613
2.07,0.145122443,-0.3157627337
2.08,0.1411299827,-0.3179948314
2.09,0.1370807082,-0.320185992
2.1,0.132975111,-0.3223344652
2.11,0.1288137291,-0.3244385131
2.12,0.1245971463,-0.3264964119
2.13,0.1203259926,-0.3285064524
2.14,0.1160009433,-0.3304669415
2.15,0.1116227193,-0.3323762027
2.16,0.1071920861,-0.3342325779
2.17,0.1027098539,-0.3360344279
2.18,0.09817687726,-0.3377801335
2.19,0.0935940542,-0.339468097
2.2,0.08896232615,-0.3410967428
2.21,0.08428267727,-0.3426645187
2.22,0.07955613397,-0.3441698968
2.23,0.07478376431,-0.3456113749
2.24,0.0699666774,-0.3469874769
2.25,0.06510602279,-0.3482967547
2.26,0.06020298977,-0.3495377884
2.27,0.0552588067,-0.3507091878
2.28,0.05027474024,-0.3518095933
2.29,0.04525209462,-0.3528376769
2.3,0.04019221082,-0.3537921429
2.31,0.03509646574,-0.3546717293
2.32,0.02996627133,-0.3554752084
2.33,0.02480307375,-0.3562013879
2.34,0.01960835236,-0.3568491115
2.35,0.01438361886,-0.3574172602
2.36,0.009130416241,-0.3579047527
2.37,0.003850317824,-0.3583105466
2.38,-0.001455073793,-0.3586336389
2.39,-0.006784127794,-0.358873067
2.4,-0.01213518622,-0.359027909
2.41,-0.01750656509,-0.359097285
2.42,-0.02289655553,-0.3590803574
2.43,-0.02830342488,-0.3589763316
2.44,-0.03372541797,-0.3587844565
2.45,-0.03916075819,-0.3585040253
2.46,-0.04460764879,-0.358134376
2.47,-0.05006427409,-0.3576748916
2.48,-0.05552880068,-0.357125001
2.49,-0.06099937874,-0.3564841792
2.5,-0.06647414326,-0.3557519474
2.51,-0.07195121537,-0.3549278741
2.52,-0.07742870359,-0.3540115747
2.53,-0.08290470517,-0.3530027121
2.54,-0.08837730738,-0.351900997
2.55,-0.09384458884,-0.3507061878
2.56,-0.09930462082,-0.3494180911
2.57,-0.1047554686,-0.3480365615
2.58,-0.1101951928,-0.346561502
2.59,-0.1156218507,-0.3449928637
2.6,-0.1210334975,-0.343330646
2.61,-0.1264281877,-0.3415748967
2.62,-0.1318039765,-0.3397257114
2.63,-0.1371589211,-0.337783234
2.64,-0.1424910818,-0.3357476561
2.65,-0.1477985235,-0.3336192169
2.66,-0.1530793171,-0.331398203
2.67,-0.1583315406,-0.3290849482
2.68,-0.1635532802,-0.326679833
2.69,-0.168742632,-0.3241832844
2.7,-0.173897703,-0.3215957751
2.71,-0.1790166122,-0.3189178238
2.72,-0.1840974921,-0.3161499941
2.73,-0.1891384896,-0.3132928942
2.74,-0.1941377674,-0.3103471764
2.75,-0.1990935051,-0.3073135364
2.76,-0.2040039002,-0.3041927129
2.77,-0.2088671693,-0.3009854866
2.78,-0.2136815494,-0.29769268
2.79,-0.2184452983,-0.2943151563
2.8,-0.2231566964,-0.2908538188
2.81,-0.2278140473,-0.2873096102
2.82,-0.2324156786,-0.2836835116
2.83,-0.2369599435,-0.2799765421
2.84,-0.2414452208,-0.2761897574
2.85,-0.2458699167,-0.2723242495
2.86,-0.2502324648,-0.2683811451
2.87,-0.2545313277,-0.2643616055
2.88,-0.2587649971,-0.2602668252
2.89,-0.2629319952,-0.2560980309
2.9,-0.2670308747,-0.2518564807
2.91,-0.2710602201,-0.2475434632
2.92,-0.275018648,-0.2431602961
2.93,-0.278904808,-0.2387083256
2.94,-0.2827173829,-0.2341889252
2.95,-0.2864550893,-0.2296034948
2.96,-0.2901166786,-0.2249534594
2.97,-0.2937009368,-0.220240268
2.98,-0.2972066852,-0.215465393
2.99,-0.3006327811,-0.2106303287
3,-0.3039781175,-0.2057365903
3.01,-0.3072416239,-0.2007857129
3.02,-0.3104222667,-0.1957792505
3.03,-0.3135190489,-0.1907187747
3.04,-0.3165310107,-0.1856058737
3.05,-0.3194572297,-0.1804421513
3.06,-0.3222968206,-0.1752292257
3.07,-0.325048936,-0.1699687288
3.08,-0.3277127659,-0.1646623045
3.09,-0.3302875378,-0.1593116081
3.1,-0.3327725171,-0.1539183051
3.11,-0.3351670065,-0.1484840705
3.12,-0.3374703464,-0.143010587
3.13,-0.3396819145,-0.1374995449
3.14,-0.3418011258,-0.1319526403
3.15,-0.3438274323,-0.1263715748
3.16,-0.3457603231,-0.120758054
3.17,-0.347599324,-0.1151137869
3.18,-0.3493439969,-0.1094404847
3.19,-0.3509939403,-0.10373986
3.2,-0.3525487883,-0.0980136261
3.21,-0.3540082106,-0.09226349569
3.22,-0.355371912,-0.08649118036
3.23,-0.3566396322,-0.08069838961
3.24,-0.3578111452,-0.07488683006
3.25,-0.3588862589,-0.06905820465
3.26,-0.359864815,-0.06321421193
3.27,-0.360746688,-0.05735654525
3.28,-0.3615317851,-0.05148689205
3.29,-0.3622200455,-0.04560693325
3.3,-0.36281144,-0.03971834247
3.31,-0.3633059705,-0.03382278548
3.32,-0.3637036694,-0.02792191954
3.33,-0.3640045988,-0.02201739285
3.34,-0.3642088506,-0.01611084395
3.35,-0.3643165452,-0.01020390123
3.36,-0.3643278314,-0.004298182407
3.37,-0.3642428854,0.001604705951
3.38,-0.3640619107,0.007503168867
3.39,-0.363785137,0.01339562338
3.4,-0.3634128201,0.01928049892
3.41,-0.3629452406,0.02515623772
3.42,-0.3623827043,0.03102129509
3.43,-0.3617255403,0.03687413977
3.44,-0.3609741017,0.04271325422
3.45,-0.360128764,0.04853713483
3.46,-0.3591899251,0.05434429222
3.47,-0.3581580041,0.06013325139
3.48,-0.3570334416,0.06590255192
3.49,-0.3558166981,0.07165074812
3.5,-0.3545082542,0.07737640919
3.51,-0.3531086096,0.08307811929
3.52,-0.3516182827,0.08875447765
3.53,-0.3500378099,0.0944040986
3.54,-0.3483677453,0.1000256117
3.55,-0.34660866,0.1056176615
3.56,-0.3447611413,0.111178908
3.57,-0.342825793,0.1167080263
3.58,-0.340803234,0.1222037063
3.59,-0.3386940983,0.1276646535
3.6,-0.3364990346,0.133089588
3.61,-0.3342187056,0.1384772449
3.62,-0.3318537875,0.1438263741
3.63,-0.3294049701,0.1491357402
3.64,-0.3268729559,0.1544041223
3.65,-0.3242584597,0.159630314
3.66,-0.3215622088,0.1648131231
3.67,-0.318784942,0.1699513713
3.68,-0.3159274096,0.1750438944
3.69,-0.3129903731,0.1800895419
3.7,-0.309974605,0.1850871768
3.71,-0.3068808881,0.1900356753
3.72,-0.303710016,0.1949339268
3.73,-0.300462792,0.1997808337
3.74,-0.2971400297,0.204575311
3.75,-0.2937425522,0.2093162862
3.76,-0.2902711924,0.2140026991
3.77,-0.2867267927,0.2186335016
3.78,-0.2831102045,0.2232076573
3.79,-0.2794222888,0.2277241416
3.8,-0.2756639156,0.2321819413
3.81,-0.2718359639,0.2365800543
3.82,-0.267939322,0.2409174896
3.83,-0.2639748869,0.2451932671
3.84,-0.2599435649,0.2494064172
3.85,-0.255846271,0.253555981
3.86,-0.2516839295,0.2576410096
3.87,-0.2474574736,0.2616605644
3.88,-0.2431678459,0.2656137169
3.89,-0.2388159979,0.2694995482
3.9,-0.2344028905,0.2733171493
3.91,-0.2299294941,0.2770656207
3.92,-0.2253967886,0.2807440726
3.93,-0.2208057633,0.2843516243
3.94,-0.2161574177,0.2878874046
3.95,-0.2114527608,0.2913505518
3.96,-0.206692812,0.2947402132
3.97,-0.2018786009,0.2980555453
3.98,-0.1970111674,0.3012957139
3.99,-0.1920915621,0.3044598942
4,-0.1871208466,0.3075472703
4.01,-0.1821000932,0.3105570358
4.02,-0.1770303856,0.3134883938
4.03,-0.171912819,0.3163405567
4.04,-0.1667485,0.3191127463
4.05,-0.1615385474,0.3218041943
4.06,-0.1562840916,0.3244141422
4.07,-0.1509862757,0.3269418413
4.08,-0.145646255,0.3293865533
4.09,-0.1402651977,0.3317475501
4.1,-0.1348442847,0.3340241142
4.11,-0.1293847101,0.3362155389
4.12,-0.1238876813,0.3383211285
4.13,-0.1183544192,0.3403401989
4.14,-0.1127861583,0.3422720775
4.15,-0.107184147,0.3441161034
4.16,-0.1015496476,0.3458716285
4.17,-0.09588393685,0.347538017
4.18,-0.09018830547,0.3491146462
4.19,-0.08446405879,0.3506009068
4.2,-0.07871251668,0.3519962034
4.21,-0.07293501366,0.3532999546
4.22,-0.06713289903,0.354511594
4.23,-0.06130753691,0.35563057
4.24,-0.05546030632,0.3566563468
4.25,-0.0495926012,0.3575884045
4.26,-0.04370583048,0.3584262399
4.27,-0.03780141803,0.3591693669
4.28,-0.03188080268,0.3598173167
4.29,-0.02594543819,0.360369639
4.3,-0.01999679317,0.3608259019
4.31,-0.01403635105,0.3611856927
4.32,-0.008065609918,0.3614486185
4.33,-0.002086082458,0.3616143069
4.34,0.003900704218,0.3616824062
4.35,0.009893208731,0.3616525861
4.36,0.01588987562,0.3615245386
4.37,0.02188913557,0.3612979782
4.38,0.02788940563,0.3609726426
4.39,0.03388908948,0.3605482933
4.4,0.03988657774,0.3600247165
4.41,0.04588024824,0.359401723
4.42,0.05186846641,0.3586791494
4.43,0.05784958559,0.3578568586
4.44,0.06382194747,0.3569347399
4.45,0.06978388246,0.3559127103
4.46,0.07573371016,0.3547907145
4.47,0.08166973981,0.3535687259
4.48,0.0875902708,0.3522467466
4.49,0.09349359315,0.3508248087
4.5,0.09937798807,0.349302974
4.51,0.1052417286,0.3476813353
4.52,0.1110830799,0.3459600163
4.53,0.1169003005,0.3441391727
4.54,0.1226916422,0.342218992
4.55,0.128455351,0.3401996946
4.56,0.1341896682,0.3380815339
4.57,0.1398928305,0.3358647968
4.58,0.145563071,0.3335498041
4.59,0.15119862,0.3311369111
4.6,0.1567977057,0.3286265078
4.61,0.1623585549,0.3260190193
4.62,0.1678793939,0.3233149059
4.63,0.1733584495,0.320514664
4.64,0.1787939495,0.3176188259
4.65,0.1841841239,0.31462796
4.66,0.1895272053,0.3115426716
4.67,0.1948214306,0.3083636026
4.68,0.2000650409,0.3050914318
4.69,0.2052562832,0.3017268752
4.7,0.2103934112,0.298270686
4.71,0.2154746858,0.2947236549
4.72,0.2204983765,0.2910866097
4.73,0.2254627624,0.2873604161
4.74,0.2303661328,0.2835459771
4.75,0.2352067885,0.2796442331
4.76,0.2399830424,0.275656162
4.77,0.2446932213,0.2715827792
4.78,0.2493356657,0.2674251372
4.79,0.2539087321,0.2631843256
4.8,0.2584107928,0.2588614712
4.81,0.2628402377,0.2544577373
4.82,0.2671954752,0.2499743237
4.83,0.2714749327,0.2454124667
4.84,0.2756770582,0.2407734382
4.85,0.2798003209,0.236058546
4.86,0.2838432122,0.231269133
4.87,0.2878042471,0.2264065771
4.88,0.2916819646,0.2214722904
4.89,0.2954749289,0.2164677192
4.9,0.2991817305,0.2113943432
4.91,0.3028009868,0.2062536748
4.92,0.3063313434,0.2010472593
4.93,0.3097714747,0.1957766735
4.94,0.313120085,0.1904435253
4.95,0.3163759092,0.1850494534
4.96,0.319537714,0.1795961264
4.97,0.3226042981,0.174085242
4.98,0.3255744938,0.1685185262
4.99,0.3284471673,0.1628977329
5,0.3312212196,0.1572246431
5.01,0.3338955873,0.1515010635
5.02,0.3364692435,0.1457288263
5.03,0.3389411979,0.1399097883
5.04,0.3413104985,0.1340458295
5.05,0.3435762312,0.1281388528
5.06,0.3457375212,0.1221907827
5.07,0.3477935334,0.1162035646
5.08,0.3497434726,0.1101791635
5.09,0.3515865847,0.1041195634
5.1,0.3533221569,0.09802676603
5.11,0.3549495179,0.09190279005
5.12,0.3564680391,0.08574966978
5.13,0.3578771342,0.07956945429
5.14,0.3591762603,0.0733642063
5.15,0.3603649178,0.06713600115
5.16,0.3614426509,0.06088692564
5.17,0.3624090482,0.054619077
5.18,0.3632637423,0.04833456175
5.19,0.3640064106,0.0420354946
5.2,0.3646367754,0.0357239973
5.21,0.365154604,0.02940219756
5.22,0.3655597087,0.0230722279
5.23,0.3658519471,0.01673622451
5.24,0.3660312221,0.01039632611
5.25,0.3660974822,0.004054672855
5.26,0.3660507207,-0.002286594864
5.27,0.3658909768,-0.0086253375
5.28,0.3656183346,-0.0149594175
5.29,0.3652329233,-0.02128670045
5.3,0.3647349174,-0.02760505615
5.31,0.364124536,-0.03391235977
5.32,0.3634020428,-0.04020649296
5.33,0.3625677461,-0.04648534492
5.34,0.3616219982,-0.0527468135
5.35,0.3605651952,-0.05898880629
5.36,0.3593977769,-0.06520924169
5.37,0.358120226,-0.07140604992
5.38,0.3567330682,-0.07757717413
5.39,0.3552368712,-0.08372057136
5.4,0.3536322449,-0.08983421361
5.41,0.3519198404,-0.09591608875
5.42,0.3501003499,-0.1019642016
5.43,0.3481745057,-0.1079765748
5.44,0.3461430801,-0.1139512497
5.45,0.3440068846,-0.1198862875
5.46,0.3417667691,-0.1257797698
5.47,0.3394236218,-0.1316298
5.48,0.3369783679,-0.1374345033
5.49,0.3344319695,-0.1431920286
5.5,0.3317854243,-0.1489005482
5.51,0.3290397657,-0.1545582596
5.52,0.326196061,-0.1601633855
5.53,0.3232554118,-0.1657141747
5.54,0.3202189521,-0.1712089032
5.55,0.3170878483,-0.1766458744
5.56,0.3138632983,-0.1820234197
5.57,0.3105465303,-0.1873398997
5.58,0.3071388021,-0.1925937042
5.59,0.3036414005,-0.197783253
5.6,0.3000556404,-0.2029069963
5.61,0.2963828634,-0.2079634156
5.62,0.2926244378,-0.2129510236
5.63,0.288781757,-0.217868365
5.64,0.2848562389,-0.2227140169
5.65,0.2808493248,-0.227486589
5.66,0.2767624791,-0.2321847243
5.67,0.2725971874,-0.2368070989
5.68,0.2683549567,-0.2413524229
5.69,0.2640373135,-0.2458194402
5.7,0.2596458035,-0.2502069289
5.71,0.2551819906,-0.2545137017
5.72,0.2506474559,-0.2587386057
5.73,0.2460437967,-0.2628805229
5.74,0.2413726258,-0.2669383702
5.75,0.2366355706,-0.2709110994
5.76,0.2318342718,-0.2747976973
5.77,0.2269703834,-0.278597186
5.78,0.2220455708,-0.2823086226
5.79,0.2170615107,-0.2859310994
5.8,0.2120198897,-0.2894637436
5.81,0.2069224039,-0.2929057177
5.82,0.2017707579,-0.296256219
5.83,0.1965666638,-0.2995144795
5.84,0.1913118406,-0.3026797662
5.85,0.1860080134,-0.3057513805
5.86,0.1806569124,-0.3087286583
5.87,0.1752602725,-0.3116109695
5.88,0.1698198321,-0.3143977183
5.89,0.1643373328,-0.3170883424
5.9,0.1588145183,-0.3196823132
5.91,0.1532531339,-0.3221791353
5.92,0.1476549259,-0.3245783462
5.93,0.1420216407,-0.3268795161
5.94,0.1363550242,-0.3290822475
5.95,0.1306568213,-0.3311861752
5.96,0.1249287752,-0.3331909654
5.97,0.1191726269,-0.3350963157
5.98,0.1133901142,-0.3369019547
5.99,0.1075829719,-0.3386076415
6,0.1017529307,-0.3402131657
