"Freq [GHz]","re(S(Tx_p1,Tx_p1)) []","im(S(Tx_p1,Tx_p1)) []"
1,0.349872163,-0.1679541938
1.01,0.3451889643,-0.1655182659
1.02,0.340713377,-0.1632210601
1.03,0.3364349204,-0.1610597757
1.04,0.3323435707,-0.1590316725
1.05,0.3284297365,-0.1571340671
1.06,0.3246842352,-0.15536433
1.07,0.3210982716,-0.1537198817
1.08,0.3176634173,-0.1521981904
1.09,0.3143715918,-0.1507967689
1.1,0.3112150449,-0.1495131717
1.11,0.3081863396,-0.1483449932
1.12,0.3052783371,-0.1472898645
1.13,0.3024841814,-0.1463454521
1.14,0.2997972865,-0.145509455
1.15,0.2972113225,-0.1447796034
1.16,0.2947202046,-0.1441536567
1.17,0.2923180806,-0.1436294014
1.18,0.2899993211,-0.14320465
1.19,0.2877585092,-0.1428772393
1.2,0.2855904309,-0.1426450288
1.21,0.2834900662,-0.1425058996
1.22,0.281452581,-0.1424577531
1.23,0.2794733191,-0.1424985094
1.24,0.2775477947,-0.1426261071
1.25,0.2756716854,-0.1428385011
1.26,0.2738408256,-0.1431336626
1.27,0.2720512006,-0.1435095777
1.28,0.2702989401,-0.1439642466
1.29,0.2685803132,-0.1444956828
1.3,0.266891723,-0.1451019124
1.31,0.2652297014,-0.1457809736
1.32,0.263590905,-0.1465309155
1.33,0.26197211,-0.1473497981
1.34,0.2603702087,-0.1482356916
1.35,0.2587822049,-0.1491866754
1.36,0.2572052106,-0.1502008383
1.37,0.2556364423,-0.1512762779
1.38,0.254073218,-0.1524110997
1.39,0.2525129532,-0.1536034176
1.4,0.2509531588,-0.1548513529
1.41,0.2493914379,-0.1561530341
1.42,0.2478254827,-0.1575065971
1.43,0.2462530728,-0.1589101846
1.44,0.244672072,-0.1603619459
1.45,0.2430804264,-0.1618600367
1.46,0.241476162,-0.1634026196
1.47,0.2398573829,-0.1649878629
1.48,0.2382222691,-0.1666139415
1.49,0.2365690746,-0.1682790365
1.5,0.2348961257,-0.169981335
1.51,0.2332018194,-0.1717190302
1.52,0.2314846217,-0.1734903218
1.53,0.2297430658,-0.1752934154
1.54,0.2279757512,-0.1771265231
1.55,0.2261813416,-0.1789878635
1.56,0.2243585643,-0.1808756614
1.57,0.2225062083,-0.1827881486
1.58,0.2206231233,-0.1847235635
1.59,0.2187082186,-0.1866801514
1.6,0.216760462,-0.1886561652
1.61,0.2147788785,-0.1906498647
1.62,0.2127625495,-0.1926595175
1.63,0.2107106114,-0.1946833992
1.64,0.2086222554,-0.1967197933
1.65,0.2064967257,-0.1987669919
1.66,0.2043333191,-0.2008232955
1.67,0.2021313842,-0.2028870139
1.68,0.19989032,-0.204956466
1.69,0.197609576,-0.2070299803
1.7,0.1952886503,-0.2091058955
1.71,0.1929270898,-0.2111825604
1.72,0.1905244888,-0.2132583345
1.73,0.1880804887,-0.2153315886
1.74,0.1855947768,-0.2174007047
1.75,0.1830670862,-0.2194640768
1.76,0.1804971944,-0.2215201109
1.77,0.1778849233,-0.2235672259
1.78,0.175230138,-0.2256038537
1.79,0.1725327463,-0.2276284396
1.8,0.1697926982,-0.2296394428
1.81,0.167009985,-0.2316353371
1.82,0.1641846389,-0.2336146106
1.83,0.1613167321,-0.2355757671
1.84,0.1584063762,-0.2375173257
1.85,0.1554537218,-0.2394378219
1.86,0.1524589577,-0.2413358074
1.87,0.14942231,-0.2432098511
1.88,0.1463440419,-0.2450585394
1.89,0.1432244529,-0.2468804764
1.9,0.140063878,-0.2486742846
1.91,0.1368626873,-0.2504386053
1.92,0.1336212853,-0.2521720989
1.93,0.1303401099,-0.2538734457
1.94,0.1270196325,-0.2555413456
1.95,0.1236603565,-0.2571745195
1.96,0.1202628172,-0.258771709
1.97,0.116827581,-0.260331677
1.98,0.1133552447,-0.2618532081
1.99,0.1098464348,-0.2633351094
2,0.106301807,-0.2647762101
2.01,0.1027220454,-0.2661753626
2.02,0.09910786156,-0.2675314426
2.03,0.0954599944,-0.2688433495
2.04,0.09177920904,-0.2701100067
2.05,0.08806629629,-0.2713303619
2.06,0.08432207191,-0.2725033879
2.07,0.08054737592,-0.2736280821
2.08,0.07674307191,-0.2747034677
2.09,0.07291004632,-0.2757285934
2.1,0.0690492077,-0.2767025339
2.11,0.06516148606,-0.2776243901
2.12,0.06124783208,-0.2784932897
2.13,0.05730921646,-0.279308387
2.14,0.05334662913,-0.2800688632
2.15,0.04936107858,-0.2807739272
2.16,0.0453535911,-0.2814228149
2.17,0.04132521009,-0.2820147901
2.18,0.03727699527,-0.2825491446
2.19,0.03321002201,-0.2830251979
2.2,0.02912538059,-0.2834422978
2.21,0.02502417544,-0.2837998206
2.22,0.02090752443,-0.2840971708
2.23,0.01677655817,-0.2843337816
2.24,0.01263241925,-0.2845091147
2.25,0.008476261523,-0.2846226606
2.26,0.004309249388,-0.2846739386
2.27,0.0001325570798,-0.2846624966
2.28,-0.004052632055,-0.2845879118
2.29,-0.008245126267,-0.2844497897
2.3,-0.01244372611,-0.284247765
2.31,-0.01664722514,-0.2839815012
2.32,-0.02085441062,-0.2836506905
2.33,-0.02506406421,-0.2832550539
2.34,-0.02927496263,-0.2827943412
2.35,-0.03348587837,-0.2822683305
2.36,-0.03769558036,-0.2816768288
2.37,-0.04190283461,-0.2810196713
2.38,-0.04610640488,-0.2802967214
2.39,-0.05030505335,-0.2795078709
2.4,-0.0544975412,-0.2786530393
2.41,-0.05868262933,-0.2777321743
2.42,-0.06285907892,-0.276745251
2.43,-0.06702565203,-0.2756922719
2.44,-0.07118111228,-0.2745732671
2.45,-0.07532422536,-0.2733882934
2.46,-0.07945375966,-0.2721374346
2.47,-0.08356848684,-0.2708208013
2.48,-0.08766718236,-0.26943853
2.49,-0.09174862606,-0.2679907836
2.5,-0.0958116027,-0.2664777508
2.51,-0.09985490246,-0.2648996458
2.52,-0.1038773215,-0.2632567081
2.53,-0.1078776624,-0.261549202
2.54,-0.1118547347,-0.2597774167
2.55,-0.1158073553,-0.2579416656
2.56,-0.1197343491,-0.2560422863
2.57,-0.1236345493,-0.2540796398
2.58,-0.1275067979,-0.2520541108
2.59,-0.1313499461,-0.2499661068
2.6,-0.1351628546,-0.2478160582
2.61,-0.1389443944,-0.2456044176
2.62,-0.1426934466,-0.2433316596
2.63,-0.1464089033,-0.2409982806
2.64,-0.1500896678,-0.2386047981
2.65,-0.1537346548,-0.2361517505
2.66,-0.1573427909,-0.2336396969
2.67,-0.1609130148,-0.2310692164
2.68,-0.1644442779,-0.2284409081
2.69,-0.1679355443,-0.2257553905
2.7,-0.171385791,-0.2230133009
2.71,-0.1747940086,-0.2202152957
2.72,-0.1781592014,-0.2173620492
2.73,-0.1814803874,-0.2144542539
2.74,-0.1847565988,-0.2114926199
2.75,-0.1879868823,-0.2084778744
2.76,-0.191170299,-0.2054107612
2.77,-0.194305925,-0.202292041
2.78,-0.1973928513,-0.1991224903
2.79,-0.2004301843,-0.1959029012
2.8,-0.2034170455,-0.1926340815
2.81,-0.2063525722,-0.1893168536
2.82,-0.2092359174,-0.1859520549
2.83,-0.2120662499,-0.1825405368
2.84,-0.2148427546,-0.1790831647
2.85,-0.2175646328,-0.1755808176
2.86,-0.2202311017,-0.1720343878
2.87,-0.2228413953,-0.1684447802
2.88,-0.2253947641,-0.1648129125
2.89,-0.227890475,-0.1611397145
2.9,-0.2303278122,-0.157426128
2.91,-0.2327060762,-0.1536731062
2.92,-0.2350245849,-0.1498816136
2.93,-0.2372826732,-0.1460526256
2.94,-0.239479693,-0.1421871283
2.95,-0.2416150135,-0.1382861178
2.96,-0.2436880213,-0.1343506005
2.97,-0.2456981204,-0.1303815924
2.98,-0.247644732,-0.1263801187
2.99,-0.249527295,-0.1223472141
3,-0.251345266,-0.1182839216
3.01,-0.253098119,-0.1141912932
3.02,-0.2547853457,-0.1100703888
3.03,-0.2564064557,-0.1059222764
3.04,-0.2579609763,-0.1017480319
3.05,-0.2594484527,-0.09754873814
3.06,-0.260868448,-0.0933254856
3.07,-0.2622205432,-0.08907937143
3.08,-0.2635043372,-0.08481149946
3.09,-0.2647194472,-0.0805229799
3.1,-0.2658655084,-0.07621492912
3.11,-0.2669421738,-0.07188846933
3.12,-0.2679491152,-0.06754472839
3.13,-0.268886022,-0.06318483953
3.14,-0.2697526024,-0.05880994114
3.15,-0.2705485825,-0.05442117646
3.16,-0.2712737071,-0.05001969341
3.17,-0.2719277391,-0.04560664432
3.18,-0.2725104601,-0.04118318564
3.19,-0.2730216701,-0.03675047779
3.2,-0.2734611878,-0.03230968485
3.21,-0.2738288502,-0.02786197433
3.22,-0.2741245134,-0.02340851696
3.23,-0.2743480517,-0.01895048641
3.24,-0.2744993586,-0.01448905907
3.25,-0.2745783461,-0.0100254138
3.26,-0.2745849453,-0.005560731681
3.27,-0.2745191061,-0.00109619577
3.28,-0.2743807973,0.003367009147
3.29,-0.2741700068,0.007827696809
3.3,-0.2738867417,0.01228467973
3.31,-0.2735310279,0.01673676946
3.32,-0.2731029108,0.02118277684
3.33,-0.272602455,0.02562151226
3.34,-0.2720297441,0.03005178593
3.35,-0.2713848814,0.03447240816
3.36,-0.2706679893,0.03888218959
3.37,-0.2698792098,0.04327994152
3.38,-0.2690187043,0.04766447616
3.39,-0.2680866538,0.05203460689
3.4,-0.2670832589,0.05638914861
3.41,-0.2660087397,0.06072691798
3.42,-0.264863336,0.06504673372
3.43,-0.2636473072,0.06934741695
3.44,-0.2623609327,0.07362779143
3.45,-0.2610045114,0.07788668393
3.46,-0.259578362,0.08212292452
3.47,-0.2580828231,0.08633534688
3.48,-0.2565182532,0.09052278864
3.49,-0.2548850303,0.09468409169
3.5,-0.2531835527,0.09881810253
3.51,-0.2514142381,0.1029236726
3.52,-0.2495775245,0.1069996586
3.53,-0.2476738694,0.1110449228
3.54,-0.2457037502,0.1150583337
3.55,-0.2436676644,0.1190387658
3.56,-0.2415661288,0.1229851004
3.57,-0.2393996805,0.1268962259
3.58,-0.2371688758,0.1307710382
3.59,-0.2348742911,0.1346084408
3.6,-0.2325165221,0.1384073454
3.61,-0.2300961843,0.1421666723
3.62,-0.2276139126,0.1458853506
3.63,-0.2250703612,0.1495623189
3.64,-0.2224662038,0.1531965252
3.65,-0.2198021332,0.1567869278
3.66,-0.2170788614,0.1603324953
3.67,-0.2142971193,0.1638322072
3.68,-0.2114576568,0.1672850543
3.69,-0.2085612425,0.1706900388
3.7,-0.2056086636,0.1740461751
3.71,-0.2026007257,0.1773524901
3.72,-0.1995382528,0.1806080232
3.73,-0.1964220868,0.1838118272
3.74,-0.1932530877,0.1869629685
3.75,-0.1900321333,0.1900605273
3.76,-0.1867601186,0.1931035984
3.77,-0.1834379562,0.1960912912
3.78,-0.1800665757,0.1990227303
3.79,-0.1766469234,0.2018970557
3.8,-0.1731799623,0.2047134236
3.81,-0.1696666718,0.207471006
3.82,-0.1661080472,0.210168992
3.83,-0.1625050995,0.2128065875
3.84,-0.1588588555,0.2153830158
3.85,-0.1551703568,0.2178975179
3.86,-0.15144066,0.2203493531
3.87,-0.1476708363,0.2227377989
3.88,-0.143861971,0.2250621516
3.89,-0.1400151633,0.2273217268
3.9,-0.1361315258,0.2295158593
3.91,-0.1322121844,0.2316439039
3.92,-0.1282582775,0.2337052353
3.93,-0.1242709561,0.2356992486
3.94,-0.120251383,0.2376253597
3.95,-0.1162007326,0.2394830052
3.96,-0.1121201905,0.2412716433
3.97,-0.1080109531,0.2429907535
3.98,-0.1038742268,0.2446398369
3.99,-0.09971122823,0.2462184169
4,-0.09552318322,0.247726039
4.01,-0.09131132663,0.2491622712
4.02,-0.08707690181,0.2505267042
4.03,-0.08282116016,0.2518189516
4.04,-0.07854536065,0.25303865
4.05,-0.07425076934,0.2541854594
4.06,-0.06993865889,0.2552590631
4.07,-0.06561030808,0.2562591681
4.08,-0.06126700133,0.2571855051
4.09,-0.05691002818,0.2580378287
4.1,-0.05254068279,0.2588159173
4.11,-0.04816026345,0.2595195737
4.12,-0.04377007206,0.2601486245
4.13,-0.03937141362,0.260702921
4.14,-0.03496559574,0.2611823384
4.15,-0.03055392808,0.2615867765
4.16,-0.02613772189,0.2619161596
4.17,-0.02171828944,0.2621704363
4.18,-0.01729694353,0.2623495796
4.19,-0.01287499699,0.2624535871
4.2,-0.008453762119,0.2624824808
4.21,-0.004034550222,0.262436307
4.22,0.0003813289489,0.2623151367
4.23,0.004792567684,0.2621190647
4.24,0.00919786083,0.2618482105
4.25,0.0135959063,0.2615027176
4.26,0.01798540556,0.2610827536
4.27,0.02236506417,0.2605885099
4.28,0.02673359224,0.2600202021
4.29,0.03108970494,0.2593780692
4.3,0.03543212297,0.258662374
4.31,0.03975957309,0.2578734025
4.32,0.04407078854,0.2570114641
4.33,0.04836450955,0.2560768913
4.34,0.05263948377,0.2550700394
4.35,0.05689446676,0.2539912865
4.36,0.06112822245,0.2528410329
4.37,0.06533952352,0.2516197015
4.38,0.06952715193,0.250327737
4.39,0.07368989928,0.2489656059
4.4,0.07782656723,0.2475337962
4.41,0.08193596796,0.2460328172
4.42,0.08601692455,0.2444631993
4.43,0.09006827136,0.2428254934
4.44,0.09408885442,0.2411202708
4.45,0.09807753185,0.2393481232
4.46,0.1020331742,0.2375096618
4.47,0.1059546646,0.2356055175
4.48,0.1098408997,0.2336363403
4.49,0.1136907894,0.2316027992
4.5,0.1175032572,0.2295055816
4.51,0.121277241,0.2273453932
4.52,0.1250116931,0.2251229573
4.53,0.1287055803,0.2228390151
4.54,0.1323578847,0.2204943247
4.55,0.1359676035,0.2180896611
4.56,0.1395337494,0.2156258158
4.57,0.1430553511,0.2131035962
4.58,0.1465314531,0.2105238257
4.59,0.1499611165,0.2078873427
4.6,0.1533434185,0.2051950009
4.61,0.1566774535,0.2024476686
4.62,0.1599623324,0.199646228
4.63,0.1631971835,0.1967915756
4.64,0.1663811523,0.1938846211
4.65,0.1695134017,0.1909262874
4.66,0.1725931125,0.1879175102
4.67,0.175619483,0.1848592375
4.68,0.1785917295,0.1817524292
4.69,0.1815090867,0.1785980569
4.7,0.184370807,0.1753971035
4.71,0.1871761615,0.1721505626
4.72,0.1899244396,0.1688594385
4.73,0.1926149492,0.1655247454
4.74,0.1952470168,0.1621475074
4.75,0.1978199877,0.1587287579
4.76,0.200333226,0.1552695393
4.77,0.2027861145,0.1517709028
4.78,0.2051780549,0.1482339078
4.79,0.2075084681,0.1446596217
4.8,0.2097767936,0.1410491194
4.81,0.2119824903,0.1374034832
4.82,0.2141250361,0.1337238022
4.83,0.2162039277,0.1300111721
4.84,0.2182186813,0.1262666949
4.85,0.220168832,0.1224914782
4.86,0.222053934,0.1186866357
4.87,0.2238735609,0.1148532858
4.88,0.2256273052,0.1109925521
4.89,0.2273147784,0.1071055627
4.9,0.2289356115,0.1031934502
4.91,0.2304894543,0.09925735098
4.92,0.2319759757,0.09529840507
4.93,0.2333948638,0.09131775598
4.94,0.2347458256,0.08731655026
4.95,0.2360285871,0.08329593728
4.96,0.2372428932,0.07925706887
4.97,0.2383885079,0.07520109911
4.98,0.239465214,0.07112918397
4.99,0.2404728129,0.06704248114
5,0.2414111252,0.06294214965
5.01,0.2422799901,0.05882934966
5.02,0.2430792652,0.0547052422
5.03,0.2438088272,0.05057098887
5.04,0.2444685711,0.04642775161
5.05,0.2450584106,0.04227669246
5.06,0.2455782778,0.03811897325
5.07,0.2460281232,0.03395575541
5.08,0.2464079159,0.0297881997
5.09,0.2467176431,0.02561746596
5.1,0.2469573103,0.02144471289
5.11,0.2471269412,0.01727109778
5.12,0.2472265779,0.01309777631
5.13,0.2472562802,0.008925902288
5.14,0.2472161262,0.004756627424
5.15,0.2471062119,0.0005911011096
5.16,0.2469266513,-0.003569529824
5.17,0.246677576,-0.007724121329
5.18,0.2463591358,-0.01187153237
5.19,0.2459714978,-0.01601062514
5.2,0.2455148472,-0.0201402653
5.21,0.2449893864,-0.02425932221
5.22,0.2443953356,-0.02836666912
5.23,0.2437329326,-0.03246118343
5.24,0.2430024323,-0.03654174689
5.25,0.2422041073,-0.04060724583
5.26,0.2413382474,-0.04465657141
5.27,0.2404051595,-0.04868861979
5.28,0.2394051678,-0.0527022924
5.29,0.2383386137,-0.05669649615
5.3,0.2372058556,-0.06067014367
5.31,0.2360072689,-0.0646221535
5.32,0.2347432458,-0.06855145037
5.33,0.2334141954,-0.07245696536
5.34,0.2320205438,-0.07633763623
5.35,0.2305627336,-0.08019240754
5.36,0.2290412241,-0.08402023097
5.37,0.2274564912,-0.0878200655
5.38,0.2258090271,-0.09159087769
5.39,0.2240993408,-0.09533164187
5.4,0.2223279573,-0.09904134041
5.41,0.2204954179,-0.102718964
5.42,0.2186022803,-0.1063635117
5.43,0.2166491179,-0.1099739915
5.44,0.2146365205,-0.1135494203
5.45,0.2125650934,-0.1170888244
5.46,0.2104354579,-0.1205912393
5.47,0.2082482511,-0.1240557105
5.48,0.2060041253,-0.1274812935
5.49,0.2037037487,-0.1308670539
5.5,0.2013478046,-0.1342120679
5.51,0.1989369915,-0.1375154225
5.52,0.1964720234,-0.1407762157
5.53,0.1939536287,-0.1439935567
5.54,0.1913825512,-0.1471665664
5.55,0.1887595491,-0.1502943773
5.56,0.1860853953,-0.1533761342
5.57,0.183360877,-0.156410994
5.58,0.1805867958,-0.1593981264
5.59,0.1777639675,-0.1623367137
5.6,0.1748932215,-0.1652259514
5.61,0.1719754014,-0.1680650486
5.62,0.1690113641,-0.1708532276
5.63,0.16600198,-0.1735897251
5.64,0.1629481328,-0.1762737915
5.65,0.159850719,-0.1789046918
5.66,0.1567106483,-0.1814817058
5.67,0.1535288426,-0.184004128
5.68,0.1503062365,-0.1864712682
5.69,0.1470437765,-0.1888824517
5.7,0.1437424214,-0.1912370195
5.71,0.1404031413,-0.1935343282
5.72,0.1370269181,-0.1957737512
5.73,0.1336147447,-0.1979546777
5.74,0.130167625,-0.200076514
5.75,0.1266865736,-0.2021386832
5.76,0.1231726154,-0.2041406255
5.77,0.1196267857,-0.2060817984
5.78,0.1160501294,-0.2079616772
5.79,0.1124437009,-0.209779755
5.8,0.1088085641,-0.2115355427
5.81,0.1051457916,-0.2132285696
5.82,0.1014564649,-0.2148583836
5.83,0.09774167353,-0.2164245511
5.84,0.09400251516,-0.2179266574
5.85,0.09024009508,-0.2193643067
5.86,0.08645552587,-0.2207371227
5.87,0.08264992712,-0.2220447482
5.88,0.07882442499,-0.2232868459
5.89,0.07498015195,-0.224463098
5.9,0.07111824632,-0.2255732066
5.91,0.06723985199,-0.226616894
5.92,0.06334611798,-0.2275939024
5.93,0.05943819812,-0.2285039947
5.94,0.05551725062,-0.2293469538
5.95,0.05158443771,-0.2301225835
5.96,0.04764092523,-0.2308307081
5.97,0.04368788226,-0.2314711727
5.98,0.03972648072,-0.2320438432
5.99,0.03575789494,-0.2325486064
6,0.03178330127,-0.2329853701
