"Freq [GHz]","re(S(Tx_p1,Tx_p1)) []","im(S(Tx_p1,Tx_p1)) []"
1,0.263684088,-0.1337923369
1.01,0.2605428274,-0.1327280893
1.02,0.2575216274,-0.1317698732
1.03,0.2546130743,-0.1309147894
1.04,0.2518101017,-0.1301599902
1.05,0.2491059727,-0.1295026771
1.06,0.2464942626,-0.1289400992
1.07,0.2439688443,-0.1284695513
1.08,0.2415238726,-0.1280883725
1.09,0.2391537713,-0.1277939448
1.1,0.2368532197,-0.1275836916
1.11,0.2346171409,-0.1274550767
1.12,0.2324406899,-0.127405603
1.13,0.2303192434,-0.1274328114
1.14,0.2282483892,-0.1275342803
1.15,0.2262239168,-0.1277076241
1.16,0.2242418084,-0.1279504931
1.17,0.2222982304,-0.1282605722
1.18,0.2203895252,-0.1286355804
1.19,0.2185122036,-0.1290732703
1.2,0.2166629376,-0.1295714276
1.21,0.2148385535,-0.1301278701
1.22,0.2130360254,-0.1307404477
1.23,0.211252469,-0.1314070419
1.24,0.2094851358,-0.1321255649
1.25,0.2077314073,-0.13289396
1.26,0.2059887897,-0.1337102003
1.27,0.2042549093,-0.1345722894
1.28,0.202527507,-0.1354782599
1.29,0.200804434,-0.1364261741
1.3,0.1990836474,-0.1374141233
1.31,0.1973632061,-0.1384402272
1.32,0.1956412663,-0.1395026342
1.33,0.1939160783,-0.1405995208
1.34,0.1921859823,-0.1417290914
1.35,0.1904494053,-0.142889578
1.36,0.1887048572,-0.1440792399
1.37,0.1869509281,-0.1452963638
1.38,0.1851862848,-0.1465392629
1.39,0.183409668,-0.1478062774
1.4,0.1816198894,-0.1490957736
1.41,0.179815829,-0.150406144
1.42,0.1779964323,-0.1517358069
1.43,0.1761607081,-0.1530832062
1.44,0.1743077256,-0.1544468112
1.45,0.1724366124,-0.155825116
1.46,0.1705465521,-0.1572166397
1.47,0.1686367824,-0.1586199257
1.48,0.1667065925,-0.1600335417
1.49,0.1647553216,-0.1614560792
1.5,0.1627823568,-0.1628861532
1.51,0.1607871311,-0.164322402
1.52,0.1587691219,-0.165763487
1.53,0.156727849,-0.1672080921
1.54,0.1546628733,-0.1686549233
1.55,0.1525737948,-0.1701027089
1.56,0.1504602516,-0.1715501985
1.57,0.148321918,-0.1729961631
1.58,0.1461585032,-0.1744393948
1.59,0.1439697503,-0.1758787058
1.6,0.1417554345,-0.1773129288
1.61,0.1395153622,-0.1787409164
1.62,0.1372493699,-0.1801615404
1.63,0.1349573228,-0.1815736918
1.64,0.1326391138,-0.1829762803
1.65,0.1302946628,-0.184368234
1.66,0.1279239152,-0.1857484989
1.67,0.1255268414,-0.1871160385
1.68,0.1231034355,-0.1884698335
1.69,0.120653715,-0.1898088816
1.7,0.1181777195,-0.1911321967
1.71,0.1156755102,-0.1924388089
1.72,0.1131471692,-0.1937277639
1.73,0.1105927986,-0.1949981228
1.74,0.10801252,-0.1962489617
1.75,0.105406474,-0.1974793711
1.76,0.1027748195,-0.1986884558
1.77,0.1001177332,-0.1998753345
1.78,0.09743540902,-0.2010391395
1.79,0.09472805781,-0.2021790161
1.8,0.09199590678,-0.2032941228
1.81,0.08923919915,-0.2043836301
1.82,0.08645819378,-0.2054467213
1.83,0.08365316481,-0.2064825913
1.84,0.08082440136,-0.2074904466
1.85,0.07797220727,-0.2084695052
1.86,0.07509690079,-0.2094189961
1.87,0.07219881439,-0.2103381591
1.88,0.06927829453,-0.2112262447
1.89,0.06633570151,-0.2120825136
1.9,0.06337140924,-0.2129062365
1.91,0.06038580517,-0.2136966944
1.92,0.05737929013,-0.2144531777
1.93,0.05435227824,-0.2151749864
1.94,0.05130519683,-0.21586143
1.95,0.04823848637,-0.2165118272
1.96,0.04515260044,-0.2171255058
1.97,0.04204800565,-0.2177018027
1.98,0.03892518167,-0.2182400635
1.99,0.03578462121,-0.2187396429
2,0.03262683001,-0.2191999044
2.01,0.02945232687,-0.2196202199
2.02,0.02626164368,-0.2199999705
2.03,0.02305532546,-0.2203385456
2.04,0.01983393037,-0.2206353438
2.05,0.01659802981,-0.220889772
2.06,0.01334820844,-0.2211012462
2.07,0.01008506425,-0.2212691914
2.08,0.006809208658,-0.2213930412
2.09,0.003521266513,-0.2214722388
2.1,0.0002218762185,-0.2215062361
2.11,-0.003088310218,-0.2214944949
2.12,-0.006408627113,-0.2214364862
2.13,-0.009738395041,-0.2213316907
2.14,-0.01307692076,-0.2211795991
2.15,-0.01642349717,-0.2209797124
2.16,-0.01977740322,-0.2207315417
2.17,-0.02313790389,-0.2204346089
2.18,-0.02650425012,-0.2200884467
2.19,-0.02987567878,-0.2196925989
2.2,-0.03325141264,-0.2192466209
2.21,-0.03663066034,-0.21875008
2.22,-0.04001261638,-0.2182025552
2.23,-0.04339646112,-0.2176036385
2.24,-0.04678136078,-0.2169529343
2.25,-0.05016646746,-0.2162500604
2.26,-0.05355091919,-0.2154946481
2.27,-0.05693383996,-0.2146863427
2.28,-0.06031433979,-0.213824804
2.29,-0.06369151478,-0.2129097064
2.3,-0.06706444725,-0.2119407397
2.31,-0.0704322058,-0.2109176092
2.32,-0.07379384548,-0.2098400366
2.33,-0.07714840787,-0.20870776
2.34,-0.0804949213,-0.2075205345
2.35,-0.083832401,-0.2062781328
2.36,-0.0871598493,-0.2049803456
2.37,-0.09047625584,-0.203626982
2.38,-0.09378059781,-0.2022178701
2.39,-0.09707184022,-0.2007528574
2.4,-0.1003489361,-0.1992318113
2.41,-0.103610827,-0.1976546198
2.42,-0.1068564431,-0.1960211916
2.43,-0.1100847034,-0.1943314568
2.44,-0.1132945167,-0.1925853675
2.45,-0.1164847812,-0.1907828981
2.46,-0.1196543855,-0.1889240458
2.47,-0.1228022087,-0.1870088312
2.48,-0.125927121,-0.1850372987
2.49,-0.1290279839,-0.1830095168
2.5,-0.1321036513,-0.1809255789
2.51,-0.1351529693,-0.1787856035
2.52,-0.138174777,-0.1765897346
2.53,-0.1411679073,-0.1743381425
2.54,-0.144131187,-0.1720310237
2.55,-0.1470634379,-0.1696686016
2.56,-0.149963477,-0.1672511269
2.57,-0.1528301173,-0.164778878
2.58,-0.1556621684,-0.1622521611
2.59,-0.1584584374,-0.159671311
2.6,-0.1612177291,-0.157036691
2.61,-0.1639388473,-0.1543486934
2.62,-0.166620595,-0.15160774
2.63,-0.1692617755,-0.1488142818
2.64,-0.1718611929,-0.1459688
2.65,-0.1744176532,-0.1430718056
2.66,-0.1769299647,-0.1401238401
2.67,-0.179396939,-0.1371254754
2.68,-0.1818173919,-0.134077314
2.69,-0.184190144,-0.1309799892
2.7,-0.186514022,-0.1278341653
2.71,-0.1887878587,-0.1246405377
2.72,-0.1910104949,-0.1213998326
2.73,-0.1931807795,-0.1181128078
2.74,-0.1952975708,-0.1147802519
2.75,-0.197359737,-0.1114029848
2.76,-0.1993661576,-0.1079818576
2.77,-0.201315724,-0.1045177525
2.78,-0.2032073403,-0.1010115824
2.79,-0.2050399246,-0.09746429157
2.8,-0.2068124095,-0.09387685459
2.81,-0.2085237433,-0.09025027679
2.82,-0.2101728909,-0.08658559384
2.83,-0.2117588346,-0.0828838715
2.84,-0.213280575,-0.07914620542
2.85,-0.214737132,-0.07537372081
2.86,-0.216127546,-0.0715675721
2.87,-0.2174508781,-0.06772894266
2.88,-0.2187062117,-0.06385904431
2.89,-0.2198926532,-0.05995911703
2.9,-0.2210093326,-0.05603042839
2.91,-0.2220554047,-0.05207427317
2.92,-0.2230300502,-0.04809197283
2.93,-0.2239324758,-0.04408487494
2.94,-0.2247619159,-0.04005435269
2.95,-0.2255176328,-0.03600180422
2.96,-0.226198918,-0.03192865205
2.97,-0.2268050927,-0.02783634241
2.98,-0.2273355088,-0.02372634458
2.99,-0.2277895496,-0.01960015015
3,-0.2281666305,-0.01545927233
3.01,-0.2284661998,-0.01130524515
3.02,-0.2286877397,-0.007139622703
3.03,-0.2288307664,-0.002963978304
3.04,-0.2288948315,0.001220096321
3.05,-0.2288795219,0.005410991913
3.06,-0.2287844613,0.009607082562
3.07,-0.22860931,0.01380672662
3.08,-0.2283537661,0.01800826764
3.09,-0.2280175658,0.0222100353
3.1,-0.2276004838,0.02641034644
3.11,-0.2271023341,0.03060750598
3.12,-0.2265229705,0.03479980801
3.13,-0.2258622866,0.03898553677
3.14,-0.2251202168,0.04316296774
3.15,-0.2242967365,0.04733036866
3.16,-0.2233918621,0.05148600067
3.17,-0.2224056519,0.05562811938
3.18,-0.221338206,0.05975497598
3.19,-0.2201896668,0.06386481838
3.2,-0.2189602191,0.06795589233
3.21,-0.2176500904,0.07202644258
3.22,-0.2162595508,0.07607471403
3.23,-0.2147889137,0.08009895292
3.24,-0.2132385352,0.08409740796
3.25,-0.2116088146,0.08806833154
3.26,-0.2099001945,0.0920099809
3.27,-0.2081131604,0.09592061933
3.28,-0.206248241,0.09979851737
3.29,-0.2043060079,0.103641954
3.3,-0.2022870757,0.1074492177
3.31,-0.2001921016,0.1112186079
3.32,-0.1980217855,0.1149484361
3.33,-0.1957768693,0.1186370268
3.34,-0.1934581373,0.1222827189
3.35,-0.1910664154,0.125883867
3.36,-0.1886025708,0.1294388423
3.37,-0.1860675119,0.1329460339
3.38,-0.1834621878,0.13640385
3.39,-0.1807875875,0.1398107189
3.4,-0.1780447401,0.1431650901
3.41,-0.1752347136,0.1464654359
3.42,-0.1723586148,0.1497102518
3.43,-0.1694175887,0.1528980581
3.44,-0.1664128175,0.1560274006
3.45,-0.1633455204,0.1590968521
3.46,-0.1602169527,0.1621050131
3.47,-0.1570284053,0.1650505129
3.48,-0.1537812036,0.1679320105
3.49,-0.1504767069,0.1707481961
3.5,-0.1471163078,0.1734977911
3.51,-0.143701431,0.17617955
3.52,-0.1402335328,0.1787922607
3.53,-0.1367140999,0.1813347457
3.54,-0.1331446488,0.1838058628
3.55,-0.1295267245,0.1862045058
3.56,-0.1258618998,0.1885296057
3.57,-0.1221517742,0.1907801312
3.58,-0.1183979729,0.1929550892
3.59,-0.1146021459,0.1950535262
3.6,-0.1107659666,0.1970745284
3.61,-0.1068911311,0.1990172226
3.62,-0.1029793569,0.2008807765
3.63,-0.09903238183,0.2026643999
3.64,-0.09505196279,0.2043673446
3.65,-0.09103987486,0.2059889054
3.66,-0.08699790989,0.2075284203
3.67,-0.08292787547,0.2089852711
3.68,-0.07883159365,0.2103588837
3.69,-0.07471089978,0.2116487286
3.7,-0.07056764126,0.2128543211
3.71,-0.06640367636,0.2139752216
3.72,-0.06222087294,0.2150110363
3.73,-0.05802110723,0.2159614166
3.74,-0.05380626258,0.21682606
3.75,-0.04957822823,0.2176047102
3.76,-0.045338898,0.2182971568
3.77,-0.04109016909,0.2189032356
3.78,-0.0368339408,0.2194228288
3.79,-0.03257211325,0.219855865
3.8,-0.02830658616,0.2202023186
3.81,-0.02403925758,0.2204622106
3.82,-0.01977202261,0.2206356079
3.83,-0.01550677222,0.2207226233
3.84,-0.01124539194,0.2207234154
3.85,-0.006989760687,0.2206381881
3.86,-0.002741749494,0.220467191
3.87,0.001496779674,0.2202107181
3.88,0.005723975133,0.2198691086
3.89,0.009937996672,0.2194427456
3.9,0.01413701673,0.2189320562
3.91,0.01831922155,0.218337511
3.92,0.02248281236,0.2176596235
3.93,0.02662600644,0.2168989497
3.94,0.03074703833,0.2160560877
3.95,0.03484416083,0.2151316768
3.96,0.03891564613,0.2141263972
3.97,0.04295978688,0.2130409691
3.98,0.04697489718,0.2118761525
3.99,0.05095931363,0.2106327459
4,0.05491139627,0.2093115863
4.01,0.05882952963,0.2079135476
4.02,0.06271212358,0.2064395407
4.03,0.0665576143,0.2048905122
4.04,0.07036446516,0.2032674434
4.05,0.07413116755,0.2015713501
4.06,0.07785624176,0.1998032813
4.07,0.08153823776,0.1979643182
4.08,0.08517573597,0.1960555737
4.09,0.08876734801,0.1940781911
4.1,0.09231171742,0.1920333432
4.11,0.09580752035,0.1899222317
4.12,0.09925346619,0.1877460857
4.13,0.1026482982,0.185506161
4.14,0.1059907941,0.183203739
4.15,0.1092797668,0.1808401257
4.16,0.1125140643,0.1784166507
4.17,0.1156925712,0.1759346659
4.18,0.1188142081,0.1733955448
4.19,0.1218779328,0.1708006812
4.2,0.1248827403,0.1681514881
4.21,0.1278276633,0.1654493966
4.22,0.1307117724,0.1626958552
4.23,0.1335341763,0.1598923279
4.24,0.1362940226,0.1570402939
4.25,0.1389904972,0.154141246
4.26,0.1416228251,0.1511966897
4.27,0.1441902704,0.1482081421
4.28,0.1466921362,0.1451771305
4.29,0.1491277649,0.1421051917
4.3,0.1514965381,0.1389938708
4.31,0.1537978768,0.1358447197
4.32,0.1560312412,0.1326592966
4.33,0.1581961308,0.1294391645
4.34,0.160292084,0.1261858902
4.35,0.1623186784,0.1229010435
4.36,0.1642755303,0.1195861957
4.37,0.1661622949,0.1162429188
4.38,0.1679786655,0.1128727844
4.39,0.1697243739,0.1094773627
4.4,0.1713991896,0.1060582216
4.41,0.1730029198,0.1026169254
4.42,0.1745354091,0.09915503396
4.43,0.1759965388,0.09567410195
4.44,0.177386227,0.09217567755
4.45,0.1787044275,0.08866130168
4.46,0.1799511303,0.08513250711
4.47,0.1811263602,0.08159081747
4.48,0.1822301768,0.07803774647
4.49,0.1832626741,0.07447479696
4.5,0.1842239794,0.07090346014
4.51,0.1851142535,0.06732521474
4.52,0.1859336893,0.06374152624
4.53,0.1866825121,0.06015384607
4.54,0.1873609779,0.05656361088
4.55,0.1879693739,0.05297224186
4.56,0.188508017,0.04938114398
4.57,0.1889772534,0.04579170539
4.58,0.1893774581,0.04220529672
4.59,0.1897090339,0.03862327049
4.6,0.1899724108,0.03504696053
4.61,0.1901680453,0.0314776814
4.62,0.1902964196,0.02791672785
4.63,0.190358041,0.02436537435
4.64,0.1903534408,0.02082487455
4.65,0.1902831739,0.01729646088
4.66,0.1901478178,0.01378134409
4.67,0.1899479718,0.01028071289
4.68,0.1896842564,0.006795733534
4.69,0.1893573122,0.003327549518
4.7,0.1889677996,-0.0001227187467
4.71,0.1885163972,-0.003553974219
4.72,0.1880038018,-0.006965143479
4.73,0.1874307271,-0.01035517696
4.74,0.1867979032,-0.01372304915
4.75,0.1861060755,-0.01706775877
4.76,0.1853560039,-0.02038832888
4.77,0.1845484625,-0.02368380708
4.78,0.183684238,-0.02695326551
4.79,0.1827641297,-0.03019580097
4.8,0.1817889481,-0.03341053496
4.81,0.1807595145,-0.03659661365
4.82,0.17967666,-0.03975320792
4.83,0.1785412249,-0.04287951329
4.84,0.1773540578,-0.04597474987
4.85,0.1761160151,-0.04903816227
4.86,0.1748279598,-0.05206901949
4.87,0.1734907612,-0.05506661478
4.88,0.1721052942,-0.05803026552
4.89,0.1706724381,-0.06095931301
4.9,0.1691930767,-0.06385312226
4.91,0.1676680968,-0.06671108181
4.92,0.1660983881,-0.06953260348
4.93,0.1644848424,-0.0723171221
4.94,0.162828353,-0.07506409523
4.95,0.1611298139,-0.0777730029
4.96,0.1593901196,-0.08044334725
4.97,0.1576101641,-0.08307465226
4.98,0.1557908406,-0.08566646334
4.99,0.1539330409,-0.08821834704
5,0.1520376548,-0.09072989063
5.01,0.1501055699,-0.09320070175
5.02,0.1481376707,-0.09563040797
5.03,0.1461348383,-0.09801865643
5.04,0.1440979503,-0.1003651134
5.05,0.1420278797,-0.1026694638
5.06,0.1399254951,-0.1049314109
5.07,0.1377916601,-0.1071506756
5.08,0.135627233,-0.1093269965
5.09,0.1334330663,-0.1114601287
5.1,0.1312100065,-0.1135498441
5.11,0.1289588939,-0.1155959302
5.12,0.1266805622,-0.1175981903
5.13,0.1243758382,-0.1195564425
5.14,0.1220455419,-0.1214705196
5.15,0.1196904859,-0.1233402683
5.16,0.1173114753,-0.1251655488
5.17,0.1149093076,-0.1269462347
5.18,0.1124847728,-0.1286822119
5.19,0.1100386529,-0.1303733786
5.2,0.1075717217,-0.1320196445
5.21,0.1050847453,-0.1336209305
5.22,0.1025784816,-0.1351771683
5.23,0.1000536802,-0.1366882998
5.24,0.09751108258,-0.1381542765
5.25,0.09495142213,-0.1395750596
5.26,0.09237542397,-0.1409506189
5.27,0.08978380511,-0.1422809326
5.28,0.08717727445,-0.1435659872
5.29,0.08455653288,-0.1448057764
5.3,0.08192227332,-0.1460003014
5.31,0.07927518086,-0.14714957
5.32,0.07661593285,-0.1482535967
5.33,0.07394519904,-0.1493124015
5.34,0.07126364171,-0.1503260104
5.35,0.06857191584,-0.1512944548
5.36,0.06587066928,-0.1522177707
5.37,0.06316054292,-0.1530959989
5.38,0.06044217092,-0.1539291847
5.39,0.05771618086,-0.154717377
5.4,0.05498319402,-0.1554606288
5.41,0.05224382557,-0.1561589964
5.42,0.0494986848,-0.1568125394
5.43,0.04674837541,-0.1574213201
5.44,0.04399349571,-0.157985404
5.45,0.04123463893,-0.1585048586
5.46,0.03847239344,-0.1589797543
5.47,0.03570734306,-0.1594101632
5.48,0.03294006734,-0.1597961597
5.49,0.03017114181,-0.1601378201
5.5,0.02740113828,-0.1604352221
5.51,0.02463062516,-0.1606884455
5.52,0.0218601677,-0.1608975714
5.53,0.01909032832,-0.1610626824
5.54,0.0163216669,-0.1611838626
5.55,0.01355474106,-0.1612611974
5.56,0.01079010645,-0.1612947738
5.57,0.008028317045,-0.1612846798
5.58,0.00526992546,-0.1612310052
5.59,0.002515483195,-0.1611338408
5.6,-0.00023445906,-0.1609932791
5.61,-0.002979351153,-0.1608094141
5.62,-0.005718643196,-0.1605823413
5.63,-0.008451785299,-0.1603121578
5.64,-0.01117822731,-0.1599989628
5.65,-0.01389741856,-0.1596428572
5.66,-0.01660880762,-0.1592439439
5.67,-0.01931184206,-0.158802328
5.68,-0.02200596823,-0.1583181172
5.69,-0.02469063101,-0.1577914215
5.7,-0.02736527365,-0.1572223537
5.71,-0.03002933752,-0.1566110296
5.72,-0.03268226199,-0.155957568
5.73,-0.03532348415,-0.1552620913
5.74,-0.03795243877,-0.1545247254
5.75,-0.04056855803,-0.1537456
5.76,-0.04317127148,-0.152924849
5.77,-0.04576000586,-0.1520626108
5.78,-0.04833418498,-0.1511590284
5.79,-0.05089322969,-0.1502142496
5.8,-0.05343655771,-0.1492284277
5.81,-0.05596358361,-0.1482017214
5.82,-0.05847371878,-0.1471342953
5.83,-0.06096637135,-0.1460263203
5.84,-0.06344094616,-0.1448779734
5.85,-0.0658968448,-0.1436894389
5.86,-0.06833346561,-0.1424609079
5.87,-0.07075020366,-0.1411925791
5.88,-0.07314645086,-0.1398846589
5.89,-0.07552159596,-0.1385373618
5.9,-0.07787502467,-0.1371509111
5.91,-0.08020611974,-0.1357255383
5.92,-0.08251426103,-0.1342614845
5.93,-0.08479882572,-0.132759
5.94,-0.08705918836,-0.1312183451
5.95,-0.08929472109,-0.1296397899
5.96,-0.0915047938,-0.1280236152
5.97,-0.09368877431,-0.1263701124
5.98,-0.09584602858,-0.1246795839
5.99,-0.09797592096,-0.1229523438
6,-0.1000778144,-0.1211887174
