"Freq [GHz]","re(S(Tx_p1,Tx_p1)) []","im(S(Tx_p1,Tx_p1)) []"
1,0.06704717026,-0.03393908854
1.01,0.06622697528,-0.0336162063
1.02,0.06543983403,-0.03331984812
1.03,0.06468387674,-0.0330493438
1.04,0.06395732057,-0.03280403875
1.05,0.06325846489,-0.03258329344
1.06,0.06258568682,-0.03238648274
1.07,0.06193743708,-0.03221299541
1.08,0.06131223609,-0.03206223361
1.09,0.06070867031,-0.03193361237
1.1,0.06012538877,-0.03182655913
1.11,0.05956109987,-0.03174051329
1.12,0.05901456828,-0.03167492581
1.13,0.05848461212,-0.03162925876
1.14,0.05797010021,-0.03160298496
1.15,0.05746994956,-0.03159558757
1.16,0.05698312293,-0.03160655977
1.17,0.05650862657,-0.03163540435
1.18,0.05604550806,-0.03168163342
1.19,0.05559285434,-0.03174476803
1.2,0.05514978971,-0.03182433789
1.21,0.0547154741,-0.03191988102
1.22,0.05428910129,-0.03203094346
1.23,0.05386989735,-0.03215707897
1.24,0.05345711906,-0.03229784872
1.25,0.0530500525,-0.03245282102
1.26,0.05264801165,-0.032621571
1.27,0.05225033712,-0.03280368036
1.28,0.05185639488,-0.03299873711
1.29,0.05146557514,-0.03320633525
1.3,0.05107729122,-0.03342607452
1.31,0.05069097856,-0.03365756017
1.32,0.05030609365,-0.03390040265
1.33,0.0499221132,-0.03415421737
1.34,0.04953853318,-0.03441862447
1.35,0.04915486805,-0.03469324853
1.36,0.04877064994,-0.03497771835
1.37,0.04838542794,-0.0352716667
1.38,0.04799876737,-0.03557473007
1.39,0.04761024918,-0.03588654846
1.4,0.04721946928,-0.0362067651
1.41,0.04682603798,-0.03653502627
1.42,0.04642957949,-0.03687098106
1.43,0.04602973133,-0.03721428113
1.44,0.04562614394,-0.03756458052
1.45,0.04521848019,-0.03792153542
1.46,0.04480641496,-0.03828480399
1.47,0.04438963481,-0.03865404612
1.48,0.04396783755,-0.03902892326
1.49,0.04354073198,-0.03940909825
1.5,0.04310803755,-0.0397942351
1.51,0.04266948408,-0.0401839988
1.52,0.04222481154,-0.04057805522
1.53,0.04177376976,-0.04097607087
1.54,0.04131611828,-0.04137771279
1.55,0.04085162613,-0.04178264839
1.56,0.04038007166,-0.04219054528
1.57,0.03990124241,-0.04260107118
1.58,0.03941493493,-0.04301389377
1.59,0.03892095473,-0.04342868058
1.6,0.03841911614,-0.04384509888
1.61,0.03790924223,-0.04426281556
1.62,0.03739116476,-0.04468149707
1.63,0.0368647241,-0.04510080935
1.64,0.0363297692,-0.04552041769
1.65,0.03578615759,-0.04593998675
1.66,0.03523375532,-0.04635918047
1.67,0.03467243696,-0.04677766199
1.68,0.03410208563,-0.04719509372
1.69,0.033522593,-0.0476111372
1.7,0.0329338593,-0.04802545318
1.71,0.03233579337,-0.04843770157
1.72,0.03172831269,-0.04884754147
1.73,0.0311113434,-0.04925463118
1.74,0.0304848204,-0.04965862827
1.75,0.02984868735,-0.05005918954
1.76,0.02920289677,-0.05045597117
1.77,0.02854741008,-0.05084862871
1.78,0.02788219766,-0.0512368172
1.79,0.02720723896,-0.05162019123
1.8,0.0265225225,-0.05199840506
1.81,0.02582804602,-0.05237111271
1.82,0.02512381647,-0.05273796805
1.83,0.02440985015,-0.053098625
1.84,0.02368617274,-0.05345273761
1.85,0.02295281938,-0.05379996022
1.86,0.02220983473,-0.05413994761
1.87,0.02145727306,-0.05447235521
1.88,0.02069519827,-0.05479683921
1.89,0.01992368397,-0.05511305682
1.9,0.01914281353,-0.05542066637
1.91,0.01835268014,-0.05571932762
1.92,0.01755338684,-0.0560087019
1.93,0.01674504652,-0.05628845234
1.94,0.01592778205,-0.0565582441
1.95,0.01510172619,-0.05681774465
1.96,0.01426702169,-0.05706662392
1.97,0.01342382125,-0.05730455462
1.98,0.01257228756,-0.05753121247
1.99,0.01171259325,-0.05774627647
2,0.01084492091,-0.05794942914
2.01,0.009969463075,-0.0581403568
2.02,0.009086422134,-0.05831874986
2.03,0.008196010345,-0.05848430308
2.04,0.007298449755,-0.05863671586
2.05,0.006393972145,-0.05877569251
2.06,0.005482818951,-0.05890094255
2.07,0.004565241187,-0.05901218101
2.08,0.003641499345,-0.05910912866
2.09,0.002711863291,-0.0591915124
2.1,0.001776612151,-0.05925906546
2.11,0.0008360341826,-0.05931152773
2.12,-0.0001095733656,-0.05934864606
2.13,-0.001059904401,-0.05937017452
2.14,-0.002014644149,-0.05937587472
2.15,-0.002973469325,-0.05936551606
2.16,-0.003936048317,-0.05933887605
2.17,-0.004902041383,-0.05929574055
2.18,-0.005871100852,-0.05923590409
2.19,-0.006842871346,-0.05915917011
2.2,-0.007816990002,-0.05906535121
2.21,-0.008793086717,-0.05895426947
2.22,-0.009770784392,-0.05882575665
2.23,-0.01074969919,-0.05867965447
2.24,-0.01172944082,-0.05851581483
2.25,-0.0127096128,-0.05833410006
2.26,-0.01368981275,-0.05813438316
2.27,-0.01466963269,-0.05791654797
2.28,-0.01564865938,-0.05768048945
2.29,-0.01662647458,-0.05742611382
2.3,-0.01760265542,-0.05715333878
2.31,-0.01857677473,-0.05686209369
2.32,-0.01954840136,-0.05655231974
2.33,-0.02051710056,-0.05622397011
2.34,-0.02148243432,-0.05587701013
2.35,-0.02244396173,-0.05551141738
2.36,-0.02340123936,-0.05512718187
2.37,-0.02435382164,-0.05472430612
2.38,-0.02530126122,-0.05430280528
2.39,-0.02624310941,-0.05386270719
2.4,-0.02717891648,-0.05340405251
2.41,-0.02810823217,-0.05292689473
2.42,-0.02903060599,-0.05243130024
2.43,-0.02994558768,-0.05191734839
2.44,-0.03085272758,-0.05138513147
2.45,-0.03175157708,-0.05083475476
2.46,-0.03264168899,-0.05026633651
2.47,-0.03352261796,-0.0496800079
2.48,-0.03439392089,-0.04907591306
2.49,-0.03525515735,-0.04845420896
2.5,-0.03610588997,-0.0478150654
2.51,-0.03694568487,-0.04715866491
2.52,-0.03777411205,-0.04648520268
2.53,-0.0385907458,-0.04579488643
2.54,-0.0393951651,-0.04508793631
2.55,-0.040186954,-0.04436458478
2.56,-0.04096570205,-0.04362507643
2.57,-0.04173100466,-0.04286966787
2.58,-0.04248246351,-0.0420986275
2.59,-0.04321968688,-0.04131223538
2.6,-0.04394229009,-0.040510783
2.61,-0.0446498958,-0.03969457306
2.62,-0.04534213441,-0.03886391928
2.63,-0.04601864442,-0.03801914613
2.64,-0.04667907272,-0.03716058859
2.65,-0.04732307498,-0.03628859191
2.66,-0.04795031595,-0.03540351129
2.67,-0.04856046978,-0.03450571163
2.68,-0.04915322032,-0.03359556725
2.69,-0.04972826143,-0.03267346154
2.7,-0.05028529728,-0.03173978667
2.71,-0.05082404255,-0.03079494325
2.72,-0.0513442228,-0.02983934002
2.73,-0.05184557465,-0.02887339348
2.74,-0.05232784602,-0.02789752755
2.75,-0.05279079639,-0.02691217321
2.76,-0.05323419699,-0.0259177681
2.77,-0.05365783103,-0.0249147562
2.78,-0.05406149384,-0.0239035874
2.79,-0.05444499308,-0.02288471716
2.8,-0.05480814889,-0.02185860604
2.81,-0.05515079404,-0.02082571939
2.82,-0.05547277407,-0.01978652688
2.83,-0.05577394737,-0.01874150212
2.84,-0.05605418533,-0.01769112224
2.85,-0.05631337242,-0.01663586751
2.86,-0.05655140624,-0.01557622085
2.87,-0.0567681976,-0.01451266751
2.88,-0.05696367056,-0.01344569455
2.89,-0.05713776248,-0.0123757905
2.9,-0.05729042398,-0.0113034449
2.91,-0.05742161901,-0.01022914788
2.92,-0.05753132479,-0.009153389777
2.93,-0.0576195318,-0.008076660663
2.94,-0.05768624375,-0.006999449976
2.95,-0.05773147747,-0.005922246091
2.96,-0.05775526292,-0.004845535907
2.97,-0.05775764303,-0.003769804449
2.98,-0.05773867364,-0.002695534467
2.99,-0.05769842338,-0.001623206035
3,-0.05763697354,-0.0005532961624
3.01,-0.05755441794,0.0005137215885
3.02,-0.05745086275,0.001577377485
3.03,-0.05732642636,0.002637205992
3.04,-0.05718123919,0.003692746143
3.05,-0.05701544347,0.004743541891
3.06,-0.05682919309,0.005789142461
3.07,-0.05662265336,0.006829102689
3.08,-0.05639600076,0.007862983355
3.09,-0.05614942275,0.008890351505
3.1,-0.05588311751,0.009910780764
3.11,-0.05559729366,0.01092385164
3.12,-0.05529217003,0.0119291518
3.13,-0.05496797538,0.01292627639
3.14,-0.05462494807,0.01391482826
3.15,-0.05426333584,0.01489441826
3.16,-0.05388339548,0.01586466546
3.17,-0.0534853925,0.0168251974
3.18,-0.05306960085,0.01777565031
3.19,-0.05263630261,0.01871566934
3.2,-0.05218578762,0.01964490871
3.21,-0.05171835318,0.02056303195
3.22,-0.05123430374,0.02146971206
3.23,-0.0507339505,0.02236463163
3.24,-0.05021761112,0.02324748304
3.25,-0.04968560936,0.02411796857
3.26,-0.04913827472,0.02497580054
3.27,-0.04857594208,0.02582070139
3.28,-0.0479989514,0.02665240377
3.29,-0.04740764731,0.02747065068
3.3,-0.04680237879,0.02827519547
3.31,-0.04618349878,0.02906580193
3.32,-0.04555136388,0.02984224434
3.33,-0.04490633395,0.03060430747
3.34,-0.04424877178,0.03135178662
3.35,-0.04357904276,0.03208448762
3.36,-0.04289751447,0.03280222681
3.37,-0.04220455642,0.03350483104
3.38,-0.04150053963,0.03419213759
3.39,-0.04078583636,0.03486399421
3.4,-0.04006081974,0.03552025896
3.41,-0.03932586344,0.03616080022
3.42,-0.03858134137,0.03678549658
3.43,-0.03782762734,0.03739423672
3.44,-0.03706509478,0.03798691937
3.45,-0.0362941164,0.03856345314
3.46,-0.03551506391,0.03912375645
3.47,-0.03472830774,0.03966775734
3.48,-0.03393421674,0.04019539335
3.49,-0.0331331579,0.04070661141
3.5,-0.03232549609,0.04120136762
3.51,-0.03151159383,0.0416796271
3.52,-0.03069181098,0.04214136382
3.53,-0.02986650456,0.04258656044
3.54,-0.02903602847,0.04301520807
3.55,-0.02820073331,0.04342730608
3.56,-0.02736096611,0.04382286195
3.57,-0.02651707019,0.04420189098
3.58,-0.02566938494,0.04456441615
3.59,-0.02481824561,0.04491046784
3.6,-0.02396398319,0.04524008362
3.61,-0.02310692421,0.04555330805
3.62,-0.02224739059,0.04585019241
3.63,-0.02138569951,0.04613079449
3.64,-0.02052216329,0.04639517831
3.65,-0.01965708925,0.04664341394
3.66,-0.0187907796,0.0468755772
3.67,-0.01792353135,0.04709174945
3.68,-0.01705563624,0.04729201732
3.69,-0.01618738061,0.04747647248
3.7,-0.01531904539,0.0476452114
3.71,-0.01445090602,0.04779833508
3.72,-0.01358323241,0.04793594882
3.73,-0.01271628887,0.04805816197
3.74,-0.01185033414,0.04816508769
3.75,-0.01098562134,0.04825684273
3.76,-0.01012239797,0.04833354714
3.77,-0.009260905924,0.04839532408
3.78,-0.00840138149,0.0484422996
3.79,-0.007544055378,0.04847460234
3.8,-0.006689152753,0.0484923634
3.81,-0.005836893277,0.04849571605
3.82,-0.004987491152,0.04848479553
3.83,-0.004141155184,0.04845973887
3.84,-0.003298088845,0.04842068465
3.85,-0.002458490347,0.04836777282
3.86,-0.00162255272,0.04830114449
3.87,-0.0007904639023,0.04822094177
3.88,3.759316597E-05,0.04812730758
3.89,0.0008614404433,0.04802038544
3.9,0.001680904679,0.04790031935
3.91,0.002495817303,0.04776725364
3.92,0.003306014303,0.04762133274
3.93,0.004111336109,0.04746270113
3.94,0.00491162746,0.04729150314
3.95,0.005706737276,0.04710788285
3.96,0.00649651852,0.04691198394
3.97,0.00728082806,0.04670394962
3.98,0.00805952653,0.04648392249
3.99,0.008832478178,0.04625204445
4,0.009599550729,0.04600845662
4.01,0.01036061523,0.04575329926
4.02,0.01111554589,0.04548671169
4.03,0.01186421995,0.04520883223
4.04,0.01260651752,0.04491979813
4.05,0.01334232142,0.04461974557
4.06,0.01407151703,0.04430880956
4.07,0.01479399215,0.04398712396
4.08,0.01550963683,0.04365482143
4.09,0.01621834323,0.04331203343
4.1,0.01692000548,0.04295889019
4.11,0.01761451952,0.04259552075
4.12,0.01830178293,0.04222205294
4.13,0.01898169487,0.04183861342
4.14,0.01965415583,0.04144532766
4.15,0.0203190676,0.04104232003
4.16,0.02097633305,0.04062971381
4.17,0.02162585605,0.04020763123
4.18,0.02226754135,0.03977619353
4.19,0.02290129444,0.03933552101
4.2,0.02352702141,0.03888573311
4.21,0.02414462892,0.03842694848
4.22,0.024754024,0.03795928504
4.23,0.02535511402,0.03748286007
4.24,0.02594780655,0.03699779028
4.25,0.02653200932,0.03650419195
4.26,0.02710763007,0.03600218097
4.27,0.02767457656,0.03549187296
4.28,0.02823275641,0.03497338338
4.29,0.02878207712,0.03444682764
4.3,0.02932244594,0.03391232117
4.31,0.02985376989,0.03336997961
4.32,0.03037595566,0.03281991884
4.33,0.03088890962,0.03226225516
4.34,0.03139253773,0.03169710536
4.35,0.03188674561,0.03112458688
4.36,0.03237143843,0.03054481793
4.37,0.03284652099,0.02995791758
4.38,0.03331189765,0.02936400589
4.39,0.03376747237,0.02876320408
4.4,0.03421314873,0.02815563458
4.41,0.03464882995,0.02754142121
4.42,0.0350744189,0.02692068926
4.43,0.03548981816,0.02629356566
4.44,0.03589493004,0.02566017902
4.45,0.03628965667,0.02502065983
4.46,0.03667390001,0.0243751405
4.47,0.03704756194,0.02372375554
4.48,0.03741054433,0.0230666416
4.49,0.03776274911,0.02240393763
4.5,0.03810407836,0.02173578493
4.51,0.03843443438,0.02106232731
4.52,0.03875371982,0.02038371112
4.53,0.03906183775,0.01970008537
4.54,0.03935869178,0.01901160181
4.55,0.03964418616,0.01831841501
4.56,0.03991822592,0.01762068243
4.57,0.04018071696,0.01691856449
4.58,0.04043156619,0.01621222463
4.59,0.04067068167,0.01550182936
4.6,0.04089797273,0.01478754834
4.61,0.04111335011,0.01406955438
4.62,0.04131672611,0.01334802352
4.63,0.04150801472,0.01262313502
4.64,0.04168713176,0.01189507144
4.65,0.04185399507,0.0111640186
4.66,0.04200852461,0.01043016562
4.67,0.04215064265,0.009693704927
4.68,0.04228027389,0.008954832247
4.69,0.04239734567,0.008213746587
4.7,0.04250178806,0.007470650225
4.71,0.04259353408,0.006725748684
4.72,0.04267251981,0.0059792507
4.73,0.04273868457,0.005231368178
4.74,0.04279197108,0.004482316151
4.75,0.04283232559,0.003732312724
4.76,0.04285969808,0.002981579008
4.77,0.04287404238,0.002230339055
4.78,0.04287531631,0.001478819783
4.79,0.04286348188,0.0007272508883
4.8,0.04283850538,-2.413524283E-05
4.81,0.04280035758,-0.000775103631
4.82,0.04274901382,-0.001525416809
4.83,0.04268445419,-0.002274834934
4.84,0.04260666363,-0.003023115901
4.85,0.04251563209,-0.003770015473
4.86,0.04241135464,-0.004515287408
4.87,0.0422938316,-0.005258683596
4.88,0.04216306864,-0.0059999542
4.89,0.04201907694,-0.00673884781
4.9,0.04186187322,-0.007475111589
4.91,0.04169147991,-0.008208491439
4.92,0.04150792522,-0.008938732161
4.93,0.04131124323,-0.009665577625
4.94,0.04110147396,-0.01038877095
4.95,0.04087866348,-0.01110805466
4.96,0.04064286395,-0.0118231709
4.97,0.0403941337,-0.0125338616
4.98,0.04013253727,-0.01323986866
4.99,0.03985814549,-0.01394093416
5,0.03957103549,-0.01463680055
5.01,0.03927129076,-0.01532721083
5.02,0.03895900117,-0.01601190878
5.03,0.03863426296,-0.01669063913
5.04,0.03829717881,-0.0173631478
5.05,0.0379478578,-0.01802918209
5.06,0.03758641542,-0.01868849086
5.07,0.03721297355,-0.01934082478
5.08,0.03682766048,-0.01998593653
5.09,0.03643061083,-0.02062358096
5.1,0.03602196552,-0.02125351537
5.11,0.03560187179,-0.02187549966
5.12,0.03517048305,-0.02248929657
5.13,0.03472795893,-0.02309467187
5.14,0.03427446512,-0.02369139456
5.15,0.03381017334,-0.02427923707
5.16,0.03333526125,-0.02485797549
5.17,0.03284991238,-0.02542738972
5.18,0.03235431599,-0.02598726369
5.19,0.031848667,-0.02653738555
5.2,0.03133316586,-0.02707754786
5.21,0.03080801844,-0.02760754776
5.22,0.03027343591,-0.02812718715
5.23,0.02972963458,-0.02863627289
5.24,0.02917683579,-0.02913461693
5.25,0.02861526574,-0.02962203653
5.26,0.02804515537,-0.03009835435
5.27,0.02746674014,-0.03056339867
5.28,0.02688025995,-0.0310170035
5.29,0.02628595888,-0.03145900875
5.3,0.0256840851,-0.03188926034
5.31,0.02507489062,-0.03230761034
5.32,0.02445863114,-0.03271391713
5.33,0.02383556584,-0.03310804546
5.34,0.02320595721,-0.0334898666
5.35,0.02257007084,-0.03385925844
5.36,0.02192817519,-0.03421610555
5.37,0.02128054144,-0.03456029934
5.38,0.02062744321,-0.03489173807
5.39,0.01996915642,-0.03521032699
5.4,0.01930595901,-0.03551597833
5.41,0.01863813078,-0.03580861143
5.42,0.01796595312,-0.03608815276
5.43,0.01728970883,-0.03635453596
5.44,0.01660968186,-0.03660770188
5.45,0.01592615711,-0.03684759861
5.46,0.01523942021,-0.0370741815
5.47,0.01454975728,-0.03728741315
5.48,0.0138574547,-0.03748726345
5.49,0.01316279891,-0.03767370953
5.5,0.01246607616,-0.03784673579
5.51,0.01176757231,-0.03800633384
5.52,0.01106757259,-0.03815250251
5.53,0.01036636137,-0.03828524777
5.54,0.009664221988,-0.0384045827
5.55,0.00896143647,-0.03851052745
5.56,0.008258285364,-0.03860310916
5.57,0.007555047507,-0.03868236192
5.58,0.006851999823,-0.03874832665
5.59,0.006149417112,-0.03880105103
5.6,0.005447571855,-0.03884058946
5.61,0.004746734012,-0.03886700287
5.62,0.004047170828,-0.03888035869
5.63,0.003349146649,-0.03888073071
5.64,0.00265292273,-0.03886819898
5.65,0.001958757061,-0.03884284963
5.66,0.001266904188,-0.03880477481
5.67,0.0005776150501,-0.03875407252
5.68,-0.0001088631914,-0.03869084646
5.69,-0.000792287306,-0.0386152059
5.7,-0.001472418147,-0.03852726552
5.71,-0.002149020798,-0.03842714525
5.72,-0.002821864711,-0.0383149701
5.73,-0.003490723839,-0.03819087003
5.74,-0.004155376764,-0.03805497972
5.75,-0.004815606813,-0.03790743845
5.76,-0.005471202174,-0.03774838988
5.77,-0.006121955998,-0.03757798191
5.78,-0.006767666498,-0.03739636646
5.79,-0.00740813704,-0.03720369928
5.8,-0.008043176227,-0.0370001398
5.81,-0.008672597974,-0.03678585091
5.82,-0.009296221575,-0.03656099875
5.83,-0.009913871768,-0.03632575255
5.84,-0.01052537878,-0.03608028443
5.85,-0.01113057839,-0.03582476915
5.86,-0.01172931194,-0.03555938399
5.87,-0.0123214264,-0.03528430851
5.88,-0.01290677434,-0.03499972434
5.89,-0.01348521401,-0.03470581502
5.9,-0.01405660931,-0.03440276575
5.91,-0.01462082977,-0.03409076327
5.92,-0.01517775059,-0.03376999558
5.93,-0.01572725259,-0.0334406518
5.94,-0.01626922223,-0.03310292198
5.95,-0.01680355152,-0.03275699688
5.96,-0.01733013803,-0.0324030678
5.97,-0.01784888484,-0.03204132641
5.98,-0.01835970047,-0.03167196452
5.99,-0.01886249887,-0.03129517397
6,-0.01935719929,-0.03091114639
