"Freq [GHz]","re(S(Antenna1_1_1,Antenna1_1_1)) []","im(S(Antenna1_1_1,Antenna1_1_1)) []"
1,-0.801838473124411,-0.48146043710287
1.01,-0.820424193821537,-0.441289709883278
1.02,-0.837282185707266,-0.398906684622251
1.03,-0.852151343514537,-0.354259230421029
1.04,-0.864735665896888,-0.30731084804907
1.05,-0.874700692306848,-0.258047051734661
1.06,-0.881670229188104,-0.206483424262956
1.07,-0.885223644852226,-0.152675713718764
1.08,-0.884894440254708,-0.0967322609581804
1.09,-0.880170572775545,-0.0388291003948228
1.1,-0.870497763933372,0.0207722608589793
1.11,-0.855286918489252,0.0817039965707515
1.12,-0.833927309483021,0.143469122696581
1.13,-0.805807610214617,0.205416840093971
1.14,-0.770346456007287,0.266718733424964
1.15,-0.727034876084341,0.326348126589881
1.16,-0.675491878142459,0.383067120362992
1.17,-0.615532780243816,0.435428154040969
1.18,-0.547248359564202,0.481795393711733
1.19,-0.471088669999413,0.52039544799442
1.2,-0.387940907305814,0.549401985643994
1.21,-0.299187337242096,0.567058445852709
1.22,-0.206723920145313,0.571832434710401
1.23,-0.112923652888042,0.562589708276184
1.24,-0.0205310888388212,0.538763219112862
1.25,0.0675109544417181,0.500486836000668
1.26,0.14828768018057,0.448662056746497
1.27,0.219160036017533,0.384936409202467
1.28,0.277992871388843,0.311587104235946
1.29,0.323324344080323,0.231327578942693
1.3,0.354449106374859,0.147068952246609
1.31,0.371407293379304,0.0616775733637758
1.32,0.374893237241191,-0.0222319912311524
1.33,0.366109022905035,-0.10244539001507
1.34,0.34659478645806,-0.177227661434439
1.35,0.318064361085261,-0.245340428021094
1.36,0.282264467675358,-0.306009569957167
1.37,0.240868165448767,-0.358862305722039
1.38,0.195403435448373,-0.403849184286411
1.39,0.147213776756228,-0.441165290741476
1.4,0.0974426844880033,-0.471177039534626
1.41,0.0470367770516725,-0.494360527575952
1.42,-0.00323999142987408,-0.511251747261255
1.43,-0.0527859222013486,-0.522409078426694
1.44,-0.101138917926754,-0.528387037710154
1.45,-0.147953326943432,-0.529717355799181
1.46,-0.192978558201059,-0.526897976212033
1.47,-0.236039794343637,-0.520386649554211
1.48,-0.277021458057439,-0.510599041441892
1.49,-0.315853170322087,-0.497908277012329
1.5,-0.352498382624781,-0.482647510837537
1.51,-0.386944580151,-0.465112407949598
1.52,-0.419196064113556,-0.445565156914869
1.53,-0.449268499592512,-0.424238877540589
1.54,-0.477184077930489,-0.401340803301791
1.55,-0.502968865100237,-0.377056624396532
1.56,-0.526650630434535,-0.351554335520181
1.57,-0.548257299313008,-0.324986577374587
1.58,-0.567816732207661,-0.297495096029012
1.59,-0.585355947907682,-0.269211255940267
1.6,-0.600901863156563,-0.240259503018758
1.61,-0.614481883009666,-0.210758706932738
1.62,-0.626123907554012,-0.180822480032411
1.63,-0.635858007545754,-0.150560749257038
1.64,-0.643716181308762,-0.120079880673825
1.65,-0.649733762389212,-0.0894826405850051
1.66,-0.653949340107115,-0.0588682759705874
1.67,-0.65640518810951,-0.0283318593535482
1.68,-0.657147537085983,0.00203591498790407
1.69,-0.65622651009286,0.0321492410136472
1.7,-0.653695442075537,0.0619282540857969
1.71,-0.649610520762355,0.0912988655209703
1.72,-0.644030114466337,0.120193510335035
1.73,-0.637014129669495,0.148550915045581
1.74,-0.628622346640705,0.17631663978514
1.75,-0.618914448085685,0.203442486938189
1.76,-0.607948432023773,0.229886024996277
1.77,-0.595780253323291,0.255610200953233
1.78,-0.582462730714004,0.28058201828683
1.79,-0.568045541314125,0.30477195729322
1.8,-0.552574771813193,0.328153031700117
1.81,-0.536092903144499,0.350698981685622
1.82,-0.5186391914326,0.372383902678302
1.83,-0.500250495225519,0.393181006992684
1.84,-0.480961871816432,0.413061597685242
1.85,-0.460807190589064,0.431994934315845
1.86,-0.439821065331128,0.449947374189444
1.87,-0.418038976394799,0.466882807761652
1.88,-0.395500055458432,0.482762549291265
1.89,-0.372246450342523,0.497546130290302
1.9,-0.348325157761942,0.511192086414438
1.91,-0.323788669403894,0.523658946552882
1.92,-0.298695922726605,0.534906916264896
1.93,-0.273111105967063,0.544898518331836
1.94,-0.247104763982774,0.553600895503999
1.95,-0.220752496311902,0.560986410296728
1.96,-0.194134488870272,0.567034428523244
1.97,-0.167334022736984,0.571731530006979
1.98,-0.140436382127701,0.575073298276618
1.99,-0.113526835106163,0.577063802809795
2,-0.0866896317059285,0.57771588437058
2.01,-0.0600060776699228,0.577051723628784
2.02,-0.033553176428723,0.575099282033405
2.03,-0.00740195755125997,0.571895883211576
2.04,0.0183829020046266,0.567481792611683
2.05,0.0437435611221845,0.561902096777206
2.06,0.0686309065233643,0.5552047577096
2.07,0.0930016911067996,0.547437256678718
2.08,0.116820576920483,0.538646924176618
2.09,0.140057537830229,0.528878864128302
2.1,0.162687746070203,0.518174438527985
2.11,0.184689973396086,0.506572321439896
2.12,0.206045390504838,0.49410459139765
2.13,0.226733965140517,0.480801917703718
2.14,0.246736791741796,0.466689754393227
2.15,0.266031367591078,0.451790925627039
2.16,0.284592966656166,0.436126856056199
2.17,0.302392994337092,0.419718210873182
2.18,0.319398706449766,0.402586825517236
2.19,0.335574113611243,0.384757271512174
2.2,0.350879389757668,0.366258214682937
2.21,0.365272896469652,0.347123680192972
2.22,0.378713328047466,0.327393746168091
2.23,0.391157192415438,0.307115031644271
2.24,0.402566719704839,0.286341894606229
2.25,0.412905667421557,0.265135016495123
2.26,0.42214453174905,0.243561499693828
2.27,0.430260932809493,0.221693447358508
2.28,0.437239489180344,0.199606540962812
2.29,0.443076207579991,0.177378894204342
2.3,0.447774990973342,0.155088844702401
2.31,0.45134903233384,0.13281308748017
2.32,0.453822235309545,0.110624389608519
2.33,0.455223969690702,0.088591382534327
2.34,0.455593213707964,0.0667751864875852
2.35,0.454972520709631,0.0452299723776345
2.36,0.453408915069542,0.0240010851433532
2.37,0.450950106527241,0.00312534624309642
2.38,0.447644581063159,-0.0173683948737938
2.39,0.443538837955639,-0.0374604422350972
2.4,0.438675268151787,-0.0571363275265063
2.41,0.43309197022823,-0.0763879366145877
2.42,0.426822147168841,-0.0952112918936176
2.43,0.419892248819814,-0.113604121047555
2.44,0.41232186953592,-0.131565838322173
2.45,0.404127399328823,-0.149092957652127
2.46,0.395318710156596,-0.166181668178349
2.47,0.385901970553149,-0.182822872787912
2.48,0.375881438262091,-0.199002557492524
2.49,0.365261006944425,-0.214703705151083
2.5,0.354045552058982,-0.229902255490702
2.51,0.342240158229905,-0.244568406031512
2.52,0.329856673403771,-0.258671191921626
2.53,0.316910687046799,-0.272174439376909
2.54,0.303423385280797,-0.285039958868973
2.55,0.2894228062137,-0.297230438543514
2.56,0.274944451162556,-0.308708883407274
2.57,0.260028935577733,-0.319441239192398
2.58,0.244723577279785,-0.329398340297633
2.59,0.229080302103322,-0.338556328991881
2.6,0.213154792822694,-0.346898816803772
2.61,0.197005559996778,-0.354414941695745
2.62,0.180690071256124,-0.361104035246211
2.63,0.164266116338279,-0.36697211277708
2.64,0.147788398772227,-0.372032096413915
2.65,0.131308119210274,-0.376304928805246
2.66,0.114869982772995,-0.379815626812304
2.67,0.098512924813613,-0.382594672439286
2.68,0.0822696101498564,-0.384674410461194
2.69,0.0661655197562646,-0.386089450378778
2.7,0.0502175691137254,-0.386872698551912
2.71,0.0344391842923394,-0.387054432005353
2.72,0.0188345576530166,-0.386666589751417
2.73,0.00340682696276509,-0.385730096924033
2.74,-0.0118473600019712,-0.384265339639836
2.75,-0.0269307532860282,-0.38228559446294
2.76,-0.0418478555075334,-0.379798883992642
2.77,-0.0566016707086608,-0.376807481244375
2.78,-0.0711932606429467,-0.373308674708869
2.79,-0.0856193853409346,-0.369296245319159
2.8,-0.099871969575718,-0.364761250175862
2.81,-0.113939670775281,-0.359691970653531
2.82,-0.127804113109043,-0.354077526096636
2.83,-0.141443253841927,-0.347907175315188
2.84,-0.154827987665863,-0.341173574442226
2.85,-0.167925988529574,-0.333871755799998
2.86,-0.180701684204072,-0.326002876907111
2.87,-0.19311659341345,-0.317572015673209
2.88,-0.205131365784134,-0.308590507115585
2.89,-0.216706392603112,-0.299076618194084
2.9,-0.227805088885295,-0.289052307656988
2.91,-0.238391355653138,-0.278547442670064
2.92,-0.248433528612701,-0.267596780910691
2.93,-0.257906354178765,-0.256234704452144
2.94,-0.266787538431323,-0.244504052909214
2.95,-0.275062050314011,-0.232446175127668
2.96,-0.282719826801427,-0.220103522201641
2.97,-0.289757631128416,-0.207517961562517
2.98,-0.296176537782202,-0.194729396851216
2.99,-0.301981648975014,-0.181773895459258
3,-0.307184478480647,-0.168684921469043
3.01,-0.311795791039642,-0.155491932806535
3.02,-0.315831082879021,-0.142218158106064
3.03,-0.319303739716515,-0.128883577925909
3.04,-0.322229947370638,-0.115503522769373
3.05,-0.32462016584216,-0.102087853198073
3.06,-0.326485586408481,-0.0886428896722354
3.07,-0.327831915489112,-0.0751738666073933
3.08,-0.328662572039141,-0.061683229237715
3.09,-0.328975179373582,-0.0481724715977028
3.1,-0.328764629374508,-0.0346448780199629
3.11,-0.328020669170374,-0.0211032939584592
3.12,-0.326729397773226,-0.00755395307977313
3.13,-0.324873549139308,0.00599348604863969
3.14,-0.322434140424326,0.0195252415765968
3.15,-0.319389529656831,0.0330217333786488
3.16,-0.315718741171289,0.0464597434664676
3.17,-0.311400409369483,0.0598094621766943
3.18,-0.306416093658143,0.0730360849785029
3.19,-0.300748882365776,0.0860992552691941
3.2,-0.29438709668248,0.0989527790694499
3.21,-0.287322764326405,0.111548137151483
3.22,-0.279553436003254,0.123833241839082
3.23,-0.271085579462761,0.135752128237236
3.24,-0.261929368159887,0.147249140540992
3.25,-0.252103568375536,0.158266918682551
3.26,-0.241634224066702,0.168751116670797
3.27,-0.230553084629176,0.178648153824159
3.28,-0.218900901918493,0.187908763561792
3.29,-0.20672206160271,0.19648735264424
3.3,-0.194067173497076,0.204343766850229
3.31,-0.180990655814248,0.211445911367789
3.32,-0.167549410150318,0.21776618428876
3.33,-0.153803390034331,0.223285239612163
3.34,-0.139811728509661,0.227992614355786
3.35,-0.125633821055025,0.231880399677121
3.36,-0.111326334679503,0.234951891158446
3.37,-0.0969420527025434,0.237214671589322
3.38,-0.0825307744188696,0.238680958830463
3.39,-0.0681362746704828,0.239366877904807
3.4,-0.0537976588413798,0.239291404868597
3.41,-0.0395473550697562,0.23847406755356
3.42,-0.0254141236313855,0.236934324993264
3.43,-0.0114189226465646,0.234689218815503
3.44,0.00241864297346278,0.231755226154457
3.45,0.0160817641557202,0.228139733720935
3.46,0.0295567450291061,0.223848260637852
3.47,0.0428276462594918,0.218881960422353
3.48,0.0558747397568762,0.213236441172795
3.49,0.0686769319439994,0.206900262790767
3.5,0.0812055009870329,0.199864444410456
3.51,0.0934253076745245,0.192112740252622
3.52,0.105290864813152,0.183632187873382
3.53,0.11675076163657,0.174414607546093
3.54,0.12774271351021,0.164455074265138
3.55,0.1381981913409,0.153756036974252
3.56,0.148043404909468,0.14233474654233
3.57,0.157198051808112,0.130216264396018
3.58,0.165584328334305,0.11744093472093
3.59,0.173121542272242,0.104065168140711
3.6,0.179740470095687,0.0901598932880001
3.61,0.185375693559527,0.0758075745913089
3.62,0.189978231400185,0.0611061515771507
3.63,0.193510456180434,0.0461609408293406
3.64,0.195953829960102,0.031084395581962
3.65,0.19730888802652,0.0159937792908372
3.66,0.197592187658348,0.00099917703898185
3.67,0.196846332055549,-0.0137881235378214
3.68,0.19512130114466,-0.0282712427628008
3.69,0.192488701019143,-0.0423637873922973
3.7,0.189028154799281,-0.0559964733405497
3.71,0.184829227117763,-0.0691188831814767
3.72,0.179979188388528,-0.0816951877405677
3.73,0.174570487314389,-0.0937149723456673
3.74,0.168685971185638,-0.105179418420995
3.75,0.162401321969099,-0.116110013721236
3.76,0.155775919844024,-0.126535948373199
3.77,0.148858899809078,-0.136495164146437
3.78,0.141677812043,-0.146037105929214
3.79,0.134247728024881,-0.155203264677505
3.8,0.126568062543476,-0.164032459953363
3.81,0.118624878681562,-0.17255521296147
3.82,0.110389616242818,-0.180796459944539
3.83,0.101830077683507,-0.1887588512222
3.84,0.0929126312171175,-0.196436363531106
3.85,0.0836016370175613,-0.20380078743741
3.86,0.0738700431011345,-0.210818601270872
3.87,0.0636966142191964,-0.217435967021478
3.88,0.0530760108666282,-0.223592761267976
3.89,0.0420163415801224,-0.229221383385022
3.9,0.0305398659169901,-0.234251192397753
3.91,0.0186903187383461,-0.238615932194849
3.92,0.00652533599345715,-0.242250801014163
3.93,-0.0058841336082101,-0.245107265968174
3.94,-0.0184517673251119,-0.247144470206897
3.95,-0.031087762221152,-0.24834143294059
3.96,-0.0436939873944424,-0.248692583812555
3.97,-0.0561715478633954,-0.248211600960262
3.98,-0.0684260100599528,-0.246934384821049
3.99,-0.0803758056767023,-0.24490447361182
4,-0.0919437680775075,-0.242190396237423
4.01,-0.103071314595017,-0.238866808923883
4.02,-0.113716863843743,-0.235017837544286
4.03,-0.12385644873923,-0.230731501385141
4.04,-0.133487287913066,-0.226094324587355
4.05,-0.14261382865076,-0.221191384604104
4.06,-0.151272985675789,-0.216094472216857
4.07,-0.159502455055137,-0.210871663377352
4.08,-0.167354763564274,-0.205566402628632
4.09,-0.174893272630656,-0.200213999550597
4.1,-0.182173561858964,-0.194829871733873
4.11,-0.1892585070197,-0.189410982227794
4.12,-0.19620207573684,-0.183942551287708
4.13,-0.203047588260784,-0.178392426853004
4.14,-0.209829037917471,-0.172718147482381
4.15,-0.216565662504182,-0.166871720414736
4.16,-0.223260505688326,-0.160800482472484
4.17,-0.229900851308173,-0.154448529900706
4.18,-0.236458840653789,-0.147767493361996
4.19,-0.242890994393853,-0.140714755678673
4.2,-0.249144845639134,-0.133259921674425
4.21,-0.255155431143135,-0.125382463643734
4.22,-0.26085648577935,-0.117080947580853
4.23,-0.266175006271461,-0.108369794364859
4.24,-0.271047884616186,-0.0992736783385968
4.25,-0.275408105072533,-0.0898390940527979
4.26,-0.27920290900126,-0.0801232794104336
4.27,-0.282392007094872,-0.0701946651248887
4.28,-0.284947805884341,-0.0601275202040796
4.29,-0.286857816455754,-0.0500064120929622
4.3,-0.288130777333789,-0.0399117095698936
4.31,-0.288785349791686,-0.0299215937335303
4.32,-0.288859415883359,-0.0201069683752016
4.33,-0.288401034265292,-0.0105307746732219
4.34,-0.287472355728125,-0.00124459913596502
4.35,-0.28613636023351,0.00771509308151029
4.36,-0.284469040399451,0.0163307663983295
4.37,-0.282541022296276,0.0245961732695546
4.38,-0.280418045903961,0.0325232968080653
4.39,-0.278167764103712,0.0401387976346245
4.4,-0.27583731547446,0.0474800937476209
4.41,-0.273464636516004,0.0545939990933021
4.42,-0.27108052195621,0.0615327519084079
4.43,-0.268692464172066,0.0683558173512411
4.44,-0.266296372016868,0.0751170432600483
4.45,-0.263871981874968,0.0818682680599408
4.46,-0.261390433341426,0.0886535086847782
4.47,-0.25880657725901,0.095508860314237
4.48,-0.256069821812364,0.102453976907638
4.49,-0.253121273334806,0.109492955712641
4.5,-0.249907809029266,0.116624008983233
4.51,-0.246373590178074,0.12382073289663
4.52,-0.242464534830241,0.131046676367941
4.53,-0.238143109301021,0.13825359083533
4.54,-0.2333811183845,0.145384683347257
4.55,-0.228155471356489,0.152372499706154
4.56,-0.222469812646453,0.159147852867971
4.57,-0.216336951904182,0.165637800845602
4.58,-0.209780796467837,0.171779487061981
4.59,-0.202848891557407,0.177510798648483
4.6,-0.195589318829507,0.182779912512034
4.61,-0.188070839555085,0.187546480424048
4.62,-0.180363888411875,0.191781060727878
4.63,-0.172542394863173,0.195479342817179
4.64,-0.164680354764603,0.198643099915968
4.65,-0.156852128456111,0.201294253706724
4.66,-0.149109935838959,0.203462922925322
4.67,-0.14151987886743,0.205194728264114
4.68,-0.134121635068541,0.206545270344862
4.69,-0.126942198341215,0.207576224256288
4.7,-0.119997980551142,0.208349361877872
4.71,-0.113287568433806,0.208928274191735
4.72,-0.106795548725399,0.209373933706799
4.73,-0.100495219631834,0.209736773825451
4.74,-0.0943430203959037,0.210057511402114
4.75,-0.0882961948453768,0.210371187756765
4.76,-0.0823012259742747,0.210692747189163
4.77,-0.0762982365455351,0.21102477567991
4.78,-0.0702497368925617,0.211353297296918
4.79,-0.0640896005590608,0.211657789978434
4.8,-0.0577807209228841,0.211893526977662
4.81,-0.0513021496989807,0.212020590668608
4.82,-0.0446279394551598,0.211981139349614
4.83,-0.0377558430741686,0.211706100338968
4.84,-0.0307011832987305,0.211156124099843
4.85,-0.0234837735042158,0.210253105055514
4.86,-0.0161455257482445,0.208951093368255
4.87,-0.00873191040379464,0.207218490915612
4.88,-0.0013145386934506,0.205009816234831
4.89,0.00604459825400831,0.202309478297624
4.9,0.0132799233283221,0.199118575696058
4.91,0.0203217775888046,0.195444072010064
4.92,0.0270896093468498,0.191314931961981
4.93,0.0335338331148155,0.186767902294581
4.94,0.0395988598334067,0.181850460557353
4.95,0.0452436750293834,0.17663031907297
4.96,0.0504406637028842,0.171169245349341
4.97,0.0551782624452062,0.165535231020393
4.98,0.059460874563434,0.159805256272446
4.99,0.0633035151937643,0.154043870174298
5,0.0667383679612151,0.148311026695945
5.01,0.0698079800218104,0.142656976887787
5.02,0.0725567510408108,0.137117261037566
5.03,0.075046829433005,0.131718998615874
5.04,0.0773384979359939,0.126478786506963
5.05,0.0794832904965177,0.121388891244165
5.06,0.0815444348932321,0.116433089898246
5.07,0.0835643092619252,0.111584707466344
5.08,0.0855886863563253,0.106793239411551
5.09,0.087635535895612,0.102023429680907
5.1,0.0897176662894011,0.0972169684242755
5.11,0.0918328788550294,0.0923171943989906
5.12,0.0939688549887193,0.0872718214707861
5.13,0.0960955041660622,0.0820373937787546
5.14,0.098170805189176,0.0765700956692119
5.15,0.100144505564731,0.0708386916883599
5.16,0.101954846802128,0.0648261006997065
5.17,0.103547581473389,0.058535329714069
5.18,0.10485627489906,0.0519691313834324
5.19,0.105822737112328,0.0451587177773022
5.2,0.106383155650883,0.0381359780075009
5.21,0.106498919218869,0.0309557814235803
5.22,0.106139433080917,0.0236749385558266
5.23,0.105271707280789,0.0163628785600854
5.24,0.103892805081729,0.0090887012796814
5.25,0.102013184806676,0.00192246410938195
5.26,0.0996399932842117,-0.00506715069368825
5.27,0.0968261309609625,-0.0118187389650413
5.28,0.093601563730889,-0.0182750643151905
5.29,0.0900297292243871,-0.0244001818964671
5.3,0.0861694999897756,-0.0301632197288172
5.31,0.0820863394084811,-0.0355441961890316
5.32,0.0778440922607492,-0.0405486736686645
5.33,0.0735119114261326,-0.0451865938324921
5.34,0.0691361602235156,-0.0494821201373897
5.35,0.0647642247538093,-0.0534711656126129
5.36,0.0604443869588398,-0.0572016831523677
5.37,0.0561922506451638,-0.0607235616703742
5.38,0.0520176119697799,-0.0640916175286255
5.39,0.0479218069136255,-0.0673624951309991
5.4,0.043879029034393,-0.0705835936555972
5.41,0.0398690000743509,-0.0737971461984268
5.42,0.0358521426749274,-0.0770381116699967
5.43,0.0317783439294478,-0.0803338147335555
5.44,0.0275961051483397,-0.0836891780914588
5.45,0.0232491889095567,-0.0871085556338147
5.46,0.0186872397707676,-0.0905694631734355
5.47,0.0138576554078501,-0.0940386966058543
5.48,0.00872808101665588,-0.097486845828643
5.49,0.00325721220740906,-0.100852158877525
5.5,-0.00257515861049114,-0.104079210098485
5.51,-0.0087668556758685,-0.107099147702011
5.52,-0.0153242876833617,-0.109855817061549
5.53,-0.0222162721111377,-0.112273393637231
5.54,-0.0294145698632053,-0.114297238473993
5.55,-0.0368637297006329,-0.115876827184119
5.56,-0.0445166965734034,-0.116967717575907
5.57,-0.0523040467406478,-0.117542389866873
5.58,-0.0601559704240753,-0.117574544169561
5.59,-0.0680009554226345,-0.11707910985289
5.6,-0.0757683944115235,-0.11604647957015
5.61,-0.0833845555466111,-0.11451940148871
5.62,-0.0908113945605474,-0.112526756867936
5.63,-0.0979846707169962,-0.1101152174927
5.64,-0.104872278809314,-0.107340627280053
5.65,-0.111452361502234,-0.104254388835494
5.66,-0.117698480095147,-0.100931274572112
5.67,-0.123631865546073,-0.097429122240682
5.68,-0.129260698018524,-0.0938101484571169
5.69,-0.13460981548275,-0.0901164421799596
