"Freq [GHz]","re(S(Antenna1_1_1,Antenna1_1_1)) []","im(S(Antenna1_1_1,Antenna1_1_1)) []"
1,-0.801841293242141,-0.481450034204784
1.01,-0.820424256873937,-0.441277309312737
1.02,-0.837278554055216,-0.398892877602814
1.03,-0.852143142226657,-0.354244971711889
1.04,-0.864722218083478,-0.30729749278358
1.05,-0.874681655863958,-0.258036336361101
1.06,-0.881645779132044,-0.206477430727116
1.07,-0.885194623430292,-0.152676730037854
1.08,-0.884862584735125,-0.0967426311362804
1.09,-0.880138611913985,-0.0388508603134228
1.1,-0.870469530841222,0.0207377816075393
1.11,-0.855267117174652,0.0816565376423015
1.12,-0.833921407376521,0.143410210478991
1.13,-0.805821199334417,0.205349996912341
1.14,-0.770384462497887,0.266650142596104
1.15,-0.727100390006641,0.326286479168081
1.16,-0.675585087859459,0.383023360674892
1.17,-0.615649559518536,0.435414413484969
1.18,-0.547379205952752,0.481823288568633
1.19,-0.471218429485913,0.52047368916242
1.2,-0.388049592502414,0.549533737548794
1.21,-0.299252249711796,0.567238446391009
1.22,-0.206723474745413,0.572045438182971
1.23,-0.112841945516442,0.562810431544394
1.24,-0.0203629809344212,0.538958817471462
1.25,0.0677567371423181,0.500621958113568
1.26,0.14858671379967,0.448705234053797
1.27,0.219475246723233,0.384867406487567
1.28,0.278279664846343,0.311401436898246
1.29,0.323538392933523,0.231039896896493
1.3,0.354554337978559,0.146710662346009
1.31,0.371382493445304,0.0612922837049858
1.32,0.374735241422291,-0.0225955919782524
1.33,0.365832743492335,-0.10274123565087
1.34,0.34623072233366,-0.177418880869139
1.35,0.317653172210761,-0.245403781266094
1.36,0.281851292719058,-0.305937589406167
1.37,0.240496667046567,-0.358662744947239
1.38,0.195111115297773,-0.403543342564011
1.39,0.147028499524528,-0.440784145302276
1.4,0.0973807687570033,-0.470757744891526
1.41,0.0471020465706725,-0.493942017063552
1.42,-0.00305515722187408,-0.510870925116005
1.43,-0.0524991984642486,-0.522098191338994
1.44,-0.100775745971854,-0.528171360975854
1.45,-0.147544311743032,-0.529613118620281
1.46,-0.192557020987579,-0.526912265847033
1.47,-0.235638501910337,-0.520517169459611
1.48,-0.276671320148339,-0.510834846561692
1.49,-0.315580174370487,-0.498230885607229
1.5,-0.352322383012381,-0.483032473348437
1.51,-0.3868780804616,-0.465531469243498
1.52,-0.419243796233356,-0.445988156288269
1.53,-0.449427076801312,-0.424635678784949
1.54,-0.477442795138889,-0.401683266351691
1.55,-0.503310066024937,-0.377320751414132
1.56,-0.527051377231735,-0.351721288578381
1.57,-0.548690500981508,-0.325044207482187
1.58,-0.568253167063361,-0.297438226410212
1.59,-0.585766184867962,-0.269042550423567
1.6,-0.601258000393763,-0.239988843469358
1.61,-0.614759402632766,-0.210402644442338
1.62,-0.626303101997812,-0.180403397182411
1.63,-0.635925295997054,-0.150105209463438
1.64,-0.643664981386362,-0.119617375407725
1.65,-0.649565226993112,-0.0890432892715251
1.66,-0.653671840404415,-0.0584813517850874
1.67,-0.65603448443561,-0.0280238101567482
1.68,-0.656705755473283,0.00224306613120407
1.69,-0.65574059517376,0.0322396149973472
1.7,-0.653195803789587,0.0618932394557969
1.71,-0.649129360093255,0.0911372875166703
1.72,-0.643598879966137,0.119912542820435
1.73,-0.636662115787095,0.148165409606081
1.74,-0.628374411984605,0.17584851582724
1.75,-0.618789577224085,0.202919714578789
1.76,-0.607958407626773,0.229340636991907
1.77,-0.595928241033291,0.255076546792833
1.78,-0.582743468938904,0.28009476891404
1.79,-0.568445071537725,0.30436398442372
1.8,-0.553070795621793,0.327852953083917
1.81,-0.536656811673099,0.350529368944022
1.82,-0.51923701054012,0.372359761702302
1.83,-0.500844922549519,0.393308439731684
1.84,-0.481514461188252,0.413337372540242
1.85,-0.461281335707364,0.432406029929045
1.86,-0.440183660800628,0.450471768859444
1.87,-0.418263235970299,0.467490449350852
1.88,-0.395567323346432,0.483417334013535
1.89,-0.372147065137523,0.498207497445802
1.9,-0.348060283483942,0.511817968751238
1.91,-0.323370100115094,0.524207584482182
1.92,-0.298145242810905,0.535341429564896
1.93,-0.272459519032763,0.545187160669236
1.94,-0.246391080916474,0.553720464735999
1.95,-0.220020047905302,0.560923958927728
1.96,-0.193429567701372,0.566788023279244
1.97,-0.166702808800284,0.571311322967979
1.98,-0.139921504111101,0.574500946228718
1.99,-0.113164800328963,0.576371079582195
2,-0.0865087948239285,0.57694338495158
2.01,-0.0600224303569228,0.576246681178894
2.02,-0.033772701390723,0.574312595745405
2.03,-0.00781506317325997,0.571177299166342
2.04,0.0177957333973266,0.566879533011083
2.05,0.0430149267931845,0.561458735969406
2.06,0.0678037786471643,0.5549518675126
2.07,0.0921254881540496,0.547396787733718
2.08,0.115949892743583,0.538827339319618
2.09,0.139248174353029,0.529274619405302
2.1,0.161992872538903,0.518766053969985
2.11,0.184157328848086,0.507327864729096
2.12,0.205711107795838,0.49497947289245
2.13,0.226625285427517,0.481744208171118
2.14,0.246865935225796,0.467641082821627
2.15,0.266396412652078,0.452691716353439
2.16,0.285176275587166,0.436918627450699
2.17,0.303163002496892,0.420348424320582
2.18,0.320311022417666,0.403012206585536
2.19,0.336574417954443,0.384946181883174
2.2,0.351906425572468,0.366193874958937
2.21,0.366263149703352,0.346804615225972
2.22,0.379603200043846,0.326834310947091
2.23,0.391889760792938,0.306345568636271
2.24,0.403092330181139,0.285406087333529
2.25,0.413187645192557,0.264088193329923
2.26,0.42216013925505,0.242467018891918
2.27,0.430004279922493,0.220618523333308
2.28,0.436721844054344,0.198618837782312
2.29,0.442325227154991,0.176540651922742
2.3,0.446832780664442,0.154454994205501
2.31,0.45027104523894,0.13242690768217
2.32,0.452672502795885,0.110512510816519
2.33,0.454073013288502,0.088766156075327
2.34,0.454511094364164,0.0672300948735852
2.35,0.454027303091631,0.0459413748496345
2.36,0.452660628230342,0.0249285660577532
2.37,0.450447472703241,0.00421611142069642
2.38,0.447422397486159,-0.0161793630079938
2.39,0.443613020638639,-0.0362446174009972
2.4,0.439046348299787,-0.0559673669731063
2.41,0.43374106552323,-0.0753376405451877
2.42,0.427712737808841,-0.0943446849674176
2.43,0.420974093682514,-0.112976332849855
2.44,0.41353086354212,-0.131217056111173
2.45,0.405392319891663,-0.149048257669127
2.46,0.396563815564496,-0.166446366333349
2.47,0.387052333592349,-0.183385892279912
2.48,0.376867240631891,-0.199830831252524
2.49,0.366021551276025,-0.215750825588883
2.5,0.354531696188982,-0.231108842701202
2.51,0.342422892121905,-0.245863619745812
2.52,0.329720859186771,-0.259978637880926
2.53,0.316461397220799,-0.273416204903809
2.54,0.302684986947797,-0.286142308284973
2.55,0.2884371710417,-0.298126100634514
2.56,0.273766587969256,-0.309344367509174
2.57,0.258727478839733,-0.319776716808398
2.58,0.243374219049505,-0.329411646525633
2.59,0.227761719372922,-0.338244852469881
2.6,0.211944608720994,-0.346277873016772
2.61,0.195975074661278,-0.353519262126745
2.62,0.179900728567524,-0.359983753829911
2.63,0.163764808748279,-0.36569110137978
2.64,0.147607056584227,-0.370663724929835
2.65,0.131458736246274,-0.374928242295046
2.66,0.115345817517995,-0.378510280331604
2.67,0.099287919930613,-0.381436277215486
2.68,0.0833009130069564,-0.383730137534694
2.69,0.0673951536497646,-0.385415193156078
2.7,0.0515760689656254,-0.386507658025912
2.71,0.0358497457627194,-0.387021922891353
2.72,0.0202166936227166,-0.386969191282417
2.73,0.00468101976786509,-0.386352983275033
2.74,-0.0107529211481422,-0.385173803831836
2.75,-0.0260795958800282,-0.38342984597384
2.76,-0.0412888344246334,-0.381114765847142
2.77,-0.0563673995746608,-0.378221637155775
2.78,-0.0712982436699467,-0.374741770883769
2.79,-0.0860587008949346,-0.370668503504659
2.8,-0.100623142322718,-0.365994913210262
2.81,-0.114961572678681,-0.360717696314531
2.82,-0.129040843574943,-0.354837891688536
2.83,-0.142826555815927,-0.348358034475188
2.84,-0.15628160010715,-0.341288896042226
2.85,-0.169370197622574,-0.333644718952998
2.86,-0.182056382164772,-0.325444183551111
2.87,-0.19430686495085,-0.316711353216209
2.88,-0.206091245318034,-0.307473786730285
2.89,-0.217383796078212,-0.297764237304884
2.9,-0.228159703146295,-0.287615535381588
2.91,-0.238403639975138,-0.277063648352364
2.92,-0.248102552431701,-0.266145896507191
2.93,-0.257246431206765,-0.254896450075844
2.94,-0.265834061980323,-0.243350579003114
2.95,-0.273865287254211,-0.231540985509868
2.96,-0.281342877879327,-0.219496164230041
2.97,-0.288273222548816,-0.207242113418517
2.98,-0.294662815563702,-0.194801814890216
2.99,-0.300520405960714,-0.182192584872258
3,-0.305851619221247,-0.169429368500043
3.01,-0.310664273626582,-0.156524901216635
3.02,-0.314961749662821,-0.143487575272764
3.03,-0.318745363724315,-0.130323711862309
3.04,-0.322013615833638,-0.117039277734263
3.05,-0.32475929559716,-0.103638267707773
3.06,-0.326975936488481,-0.0901288578556354
3.07,-0.328650705910112,-0.0765169935982933
3.08,-0.329770605600441,-0.062811814991545
3.09,-0.330318148874282,-0.0490264970565028
3.1,-0.330274878564408,-0.0351767769277629
3.11,-0.329622069501334,-0.0212811815854592
3.12,-0.328340260113826,-0.00736412795177313
3.13,-0.326411139010708,0.00654547965863969
3.14,-0.323817006802926,0.0204164236095968
3.15,-0.320546037196091,0.0342103995917488
3.16,-0.316585276790689,0.0478895903458676
3.17,-0.311927810637083,0.0614123959752943
3.18,-0.306570358680143,0.0747309710437529
3.19,-0.300515673638776,0.0878008397903941
3.2,-0.29377216647348,0.10057528213525
3.21,-0.286348739452405,0.113006966588883
3.22,-0.278263355415754,0.125047997552932
3.23,-0.269537610110061,0.136656298468936
3.24,-0.260197138648687,0.147788430504892
3.25,-0.250272071150964,0.158404906628551
3.26,-0.239795124269302,0.168469960882797
3.27,-0.228801506472376,0.177951112994159
3.28,-0.217330058616493,0.186820109230792
3.29,-0.20541803706866,0.19505206449124
3.3,-0.193107030866776,0.202626550088629
3.31,-0.180434567238248,0.209527064982089
3.32,-0.167440253003318,0.21573963827652
3.33,-0.154161336916331,0.221254754929663
3.34,-0.140634648733661,0.226064192492786
3.35,-0.126894479705025,0.230161706152421
3.36,-0.112973452816503,0.233541144434626
3.37,-0.0989014806563434,0.236199146460222
3.38,-0.0847088580396696,0.238130067408463
3.39,-0.0704241264217428,0.239328862684807
3.4,-0.0560744859420798,0.239788420032597
3.41,-0.0416883039013562,0.23950031607956
3.42,-0.0272955624970855,0.238454498265264
3.43,-0.0129269809684846,0.236639849542503
3.44,0.00138459659716278,0.234044607824557
3.45,0.0155988930357202,0.230654028391435
3.46,0.0296733497381061,0.226456366361352
3.47,0.0435632132294918,0.221439174197353
3.48,0.0572129377008762,0.215594497309795
3.49,0.0705662289179994,0.208917838811667
3.5,0.0835598116810329,0.201409900134856
3.51,0.0961274328716245,0.193078173221622
3.52,0.108198472341452,0.183939454189382
3.53,0.11970336168087,0.174017895060093
3.54,0.13056892873421,0.163350727783138
3.55,0.1407247289909,0.151981942126252
3.56,0.150112800573368,0.13996787470633
3.57,0.158669669501612,0.127375094928418
3.58,0.166347313029305,0.11427718196903
3.59,0.173106596763242,0.100755504918711
3.6,0.178919415406687,0.0868956174858001
3.61,0.183771172407527,0.0727874843273089
3.62,0.187660370515185,0.0585173880198507
3.63,0.190593544740434,0.0441752890332406
3.64,0.192594951123002,0.029843193683962
3.65,0.19369780900682,0.0155919651518372
3.66,0.193942315933948,0.00148942394898185
3.67,0.193372900423549,-0.0124157087098214
3.68,0.19204054130066,-0.0260727907588008
3.69,0.190001371429043,-0.0394482092822973
3.7,0.187298547236181,-0.0525239633955497
3.71,0.183979632520763,-0.0652849630295767
3.72,0.180084462447528,-0.0777254283367677
3.73,0.175645562437389,-0.0898460436810673
3.74,0.170686817464638,-0.101648381361995
3.75,0.165225117225099,-0.113137366388636
3.76,0.159269812358024,-0.124312878338499
3.77,0.152822672842678,-0.135173873990437
3.78,0.14588220138765,-0.145710866102214
3.79,0.138441927174881,-0.155909363860505
3.8,0.130498905062476,-0.165746226465363
3.81,0.122050263774562,-0.17519110316547
3.82,0.113095263257518,-0.184207872051539
3.83,0.103644956571607,-0.1927521777755
3.84,0.0937142943731175,-0.200778076581606
3.85,0.0833295387085613,-0.20823821143601
3.86,0.0725260171771345,-0.215084865986872
3.87,0.0613499666461964,-0.221274685506478
3.88,0.0498540226656282,-0.226770045899776
3.89,0.0381038364401224,-0.231540878018322
3.9,0.0261617645684901,-0.235567158618753
3.91,0.0141014891690461,-0.238839187080849
3.92,0.00199630663365715,-0.241360848541163
3.93,-0.0100843039382101,-0.243145796886174
3.94,-0.0220730399381119,-0.244221113477897
3.95,-0.033912661596152,-0.24461853626659
3.96,-0.0455491903632424,-0.244384865937855
3.97,-0.0569428056693954,-0.243567918874162
3.98,-0.0680632043599528,-0.242224225501949
3.99,-0.0788901956447023,-0.24040589836282
4,-0.0894189062415075,-0.238165745685423
4.01,-0.0996472434780174,-0.235552060006883
4.02,-0.109589461685743,-0.232610995502386
4.03,-0.11926161484243,-0.229375507068141
4.04,-0.128686917242066,-0.225872555529355
4.05,-0.13789034193346,-0.222120598958104
4.06,-0.146896073215789,-0.218128456364857
4.07,-0.155728002357137,-0.213893255320352
4.08,-0.164401544364174,-0.209408512369632
4.09,-0.172933071521256,-0.204655183431197
4.1,-0.181322216666964,-0.199618690362573
4.11,-0.1895685932247,-0.194273357213694
4.12,-0.19765783005684,-0.188600388478708
4.13,-0.205569502238784,-0.182579461097004
4.14,-0.213276229376471,-0.176194793499381
4.15,-0.220745439847182,-0.169436333722596
4.16,-0.227933771772526,-0.162305986084484
4.17,-0.234804450300973,-0.154807638395706
4.18,-0.241314053151989,-0.146956627375996
4.19,-0.247424034347853,-0.138778209208673
4.2,-0.253097151505134,-0.130304018945425
4.21,-0.258304542162035,-0.121574169938734
4.22,-0.26302109781595,-0.112632916363153
4.23,-0.267234206917461,-0.103529983233759
4.24,-0.270936301799186,-0.0943154068687968
4.25,-0.274131386358533,-0.0850415088267979
4.26,-0.27683162533426,-0.0757554532584336
4.27,-0.279056330703872,-0.0665025075328887
4.28,-0.280834482707341,-0.0573201700155796
4.29,-0.282196242687254,-0.0482408779006622
4.3,-0.283179561501479,-0.0392881509068936
4.31,-0.283821186725486,-0.0304767779965303
4.32,-0.284159385590359,-0.0218117331072016
4.33,-0.284227696241292,-0.0132932424852219
4.34,-0.284057401356125,-0.00491185433196502
4.35,-0.28367398779561,0.00334620310161029
4.36,-0.283096785623451,0.0115024858529295
4.37,-0.282335840154276,0.0195762428260546
4.38,-0.281396485625961,0.0275898661599653
4.39,-0.280273015857712,0.0355659489916245
4.4,-0.27895576078446,0.0435210036166209
4.41,-0.277427847278004,0.0514692820795021
4.42,-0.27566788650331,0.0594183646126079
4.43,-0.273651443602136,0.0673690706562411
4.44,-0.271353818989868,0.0753151695760483
4.45,-0.268749784701968,0.0832425679539408
4.46,-0.265817016060426,0.0911306543507782
4.47,-0.26253671899701,0.098952048934237
4.48,-0.258896658589364,0.106674863488038
4.49,-0.254889847652506,0.114263639401641
4.5,-0.250516340992266,0.121679581785933
4.51,-0.245785365869074,0.12888430629533
4.52,-0.240712961350241,0.135840096086941
4.53,-0.235321537170021,0.14251361351633
4.54,-0.2296395263225,0.148874158489257
4.55,-0.223701763119689,0.154898452261254
4.56,-0.217545343357953,0.160569222186771
4.57,-0.211209788580582,0.165877560359602
4.58,-0.204734297136537,0.170818677580981
4.59,-0.198158481012407,0.175398499954483
4.6,-0.191512202631507,0.179630139731034
4.61,-0.184834466186085,0.183529117128048
4.62,-0.178146777023895,0.187117566927378
4.63,-0.171467589206173,0.190423404630299
4.64,-0.164808653734603,0.193469944436668
4.65,-0.158176392372111,0.196287649695024
4.66,-0.151566486688959,0.198892843315322
4.67,-0.14497431792143,0.201316210995114
4.68,-0.138388124976941,0.203569766933862
4.69,-0.131788583935315,0.205670114492088
4.7,-0.125162416409842,0.207617607699872
4.71,-0.118485290635306,0.209415738098735
4.72,-0.111745427933399,0.211054429342799
4.73,-0.104924060583834,0.212521945913451
4.74,-0.0980112627259037,0.213800409976114
4.75,-0.0910006828677768,0.214867816124565
4.76,-0.0838923645780747,0.215699385190663
4.77,-0.0766894119095351,0.21626771774641
4.78,-0.0694090689815617,0.216553061956418
4.79,-0.0620651681670608,0.216527188132434
4.8,-0.0546829319268841,0.216164993948662
4.81,-0.0472918400740807,0.215464306358608
4.82,-0.0399232198857598,0.214402405217414
4.83,-0.0326136068612106,0.212978632487168
4.84,-0.0253948638653305,0.211197855729843
4.85,-0.0183026133096158,0.209066221507514
4.86,-0.0113776454752445,0.206598719457255
4.87,-0.00463586246979464,0.203817410436612
4.88,0.0018917809265494,0.200747243417031
4.89,0.00818094227110831,0.197419007786424
4.9,0.0142287127383221,0.193860666031658
4.91,0.0200236600648046,0.190104813255964
4.92,0.0255661268848498,0.186179475286981
4.93,0.0308613027298155,0.182118258915581
4.94,0.0359187976394067,0.177941454420353
4.95,0.0407552163466834,0.17367289760797
4.96,0.0453826819000842,0.169328481540511
4.97,0.0498288842398062,0.164912860308393
4.98,0.054105263767934,0.160436469602446
4.99,0.0582356145727643,0.155898763067298
5,0.0622310096832151,0.151291826331945
5.01,0.0661060784108104,0.146595993001487
5.02,0.0698615515932108,0.141813048273266
5.03,0.073510279227505,0.136918343902254
5.04,0.0770439733499939,0.131896668947863
5.05,0.0804517183625177,0.126734511810365
5.06,0.0837235641362321,0.121415209499246
5.07,0.0868410412859252,0.115929678671344
5.08,0.0897800140340253,0.110275853523551
5.09,0.092519594303012,0.104444980665107
5.1,0.0950326772369011,0.0984462891492755
5.11,0.0972937610927294,0.0922886305139906
5.12,0.0992796917540193,0.0859795803407861
5.13,0.100971246252062,0.0795566498307546
5.14,0.102346614136176,0.0730281415462119
5.15,0.103393949155731,0.0664267927638599
5.16,0.104100756042328,0.0597797750354065
5.17,0.104472355228889,0.053124377927769
5.18,0.10451169072006,0.0464856966123324
5.19,0.104220855230328,0.0398978065953022
5.2,0.103611707278883,0.0333806311575009
5.21,0.102709074343169,0.0269643368495803
5.22,0.101524279561017,0.0206610053588266
5.23,0.100083635038869,0.0144909524374854
5.24,0.0984075151781294,0.0084638842691814
5.25,0.0965237784644758,0.00257525299938195
5.26,0.0944493351372117,-0.00316953028368825
5.27,0.0922039620449625,-0.00877487470034131
5.28,0.089801362448889,-0.0142507598240905
5.29,0.0872569069713871,-0.0196017795263671
5.3,0.0845695565685956,-0.0248545077373172
5.31,0.0817491992444811,-0.0300059420017316
5.32,0.0787916947317492,-0.0350767136886645
5.33,0.0756915214911326,-0.0400725569534921
5.34,0.0724359616370156,-0.0450018515823897
5.35,0.0690062666467093,-0.0498654059896129
5.36,0.0654023351908398,-0.0546639101333677
5.37,0.0616058886542638,-0.0593912049404742
5.38,0.0575986328719799,-0.0640390535106255
5.39,0.0533667224710255,-0.0685902498369991
5.4,0.048903135677393,-0.0730317526153972
5.41,0.0442020610293509,-0.0773346858259268
5.42,0.0392628971089274,-0.0814764135745967
5.43,0.0340829998857478,-0.0854388122246855
5.44,0.0286695185029397,-0.0891927007445588
5.45,0.0230344882805567,-0.0927147301820147
5.46,0.0171906896027676,-0.0959843989195355
5.47,0.0111610411526501,-0.0989706403948543
5.48,0.00496975679285588,-0.101673882789643
5.49,-0.00136388692229094,-0.104071191428525
5.5,-0.00781671581689114,-0.106157993705785
5.51,-0.0143493631196685,-0.107927865955211
5.52,-0.0209574887305617,-0.109380124835549
5.53,-0.0275972438215377,-0.110522618576431
5.54,-0.0342566417202053,-0.111359228349993
5.55,-0.0409122338916329,-0.111907295127019
5.56,-0.0475554095094034,-0.112170353767707
5.57,-0.0541653106859478,-0.112172079077473
5.58,-0.0607411038969753,-0.111917525150261
5.59,-0.0672770236016345,-0.11142115288699
5.6,-0.0737707776259235,-0.11070151381375
5.61,-0.0802203029602111,-0.10976509129271
5.62,-0.0866369081828474,-0.108613759669936
5.63,-0.0930224638262682,-0.1072545377677
5.64,-0.0993787514191138,-0.105684717725053
5.65,-0.105711987166534,-0.103898343800394
5.66,-0.112020402463347,-0.101899735753612
5.67,-0.118315850498473,-0.099673984592182
5.68,-0.124583910815524,-0.0972135275294169
5.69,-0.13082700202375,-0.0945013232998596
