"Freq [GHz]","re(S(Antenna1_1_1,Antenna1_1_1)) []","im(S(Antenna1_1_1,Antenna1_1_1)) []"
1,-0.801838846392391,-0.4814571628794
1.01,-0.820423672156257,-0.441285968794802
1.02,-0.837280531220236,-0.398902683080649
1.03,-0.852148343069697,-0.354255274351359
1.04,-0.864731170087398,-0.30730733663669
1.05,-0.874694659775898,-0.258044496896931
1.06,-0.881662763227624,-0.206482411158786
1.07,-0.885215065667566,-0.152676866017424
1.08,-0.884885294359855,-0.0967362134263804
1.09,-0.880161696856785,-0.0388363270976228
1.1,-0.870490254332182,0.0207614270957793
1.11,-0.855282123391952,0.0816896284573215
1.12,-0.833926754292121,0.143451700634281
1.13,-0.805812828688517,0.205397525692897
1.14,-0.770358691011787,0.266699308944064
1.15,-0.727054897229341,0.326331102618581
1.16,-0.675519641165859,0.383055617987992
1.17,-0.615566932440516,0.435425552093969
1.18,-0.547286090871614,0.481804893545133
1.19,-0.471125600880013,0.52041943350312
1.2,-0.387971327184614,0.549441137610194
1.21,-0.299204832472596,0.567111099643509
1.22,-0.206722515426613,0.571894141951901
1.23,-0.112898887994542,0.562653205539864
1.24,-0.0204817096005212,0.538819155579062
1.25,0.0675823554609181,0.500525178638368
1.26,0.14837410299257,0.448673978616497
1.27,0.219250957233763,0.384916118242467
1.28,0.278075584797643,0.311533566716546
1.29,0.323386324202623,0.231244891142693
1.3,0.354480098184459,0.146966012265409
1.31,0.371401194887304,0.0615666721467758
1.32,0.374849034725191,-0.0223371504625524
1.33,0.366030815093635,-0.10253165110917
1.34,0.34649102690476,-0.177284436147339
1.35,0.317946658327661,-0.245360914410094
1.36,0.282145336058678,-0.305991503679167
1.37,0.240760093090467,-0.358807593923039
1.38,0.195317214613673,-0.403763593752111
1.39,0.147157506105428,-0.441057435344376
1.4,0.0974212770050033,-0.471057277884726
1.41,0.0470515873256725,-0.494239849479452
1.42,-0.00319075970487408,-0.511140747686805
1.43,-0.0527069177509486,-0.522317000648594
1.44,-0.101037121668654,-0.528321253745354
1.45,-0.147837366438532,-0.529682896047981
1.46,-0.192857659954659,-0.526897108749033
1.47,-0.235923296466007,-0.520419009147211
1.48,-0.276918274494939,-0.510662063684892
1.49,-0.315770774821087,-0.497997026477629
1.5,-0.352442881425681,-0.482755322149037
1.51,-0.3869197979478,-0.465231431320998
1.52,-0.419203761954556,-0.445686874384269
1.53,-0.449308177341512,-0.424354665695249
1.54,-0.477253035213789,-0.401442565397691
1.55,-0.503062472727837,-0.377137257347732
1.56,-0.526762660614835,-0.351608185823181
1.57,-0.548380334290508,-0.325009789284787
1.58,-0.567942490845161,-0.297485761810012
1.59,-0.585476039234592,-0.269169571751267
1.6,-0.601008168163763,-0.240187919830458
1.61,-0.614567132028066,-0.210661400042938
1.62,-0.626182174156412,-0.180705527277511
1.63,-0.635884939468554,-0.150431630433838
1.64,-0.643709480790762,-0.119946687056725
1.65,-0.649693190018212,-0.0893540492668451
1.66,-0.653876790300115,-0.0587527891115874
1.67,-0.65630462353171,-0.0282372610339482
1.68,-0.657024920876483,0.00210301613740407
1.69,-0.65608922712286,0.0321838257640472
1.7,-0.653552001510237,0.0619272761587969
1.71,-0.649469937489175,0.0912614864589703
1.72,-0.643901643988737,0.120121130195035
1.73,-0.636906300963995,0.148447207270481
1.74,-0.628542648304005,0.17618751655534
1.75,-0.618868821516285,0.203295413705789
1.76,-0.607940849786773,0.229729917117377
1.77,-0.595812297552291,0.255454785816143
1.78,-0.582533600252004,0.28043737401124
1.79,-0.568151834879125,0.30464762038342
1.8,-0.552710803886493,0.328057532050117
1.81,-0.536250845501499,0.350639432805022
1.82,-0.5188096357054,0.372365210048302
1.83,-0.500422896540519,0.393205659839684
1.84,-0.481125303084652,0.413129479386242
1.85,-0.460950795511164,0.432102975476845
1.86,-0.439935193583728,0.450090101102444
1.87,-0.418115433315499,0.467052126284452
1.88,-0.395532395993432,0.482948405769665
1.89,-0.372231452557523,0.497737241926402
1.9,-0.348262057994942,0.511376396718998
1.91,-0.323680182884894,0.523824386675982
1.92,-0.298547309387605,0.535042350361196
1.93,-0.272930809635963,0.544994287329936
1.94,-0.246903233123674,0.553649762636999
1.95,-0.220541937767202,0.560983679338728
1.96,-0.193927887494692,0.566978641870244
1.97,-0.167145063968184,0.571624570787979
1.98,-0.140277338480501,0.574920405094618
1.99,-0.113409034405063,0.576873436447795
2,-0.0866217792959285,0.57749918488978
2.01,-0.0599938101529228,0.576821464294184
2.02,-0.033599144817723,0.574869861477805
2.03,-0.00750505270125997,0.571681917822142
2.04,0.0182279183216266,0.567297479316783
2.05,0.0435450966161845,0.561760135268706
2.06,0.0684000107729643,0.5551150785526
2.07,0.0927524333058996,0.547407238401718
2.08,0.116568369388183,0.538680170001618
2.09,0.139818107752629,0.528974738928302
2.1,0.162476390433903,0.518328599181985
2.11,0.184521550685386,0.506776415652896
2.12,0.205931206668838,0.49434712257665
2.13,0.226682775904517,0.481068499706418
2.14,0.246753212228796,0.466964082754827
2.15,0.266116119977078,0.452055866147519
2.16,0.284742201374166,0.436365409952099
2.17,0.302598866818092,0.419914728460382
2.18,0.319649757071766,0.402727994982536
2.19,0.335855148599443,0.384832974801174
2.2,0.351173627969868,0.366262382761937
2.21,0.365562287015452,0.347054333533972
2.22,0.378979429207446,0.327253589206091
2.23,0.391383084893938,0.306911915387271
2.24,0.402737127914139,0.286086824500229
2.25,0.413009201791557,0.264843122190123
2.26,0.42217340451705,0.243250206837628
2.27,0.430212059688493,0.221381323466208
2.28,0.437114409326344,0.199313605349912
2.29,0.442881426084991,0.177123307653642
2.3,0.447521126361342,0.154887164575001
2.31,0.45105100475184,0.13267856132517
2.32,0.453497474118245,0.110566310874519
2.33,0.454892306435402,0.088614500823327
2.34,0.455274927011904,0.0668797306385852
2.35,0.454687268249031,0.0454105322446345
2.36,0.453174574228242,0.0242475216583532
2.37,0.450781708305241,0.00342363573409642
2.38,0.447553511936159,-0.0170358844647938
2.39,0.443531328921639,-0.0371130001415972
2.4,0.438752670931787,-0.0567949361920063
2.41,0.43325127963423,-0.0760736473039877
2.42,0.427054466303841,-0.0949436262174176
2.43,0.420184155854814,-0.113399719219855
2.44,0.41265684630892,-0.131437289237173
2.45,0.404485867794523,-0.149048977252127
2.46,0.395678760581496,-0.166226267085349
2.47,0.386242662941284,-0.182953968199912
2.48,0.376182114894991,-0.199213280984524
2.49,0.365503451169025,-0.214982185888083
2.5,0.354214076993982,-0.230232477273702
2.51,0.342325130075905,-0.244931836806512
2.52,0.329851751703771,-0.259046191721326
2.53,0.316815175176799,-0.272538916324009
2.54,0.303242341275797,-0.285372429799473
2.55,0.2891660919127,-0.297510918692914
2.56,0.274626497375556,-0.308920301518174
2.57,0.259668063762733,-0.319571056672398
2.58,0.244340508077185,-0.329438232221633
2.59,0.228697286191222,-0.338503549186881
2.6,0.212794276873801,-0.346755154704772
2.61,0.196688148110778,-0.354188491312745
2.62,0.180434801522224,-0.360807376616211
2.63,0.164088090964279,-0.36662191046008
2.64,0.147698637194227,-0.371648297634915
2.65,0.131311895703274,-0.375909296366246
2.66,0.114967721284995,-0.379430925049904
2.67,0.098699943806613,-0.382243003262886
2.68,0.0825355372618564,-0.384375956927694
2.69,0.0664954024202646,-0.385861599104078
2.7,0.0505935986657254,-0.386728440958912
2.71,0.0348394471958394,-0.387003583151353
2.72,0.0192371002854166,-0.386711071659417
2.73,0.00378836720541509,-0.385868916676033
2.74,-0.0115079433256422,-0.384490865835836
2.75,-0.0266528681874282,-0.38258541641894
2.76,-0.0416474846816334,-0.380156659693642
2.77,-0.0564906499866608,-0.377203259452375
2.78,-0.0711778496579467,-0.373720772787169
2.79,-0.0857007785169346,-0.369701785136959
2.8,-0.100046784397718,-0.365137731913622
2.81,-0.114198208606281,-0.360018137050431
2.82,-0.128132842244043,-0.354335180379936
2.83,-0.141823830432927,-0.348081715312188
2.84,-0.155240379582863,-0.341254933607226
2.85,-0.168346908778574,-0.333855363250998
2.86,-0.181108523048872,-0.325888688978111
2.87,-0.19348707245265,-0.317365912381209
2.88,-0.205445185498534,-0.308303246474585
2.89,-0.216946426492612,-0.298723242792084
2.9,-0.227957327125295,-0.288651943087988
2.91,-0.238447103042138,-0.278120856330464
2.92,-0.248389882280701,-0.267166811023591
2.93,-0.257764325655765,-0.255825379619344
2.94,-0.266554160916323,-0.244136967089414
2.95,-0.274749532602011,-0.232141411083868
2.96,-0.282344229765427,-0.219877539553241
2.97,-0.289338400170416,-0.207383585231517
2.98,-0.295735395659502,-0.194694087612216
2.99,-0.301542513723714,-0.181840657804258
3,-0.306769768278047,-0.168851131060043
3.01,-0.311427806381482,-0.155749890513535
3.02,-0.315529657583921,-0.142554880174064
3.03,-0.319086014609315,-0.129282065280909
3.04,-0.322107429710638,-0.115943423654373
3.05,-0.32460083546716,-0.102546524245573
3.06,-0.326571135075481,-0.0890966275923354
3.07,-0.328019644982112,-0.0755996234398933
3.08,-0.328943383351141,-0.062057761669945
3.09,-0.329336364654582,-0.0484763316509028
3.1,-0.329187967217508,-0.0348610271207629
3.11,-0.328485553009374,-0.0212189503494592
3.12,-0.327212457784126,-0.00756180413377313
3.13,-0.325349900213908,0.00609526276663969
3.14,-0.322879355804446,0.0197335794645968
3.15,-0.319779902083191,0.0333277935226488
3.16,-0.316033419577589,0.0468494754414676
3.17,-0.311621936216083,0.0602649350956943
3.18,-0.306530582491143,0.0735344513985029
3.19,-0.300748503573776,0.0866159564569941
3.2,-0.29426916576248,0.0994623386861499
3.21,-0.287090414193405,0.112023820070583
3.22,-0.279216518889254,0.124249469118832
3.23,-0.270657932836761,0.136086154677836
3.24,-0.261430974793887,0.147481410234892
3.25,-0.251558247086536,0.158382834516551
3.26,-0.241068381929502,0.168740724377797
3.27,-0.229996641140076,0.178508648621159
3.28,-0.218382130799203,0.187643184041792
3.29,-0.20626965361646,0.19610535956024
3.3,-0.193707151557376,0.203862000613229
3.31,-0.180744638867248,0.210885699043789
3.32,-0.167435145872318,0.21715452476876
3.33,-0.153831521304331,0.222653082833163
3.34,-0.139986042982661,0.227371864243586
3.35,-0.125950410827025,0.231305863404301
3.36,-0.111773671150503,0.234455721256526
3.37,-0.0975015983785434,0.236826754323622
3.38,-0.0831761898178696,0.238426528166463
3.39,-0.0688362986554828,0.239265550896807
3.4,-0.0545151712343798,0.239355079449597
3.41,-0.0402449076952562,0.23870614453456
3.42,-0.0260512575179595,0.237329490689264
3.43,-0.0119578215269846,0.235232229344503
3.44,0.00201266371216278,0.232421041233457
3.45,0.0158373164947202,0.228896159460935
3.46,0.0294944374331061,0.224657397328852
3.47,0.0429579671414918,0.219698576005353
3.48,0.0561996745928762,0.214014936287795
3.49,0.0691861596359994,0.207594797753967
3.5,0.0818766554750329,0.200429581488256
3.51,0.0942257320225245,0.192511111199622
3.52,0.106180134686152,0.183834287631382
3.53,0.11767987829457,0.174399837924093
3.54,0.12865899867321,0.164215534803138
3.55,0.1390467029502,0.153297445636252
3.56,0.148771139095768,0.14167510619233
3.57,0.157757104852612,0.129387128790018
3.58,0.165934934058305,0.11648601812293
3.59,0.173235460220242,0.103036589533711
3.6,0.179601872412687,0.0891159009130001
3.61,0.184984427127527,0.0748117034588089
3.62,0.189348841758185,0.0602190190677907
3.63,0.192672974735434,0.0454407825169406
3.64,0.194952007426102,0.030579690433962
3.65,0.19619849540252,0.0157409173078372
3.66,0.196437840523348,0.00102284994198185
3.67,0.195716211953549,-0.0134829281888214
3.68,0.19408470605926,-0.0276941014328008
3.69,0.191610706148143,-0.0415422679222973
3.7,0.188367349980181,-0.0549740524685497
3.71,0.184429533221763,-0.0679525272054767
3.72,0.179873469211528,-0.0804529735505677
3.73,0.174771107560389,-0.0924693287626673
3.74,0.169187717341638,-0.104007746142295
3.75,0.163179337098099,-0.115082662089346
3.76,0.156790397726024,-0.125718378605499
3.77,0.150051546376078,-0.135944028078437
3.78,0.142980302983,-0.145788675230214
3.79,0.135584300246881,-0.155276432969505
3.8,0.127857824359476,-0.164430207890363
3.81,0.119787464398262,-0.17326030913547
3.82,0.111355444382918,-0.181768967732539
3.83,0.102538089309607,-0.1899448174662
3.84,0.0933155925221175,-0.197766573685106
3.85,0.0836725477905613,-0.20519990202141
3.86,0.0735989446051345,-0.212201969151872
3.87,0.0630965994771964,-0.218721720781378
3.88,0.0521781759916282,-0.224701785122576
3.89,0.0408704330691224,-0.230086372749322
3.9,0.0292126751639901,-0.234818503021753
3.91,0.0172590585113461,-0.238848114399849
3.92,0.00507294899045715,-0.242132467765163
3.93,-0.0072722702812101,-0.244640772259174
3.94,-0.0196934010112119,-0.246355372680897
3.95,-0.032108553547752,-0.24727279815659
3.96,-0.0444304933532424,-0.247405485097555
3.97,-0.0565803152963954,-0.246780189323262
3.98,-0.0684821139229528,-0.245439988738049
3.99,-0.0800713182657023,-0.24343565410182
4,-0.0912948787345075,-0.240832003434423
4.01,-0.102113632809017,-0.237699804612143
4.02,-0.112504357174743,-0.234108955406386
4.03,-0.12245817582423,-0.230136263655141
4.04,-0.131980797996066,-0.225847391527355
4.05,-0.14109067222776,-0.221311497252104
4.06,-0.149816607895789,-0.216575064455857
4.07,-0.158199427233037,-0.211685970350352
4.08,-0.166280821022574,-0.206669824360632
4.09,-0.174108735854256,-0.201543861625597
4.1,-0.181726787189964,-0.196311491914873
4.11,-0.1891739321447,-0.190960331258794
4.12,-0.19648791388984,-0.185470529049708
4.13,-0.203688316823784,-0.179811541160004
4.14,-0.210789004886471,-0.173948573730581
4.15,-0.217792256272182,-0.167843062315296
4.16,-0.224684843880326,-0.161454897061484
4.17,-0.231441957496173,-0.154749639407706
4.18,-0.238029813842789,-0.147695718833996
4.19,-0.244404215465853,-0.140274131669673
4.2,-0.250514156472534,-0.132474851676425
4.21,-0.256303770142135,-0.124294928642734
4.22,-0.26171707094295,-0.115751871916853
4.23,-0.266702455937461,-0.106871561682859
4.24,-0.271206701547186,-0.0976917133315968
4.25,-0.275190407448533,-0.0882605466967979
4.26,-0.27861961454326,-0.0786381264334336
4.27,-0.281474854572872,-0.0688852427562887
4.28,-0.283746074180341,-0.0590675003153796
4.29,-0.285440978878754,-0.0492570228836622
4.3,-0.286574668104789,-0.0395130965938936
4.31,-0.287176338738686,-0.0298979509185303
4.32,-0.287287328690359,-0.0204615633852016
4.33,-0.286953291096292,-0.0112445419272219
4.34,-0.286227823307665,-0.00227667999696502
4.35,-0.28516925307161,0.00641732579451029
4.36,-0.283829619423451,0.0148403706403295
4.37,-0.282268237350276,0.0229958340045546
4.38,-0.280528823364961,0.0309003539370653
4.39,-0.278653714857712,0.0385827661556245
4.4,-0.27667354983346,0.0460778526054209
4.41,-0.274608631235004,0.0534225398420021
4.42,-0.27246725383321,0.0606594266166079
4.43,-0.270246093937066,0.0678269321062411
4.44,-0.267933588949868,0.0749643477040483
4.45,-0.265504174719968,0.0821027688129408
4.46,-0.262925639283426,0.0892626692797782
4.47,-0.26015891794071,0.096458757143237
4.48,-0.257164991287264,0.103694287093638
4.49,-0.253901286987506,0.110957600635641
4.5,-0.250326038263266,0.118232578461233
4.51,-0.246404484178074,0.12548553379963
4.52,-0.242107960784241,0.132677356319941
4.53,-0.237416711494021,0.13976019854633
4.54,-0.2323227993085,0.146684411286257
4.55,-0.226821297805489,0.153391705151254
4.56,-0.220933340654453,0.159830650660771
4.57,-0.214680393968182,0.165948076928602
4.58,-0.208095321816837,0.171695022055981
4.59,-0.201224222957407,0.177035926916483
4.6,-0.194118475042107,0.181937933928034
4.61,-0.18683288703759,0.186382879116048
4.62,-0.179428657837295,0.190360382845878
4.63,-0.171960639171173,0.193876595247179
4.64,-0.164484054823603,0.196946455037968
4.65,-0.157051328351111,0.199593070990724
4.66,-0.149701862039959,0.201851434534322
4.67,-0.14247153995043,0.203762657868814
4.68,-0.135381989533541,0.205369714336562
4.69,-0.128444464593215,0.206722630348088
4.7,-0.121659874874142,0.207864212694872
4.71,-0.115021962310806,0.208842558188735
4.72,-0.108505774326399,0.209691136858799
4.73,-0.102087504516834,0.210442694352451
4.74,-0.0957323857561037,0.211116179314114
4.75,-0.0894068334226768,0.211724477765765
4.76,-0.0830707693300747,0.212270217769163
4.77,-0.0766863921055351,0.21274136117391
4.78,-0.0702256413385617,0.213117692920918
4.79,-0.0636571467400608,0.213371598939434
4.8,-0.0569636130878841,0.213466938248662
4.81,-0.0501412768979807,0.213362634907608
4.82,-0.0431832936131598,0.213018500131414
4.83,-0.0361074464231686,0.212388637222168
4.84,-0.0289352773697305,0.211435667010843
4.85,-0.0216978494512158,0.210118764025514
4.86,-0.0144324168202445,0.208407683567255
4.87,-0.00719078869759464,0.206289485835612
4.88,-2.64789731405998E-05,0.203748724006831
4.89,0.00701267870580831,0.200783128230624
4.9,0.0138703281113221,0.197405295325058
4.91,0.0204966429768046,0.193635681439064
4.92,0.0268452085068498,0.189509860756981
4.93,0.0328788030698155,0.185062239722581
4.94,0.0385641369954067,0.180339409853553
4.95,0.0438865157653834,0.17539572903467
4.96,0.0488300272618842,0.170276767495211
4.97,0.0534028818882062,0.165040130802393
4.98,0.057614453564434,0.159734058516446
4.99,0.0614866133577643,0.154400655394298
5,0.0650487181192151,0.149078010330945
5.01,0.0683367019975104,0.143795233392787
5.02,0.0713863696512108,0.138566923039566
5.03,0.074240054845505,0.133405474482874
5.04,0.0769393369459939,0.128308893921963
5.05,0.0795253360555177,0.123265774435165
5.06,0.0820196921362321,0.118253715334246
5.07,0.0844490827839252,0.113248462205344
5.08,0.0868314923283253,0.108217764444251
5.09,0.089176585606612,0.103123127259807
5.1,0.0914732680764011,0.0979341265182755
5.11,0.0937115614760294,0.0926112861349906
5.12,0.0958691334627193,0.0871230087977861
5.13,0.0979124864550622,0.0814546243357546
5.14,0.099809133217176,0.0755823442822119
5.15,0.101513892169431,0.0694979694433599
5.16,0.102981490743428,0.0632041570307065
5.17,0.104175493517889,0.056713952403069
5.18,0.10504909015806,0.0500497666774324
5.19,0.105564197713328,0.0432408736673022
5.2,0.105692287375883,0.0363265993645009
5.21,0.105409343025869,0.0293502257697803
5.22,0.104703848440917,0.0223614027708966
5.23,0.103570113454789,0.0154117620832854
5.24,0.102013797848729,0.0085535211511814
5.25,0.100054572720676,0.00183340802938195
5.26,0.0977151381542117,-0.00470301654568825
5.27,0.0950291758169625,-0.0110188268050413
5.28,0.092035600873389,-0.0170833737761905
5.29,0.0887757232566671,-0.0228788418234671
5.3,0.0852975714758956,-0.0283884296478172
5.31,0.0816438690934811,-0.0336139314440316
5.32,0.0778582119237492,-0.0385630961386645
5.33,0.0739784805491326,-0.0432525879054921
5.34,0.0700363130595156,-0.0477021329633897
5.35,0.0660549941508093,-0.0519431160936129
5.36,0.0620519090508398,-0.0560088718623677
5.37,0.0580341418621638,-0.0599304835107742
5.38,0.0539966174047799,-0.0637422854466255
5.39,0.0499319686126255,-0.0674760888709991
5.4,0.045813658204393,-0.0711533783895972
5.41,0.0416270803093509,-0.0747993388134268
5.42,0.0373348467483274,-0.0784189535939967
5.43,0.0329081767879478,-0.0820199919225555
5.44,0.0283102706219397,-0.0855949404774588
5.45,0.0235104471805567,-0.0891299247348147
5.46,0.0184786672527676,-0.0926008060644355
5.47,0.0131887400028501,-0.0959751347478543
5.48,0.00762848142965588,-0.099220292450643
5.49,0.00178718286940906,-0.102290807602225
5.5,-0.00433951783349114,-0.105145973858285
5.51,-0.0107351005618685,-0.107737604972211
5.52,-0.0173906803033617,-0.110025023794549
5.53,-0.0242702180701377,-0.111966601208231
5.54,-0.0313472293982053,-0.113527503017993
5.55,-0.0385765167186329,-0.114683627429119
5.56,-0.0459139027674034,-0.115411716342907
5.57,-0.0533097010924478,-0.115701966420873
5.58,-0.0607146450299753,-0.115552002877561
5.59,-0.0680851151376345,-0.11497085732489
5.6,-0.0753668050105235,-0.11397572358515
5.61,-0.0825240911296111,-0.11258612340671
5.62,-0.0895275653745474,-0.110835522296936
5.63,-0.0963465516709962,-0.108756718148
5.64,-0.102961608373314,-0.106387523606753
5.65,-0.109367089693234,-0.103766840743394
5.66,-0.115553018796147,-0.100936193221112
5.67,-0.121536188202073,-0.097927731464682
5.68,-0.127324321574524,-0.0947722167591169
5.69,-0.13294355644325,-0.0914971666229596
