"Freq [GHz]","re(S(Antenna1_1_1,Antenna1_1_1)) []","im(S(Antenna1_1_1,Antenna1_1_1)) []"
1,-0.801838683187731,-0.48145642406835
1.01,-0.820423259994547,-0.441285172364842
1.02,-0.837279796691296,-0.398901889976199
1.03,-0.852147245260807,-0.354254587014889
1.04,-0.864729695216438,-0.307306905125
1.05,-0.874692831583128,-0.258044469148701
1.06,-0.881660664090784,-0.206482964651556
1.07,-0.885212845595306,-0.152678188776544
1.08,-0.884883204801005,-0.0967383991319804
1.09,-0.880160050736275,-0.0388395306708228
1.1,-0.870489451692852,0.0207572882533793
1.11,-0.855282645451252,0.0816846558237915
1.12,-0.833929039050221,0.143446301704811
1.13,-0.805817205860317,0.205392268382542
1.14,-0.770365497576887,0.266695014552654
1.15,-0.727064062028441,0.326328751205081
1.16,-0.675530591441159,0.383056300377792
1.17,-0.615578721457516,0.435430306157669
1.18,-0.547297226586422,0.481814457804433
1.19,-0.471134074591213,0.52043391959152
1.2,-0.387974982155914,0.549459907427594
1.21,-0.299201616372496,0.567132531935509
1.22,-0.206710812354413,0.571915539160301
1.23,-0.112878469786242,0.562671118212994
1.24,-0.0204535479061212,0.538829919584762
1.25,0.0676153907103181,0.500525477365468
1.26,0.14840788908077,0.448661713069797
1.27,0.219280314167633,0.384891021978867
1.28,0.278095546431243,0.311497471994146
1.29,0.323392808874323,0.231201700038193
1.3,0.354470832525159,0.146921071636809
1.31,0.371376161204304,0.0615259900823758
1.32,0.374810526099191,-0.0223679028532524
1.33,0.365982971936235,-0.10254821428447
1.34,0.34643935483226,-0.177284369325839
1.35,0.317896714606961,-0.245343935659094
1.36,0.282102988984148,-0.305959014912167
1.37,0.240729781681767,-0.358762979376039
1.38,0.195302064303973,-0.403711426154611
1.39,0.147158940901128,-0.441002760581776
1.4,0.0974390320500033,-0.471005313746526
1.41,0.0470841195226725,-0.494195253854232
1.42,-0.00314651102087408,-0.511107392572005
1.43,-0.0526548766414486,-0.522297811275694
1.44,-0.100981634873654,-0.528317665889054
1.45,-0.147782815649732,-0.529695020699681
1.46,-0.192808478375759,-0.526924005005033
1.47,-0.235883360129187,-0.520458724228211
1.48,-0.276890501234939,-0.510711270787292
1.49,-0.315757450999787,-0.498052118824929
1.5,-0.352444703641181,-0.482812192230337
1.51,-0.386936824863,-0.465286001694998
1.52,-0.419234751739756,-0.445735322946569
1.53,-0.449351064355212,-0.424393468129749
1.54,-0.477304940070889,-0.401468989666991
1.55,-0.503119928463137,-0.377149388882232
1.56,-0.526821753940135,-0.351604896385181
1.57,-0.548436986023508,-0.324991285149187
1.58,-0.567992951220061,-0.297452938428012
1.59,-0.585516779007762,-0.269124530002367
1.6,-0.601036409009963,-0.240133452449658
1.61,-0.614580735693666,-0.210600956755038
1.62,-0.626180003758612,-0.180642957463611
1.63,-0.635866782433054,-0.150370783332638
1.64,-0.643676220598662,-0.119891800526225
1.65,-0.649646525177212,-0.0893086832951251
1.66,-0.653819513862215,-0.0587200811286874
1.67,-0.65624023164521,-0.0282197092049482
1.68,-0.656957214568583,0.00210385285430407
1.69,-0.65602253572006,0.0321675761454472
1.7,-0.653490555061337,0.0618944344687969
1.71,-0.649418005649865,0.0912136582289703
1.72,-0.643862629526037,0.120060961292035
1.73,-0.636883070230895,0.148378284243681
1.74,-0.628537311431605,0.17611378581014
1.75,-0.618882161927485,0.203221505933389
1.76,-0.607972602860773,0.229660541278277
1.77,-0.595861003041291,0.25539449928441
1.78,-0.582596674595004,0.28039018118774
1.79,-0.568225821590525,0.30461709337822
1.8,-0.552791266435493,0.328046100262817
1.81,-0.536332970779799,0.350648436285822
1.82,-0.5188883254569,0.372394696581302
1.83,-0.500493106243799,0.393254466795684
1.84,-0.481182172164352,0.413195102342242
1.85,-0.460990557594864,0.432181950816845
1.86,-0.439954307617128,0.450177730607744
1.87,-0.418112205040599,0.467143176512252
1.88,-0.395506513696432,0.483037409866065
1.89,-0.372183473026523,0.497818355430102
1.9,-0.348194566418942,0.511444239367238
1.91,-0.323596669648894,0.523874416136382
1.92,-0.298452557869605,0.535070677059596
1.93,-0.272830256994963,0.544998567717436
1.94,-0.246803124596574,0.553628738624999
1.95,-0.220448560749002,0.560937849175728
1.96,-0.193847678775442,0.566910042593244
1.97,-0.167082943483484,0.571537052161979
1.98,-0.140238284185301,0.574818794418618
1.99,-0.113395890948863,0.576763572054395
2,-0.0866364031749285,0.57738770395948
2.01,-0.0600361430769228,0.576715326205084
2.02,-0.033667287409723,0.574776293971785
2.03,-0.00759521533325997,0.571606820138642
2.04,0.0181202464066266,0.567246129540583
2.05,0.0434263702111845,0.561736422565306
2.06,0.0682774763374643,0.5551215383826
2.07,0.0926335977275996,0.547444065711718
2.08,0.116460599819783,0.538745992064618
2.09,0.139728722435329,0.529066249879302
2.1,0.162411968900503,0.518441071699985
2.11,0.184485928368886,0.506902860746896
2.12,0.205927539263838,0.49448032392955
2.13,0.226712335612517,0.481200141221618
2.14,0.246815047069796,0.467086012435627
2.15,0.266207056247078,0.452160172647259
2.16,0.284857572370166,0.436445195616699
2.17,0.302731855349092,0.419964414750782
2.18,0.319792279437766,0.402743690274536
2.19,0.335999031123043,0.384813092530174
2.2,0.351309737508768,0.366207074123937
2.21,0.365682021154812,0.346966537484972
2.22,0.379074939366446,0.327138108091091
2.23,0.391448006964538,0.306774751876271
2.24,0.402767042852139,0.285936443022229
2.25,0.413001218627557,0.264688334699423
2.26,0.42212737458005,0.243100420049328
2.27,0.430129690858493,0.221246327539808
2.28,0.437000797129344,0.199201393392512
2.29,0.442742371744991,0.177041511206442
2.3,0.447365106979342,0.154841229916001
2.31,0.45088708692884,0.13267190775917
2.32,0.453335517535145,0.110600494024519
2.33,0.454741990134402,0.088688025625327
2.34,0.455145904609384,0.0669881603095852
2.35,0.454587719090331,0.0455480915446345
2.36,0.453110749813042,0.0244067101653532
2.37,0.450758408203241,0.00359493439209642
2.38,0.447572392382159,-0.0168627511472938
2.39,0.443592166829639,-0.0369485529755972
2.4,0.438852861062787,-0.0566493669604363
2.41,0.43338455385523,-0.0759557613911877
2.42,0.427213135041841,-0.0948606738762176
2.43,0.420359503498814,-0.113357216709855
2.44,0.41283836415392,-0.131438601608173
2.45,0.404662871191123,-0.149094821166127
2.46,0.395840938330996,-0.166313382192349
2.47,0.386379398785149,-0.183078270652912
2.48,0.376285589808391,-0.199368064656524
2.49,0.365566777387625,-0.215158237388083
2.5,0.354233746353982,-0.230419782951702
2.51,0.342298431516905,-0.245118984673212
2.52,0.329780515415771,-0.259222395179026
2.53,0.316703261592799,-0.272693598783109
2.54,0.303095733861797,-0.285496388067973
2.55,0.2889933591237,-0.297596741286514
2.56,0.274437273785556,-0.308962565890174
2.57,0.259473280434733,-0.319566746827398
2.58,0.244151553275485,-0.329387172118633
2.59,0.228525101461322,-0.338408158208881
2.6,0.212649120714794,-0.346620901221772
2.61,0.196578988202478,-0.354023043733745
2.62,0.180367995750124,-0.360619941142211
2.63,0.164068013370279,-0.36642306240008
2.64,0.147726446260227,-0.371449507263015
2.65,0.131386357147274,-0.375722235123646
2.66,0.115085149410995,-0.379266280520664
2.67,0.098853501627613,-0.382110176412986
2.68,0.0827168577928564,-0.384283226857394
2.69,0.0666939609612646,-0.385814155216078
2.7,0.0507982217037254,-0.386729599580912
2.71,0.0350389909316394,-0.387053125055353
2.72,0.0194197328160166,-0.386806653104417
2.73,0.00394378367063509,-0.386005252713033
2.74,-0.0113887989196422,-0.384660493397836
2.75,-0.0265771402764282,-0.38277892024294
2.76,-0.0416194452336334,-0.380362855782642
2.77,-0.0565118325696608,-0.377411243400175
2.78,-0.0712475523459467,-0.373918241791869
2.79,-0.0858152169559346,-0.369877995859259
2.8,-0.100199823219718,-0.365282248691862
2.81,-0.114381152766281,-0.360123388028731
2.82,-0.128335789920043,-0.354394420352236
2.83,-0.142035334379927,-0.348092069895188
2.84,-0.155448658145263,-0.341215472632226
2.85,-0.168541287294274,-0.333768216631998
2.86,-0.181277367210912,-0.325758326879111
2.87,-0.19362126179605,-0.317199510979209
2.88,-0.205537088880934,-0.308109798472585
2.89,-0.216990728620612,-0.298513426425084
2.9,-0.227951789346295,-0.288437090626988
2.91,-0.238391836518138,-0.277913228022164
2.92,-0.248287637246701,-0.266977207005191
2.93,-0.257620798168765,-0.255663788903712
2.94,-0.266377162873323,-0.244012755964314
2.95,-0.274548126492011,-0.232060874033968
2.96,-0.282129242881427,-0.219845925060041
2.97,-0.289121299436016,-0.207402064568517
2.98,-0.295528395946602,-0.194762170972216
2.99,-0.301355757148214,-0.181954925108258
3,-0.306614076865047,-0.169005375589043
3.01,-0.311311533703082,-0.155935750100535
3.02,-0.315458918087421,-0.142762945943064
3.03,-0.319064543226315,-0.129501769716909
3.04,-0.322136391482638,-0.116162442970173
3.05,-0.32467913024516,-0.102753887916373
3.06,-0.326695220620481,-0.0892817318449354
3.07,-0.328182550935112,-0.0757518860378133
3.08,-0.329137546213141,-0.062169999286245
3.09,-0.329551381402582,-0.0485416988037028
3.1,-0.329413573052508,-0.0348756593377629
3.11,-0.328709506701374,-0.0211823916214592
3.12,-0.327423048950426,-0.00747534570277313
3.13,-0.325536924305308,0.00622796914363969
3.14,-0.323032350842996,0.0199054905985968
3.15,-0.319891357505091,0.0335311249376488
3.16,-0.316096260197089,0.0470743923184676
3.17,-0.311632515609083,0.0604988561146943
3.18,-0.306488075444143,0.0737669011287029
3.19,-0.300654502380776,0.0868347339762941
3.2,-0.29412719409548,0.0996554507632499
3.21,-0.286907503320405,0.112181641814673
3.22,-0.279000565695254,0.124363378211032
3.23,-0.270420069899761,0.136149564085736
3.24,-0.261182417738887,0.147490125806892
3.25,-0.251311694251536,0.158335028502551
3.26,-0.240836919579602,0.168638134097797
3.27,-0.229791265707176,0.178355297637159
3.28,-0.218214746155923,0.187445168578792
3.29,-0.20614943811396,0.19587222865224
3.3,-0.193641272743176,0.203604679377229
3.31,-0.180738382255248,0.210616878741789
3.32,-0.167489608552318,0.21688754159176
3.33,-0.153946719050331,0.222402231475363
3.34,-0.140157146292661,0.227150100075686
3.35,-0.126170656530025,0.231125421862921
3.36,-0.112032675870503,0.234327829017226
3.37,-0.0977870039145434,0.236759950186222
3.38,-0.0834744622658696,0.238426069720463
3.39,-0.0691312198664828,0.239333942315807
3.4,-0.0547923749865798,0.239490926425597
3.41,-0.0404869319655562,0.23890483066956
3.42,-0.0262445608893855,0.237582053494264
3.43,-0.0120903071388846,0.235527751497503
3.44,0.00195014721016278,0.232744214996457
3.45,0.0158510385427202,0.229231552237935
3.46,0.0295863310091061,0.224985899907852
3.47,0.0431267666134918,0.220003253269853
3.48,0.0564386295278762,0.214276885700995
3.49,0.0694838635559994,0.207797225477567
3.5,0.0822196696050329,0.200559753566956
3.51,0.0945968423135245,0.192558684656622
3.52,0.106558408155152,0.183792873900382
3.53,0.11804440482757,0.174268591040093
3.54,0.12898835130431,0.163998814277138
3.55,0.13932066744409,0.153004601619252
3.56,0.148971603054668,0.14131932129133
3.57,0.157870339731612,0.128987276568018
3.58,0.165950216012305,0.11606391164893
3.59,0.173148630288242,0.102615726542711
3.6,0.179414823142687,0.0887219139720001
3.61,0.184704312706527,0.0744678365997089
3.62,0.188988547748185,0.0599482296663507
3.63,0.192252664003434,0.0452597475652406
3.64,0.194494252334102,0.030503371798962
3.65,0.19572911557752,0.0157766632208372
3.66,0.195985526609348,0.00117186061198185
3.67,0.195305909856949,-0.0132252279858214
3.68,0.19374413184271,-0.0273410277948008
3.69,0.191362543826143,-0.0411131541382973
3.7,0.188226507470181,-0.0544921866395497
3.71,0.184409003756763,-0.0674445833484767
3.72,0.179976839473528,-0.0799491258155677
3.73,0.174994482755389,-0.0920003639366673
3.74,0.169522062681638,-0.103601389482295
3.75,0.163606152022099,-0.114765842902936
3.76,0.157284084797024,-0.125512713710499
3.77,0.150586576471078,-0.135861594252437
3.78,0.143524269539,-0.145837762701214
3.79,0.136104879604881,-0.155457443749505
3.8,0.128323358847476,-0.164734114148363
3.81,0.120170221026632,-0.17367046358847
3.82,0.111629265048618,-0.182262074250539
3.83,0.102685874737607,-0.1904932219512
3.84,0.0933277120511175,-0.198340521665106
3.85,0.0835448950365613,-0.20576181645841
3.86,0.0733389955311345,-0.212720621510872
3.87,0.0627166177601964,-0.219164973230078
3.88,0.0517005004656282,-0.225043006413376
3.89,0.0403219361651224,-0.230304244639322
3.9,0.0286248158679901,-0.234898496211753
3.91,0.0166657388713461,-0.238784360170849
3.92,0.00450921625045715,-0.241926209294163
3.93,-0.0077720680352101,-0.244304989221174
3.94,-0.0200995116265219,-0.245907584984897
3.95,-0.032396126117852,-0.24673895726259
3.96,-0.0445839473222424,-0.246815383785555
3.97,-0.0565877667303954,-0.246168769059262
3.98,-0.0683417893139528,-0.244841670063049
3.99,-0.0797914655377023,-0.24288681485482
4,-0.0908905865265075,-0.240364156857123
4.01,-0.101608477027017,-0.237339923485283
4.02,-0.111926620336743,-0.233880716058386
4.03,-0.12184084923823,-0.230051430192141
4.04,-0.131361127398066,-0.225914425345355
4.05,-0.14050032979076,-0.221522945655104
4.06,-0.149294323482989,-0.216921513897857
4.07,-0.157771894544157,-0.212147373400352
4.08,-0.165974990345174,-0.207220859840632
4.09,-0.173942401970256,-0.202153268922597
4.1,-0.181709103034964,-0.196943120769873
4.11,-0.1893086407847,-0.191579223177794
4.12,-0.19676475377984,-0.186041325780708
4.13,-0.204093045969784,-0.180302138329104
4.14,-0.211299647729471,-0.174330037477181
4.15,-0.218379275545182,-0.168092598085596
4.16,-0.225313586863326,-0.161559352177484
4.17,-0.232078979957173,-0.154701383984706
4.18,-0.238638819440789,-0.147498624355996
4.19,-0.244949682822853,-0.139938254294673
4.2,-0.250965622620834,-0.132017018090425
4.21,-0.256634688300135,-0.123744334565734
4.22,-0.26191007958295,-0.115138473563853
4.23,-0.266743716988461,-0.106229935660859
4.24,-0.271096806677186,-0.0970576244865968
4.25,-0.274933831973533,-0.0876703594167979
4.26,-0.27823147486826,-0.0781236565553336
4.27,-0.280976113788872,-0.0684750948626787
4.28,-0.283165885758341,-0.0587888245594796
4.29,-0.284809359862754,-0.0491205932926622
4.3,-0.285928157432789,-0.0395303859258936
4.31,-0.286552966851686,-0.0300662856845303
4.32,-0.286719994990359,-0.0207711046542016
4.33,-0.286472904484592,-0.0116802981122219
4.34,-0.285865054145225,-0.00281626551996502
4.35,-0.28493903045061,0.00580973498051029
4.36,-0.283749798630451,0.0141951530283295
4.37,-0.282340381410276,0.0223491288155546
4.38,-0.280749005080961,0.0302893016910653
4.39,-0.279011757236712,0.0380400707616245
4.4,-0.27714936684646,0.0456338294105209
4.41,-0.275174383998004,0.0531029309983021
4.42,-0.27309313308421,0.0604808569786079
4.43,-0.270899288666066,0.0678018975272411
4.44,-0.268573989252868,0.0750918048240483
4.45,-0.266096406733968,0.0823743187729408
4.46,-0.263438280400926,0.0896657661667782
4.47,-0.26056399965479,0.096971664295237
4.48,-0.257439969941064,0.104288395341638
4.49,-0.254028236665506,0.111599868774641
4.5,-0.250299964210266,0.118886501975233
4.51,-0.246228645286074,0.12611612940463
4.52,-0.241789190324241,0.133248344526941
4.53,-0.236972959040021,0.14024123328543
4.54,-0.2317773878435,0.147047962475457
4.55,-0.226207571156489,0.153619822348154
4.56,-0.220282144492453,0.159908297574771
4.57,-0.214028170338182,0.165870614794602
4.58,-0.207478838045837,0.171468744028981
4.59,-0.200679051571407,0.176672823149483
4.6,-0.193671715636907,0.181458391236034
4.61,-0.186509780618885,0.185811945767048
4.62,-0.179247388138895,0.189728710271878
4.63,-0.171930461460173,0.193221209756179
4.64,-0.164609402231603,0.196300688957968
4.65,-0.157324649536111,0.198995301483724
4.66,-0.150107406674959,0.201332412754322
4.67,-0.14298441154143,0.203350499659114
4.68,-0.135976596362541,0.205089075482162
4.69,-0.129088300163215,0.206587413315088
4.7,-0.122318458558142,0.207886429506872
4.71,-0.115656480822806,0.209013206120735
4.72,-0.109083454041399,0.210005870033799
4.73,-0.102577053334534,0.210883276571451
4.74,-0.0961071498207937,0.211658437756114
4.75,-0.0896447639354768,0.212340913099765
4.76,-0.0831576691950747,0.212923890535163
4.77,-0.0766184766955351,0.21339702904891
4.78,-0.0700086054435617,0.213737571194918
4.79,-0.0633022202170608,0.213925681083434
4.8,-0.0564900939428841,0.213921445516062
4.81,-0.0495722478399807,0.213698529129138
4.82,-0.0425544674071598,0.213212503000814
4.83,-0.0354511288071686,0.212428288160168
4.84,-0.0282867055067305,0.211322168435843
4.85,-0.0210918319182158,0.209857081059514
4.86,-0.0139075270372445,0.208014849721255
4.87,-0.00676977481469464,0.205785113033612
4.88,0.0002680244615494,0.203158466676831
4.89,0.00715969414440831,0.200140332916624
4.9,0.0138652674713221,0.196746975524058
4.91,0.0203411085888046,0.192997911136064
4.92,0.0265441405158498,0.188925191568981
4.93,0.0324493496508155,0.184565782190581
4.94,0.0380335346804067,0.179954894143553
4.95,0.0432806008833834,0.17514356291607
4.96,0.0481852764348842,0.170175642687511
4.97,0.0527508866982062,0.165090282162393
4.98,0.056991737222434,0.159933105231446
4.99,0.0609279879277643,0.154737589874298
5,0.0645832521286151,0.149536710890945
5.01,0.0679916258961104,0.144346940502787
5.02,0.0711797872515108,0.139185748942566
5.03,0.074181205109505,0.134054687226874
5.04,0.0770359654579939,0.128953446318963
5.05,0.0797566474035177,0.123870901199165
5.06,0.0823853789342321,0.118788166560246
5.07,0.0849316510659252,0.113687240002944
5.08,0.0874030952333253,0.108525125653111
5.09,0.089801137107612,0.103290665170707
5.1,0.0921187654234011,0.0979508923152755
5.11,0.0943436173020294,0.0924780715999906
5.12,0.0964524350577193,0.0868552197167861
5.13,0.0984169591260622,0.0810571025907546
5.14,0.100206506956276,0.0750781549622119
5.15,0.101784196192331,0.0689154235563599
5.16,0.103113706382928,0.0625762455397065
5.17,0.104158452299889,0.056074614874069
5.18,0.10488273971306,0.0494316590754324
5.19,0.105264016225328,0.0426798859513022
5.2,0.105267536949883,0.0358489238165009
5.21,0.104886137432869,0.0289849678847803
5.22,0.104112921881917,0.0221257038829266
5.23,0.102941388430789,0.0153203944754854
5.24,0.101381493701729,0.0086092036881814
5.25,0.0994553353746758,0.00203264555038195
5.26,0.0971753340472117,-0.00437098176868825
5.27,0.0945810228259625,-0.0105734463200413
5.28,0.091700657810589,-0.0165468609811905
5.29,0.0885738268449871,-0.0222790230594671
5.3,0.0852402223210956,-0.0277615216998172
5.31,0.0817305413814811,-0.0329915175730316
5.32,0.0780855506167492,-0.0379780010876645
5.33,0.0743357660781326,-0.0427374025784921
5.34,0.0705014834815156,-0.0472828518758897
5.35,0.0665998788748093,-0.0516440520495129
5.36,0.0626531985948398,-0.0558410814547677
5.37,0.0586552841641638,-0.0599055775067742
5.38,0.0546073398577799,-0.0638593558886255
5.39,0.0504971791336255,-0.0677289418399991
5.4,0.046309774231393,-0.0715312381685972
5.41,0.0420195509448509,-0.0752769180934268
5.42,0.0376091151909274,-0.0789736831579967
5.43,0.0330468788159478,-0.0826233006965555
5.44,0.0283062211199397,-0.0862132081524588
5.45,0.0233668439995567,-0.0897300554828147
5.46,0.0182013866977676,-0.0931528274004355
5.47,0.0127937547668501,-0.0964472267538543
5.48,0.00713813154965588,-0.099591217031843
5.49,0.00122502915240906,-0.102538391215425
5.5,-0.00494147887549114,-0.105259142214885
5.51,-0.0113478951788685,-0.107709464689211
5.52,-0.0179801898033617,-0.109859303135549
5.53,-0.0248078550141377,-0.111671061602231
5.54,-0.0318032526172053,-0.113117924907993
5.55,-0.0389253719004329,-0.114180442065119
5.56,-0.0461394132606034,-0.114842182736907
5.57,-0.0533995546049478,-0.115098228837873
5.58,-0.0606624262779753,-0.114941863246561
5.59,-0.0678957793526345,-0.11439088753889
5.6,-0.0750521365935235,-0.11344931365315
5.61,-0.0820976677916111,-0.11214694489671
5.62,-0.0890116838975474,-0.110503777545436
5.63,-0.0957679141179962,-0.108551128935
5.64,-0.102350263838314,-0.106320993672153
5.65,-0.108758170307234,-0.103839732132394
5.66,-0.114975269974147,-0.101145064403112
5.67,-0.121022029616073,-0.098256909908682
5.68,-0.126902965098524,-0.0952167322901169
5.69,-0.13263014246545,-0.0920278628779596
