"Freq [GHz]","re(S(Antenna1_1_p1,Antenna1_1_p1)) []","im(S(Antenna1_1_p1,Antenna1_1_p1)) []"
3,0.0882212591079872,-0.092762011389587
3.002,0.0873990086951999,-0.0938627400415278
3.004,0.0865588438475265,-0.094957670220513
3.006,0.0857010149914175,-0.0960460187424325
3.008,0.0848253574623517,-0.0971274209230777
3.01,0.0839324390234745,-0.0982000986431913
3.012,0.0830227764558965,-0.0992663379071454
3.014,0.0820953891692069,-0.10032336757744
3.016,0.0811476915708895,-0.101371705259587
3.018,0.0801849233873424,-0.102410164370789
3.02,0.0792017032072935,-0.103439303157541
3.022,0.0782031334877598,-0.104457720438392
3.024,0.0771859402576809,-0.105462210001168
3.026,0.0761513128237175,-0.106456833014792
3.028,0.0750997346111956,-0.107438043279353
3.03,0.0740330134448071,-0.108406887838211
3.032,0.0729478423397373,-0.109361981513085
3.034,0.0718485967365112,-0.11030330434066
3.036,0.0707322095415525,-0.111228049202979
3.038,0.0695991227324368,-0.112138525185675
3.04,0.0684521398328017,-0.113034115008268
3.042,0.067291333201107,-0.113912225213776
3.044,0.06611656018684,-0.114773790568639
3.046,0.0649282944658701,-0.115617802479436
3.048,0.063726971075786,-0.116445186935716
3.05,0.0625122429629692,-0.117255131498754
3.052,0.061287002673758,-0.118048032296005
3.054,0.06005022815385,-0.118821600932739
3.056,0.0588028875268328,-0.119576478999082
3.058,0.0575449614455604,-0.120312326035012
3.06,0.0562781258461962,-0.12103176694974
3.062,0.0550012853483429,-0.121730515038813
3.064,0.0537174793396852,-0.122409588933463
3.066,0.0524257506949716,-0.123070477573094
3.068,0.0511266903149752,-0.123710725128056
3.07,0.0498197072020626,-0.1243329777015
3.072,0.0485084493912154,-0.124936341505382
3.074,0.0471905031795382,-0.125520039580931
3.076,0.0458696827590651,-0.126086256085802
3.078,0.0445424761409133,-0.126632117819342
3.08,0.0432131506520896,-0.127162099684673
3.082,0.0418789396679308,-0.12767135156109
3.084,0.040543761938647,-0.128164066835899
3.086,0.0392040027416667,-0.128638276528827
3.088,0.0378657264824046,-0.129094294644351
3.09,0.0365235782562499,-0.129534022135169
3.092,0.035180078391568,-0.129956862900825
3.094,0.0338367884742107,-0.130362225541458
3.096,0.0324919307846003,-0.130752344909694
3.098,0.0311456574646856,-0.131125707130397
3.1,0.0298018122516464,-0.131484782571786
3.102,0.0284564661123232,-0.1318267374485
3.104,0.0271123628241112,-0.132156479411472
3.106,0.025768025094091,-0.132470293971069
3.108,0.0244241605092803,-0.132769269970413
3.11,0.0230792326480295,-0.133056759970359
3.112,0.0217374673062531,-0.133329648703683
3.114,0.0203963630760584,-0.133589113542464
3.116,0.0190551222063158,-0.133835263666207
3.118,0.0177139439250076,-0.13407087875457
3.12,0.0163734701360886,-0.134292930943744
3.122,0.0150327185503488,-0.134503431002356
3.124,0.0136932724875793,-0.134701433070103
3.126,0.0123543391899858,-0.134889656568757
3.128,0.0110146834044227,-0.135065426789273
3.13,0.0096748353904671,-0.135229633995322
3.132,0.00833515275352008,-0.135384034712502
3.134,0.006994743536584,-0.135527004596031
3.136,0.00565336116682099,-0.135658264247817
3.138,0.00431054883767483,-0.135779708171832
3.14,0.0029694047893965,-0.135889928771134
3.142,0.00162349608840923,-0.13599234476341
3.144,0.000278131937852216,-0.136081637668505
3.146,-0.00107064290075118,-0.136159074419271
3.148,-0.00241868984653422,-0.136228325190398
3.15,-0.00377032148731211,-0.136285308158622
3.152,-0.00512375451566302,-0.136331551635515
3.154,-0.00648201049472304,-0.13636454345917
3.156,-0.0078407179021792,-0.136389023317885
3.158,-0.00920170165466567,-0.136399168139239
3.16,-0.0105668461006068,-0.136400486102972
3.162,-0.011933899280704,-0.136386834497663
3.164,-0.0133048161947148,-0.13636338953656
3.166,-0.0146780970276991,-0.13632651983427
3.168,-0.0160543296501878,-0.136275459414774
3.17,-0.0174329129297379,-0.136210454361521
3.172,-0.018814642145965,-0.136133700886284
3.174,-0.020201397134302,-0.136043436066655
3.176,-0.0215900922430904,-0.135939192596713
3.178,-0.0229810637186646,-0.135818378075205
3.18,-0.0243746639533719,-0.135683457470321
3.182,-0.0257705898121407,-0.135534725565446
3.184,-0.0271685098956394,-0.135367756373675
3.186,-0.0285687520032488,-0.135186308844063
3.188,-0.0299691587167233,-0.13498885527125
3.19,-0.0313731617144359,-0.134774618040257
3.192,-0.0327778824512117,-0.134544291457512
3.194,-0.0341845030632576,-0.134296809344998
3.196,-0.0355894756945375,-0.134030154704925
3.198,-0.0369941376094961,-0.133747076389917
3.2,-0.0384004260609762,-0.133446441606068
3.202,-0.0398068891516491,-0.133129102430332
3.204,-0.041210006071284,-0.132791776589345
3.206,-0.0426125672757099,-0.132436940088238
3.208,-0.0440139014820999,-0.132064049871586
3.21,-0.0454108343545784,-0.13167190010999
3.212,-0.0468060604124741,-0.131262329403709
3.214,-0.0481973115904763,-0.130832853626842
3.216,-0.0495857929982783,-0.130385421192067
3.218,-0.0509679893431802,-0.129918594561724
3.22,-0.0523460429664896,-0.129433456434405
3.222,-0.0537199583492505,-0.128931054568315
3.224,-0.0550856341458817,-0.128408079373218
3.226,-0.0564465674836782,-0.12786833252945
3.228,-0.0578012644704161,-0.127310559302754
3.23,-0.0591463167659065,-0.126732958043107
3.232,-0.0604843085690913,-0.126138829561075
3.234,-0.0618141195945804,-0.125526638307003
3.236,-0.063135201635083,-0.124897451586359
3.238,-0.0644485834749185,-0.124251339470369
3.24,-0.0657509020180694,-0.123586957047858
3.242,-0.0670423927843061,-0.122908424192593
3.244,-0.0683263069832684,-0.122211455129981
3.246,-0.069596390207213,-0.121501050100528
3.248,-0.0708588758391803,-0.120773775187237
3.25,-0.0721066932711992,-0.120032085311681
3.252,-0.0733449099942234,-0.119274928824733
3.254,-0.0745712419110231,-0.118502708689138
3.256,-0.0757854204351309,-0.117718793385083
3.258,-0.0769870377504637,-0.116920456888505
3.26,-0.078175772724713,-0.116109903690594
3.262,-0.0793535508954309,-0.115285946998553
3.264,-0.0805175900373025,-0.114449350170777
3.266,-0.0816690710939733,-0.113601538163099
3.268,-0.0828074530594425,-0.112741261914829
3.27,-0.0839343834632247,-0.111870411620685
3.272,-0.08504699927913,-0.110990558591556
3.274,-0.0861469341941963,-0.110097982900165
3.276,-0.0872341202868412,-0.109196528402729
3.278,-0.0883080457507944,-0.108286082284419
3.28,-0.0893698275098796,-0.107366695223184
3.282,-0.0904184119902739,-0.106438105022079
3.284,-0.0914541795350423,-0.105501205042845
3.286,-0.0924784251721687,-0.104556455528787
3.288,-0.0934897591280109,-0.103602816635774
3.29,-0.0944887251938762,-0.102642342655123
3.292,-0.0954755319555712,-0.101674286048029
3.294,-0.0964505248508589,-0.100699879828083
3.296,-0.097413861734102,-0.099717533058755
3.298,-0.0983654379251166,-0.098728722069041
3.3,-0.0993054023636852,-0.097732891923377
3.302,-0.100234282727401,-0.0967324096652829
3.304,-0.101152840419611,-0.0957231129371987
3.306,-0.102058041840446,-0.0947106492560946
3.308,-0.102954791092604,-0.0936889312518116
3.31,-0.103840263235713,-0.092663261440878
3.312,-0.104715172181698,-0.0916307029859005
3.314,-0.105579975148502,-0.0905925519444205
3.316,-0.106434177360556,-0.0895482402164823
3.318,-0.107278548667756,-0.0884984389292324
3.32,-0.108113362826418,-0.0874419578960342
3.322,-0.108937565825744,-0.0863796043278902
3.324,-0.109753188512761,-0.0853122665276709
3.326,-0.110557800978544,-0.0842372299605426
3.328,-0.111353302421634,-0.0831553898508907
3.33,-0.112139604101514,-0.0820697648471052
3.332,-0.112916182969003,-0.0809782728430989
3.334,-0.113683742160751,-0.0798792838393291
3.336,-0.114440394956004,-0.0787731479510856
3.338,-0.115187597239647,-0.0776609188731834
3.34,-0.115925902610102,-0.0765413881484442
3.342,-0.116656224742926,-0.0754175570630365
3.344,-0.117375688206699,-0.0742852930674825
3.346,-0.118084059019059,-0.0731466461385103
3.348,-0.118784442512231,-0.0720008901437329
3.35,-0.119473104975574,-0.0708482669280731
3.352,-0.120152199836631,-0.0696883607971317
3.354,-0.120821614053132,-0.0685213707541976
3.356,-0.121480012498974,-0.0673476297341962
3.358,-0.122128244481441,-0.0661655601369293
3.36,-0.122765241746548,-0.0649775065413887
3.362,-0.123392090413194,-0.0637815620619171
3.364,-0.124007338158834,-0.0625789127910198
3.366,-0.124611457507697,-0.0613691295984916
3.368,-0.125203555404999,-0.0601520707720128
3.37,-0.125784239212104,-0.0589276953141807
3.372,-0.126352964050198,-0.0576964108042162
3.374,-0.126909424306288,-0.0564582879024304
3.376,-0.127453262532842,-0.0552134930666154
3.378,-0.127984707999772,-0.0539617984211588
3.38,-0.12850315962678,-0.0527037337769595
3.382,-0.129008630022934,-0.0514386523697676
3.384,-0.129500542405787,-0.0501676734625444
3.386,-0.129979220958914,-0.048890976308135
3.388,-0.130444336834759,-0.0476076326628745
3.39,-0.130895098347988,-0.0463190368653831
3.392,-0.131332173647009,-0.0450244777911763
3.394,-0.131754691514262,-0.0437246552495839
3.396,-0.132162920031817,-0.0424200891997036
3.398,-0.132556138208961,-0.0411092902779993
3.4,-0.132934918698148,-0.0397960881326265
3.402,-0.133299015639973,-0.0384779153187012
3.404,-0.133647800239257,-0.0371553238888835
3.406,-0.133981460182959,-0.0358291192544242
3.408,-0.134299995412736,-0.03449942676935
3.41,-0.134603171502674,-0.0331665209558889
3.412,-0.134890728977913,-0.0318306584743155
3.414,-0.135163148147388,-0.0304923162421991
3.416,-0.13541967001445,-0.0291515249936436
3.418,-0.135661523392992,-0.0278087999827081
3.42,-0.135887459649808,-0.0264643738388765
3.422,-0.136097609336625,-0.0251187463585805
3.424,-0.136293419911567,-0.023772153102463
3.426,-0.136472146856408,-0.0224241509649225
3.428,-0.136635510608479,-0.0210766540256146
3.43,-0.136784209934931,-0.0197275278842362
3.432,-0.136917688797648,-0.0183790616884524
3.434,-0.137035414438569,-0.0170313055415736
3.436,-0.137138862793243,-0.0156835036300268
3.438,-0.137226149656147,-0.0143365116777354
3.44,-0.137298555656615,-0.0129907680430102
3.442,-0.137356161748495,-0.0116466432206255
3.444,-0.137399352221802,-0.0103033391209869
3.446,-0.137427886939334,-0.00896165414676661
3.448,-0.137441669866294,-0.0076225320128652
3.45,-0.137440863338251,-0.00628551453314775
3.452,-0.137426251974894,-0.00495027703462222
3.454,-0.137396609967279,-0.00361812861084643
3.456,-0.137354653017162,-0.00228848011318083
3.458,-0.137297702243286,-0.00096145373382494
3.46,-0.137227771985075,0.000362962854308374
3.462,-0.13714361082474,0.00168425315407019
3.464,-0.137046034543115,0.00300116022861692
3.466,-0.13693553899414,0.00431592095514004
3.468,-0.136811593756909,0.00562649968840474
3.47,-0.13667482724619,0.0069339845638226
3.472,-0.136524830469847,0.00823738761097292
3.474,-0.13636241864392,0.00953686220021661
3.476,-0.136187223172016,0.0108333674957116
3.478,-0.136000043296326,0.0121246981180468
3.48,-0.135799050834858,0.0134132613735556
3.482,-0.135586688583457,0.0146967540222513
3.484,-0.135361819038306,0.0159770548119373
3.486,-0.135125310722083,0.0172518831630406
3.488,-0.134876034512247,0.0185239073549411
3.49,-0.134615398530383,0.0197908634000574
3.492,-0.134342626260192,0.0210534970404897
3.494,-0.134057935367545,0.0223113247671793
3.496,-0.133761688497585,0.023565071354863
3.498,-0.133453608084171,0.0248139533298831
3.5,-0.133133875888185,0.0260585056525319
3.502,-0.132802601576444,0.0272981250249651
3.504,-0.132460144618753,0.0285330553938738
3.506,-0.132106463142211,0.0297631348467141
3.508,-0.131740774049083,0.0309880432934342
3.51,-0.131362845343288,0.0322083203348722
3.512,-0.130975721664658,0.0334230572809368
3.514,-0.130575706682546,0.03463333712877
3.516,-0.130164048724691,0.0358383102231718
3.518,-0.129742076864224,0.0370371833470331
3.52,-0.129308937635716,0.0382312451419474
3.522,-0.128864762897588,0.0394196217244814
3.524,-0.12840786731097,0.0406026397842749
3.526,-0.127941768537751,0.0417794523904955
3.528,-0.127463426533235,0.0429503628372567
3.53,-0.126975162885179,0.0441157146932045
3.532,-0.126475213186071,0.0452752385667171
3.534,-0.125964171333663,0.0464278940469784
3.536,-0.125442385739035,0.0475745099816535
3.538,-0.124910598995794,0.048714963748104
3.54,-0.12436747235362,0.0498486459487622
3.542,-0.123813807950001,0.0509755028744913
3.544,-0.12324927359111,0.0520959631439427
3.546,-0.12267450948455,0.0532094836825706
3.548,-0.122089005637899,0.0543150191891704
3.55,-0.121493274501267,0.0554138539989424
3.552,-0.120887011857399,0.0565059988984736
3.554,-0.120271397821478,0.0575899880258226
3.556,-0.119645469409774,0.0586676508911677
3.558,-0.119009191768716,0.0597356068619187
3.56,-0.118362868123694,0.0607970030298624
3.562,-0.117706793193587,0.0618497496910956
3.564,-0.117041599911437,0.0628959759761201
3.566,-0.116365905480982,0.0639326646791454
3.568,-0.11568219867117,0.0649613754567809
3.57,-0.114988158125469,0.0659819356770199
3.572,-0.114285999963601,0.0669938053506031
3.574,-0.113574077446128,0.0679970697086779
3.576,-0.112853597441773,0.0689921065948503
3.578,-0.112124246712598,0.069978255847559
3.58,-0.111386583586855,0.0709554636640863
3.582,-0.110640122454455,0.0719237203957491
3.584,-0.109886569648717,0.072883728074418
3.586,-0.109123209926017,0.0738347241916447
3.588,-0.108352201801193,0.0747761429281596
3.59,-0.107574047491489,0.0757085071658544
3.592,-0.106787815748381,0.0766322716150159
3.594,-0.105993839501372,0.0775467188974786
3.596,-0.105192305517481,0.0784519762483876
3.598,-0.104383396648116,0.0793478287124024
3.6,-0.103567088338628,0.0802342630909428
3.602,-0.102743479778686,0.081111640903011
3.604,-0.101913346791044,0.0819808928756087
3.606,-0.101077105771802,0.0828394653600682
3.608,-0.100232817854991,0.0836891741019054
3.61,-0.0993824081387081,0.0845296100829266
3.612,-0.0985256902039113,0.0853608609313414
3.614,-0.09766226631494,0.0861825628607679
3.616,-0.0967919480334708,0.0869952689811591
3.618,-0.0959155424897436,0.087798215479939
3.62,-0.0950335850464632,0.0885922237464458
3.622,-0.0941450731062315,0.0893763494823597
3.624,-0.0932507282059808,0.0901520704819854
3.626,-0.0923495365073396,0.0909174601499147
3.628,-0.0914434417565749,0.0916742028399085
3.63,-0.0905308791025532,0.0924211013492693
3.632,-0.0896129568538501,0.0931590242643583
3.634,-0.0886890928699542,0.0938871539500071
3.636,-0.0877588642711088,0.0946058550387139
3.638,-0.086824122173726,0.0953153789814041
3.64,-0.0858825174195427,0.0960152257289675
3.642,-0.0849371189600157,0.0967050680883043
3.644,-0.0839842710654463,0.0973855038334958
3.646,-0.0830276338367528,0.0980572164818065
3.648,-0.0820644622009769,0.0987181885206645
3.65,-0.0810967220424152,0.0993690214830599
3.652,-0.0801228066444752,0.100011087742058
3.654,-0.0791440199095551,0.100642792656448
3.656,-0.0781606010604943,0.101265177791951
3.658,-0.0771715162822053,0.101876645874038
3.66,-0.0761773628503804,0.102478211916797
3.662,-0.0751777171860445,0.103070048073722
3.664,-0.0741739857798043,0.103651546943357
3.666,-0.0731646408222947,0.104222201682919
3.668,-0.0721509583870271,0.104781389761152
3.67,-0.0711327895109147,0.105331504827477
3.672,-0.0701102203499519,0.105870775235328
3.674,-0.0690822228423932,0.106398721694269
3.676,-0.0680499424913499,0.106917212990113
3.678,-0.0670134370014144,0.107422794145679
3.68,-0.0659731521966285,0.107918191902418
3.682,-0.0649285717110316,0.108402563767747
3.684,-0.0638801922149687,0.108876038982662
3.686,-0.0628273221384483,0.109337385548665
3.688,-0.061771339515482,0.109787460316355
3.69,-0.0607117337249625,0.110225772870186
3.692,-0.0596482650197549,0.110652267201421
3.694,-0.058582907165915,0.111067245332141
3.696,-0.0575135459248013,0.111470184264346
3.698,-0.0564419608855635,0.111861902383844
3.7,-0.055368046450644,0.11224098200513
3.702,-0.0542912024364652,0.112608631247423
3.704,-0.0532119235868883,0.112963237236424
3.706,-0.0521309503147089,0.113306305725718
3.708,-0.0510476112538234,0.113636483625536
3.71,-0.0499642463110654,0.1139551794653
3.712,-0.0488773010555072,0.114261294329176
3.714,-0.047790212899059,0.114555013674118
3.716,-0.0467013167123247,0.114836052964481
3.718,-0.0456130287731821,0.115106334496669
3.72,-0.0445237300830127,0.115362085239134
3.722,-0.0434336039592388,0.115606970808407
3.724,-0.042345314992709,0.115838463631797
3.726,-0.0412547058432882,0.116059430181529
3.728,-0.0401655677913552,0.116267302616023
3.73,-0.0390777493538279,0.116463876854362
3.732,-0.0379910739137063,0.116647747061842
3.734,-0.0369028525368625,0.116818672868859
3.736,-0.0358169124276823,0.116979090967001
3.738,-0.0347332151196857,0.117126573719791
3.74,-0.0336510412554767,0.117263990325937
3.742,-0.0325719050554766,0.11738841538339
3.744,-0.031491948663205,0.117502248415
3.746,-0.0304154247549577,0.117605670146873
3.748,-0.0293411560550832,0.1176957741575
3.75,-0.028269594811617,0.117775658438423
3.752,-0.0272005991622924,0.117844748726877
3.754,-0.0261345222011863,0.117902380065468
3.756,-0.0250714751813003,0.117949976034179
3.758,-0.0240110275722503,0.117986606972098
3.76,-0.0229536775359652,0.118013608654781
3.762,-0.0219003820116571,0.118030166265656
3.764,-0.0208504638917565,0.118036880318839
3.766,-0.0198037024506317,0.118033234299777
3.768,-0.0187610354542991,0.118019698666751
3.77,-0.0177207383351739,0.117997219095864
3.772,-0.0166844615419708,0.117965234990422
3.774,-0.0156534511298071,0.117923802427594
3.776,-0.0146246686787638,0.117874906166783
3.778,-0.0136004198647697,0.117813884762811
3.78,-0.0125793297419254,0.117746224168547
3.782,-0.0115621804306656,0.117669653837285
3.784,-0.0105492845288603,0.117584345461762
3.786,-0.00953971764214622,0.11749003849911
3.788,-0.00853501313791815,0.117388585461973
3.79,-0.00753351728704551,0.117278300742865
3.792,-0.00653537801296067,0.117159847827854
3.794,-0.00554167296018233,0.117033752280347
3.796,-0.00455192907753129,0.116899460340783
3.798,-0.00356531185436688,0.116757876990006
3.8,-0.00258317266681277,0.116608590040577
3.802,-0.00160450456977079,0.116451518822291
3.804,-0.000629593460634033,0.116286860693154
3.806,0.000342078435085508,0.116114417650785
3.808,0.00131012927886254,0.115934233315174
3.81,0.00227371010144977,0.115747064118713
3.812,0.00323447587208295,0.115552583507343
3.814,0.00419208072119017,0.115351150483562
3.816,0.00514572425487176,0.115141266554347
3.818,0.00609497740988423,0.114924694643796
3.82,0.00704311423397112,0.114701042346597
3.822,0.00798580052815717,0.114469259414844
3.824,0.00892582868774094,0.114230297401641
3.826,0.0098626774688711,0.113984929713283
3.828,0.0107949345082591,0.113730957145735
3.83,0.0117246337783134,0.113469883522272
3.832,0.0126511820219344,0.11320123873073
3.834,0.013573187254321,0.112924790751842
3.836,0.0144922488657614,0.112641322100063
3.838,0.0154079247056229,0.112350340894607
3.84,0.0163198214553799,0.112051135802772
3.842,0.0172282312343272,0.111744670925109
3.844,0.0181322309984687,0.111430322697914
3.846,0.019033141301573,0.111108481036702
3.848,0.019930074466673,0.110778131397603
3.85,0.0208237733770855,0.110440734716056
3.852,0.021713230523059,0.11009485602168
3.854,0.0225976713856963,0.109741069232413
3.856,0.0234791666487614,0.109379646311551
3.858,0.0243561620604444,0.109009908761137
3.86,0.025227719072077,0.108632240357443
3.862,0.0260955036780504,0.10824687176386
3.864,0.0269584876924784,0.107852739834721
3.866,0.0278166646480071,0.107451635759413
3.868,0.0286699450842446,0.107041399593543
3.87,0.0295177417599121,0.106623594808722
3.872,0.0303602723133653,0.106197215764982
3.874,0.0311978539558071,0.105763592373294
3.876,0.0320297718135539,0.105321363980467
3.878,0.0328560464084417,0.10487117682413
3.88,0.0336762675847752,0.104412830440295
3.882,0.0344902863319098,0.103947232913916
3.884,0.0352983625709059,0.103473532261239
3.886,0.0360994307394743,0.102991736746221
3.888,0.0368949909391534,0.102502643099479
3.89,0.0376829441651279,0.102005878833716
3.892,0.0384648261522288,0.101501934288454
3.894,0.0392389386848707,0.100989960965431
3.896,0.0400061552137341,0.10047091328798
3.898,0.0407661930719694,0.0999447001727227
3.9,0.0415191340289106,0.099412005973921
3.902,0.0422640712983812,0.0988720064918452
