"Freq [GHz]","re(S(Antenna1_1_p1,Antenna1_1_p1)) []","im(S(Antenna1_1_p1,Antenna1_1_p1)) []"
3,0.138543634302387,-0.086146892071587
3.002,0.138042592683,-0.0901232648451278
3.004,0.137368814221926,-0.094120235374213
3.006,0.136508739885518,-0.0981081012018325
3.008,0.135461622140052,-0.102086349159078
3.01,0.134193004513275,-0.105993492955891
3.012,0.132825320815996,-0.109977864777245
3.014,0.131200921323707,-0.11381478204384
3.016,0.129431253858189,-0.117652043673087
3.018,0.127536848739242,-0.121485516506679
3.02,0.125411748546394,-0.125189418762505
3.022,0.12312739478066,-0.128820797829112
3.024,0.120683366876381,-0.132364818149568
3.026,0.118071720033117,-0.135805810024792
3.028,0.115302587327596,-0.139146029436353
3.03,0.112397897955707,-0.142384957298811
3.032,0.109341971814637,-0.145482942381385
3.034,0.106148697705011,-0.14840082500926
3.036,0.102836349183153,-0.151316525204279
3.038,0.0993935091134368,-0.154016173325175
3.04,0.0958425310507017,-0.156561391097268
3.042,0.092200604412807,-0.158971842461676
3.044,0.08843433023324,-0.161196469434039
3.046,0.0845874191738701,-0.163275881802736
3.048,0.080657731237786,-0.165176358576616
3.05,0.0766612645022692,-0.166908158662254
3.052,0.072602972201858,-0.168474696830705
3.054,0.06849718652955,-0.169840180263839
3.056,0.0643425270351328,-0.171048023210182
3.058,0.0601656500316504,-0.172042561390212
3.06,0.0560055668285762,-0.17281228111134
3.062,0.0517329588855629,-0.173520027312313
3.064,0.0475181633842852,-0.173980177717263
3.066,0.0433151240844716,-0.174243565489194
3.068,0.0391137924280752,-0.174347693203156
3.07,0.0349404565839626,-0.1742380464689
3.072,0.0308112328194154,-0.173962075723082
3.074,0.0267395070597382,-0.173495585241131
3.076,0.0227024558350651,-0.172882943428602
3.078,0.0188140787653133,-0.172037065182142
3.08,0.0149223144552896,-0.171101660140073
3.082,0.0110462403600308,-0.16998963326249
3.084,0.007340477120247,-0.168695849280999
3.086,0.0037947746279667,-0.167258529658127
3.088,0.0002082816524046,-0.165693841686151
3.09,-0.00316277795405009,-0.163969837915669
3.092,-0.006421102669632,-0.162122715343825
3.094,-0.0095063057367893,-0.160161319801958
3.096,-0.0125859396555997,-0.158072126113094
3.098,-0.0154505848670144,-0.155877155728897
3.1,-0.0181776457558536,-0.153593312626316
3.102,-0.0207118940536768,-0.15119560781408
3.104,-0.0231287314311888,-0.148737523437592
3.106,-0.025374839411109,-0.146191482816469
3.108,-0.0274932963699197,-0.143589507487813
3.11,-0.0293894333600705,-0.140941271549959
3.112,-0.0311763922517469,-0.138231291137783
3.114,-0.0327651301544416,-0.135496860756964
3.116,-0.0341828345382842,-0.132731859448707
3.118,-0.0354065425151924,-0.12996262958827
3.12,-0.0365105525898114,-0.127179316728144
3.122,-0.0374213495601512,-0.124399514814856
3.124,-0.0381570905181207,-0.121642833846503
3.126,-0.0387330094397142,-0.118902832413957
3.128,-0.0391424942850773,-0.116198008627773
3.13,-0.0393889403782329,-0.113536641731722
3.132,-0.0394548502566799,-0.110943938084102
3.134,-0.039393521220716,-0.108391338968731
3.136,-0.039169237122479,-0.105972472805617
3.138,-0.0388322139748252,-0.103503412431332
3.14,-0.0383358008699235,-0.101185522279134
3.142,-0.0376913340576558,-0.09897364003881
3.144,-0.0369125631836978,-0.096875039726205
3.146,-0.0360456020474512,-0.094852245382471
3.148,-0.0350287560696342,-0.092986492143098
3.15,-0.0339247344797121,-0.091198304746622
3.152,-0.032717030663063,-0.089557716613115
3.154,-0.031421362797823,-0.08804938849237
3.156,-0.0300311982715792,-0.086719159631885
3.158,-0.0285797811777657,-0.085472557504539
3.16,-0.0270503850418068,-0.084387557336072
3.162,-0.025480336927004,-0.083502914782263
3.164,-0.0238444116382148,-0.08273147493596
3.166,-0.0221830241281991,-0.08210286342377
3.168,-0.0204924701087878,-0.081656454962574
3.17,-0.0187872954753379,-0.081378538895821
3.172,-0.017113745660365,-0.081301250479584
3.174,-0.015401520850902,-0.081335225398355
3.176,-0.0136569566205904,-0.081484401460713
3.178,-0.0119609339355646,-0.081817574414705
3.18,-0.0103051737933719,-0.082325122363031
3.182,-0.0087131290843407,-0.083013674848046
3.184,-0.0071450140046394,-0.083839755516555
3.186,-0.0056285577790488,-0.084783438264373
3.188,-0.0041948757135233,-0.08590876443075
3.19,-0.0029108678974359,-0.087204798662557
3.192,-0.0015858466256117,-0.088594465268312
3.194,-0.000385069840057602,-0.090113120401998
3.196,0.000613110898562502,-0.091803173236725
3.198,0.0016578579197039,-0.093562232568217
3.2,0.0024257525220238,-0.095473231548068
3.202,0.0032036299026509,-0.097485735826932
3.204,0.003734546816816,-0.099585765677445
3.206,0.0042697140476901,-0.101789886777038
3.208,0.0045783204765001,-0.104078273120586
3.21,0.0047123564129216,-0.10645346738289
3.212,0.0047189171157259,-0.108885277631009
3.214,0.0044962489437237,-0.111352371676442
3.216,0.0042557393369217,-0.113922979357167
3.218,0.0037742513880198,-0.116500742059524
3.22,0.0031305214741104,-0.119113695855005
3.222,0.0023219500786895,-0.121746536212815
3.224,0.0013224965538983,-0.124400056637418
3.226,0.000178254623081804,-0.1270556870192
3.228,-0.0011673504464161,-0.129684491226954
3.23,-0.00267126592020649,-0.132313340133507
3.232,-0.0044135808034913,-0.134842440919175
3.234,-0.0062119211974804,-0.137446402368403
3.236,-0.008230588215483,-0.139951982576159
3.238,-0.0104213717288185,-0.142410565690569
3.24,-0.0127754695223694,-0.144790591717458
3.242,-0.0152957173799061,-0.147086778343793
3.244,-0.0179627668791684,-0.149295018627981
3.246,-0.020791477816613,-0.151419792440128
3.248,-0.0237881728619803,-0.153354260872137
3.25,-0.0269067696024992,-0.155242473947781
3.252,-0.0301396738369234,-0.157102928032633
3.254,-0.0335204620592231,-0.158752690273938
3.256,-0.0370266774520309,-0.160266256190383
3.258,-0.0406573111598637,-0.161632600641805
3.26,-0.044386284982013,-0.162762236708794
3.262,-0.0482403625152309,-0.163914329922253
3.264,-0.0521468416861025,-0.164804207192867
3.266,-0.0561592214631733,-0.165532970110483
3.268,-0.0602398297288425,-0.166075975473469
3.27,-0.0643861495209247,-0.166447216637985
3.272,-0.06859443783403,-0.166644751317156
3.274,-0.0728466821505963,-0.166652685170265
3.276,-0.0771252801037412,-0.166460421661829
3.278,-0.0814352009707944,-0.166084165090619
3.28,-0.0857662642485796,-0.165517716508684
3.282,-0.0900961107743739,-0.164761511490279
3.284,-0.0944294666191423,-0.163813759420745
3.286,-0.0987321581110687,-0.162662119975387
3.288,-0.102946985124811,-0.161254758558274
3.29,-0.107262836304976,-0.159787328471023
3.292,-0.111456516843971,-0.158065701601529
3.294,-0.115611080342459,-0.156154396102683
3.296,-0.119683701565602,-0.154059162601055
3.298,-0.123698775439017,-0.151784634815541
3.3,-0.127599999236485,-0.149319813965977
3.302,-0.131417300887401,-0.146695340851783
3.304,-0.135139155783971,-0.143896029620499
3.306,-0.138733386108186,-0.140931650366395
3.308,-0.142207044618481,-0.137816276119012
3.31,-0.145557905606183,-0.134548624161678
3.312,-0.148780378071738,-0.1311325826201
3.314,-0.151821447660602,-0.127595833000821
3.316,-0.154638661818956,-0.123919626859782
3.318,-0.157475771169156,-0.120127820340832
3.32,-0.159982858854918,-0.116222953584234
3.322,-0.162460253646244,-0.11222072659519
3.324,-0.164698031474161,-0.108115312132371
3.326,-0.166766093715144,-0.103924784316443
3.328,-0.168621374565334,-0.0996773599285907
3.33,-0.170287026074514,-0.0953532503891052
3.332,-0.171768132109803,-0.0909848792968989
3.334,-0.173065247889151,-0.0865605310861291
3.336,-0.174146916824604,-0.0821151285457856
3.338,-0.175038698615247,-0.0776401178882834
3.34,-0.175741386050002,-0.0731497066861442
3.342,-0.176230047200126,-0.0686706444896365
3.344,-0.176524060421499,-0.0641892229624825
3.346,-0.176624596336659,-0.0597262083145703
3.348,-0.176527256686631,-0.0553008824857129
3.35,-0.176234571292474,-0.050922474681455
3.352,-0.175748200236631,-0.0465894807118617
3.354,-0.175032199544032,-0.0423885467104176
3.356,-0.174223888272974,-0.0381132262128962
3.358,-0.173192096875741,-0.0339873105263293
3.36,-0.171977165809048,-0.0299563587879887
3.362,-0.170605786114194,-0.0260247893444171
3.364,-0.169041395567034,-0.0222858376105198
3.366,-0.167364030607697,-0.0184844711286916
3.368,-0.165516594990099,-0.0149127078980128
3.37,-0.163515642291204,-0.0115462866834807
3.372,-0.161393878280098,-0.0081384047053162
3.374,-0.159151641466788,-0.0050726809683304
3.376,-0.156777374350842,-0.0019696030413154
3.378,-0.154305873039772,0.000797989793441201
3.38,-0.15171084397718,0.0035883323306405
3.382,-0.149067657020734,0.0060106875923324
3.384,-0.146298283489887,0.0084498018982556
3.386,-0.143473855573414,0.010617483526065
3.388,-0.140594628146689,0.0126128224615255
3.39,-0.137707996502798,0.0143298531686169
3.392,-0.134728884397399,0.0159713405895237
3.394,-0.131676414144342,0.0174869550846161
3.396,-0.128662664007427,0.0187251749422964
3.398,-0.125620876745031,0.0198033377988007
3.4,-0.122612133177788,0.0206724059278735
3.402,-0.119652257091073,0.0212959926203988
3.404,-0.116597009631757,0.0218650956139165
3.406,-0.113638098628559,0.0222033581620758
3.408,-0.110728226808336,0.02233693538395
3.41,-0.107870912121074,0.0223054630333111
3.412,-0.105087681844713,0.0220975559377845
3.414,-0.102361720499788,0.0217192005979009
3.416,-0.09972656239385,0.0211830292960564
3.418,-0.097261535045692,0.0204610559753919
3.42,-0.094820832979408,0.0196117478385235
3.422,-0.092399464028225,0.0186448766562195
3.424,-0.090179020898167,0.017509102345937
3.426,-0.088093348281508,0.0162435894602775
3.428,-0.086125214210079,0.0148539004453154
3.43,-0.084409569198331,0.0133521137388038
3.432,-0.082644974526248,0.0117334868783076
3.434,-0.081112741212069,0.0100348414091964
3.436,-0.079754202704843,0.0082258289925132
3.438,-0.078557712236747,0.0063586590727546
3.44,-0.077513918925315,0.0044022980654898
3.442,-0.076657893725395,0.0023823495549245
3.444,-0.075954320301002,0.0003276365212631
3.446,-0.075448676506934,-0.00176661416298661
3.448,-0.075118772410294,-0.0038889691128652
3.45,-0.074963109441751,-0.00603163056104775
3.452,-0.075065916416694,-0.00813560497542222
3.454,-0.075263267186179,-0.0102808856783464
3.456,-0.075574208357762,-0.0124659710179808
3.458,-0.076129659626086,-0.0146004777653249
3.46,-0.076870989183375,-0.0166698560306916
3.462,-0.07779490157974,-0.0186897924475298
3.464,-0.078885571983315,-0.0206726933862831
3.466,-0.08013483286024,-0.02258146841846
3.468,-0.081572209654509,-0.0244158723007953
3.47,-0.08315004873762,-0.0261653196095774
3.472,-0.084880237898117,-0.0278160141651271
3.474,-0.08677201664093,-0.0293711239563834
3.476,-0.088812664336626,-0.0308086439756884
3.478,-0.090982279870446,-0.0321203049436532
3.48,-0.093279831851248,-0.0333101149442444
3.482,-0.095712604200277,-0.0343424466299487
3.484,-0.098252515169791,-0.0352692509871627
3.486,-0.100899852861562,-0.0360074829016594
3.488,-0.103651205675227,-0.0365984072942589
3.49,-0.106476348036493,-0.0370258772566426
3.492,-0.109391538975232,-0.0372877354373103
3.494,-0.112370115703395,-0.0373651827877207
3.496,-0.115423122842865,-0.037273930238537
3.498,-0.118523205613101,-0.0370067898861169
3.5,-0.121630024158695,-0.0364366362690681
3.502,-0.124820923204824,-0.0358863340150349
3.504,-0.128002511670503,-0.0350426172276262
3.506,-0.131191728635821,-0.0340108421334859
3.508,-0.134370214169933,-0.0327806025495658
3.51,-0.137548089200048,-0.0313653386505278
3.512,-0.140695967936218,-0.0297571764163632
3.514,-0.143794553067046,-0.0279646594301
3.516,-0.146863125821291,-0.0259681795557682
3.518,-0.149869634958324,-0.0237726061564669
3.52,-0.152804686372516,-0.0214075975326526
3.522,-0.155644204938488,-0.0188741258705486
3.524,-0.15842052865727,-0.0161576406507851
3.526,-0.160991891562351,-0.0132193875571545
3.528,-0.163656633745635,-0.0101976881755833
3.53,-0.165988432983279,-0.0069678665532655
3.532,-0.168407395481471,-0.0035967856779629
3.534,-0.170576370612063,-9.60199075016044E-05
3.536,-0.172601237038135,0.0035717209805535
3.538,-0.174480833109494,0.00738501539910399
3.54,-0.17609583548802,0.0112893660114222
3.542,-0.177741369553001,0.0153334846010213
3.544,-0.17911560227631,0.0194888378212127
3.546,-0.18031141655755,0.0237183729345896
3.548,-0.181329218379099,0.0280694578122344
3.55,-0.182117968181067,0.0324810250128438
3.552,-0.182760552546199,0.0369451641715516
3.554,-0.183188078514678,0.0414905659486826
3.556,-0.183409787858874,0.0460751041082487
3.558,-0.183429650468016,0.0507013699012887
3.56,-0.183216251042794,0.0553577871490024
3.562,-0.182729820489887,0.0599524017517256
3.564,-0.182198195306437,0.0646894522007101
3.566,-0.181379926214482,0.0693277542206854
3.568,-0.18035181483527,0.0739767249462709
3.57,-0.179108852283569,0.0785852124392099
3.572,-0.177660341231901,0.0831519980693531
3.574,-0.175982922954728,0.0876680387475179
3.576,-0.174131704932573,0.0921030328921303
3.578,-0.172078577566098,0.096477301556669
3.58,-0.169812100590155,0.100754759095946
3.582,-0.167313585467755,0.104852178842169
3.584,-0.164720775884027,0.109035556910838
3.586,-0.161921025410117,0.113003410826425
3.588,-0.158918470167043,0.11685746493789
3.59,-0.155729345339549,0.120454287773994
3.592,-0.152435662599871,0.124021247308416
3.594,-0.148993338151522,0.127538915314679
3.596,-0.145382896893021,0.130795480010888
3.598,-0.141634764051576,0.133879589614302
3.6,-0.137759544556798,0.136788740655643
3.602,-0.133768721244316,0.139525787663311
3.604,-0.129682868849454,0.141965672987309
3.606,-0.125470211620802,0.144421801343068
3.608,-0.121189533183851,0.146571007725005
3.61,-0.116819047924548,0.148522442029927
3.612,-0.112410590682881,0.150286578640241
3.614,-0.10792600916643,0.151829202086968
3.616,-0.103403454625914,0.153150525222559
3.618,-0.0988320562437556,0.154255507283539
3.62,-0.0942600643684832,0.155162613022946
3.622,-0.0896761478988115,0.15584793307256
3.624,-0.0850974188241408,0.156341414184985
3.626,-0.0806120355521196,0.156510814475515
3.628,-0.0759934732066849,0.156644619413809
3.63,-0.0714915044657032,0.156485513005369
3.632,-0.0670210717745401,0.156092119922858
3.634,-0.0626207468916142,0.155538438767207
3.636,-0.0582945558920088,0.154755338108514
3.638,-0.054043675311026,0.153779391326804
3.64,-0.0498926818278427,0.152615600972567
3.642,-0.0458305248691157,0.151257871207104
3.644,-0.0418777339926463,0.149731803512696
3.646,-0.0380382874110528,0.148028198972606
3.648,-0.0344682246754769,0.146113390260865
3.65,-0.0307895829993152,0.14410795111186
3.652,-0.0274944152519752,0.141894954129808
3.654,-0.0241225002526551,0.139585346047948
3.656,-0.0210193641141943,0.137125674727621
3.658,-0.0180807100969053,0.134533829317148
3.66,-0.0153482614124804,0.131827235270507
3.662,-0.0127543477479445,0.129011691565842
3.664,-0.0103663581696043,0.126122541643797
3.666,-0.0081720708470947,0.123122409585651
3.668,-0.0061549381774271,0.120066823381292
3.67,-0.00436447320911471,0.116942247457007
3.672,-0.00274346942635191,0.113771873023068
3.674,-0.00134226970319319,0.110552053385169
3.676,-0.000130767337849891,0.107306341742503
3.678,0.000847256482985601,0.104052835781789
3.68,0.0016562762997715,0.100785265221218
3.682,0.0022580581056684,0.097529228269147
3.684,0.0026386392920313,0.094284494250662
3.686,0.00280883381385169,0.091078416758165
3.688,0.002812583995118,0.087897271926555
3.69,0.00259840959413749,0.084761386955286
3.692,0.0021156573687451,0.081817710774221
3.694,0.001606554061485,0.078723482889341
3.696,0.000814282044698696,0.075805311078246
3.698,-0.0001371660044635,0.073013541075544
3.7,-0.001257695719104,0.07030583430803
3.702,-0.0025617200477052,0.067715544929723
3.704,-0.0040327282093483,0.065247920746724
3.706,-0.0056415180590189,0.062912314321918
3.708,-0.0073847418729834,0.060710393619536
3.71,-0.0092708822942514,0.0586558205695
3.712,-0.0112881375581272,0.056751776801676
3.714,-0.013422451517879,0.055024962059918
3.716,-0.0156544351104147,0.053580641815981
3.718,-0.0180084075421621,0.052059695113269
3.72,-0.0204226659849527,0.050849429770434
3.722,-0.0229451242320388,0.049819073604807
3.724,-0.025506968964209,0.048977635655697
3.726,-0.0281433895359882,0.048336220557529
3.728,-0.0308148871029552,0.047866533052823
3.73,-0.0334643246651279,0.047742853785062
3.732,-0.0362479903445063,0.047571172381342
3.734,-0.0389836734606625,0.047692459084959
3.736,-0.0417256865514823,0.048046083077801
3.738,-0.0444490754439857,0.048594124542591
3.74,-0.0471475739842767,0.049329974395037
3.742,-0.0498195726435766,0.05026535543579
3.744,-0.052437257166405,0.0514012363023
3.746,-0.0550079542488577,0.052714884650493
3.748,-0.0573910817259832,0.05431690224637
3.75,-0.059916696259317,0.055925171067433
3.752,-0.0622342491944924,0.057818801643967
3.754,-0.0644534843689863,0.059872874720228
3.756,-0.0665596544800003,0.062088780345486
3.758,-0.0685728014724503,0.064469427474918
3.76,-0.0704114760270652,0.067012664720421
3.762,-0.0721189491786571,0.069710602791226
3.764,-0.0736918011044565,0.072549358744489
3.766,-0.0751096865226317,0.075507312105677
3.768,-0.0763583092708991,0.078595126858851
3.77,-0.0774417326552739,0.081806455466864
3.772,-0.0783678078589708,0.085093236471422
3.774,-0.0790781962614071,0.088499890892994
3.776,-0.0796046732773638,0.091988132560683
3.778,-0.0799469615462697,0.095555209281911
3.78,-0.0799643740316254,0.099137046532047
3.782,-0.0800282596905656,0.102845153963885
3.784,-0.0797691776435603,0.106550193637062
3.786,-0.0792887120242462,0.11029209498131
3.788,-0.0786252741794181,0.114064244521673
3.79,-0.0776113071791455,0.117749357533365
3.792,-0.0765373668270407,0.121501374039754
3.794,-0.0753294077406623,0.125333788794247
3.796,-0.0738108930420813,0.129047532502083
3.798,-0.0720732653785669,0.132699460832006
3.8,-0.0700584425234468,0.136225711299077
3.802,-0.0679200731970908,0.139772568080191
3.804,-0.065675977868064,0.143363678547454
3.806,-0.0631447447744245,0.146747700326585
3.808,-0.0604187564751475,0.150041281755074
3.81,-0.0575131906417502,0.153227372430413
3.812,-0.054364222190017,0.156156770968143
3.814,-0.0511507421919098,0.159232587789862
3.816,-0.0477125083476282,0.162033132681147
3.818,-0.0441246465378158,0.164667478229396
3.82,-0.0403492549259289,0.167020906591597
3.822,-0.0364980275407428,0.169489291632044
3.824,-0.0324566067190591,0.171518201669941
3.826,-0.0283125127385289,0.173627384766983
3.828,-0.0240636268306409,0.175426787984835
3.83,-0.0196937490238866,0.177015198052572
3.832,-0.0152432941070656,0.17842193672403
3.834,-0.010686634992779,0.179617450065142
3.836,-0.0060610684710386,0.180605697121143
3.838,-0.0013815198430771,0.181377652323797
3.84,0.0033685934646799,0.181924677488522
3.842,0.0081275244685272,0.182246969971449
3.844,0.0128684522761687,0.182229008286506
3.846,0.017760349310273,0.182272965122342
3.848,0.022488950496873,0.181810980539313
3.85,0.0273711801365855,0.181355036776336
3.852,0.032162519492659,0.18057109639777
3.854,0.0369247013378963,0.179564122520213
3.856,0.0416359062163614,0.178338394429251
3.858,0.0462879624399444,0.176902611826237
3.86,0.050891842266777,0.175260105924943
3.862,0.0552769649854504,0.17330113846826
3.864,0.0598140040890784,0.171316123574821
3.866,0.0641267526292071,0.169020506185613
3.868,0.0683286178895446,0.166547796870543
3.87,0.0722910132595121,0.163831390945022
3.872,0.0763882932676653,0.161044266536482
3.874,0.0801723812449071,0.158005723900894
3.876,0.0838425035475539,0.154823283719267
3.878,0.0873262823002417,0.15146087778413
3.88,0.0906544740786352,0.147946141985995
3.882,0.0936527149220098,0.144278070969816
3.884,0.0967635357756259,0.140524277621439
3.886,0.0995526789129743,0.136618552924021
3.888,0.102111877867817,0.132603586664479
3.89,0.104488113826088,0.128495117719916
3.892,0.106681514347609,0.124270454074054
3.894,0.108604523307661,0.119990258633631
3.896,0.110210909528354,0.11567239278488
3.898,0.111864406319869,0.111214352159923
3.9,0.113041783241511,0.106812313382221
3.902,0.114238407022581,0.102277461009045
3.904,0.115093774123133,0.0977547448399138
3.906,0.1155823851845,0.0933273738110863
3.908,0.116108104209716,0.0887389456250246
