"Freq [GHz]","re(S(Antenna1_1_p1,Antenna1_1_p1)) []","im(S(Antenna1_1_p1,Antenna1_1_p1)) []"
3,0.0887475998273872,-0.090655384421587
3.002,0.0880429318179999,-0.0917605438181278
3.004,0.0873192902869265,-0.092869007731213
3.006,0.0865825968885175,-0.0939729172118325
3.008,0.0858274419780517,-0.0950779577150777
3.01,0.0850609768652745,-0.0961842907518913
3.012,0.0842731568519965,-0.0972897804522454
3.014,0.0834684667837069,-0.09839411745184
3.016,0.0826423713221895,-0.099499398557087
3.018,0.0817939507532424,-0.100603659270679
3.02,0.0809344922453935,-0.101705460726505
3.022,0.0800336466506598,-0.102801512888112
3.024,0.0791486428793809,-0.103896586106568
3.026,0.0782245707241175,-0.104984921417792
3.028,0.0772765210765956,-0.106072321403353
3.03,0.0763116707507071,-0.107151724842911
3.032,0.0753246248766373,-0.108228291615285
3.034,0.0743077680080112,-0.10929964290546
3.036,0.0732774826041525,-0.110361462200579
3.038,0.0722231257794368,-0.111407158437575
3.04,0.0711415132927017,-0.112452606356048
3.042,0.070043672730807,-0.113481512769276
3.044,0.06891861854824,-0.114506325431039
3.046,0.0677714769488701,-0.115516225791736
3.048,0.066600241428786,-0.116514771036816
3.05,0.0654003904452692,-0.117481880792254
3.052,0.064190225615858,-0.118464212508705
3.054,0.06295467429955,-0.119418620117839
3.056,0.0616881780201328,-0.120355224910182
3.058,0.0604112192536504,-0.121273925028212
3.06,0.0590981552169762,-0.12217338697234
3.062,0.0577817597865629,-0.123054097089313
3.064,0.0564368226842852,-0.123914001146263
3.066,0.0550696043894716,-0.124753456080194
3.068,0.0536870441990752,-0.125569360707156
3.07,0.0522918120519626,-0.1263636246679
3.072,0.0508689723204154,-0.127131491487082
3.074,0.0494283449457382,-0.127873474489131
3.076,0.0479771511210651,-0.128595721326602
3.078,0.0465059107573133,-0.129287407145142
3.08,0.0450232097802896,-0.129958599498073
3.082,0.0435262178253308,-0.13059115026449
3.084,0.042016249137447,-0.131207078839999
3.086,0.0404957205447667,-0.131791940915127
3.088,0.0389672838499046,-0.132351343747151
3.09,0.0374288370890499,-0.132879440235669
3.092,0.035878016372168,-0.133374765524825
3.094,0.0343271067661107,-0.133847267774958
3.096,0.0327652629012003,-0.134283873970094
3.098,0.0311980020757856,-0.134686216342897
3.1,0.0296289947341464,-0.135072973414316
3.102,0.0280585455003232,-0.13541966699408
3.104,0.0264830854598112,-0.135741633336592
3.106,0.024912597732891,-0.136036308117469
3.108,0.0233401386440803,-0.136292019163813
3.11,0.0217697624819295,-0.136526952739959
3.112,0.0201975521802531,-0.136726553501783
3.114,0.0186383064525584,-0.136907202182964
3.116,0.0170800936027158,-0.137047481923707
3.118,0.0155247309558076,-0.13717794639027
3.12,0.0139780345491886,-0.137270072209144
3.122,0.0124415416018488,-0.137335220674856
3.124,0.0109164348948793,-0.137381460681503
3.126,0.0093951539332858,-0.137401029878957
3.128,0.0078844234199227,-0.137397351649773
3.13,0.0063927643177671,-0.137365698609722
3.132,0.00490371299832008,-0.137319244686102
3.134,0.003430559061284,-0.137248182659231
3.136,0.00197164728252099,-0.137157096011617
3.138,0.00051839383617483,-0.137056002961232
3.14,-0.000902180002923499,-0.136930066639434
3.142,-0.00233120965165577,-0.13678011499614
3.144,-0.00373275404669778,-0.136619953869205
3.146,-0.00512196060145118,-0.136445945909571
3.148,-0.00649914931663422,-0.136255699832698
3.15,-0.00786138765271211,-0.136051518695622
3.152,-0.00920498855306302,-0.135839888077115
3.154,-0.010537775523823,-0.13560950950637
3.156,-0.0118541368575792,-0.135370531694885
3.158,-0.0131605840347657,-0.135128193614539
3.16,-0.0144480549328068,-0.134874726206072
3.162,-0.015723106783004,-0.134611948981263
3.164,-0.0169876456152148,-0.13434316451196
3.166,-0.0182383643371991,-0.13407564658477
3.168,-0.0194692319297878,-0.133792346980574
3.17,-0.0206892828637379,-0.133510166382821
3.172,-0.021904724294365,-0.133225925434584
3.174,-0.023108956803902,-0.132934021090355
3.176,-0.0243090501755904,-0.132647501651713
3.178,-0.0254835711145646,-0.132348280218705
3.18,-0.0266560610013719,-0.132052867973031
3.182,-0.0278328520483407,-0.131760750652046
3.184,-0.0289841872676394,-0.131457767554555
3.186,-0.0301340146663488,-0.131163848680373
3.188,-0.0312793931047233,-0.13087098023575
3.19,-0.0324256777218359,-0.130570871748557
3.192,-0.0335622787132917,-0.130277755446312
3.194,-0.0347043414866576,-0.129984264753998
3.196,-0.0358394677571375,-0.129678887430725
3.198,-0.0369586313813961,-0.129393070092217
3.2,-0.0380882765370762,-0.129089976214068
3.202,-0.0392277159753491,-0.128794798291932
3.204,-0.040352805001184,-0.128494113436445
3.206,-0.0414864450103099,-0.128196495084038
3.208,-0.0426241762684999,-0.127898793216586
3.21,-0.0437558341370784,-0.12760175151589
3.212,-0.0448960375742741,-0.127299671274009
3.214,-0.0460377919332763,-0.126994532135442
3.216,-0.0471881939110783,-0.126690017049167
3.218,-0.0483398868909802,-0.126378244032524
3.22,-0.0494976674028896,-0.126062972957005
3.222,-0.0506683932743105,-0.125744810536815
3.224,-0.0518378529111017,-0.125421874660418
3.226,-0.0530163371389182,-0.12509018766985
3.228,-0.0542040552304161,-0.124748227357954
3.23,-0.0553930069932065,-0.124404899663507
3.232,-0.0565892935534913,-0.124049085272175
3.234,-0.0577951384214804,-0.123683795978403
3.236,-0.059011029119483,-0.123309206254759
3.238,-0.0602303400448185,-0.122922235137169
3.24,-0.0614650455213694,-0.122522659758458
3.242,-0.0626954029349061,-0.122115054867593
3.244,-0.0639428671191684,-0.121686216854344
3.246,-0.065189421208613,-0.121254333831328
3.248,-0.0664599864289803,-0.120804182706237
3.25,-0.0677062843184992,-0.120334472418081
3.252,-0.0689819686819234,-0.119853373994733
3.254,-0.0702496544482231,-0.119342599701938
3.256,-0.0715285944780309,-0.118830886432383
3.258,-0.0728080336058637,-0.118289827434805
3.26,-0.074091412651013,-0.117735491101794
3.262,-0.0753906922542309,-0.117151753774253
3.264,-0.0766715348491025,-0.116558707865867
3.266,-0.0779634026381733,-0.115941813916483
3.268,-0.0792562527768425,-0.115298443733469
3.27,-0.0805518511199247,-0.114637703305985
3.272,-0.08185624496003,-0.113956151619156
3.274,-0.0831373153855963,-0.113252435471265
3.276,-0.0844205524017412,-0.112526257427829
3.278,-0.0857134084267944,-0.111777441124619
3.28,-0.0869943234335796,-0.111002692518684
3.282,-0.0882768854304739,-0.110209334074279
3.284,-0.0895461267531423,-0.109390296607745
3.286,-0.0908180268660687,-0.108543229727387
3.288,-0.0920727994678109,-0.107682043367274
3.29,-0.0933306765739762,-0.106791494809023
3.292,-0.0945692209772712,-0.105880293519529
3.294,-0.0957983940990589,-0.104943465615683
3.296,-0.097020271331802,-0.103987209438055
3.298,-0.0982356502224566,-0.103005007698541
3.3,-0.0994269461159852,-0.102006530937977
3.302,-0.100613350715101,-0.100978347659783
3.304,-0.101778568381971,-0.0999313477674987
3.306,-0.102945842464886,-0.0988588257933946
3.308,-0.104086003197481,-0.0977736437270116
3.31,-0.105210913422183,-0.096664305471678
3.312,-0.106318006709738,-0.0955341069011005
3.314,-0.107410103653602,-0.0943889308488205
3.316,-0.108485412605956,-0.0932166475917823
3.318,-0.109539116864156,-0.0920302404178324
3.32,-0.110574066079918,-0.0908223099362342
3.322,-0.111588885613244,-0.0896096924241902
3.324,-0.112584688624161,-0.0883740325863709
3.326,-0.113559533051144,-0.0871173961464426
3.328,-0.114506843179334,-0.0858501391615907
3.33,-0.115443745162514,-0.0845682915521052
3.332,-0.116353578426803,-0.0832692328848989
3.334,-0.117243104644151,-0.0819508380861291
3.336,-0.118108511686604,-0.0806333380027856
3.338,-0.118950127891247,-0.0792998913642834
3.34,-0.119766198096002,-0.0779644775031442
3.342,-0.120565494215126,-0.0766024487586365
3.344,-0.121337576531499,-0.0752328696053825
3.346,-0.122090033132659,-0.0738666505299703
3.348,-0.122813313640631,-0.0724850271559129
3.35,-0.123515694597474,-0.071096988385955
3.352,-0.124196195677631,-0.0697022546357817
3.354,-0.124849083225032,-0.0682994903440176
3.356,-0.125479657138974,-0.0668969972486962
3.358,-0.126087391663741,-0.0654879832834293
3.36,-0.126671022211048,-0.0640756262010887
3.362,-0.127232357758194,-0.0626561326139171
3.364,-0.127765079958034,-0.0612384042825198
3.366,-0.128283035463697,-0.0598194338286916
3.368,-0.128776294574099,-0.0583980486550128
3.37,-0.129241673088204,-0.0569770417384807
3.372,-0.129689167040098,-0.0555569197153162
3.374,-0.130109911908788,-0.0541348147223304
3.376,-0.130514902731842,-0.0527196961873154
3.378,-0.130895937284772,-0.0513000120685588
3.38,-0.13125217882418,-0.0498854328523595
3.382,-0.131589429753734,-0.0484753125456676
3.384,-0.131908966539887,-0.0470649588417444
3.386,-0.132210282987414,-0.045664019798935
3.388,-0.132481551641689,-0.0442648990754745
3.39,-0.132740850123798,-0.0428710521683831
3.392,-0.132977810278399,-0.0414834789764763
3.394,-0.133199799931402,-0.0401018938573839
3.396,-0.133401487290427,-0.0387265787737036
3.398,-0.133599285608031,-0.0373537862301993
3.4,-0.133753807538288,-0.0359909021181265
3.402,-0.133903865136073,-0.0346371137286012
3.404,-0.134036952146957,-0.0332918981310835
3.406,-0.134156305175859,-0.0319526079649242
3.408,-0.134260500522736,-0.03062240823705
3.41,-0.134342961350294,-0.0292978325656889
3.412,-0.134417168670013,-0.0279849269392155
3.414,-0.134478334348988,-0.0266794149620991
3.416,-0.13452537302585,-0.0253826761849436
3.418,-0.134560267824692,-0.0240960697996081
3.42,-0.134582417706408,-0.0228187717694765
3.422,-0.134593636411225,-0.0215476455247805
3.424,-0.134594416704167,-0.020283552600063
3.426,-0.134583024550508,-0.0190377239837225
3.428,-0.134561615097079,-0.0177981200926846
3.43,-0.134530859912331,-0.0165704961641962
3.432,-0.134496238619248,-0.0153448451926924
3.434,-0.134444409205069,-0.0141315804288036
3.436,-0.134392523162843,-0.0129254038474868
3.438,-0.134332147516747,-0.0117338051012454
3.44,-0.134260836570315,-0.0105473539765102
3.442,-0.134183802228395,-0.0093698643190755
3.444,-0.134104141822002,-0.0082046684807369
3.446,-0.134016325144934,-0.00704968817198661
3.448,-0.133926711723294,-0.0058926976218652
3.45,-0.133830098944751,-0.00475024165794775
3.452,-0.133726317078694,-0.00361308629942222
3.454,-0.133632750225179,-0.00248620327134643
3.456,-0.133517301456762,-0.00136212531998083
3.458,-0.133410307628086,-0.00024311479422494
3.46,-0.133298084791375,0.000860630189408374
3.462,-0.13318191330874,0.00196540024157019
3.464,-0.133063555057315,0.00306347575161692
3.466,-0.13294805024724,0.00416058582849004
3.468,-0.132830709885509,0.00524967303400474
3.47,-0.13271176219262,0.0063445280678226
3.472,-0.132587540293117,0.00742122138417292
3.474,-0.13246694270093,0.00849984637041661
3.476,-0.132339890861626,0.0095835321223116
3.478,-0.132224311332446,0.0106591376543468
3.48,-0.132094872079248,0.0117318429917556
3.482,-0.131969213457277,0.0128069432440513
3.484,-0.131843512658791,0.0138813165478373
3.486,-0.131720716653562,0.0149537915213406
3.488,-0.131589229424227,0.0160355763537411
3.49,-0.131462499913493,0.0171139536303574
3.492,-0.131333404157232,0.0181925403676897
3.494,-0.131201529380395,0.0192743588212793
3.496,-0.131070992781865,0.020362558517463
3.498,-0.130935903095101,0.0214549443038831
3.5,-0.130800875956695,0.0225475712199319
3.502,-0.130667147694824,0.0236496052859651
3.504,-0.130521093726503,0.0247559216403738
3.506,-0.130378204251821,0.0258663696375141
3.508,-0.130224229935933,0.0269840030284342
3.51,-0.130070605341048,0.0281066503064722
3.512,-0.129912376237218,0.0292316011686368
3.514,-0.129751484808046,0.0303766512149
3.516,-0.129578083669791,0.0315236778982318
3.518,-0.129401352121024,0.0326801077435331
3.52,-0.129216018634016,0.0338422267683474
3.522,-0.129021917127498,0.0350124879064514
3.524,-0.12882042795527,0.0361926601292149
3.526,-0.128607889371051,0.0373834957948455
3.528,-0.128385616960835,0.0385823896514167
3.53,-0.128150036248279,0.0397864046727345
3.532,-0.127905038528471,0.0410011326800371
3.534,-0.127640307660063,0.0422232577914984
3.536,-0.127365079561135,0.0434570994695535
3.538,-0.127077622091494,0.044696201929104
3.54,-0.12677009910302,0.0459454488784222
3.542,-0.126454684967001,0.0472034921020213
3.544,-0.12611475789831,0.0484618395052127
3.546,-0.12575859078755,0.0497286268825896
3.548,-0.125385459677099,0.0510090387862344
3.55,-0.124989649906067,0.0522897983438438
3.552,-0.124579831809199,0.0535768945455516
3.554,-0.124146089876678,0.0548679074836826
3.556,-0.123686330560874,0.0561638779322487
3.558,-0.123211075169016,0.0574603195712887
3.56,-0.122710892218794,0.0587595078510024
3.562,-0.122183431199887,0.0600630416977256
3.564,-0.121637330044437,0.0613674411977101
3.566,-0.121065682016482,0.0626687966516854
3.568,-0.12046560829827,0.0639735105712709
3.57,-0.119846038768569,0.0652742371158099
3.572,-0.119197484968901,0.0665675587086531
3.574,-0.118528144855728,0.0678586796140179
3.576,-0.117826720967573,0.0691486644803303
3.578,-0.117101569539098,0.070428330354669
3.58,-0.116347649024155,0.0717053579579463
3.582,-0.115575612883755,0.0729685750722691
3.584,-0.114765959927027,0.074225293391838
3.586,-0.113935732488117,0.0754711392974247
3.588,-0.113080120421043,0.0767052453778896
3.59,-0.112200614777549,0.0779194962579944
3.592,-0.111292584846871,0.0791239233984159
3.594,-0.110363248901522,0.0803138297056786
3.596,-0.109406751190021,0.0814877544148876
3.598,-0.108421121713576,0.0826432914083024
3.6,-0.107417327759798,0.0837817183506428
3.602,-0.106397911187316,0.084899204675311
3.604,-0.105342739978454,0.0859928670533087
3.606,-0.104271740281802,0.0870638472670682
3.608,-0.103182762457851,0.0881166625260054
3.61,-0.102071304356548,0.0891462667599266
3.612,-0.100943214661881,0.0901477024112414
3.614,-0.09980155102643,0.0911270658829679
3.616,-0.0986349821329138,0.0920795399205591
3.618,-0.0974544803057556,0.093003962509539
3.62,-0.0962655470495832,0.0938970960639458
3.622,-0.0950573428160115,0.0947697543625597
3.624,-0.0938370367397408,0.0956108465099854
3.626,-0.0926035809791196,0.0964167251385147
3.628,-0.0913675416964049,0.0972009840158085
3.63,-0.0901216527943032,0.0979501660783693
3.632,-0.0888682537780401,0.0986742182458583
3.634,-0.0876135510900142,0.0993667232912071
3.636,-0.0863479580770088,0.100030467266514
3.638,-0.085080879203026,0.100664262027804
3.64,-0.0838121266988427,0.101256221200567
3.642,-0.0825448702601157,0.101838863911104
3.644,-0.0812666841646463,0.102386178346696
3.646,-0.0800126151770528,0.102887854455606
3.648,-0.0787520699614769,0.103375140868864
3.65,-0.0774961575053152,0.10383305450586
3.652,-0.0762437408509752,0.104259835799808
3.654,-0.0750034304036551,0.104658700068948
3.656,-0.0737689952931943,0.105039986155621
3.658,-0.0725444296219053,0.105389917029148
3.66,-0.0713315724064804,0.105708062528507
3.662,-0.0701315715229445,0.106010004370842
3.664,-0.0689424673066043,0.106285677777797
3.666,-0.0677677639180947,0.106541449130651
3.668,-0.0666007414344271,0.106773433667292
3.67,-0.0654641592151147,0.106980233248007
3.672,-0.0643334138993519,0.107175996846068
3.674,-0.0632207216021932,0.107356517403169
3.676,-0.0621275291388499,0.107516903266403
3.678,-0.0610506347300144,0.107657537344389
3.68,-0.0599918112792285,0.107793296867778
3.682,-0.0589513449763316,0.107911387924547
3.684,-0.0579212543049687,0.108022917415162
3.686,-0.0569250841841483,0.108116991008165
3.688,-0.055938222306882,0.108204315602555
3.69,-0.0549694064738625,0.108286476108286
3.692,-0.0540256956862549,0.108361807581221
3.694,-0.053104828989515,0.108431983023341
3.696,-0.0521837323253013,0.108499637300246
3.698,-0.0512965505484635,0.108565025627544
3.7,-0.050422286251104,0.10862884838403
3.702,-0.0495746793867052,0.108692401242723
3.704,-0.0487248661813483,0.108758818606724
3.706,-0.0479004171630189,0.108822433251918
3.708,-0.0470898587599834,0.108897734681536
3.71,-0.0462965957252514,0.1089663861815
3.712,-0.0455152994821272,0.109055367730676
3.714,-0.044750969563879,0.109144276997918
3.716,-0.0439980505694147,0.109237261767981
3.718,-0.0432470894441621,0.109341339284269
3.72,-0.0425176392699527,0.109459385183434
3.722,-0.0417878495650388,0.109579821349807
3.724,-0.041064392563209,0.109711156352697
3.726,-0.0403499836599882,0.109852794107529
3.728,-0.0396448450621552,0.110012072892823
3.73,-0.0389373267477279,0.110167497040062
3.732,-0.0382343314508763,0.110348063464342
3.734,-0.0375322095347625,0.110547197996959
3.736,-0.0368310571275823,0.110745405068801
3.738,-0.0361283824159857,0.110959738442591
3.74,-0.0354216698882767,0.111187398643037
3.742,-0.0347119019925766,0.11142029777079
3.744,-0.033992544360405,0.1116669111233
3.746,-0.0332770920398577,0.111922395053493
3.748,-0.0325416063949832,0.11219561976137
3.75,-0.031808969318317,0.112467629759433
3.752,-0.0310581102294924,0.112765598986967
3.754,-0.0303011643509863,0.113059782543228
3.756,-0.0295279672200003,0.113367010082486
3.758,-0.0287465598694503,0.113674276676918
3.76,-0.0279470000600652,0.113992623835421
3.762,-0.0271357670126571,0.114318234808226
3.764,-0.0263055218984565,0.114646124928489
3.766,-0.0254569746886317,0.114985732142677
3.768,-0.0245897665738991,0.115319118704851
3.77,-0.0237145167982739,0.115658536027864
3.772,-0.0228148824659708,0.115995419017422
3.774,-0.0218937907414071,0.116319801174994
3.776,-0.0209575799903638,0.116651341268683
3.778,-0.0200011066932697,0.116992300176911
3.78,-0.0190263888916254,0.117309583803447
3.782,-0.0180241177535656,0.117625803079985
3.784,-0.0170048466315603,0.117935881762632
3.786,-0.0159732300062462,0.11823574070921
3.788,-0.0149104300744181,0.118515016858373
3.79,-0.0138326173601455,0.118799184229565
3.792,-0.0127334607020407,0.119061799421754
3.794,-0.0116114587356623,0.119307128264247
3.796,-0.0104854714390813,0.119538198032083
3.798,-0.00932368315156688,0.119755932217006
3.8,-0.00815135553944677,0.119950236451077
3.802,-0.00696461989709079,0.120130793979191
3.804,-0.00575819461506403,0.120287272937454
3.806,-0.00453321877542449,0.120419972227585
3.808,-0.00329896258514746,0.120529505036074
3.81,-0.00205039276275023,0.120612425111413
3.812,-0.00078858937301705,0.120671920318143
3.814,0.00048994888509017,0.120710273386862
3.816,0.00177554312137176,0.120712157849147
3.818,0.00306577802418423,0.120691501862396
3.82,0.00436875095507112,0.120644197086597
3.822,0.00567709576825717,0.120564067726044
3.824,0.00699049161094094,0.120452228276941
3.826,0.0083063452094711,0.120311922633983
3.828,0.0096230523043591,0.120142432799835
3.83,0.0109434931061134,0.119938835975572
3.832,0.0122626071471344,0.11970567415003
3.834,0.013580950186021,0.119441337956142
3.836,0.0148948811988014,0.119144716709143
3.838,0.0161970579206229,0.118817625441797
3.84,0.0175023856147799,0.118463345592522
3.842,0.0187960369155272,0.118070837215449
3.844,0.0200789024611687,0.117649318781506
3.846,0.021350678566273,0.117198168418342
3.848,0.022611764871873,0.116718214573313
3.85,0.0238578913475855,0.116205664701336
3.852,0.025089874061659,0.11566508655477
3.854,0.0263003318838963,0.115096400282213
3.856,0.0275012917073614,0.114498626945251
3.858,0.0286816002749444,0.113877931946237
3.86,0.029835931169777,0.113227913193943
3.862,0.0309720522684504,0.11255993356426
3.864,0.0320814641720784,0.111862554942821
3.866,0.0331675537522071,0.111144825490613
3.868,0.0342297180145446,0.110404356027543
3.87,0.0352770062505121,0.109644479705022
3.872,0.0362835130586653,0.108865402305482
3.874,0.0372675555859071,0.108067605913894
3.876,0.0382356524185539,0.107256091421267
3.878,0.0391630101822417,0.10643014223913
3.88,0.0400559636516352,0.105584492906995
3.882,0.0409355783190098,0.104737596365816
3.884,0.0417701960056259,0.103871916411339
3.886,0.0425823298649743,0.103001055506821
3.888,0.0433696891378174,0.102127476185629
3.89,0.0441135581880879,0.101244431500416
3.892,0.0448419308626088,0.100352569679554
3.894,0.0455363993836607,0.099456964012631
3.896,0.0461951780403541,0.09856914407688
3.898,0.0468286287788694,0.0976744325369227
3.9,0.0474322113495106,0.096783949876221
3.902,0.0480045381135812,0.0958960154180452
