"Freq [GHz]","re(S(Tx_p1,Tx_p1)) []","im(S(Tx_p1,Tx_p1)) []"
1,0.1839310096,-0.7821419926
1.01,0.1605194984,-0.7871569822
1.02,0.1368097446,-0.7914855289
1.03,0.1128280796,-0.7951075262
1.04,0.08860173358,-0.7980042965
1.05,0.06415876447,-0.800158607
1.06,0.03952798829,-0.8015546825
1.07,0.01473890938,-0.8021782167
1.08,-0.01017834862,-0.8020163816
1.09,-0.03519311131,-0.8010578343
1.1,-0.06027422148,-0.7992927223
1.11,-0.08539010641,-0.7967126864
1.12,-0.1105088445,-0.7933108616
1.13,-0.1355982314,-0.7890818759
1.14,-0.160625845,-0.784021847
1.15,-0.1855591098,-0.7781283771
1.16,-0.2103653607,-0.7714005455
1.17,-0.2350119057,-0.763838899
1.18,-0.2594660872,-0.7554454409
1.19,-0.2836953431,-0.7462236172
1.2,-0.3076672663,-0.7361783017
1.21,-0.3313496632,-0.7253157782
1.22,-0.3547106112,-0.7136437221
1.23,-0.3777185148,-0.7011711786
1.24,-0.4003421604,-0.6879085407
1.25,-0.4225507702,-0.6738675242
1.26,-0.444314054,-0.6590611415
1.27,-0.4656022608,-0.6435036739
1.28,-0.4863862272,-0.6272106421
1.29,-0.5066374261,-0.6101987749
1.3,-0.5263280128,-0.5924859768
1.31,-0.5454308698,-0.5740912939
1.32,-0.5639196497,-0.5550348789
1.33,-0.5817688176,-0.5353379536
1.34,-0.59895369,-0.5150227719
1.35,-0.6154504735,-0.4941125799
1.36,-0.6312363011,-0.4726315758
1.37,-0.646289267,-0.4506048688
1.38,-0.660588459,-0.4280584363
1.39,-0.6741139904,-0.4050190809
1.4,-0.6868470282,-0.381514386
1.41,-0.6987698213,-0.3575726711
1.42,-0.7098657257,-0.3332229459
1.43,-0.7201192279,-0.3084948637
1.44,-0.7295159672,-0.2834186749
1.45,-0.7380427549,-0.2580251791
1.46,-0.7456875929,-0.2323456774
1.47,-0.7524396892,-0.2064119237
1.48,-0.7582894723,-0.1802560766
1.49,-0.7632286035,-0.1539106497
1.5,-0.767249987,-0.127408463
1.51,-0.7703477784,-0.1007825937
1.52,-0.7725173914,-0.07406632633
1.53,-0.7737555025,-0.04729310419
1.54,-0.7740600534,-0.02049647958
1.55,-0.7734302524,0.006289935018
1.56,-0.7718665733,0.03303251592
1.57,-0.7693707525,0.0596976768
1.58,-0.7659457852,0.08625191698
1.59,-0.7615959181,0.1126618693
1.6,-0.7563266423,0.1388943478
1.61,-0.750144683,0.1649163941
1.62,-0.7430579881,0.1906953245
1.63,-0.7350757153,0.2161987751
1.64,-0.726208217,0.2413947473
1.65,-0.7164670242,0.2662516521
1.66,-0.7058648285,0.2907383535
1.67,-0.6944154623,0.3148242113
1.68,-0.6821338783,0.3384791232
1.69,-0.6690361264,0.3616735655
1.7,-0.6551393306,0.3843786329
1.71,-0.6404616627,0.4065660781
1.72,-0.6250223168,0.4282083489
1.73,-0.6088414805,0.4492786255
1.74,-0.591940306,0.4697508561
1.75,-0.5743408797,0.489599791
1.76,-0.5560661908,0.5088010163
1.77,-0.5371400983,0.5273309853
1.78,-0.5175872975,0.5451670498
1.79,-0.4974332849,0.5622874891
1.8,-0.4767043227,0.5786715379
1.81,-0.4554274022,0.5942994134
1.82,-0.433630206,0.6091523399
1.83,-0.4113410696,0.6232125729
1.84,-0.3885889426,0.6364634215
1.85,-0.3654033485,0.648889269
1.86,-0.3418143444,0.6604755922
1.87,-0.3178524796,0.6712089795
1.88,-0.2935487545,0.6810771469
1.89,-0.2689345776,0.6900689527
1.9,-0.2440417239,0.6981744107
1.91,-0.2189022908,0.705384702
1.92,-0.1935486559,0.7116921844
1.93,-0.1680134326,0.7170904015
1.94,-0.1423294265,0.7215740889
1.95,-0.1165295917,0.7251391796
1.96,-0.09064698661,0.7277828075
1.97,-0.06471472959,0.7295033094
1.98,-0.03876595522,0.7303002255
1.99,-0.01283377008,0.7301742978
2,0.01304879109,0.7291274675
2.01,0.0388488091,0.7271628705
2.02,0.06453352381,0.7242848315
2.03,0.09007037732,0.7204988559
2.04,0.1154270568,0.7158116214
2.05,0.1405715368,0.7102309667
2.06,0.1654721215,0.7037658795
2.07,0.1900974859,0.696426483
2.08,0.2144167169,0.6882240201
2.09,0.2383993534,0.6791708372
2.1,0.2620154261,0.669280366
2.11,0.2852354964,0.6585671036
2.12,0.3080306943,0.6470465921
2.13,0.3303727558,0.634735396
2.14,0.3522340596,0.6216510783
2.15,0.3735876621,0.6078121763
2.16,0.3944073325,0.5932381746
2.17,0.414667586,0.5779494782
2.18,0.4343437165,0.5619673837
2.19,0.4534118279,0.5453140498
2.2,0.4718488643,0.5280124658
2.21,0.4896326396,0.5100864205
2.22,0.5067418645,0.4915604685
2.23,0.5231561743,0.4724598966
2.24,0.5388561531,0.4528106891
2.25,0.5538233589,0.4326394916
2.26,0.5680403456,0.4119735746
2.27,0.5814906846,0.3908407963
2.28,0.5941589848,0.3692695641
2.29,0.606030911,0.3472887961
2.3,0.6170932009,0.3249278816
2.31,0.627333681,0.3022166408
2.32,0.6367412801,0.2791852848
2.33,0.6453060426,0.255864374
2.34,0.6530191386,0.2322847771
2.35,0.6598728744,0.2084776291
2.36,0.6658606997,0.1844742896
2.37,0.6709772143,0.1603062999
2.38,0.6752181727,0.1360053412
2.39,0.6785804874,0.1116031914
2.4,0.6810622305,0.08713168294
2.41,0.682662634,0.0626226598
2.42,0.6833820877,0.03810793513
2.43,0.6832221364,0.0136192487
2.44,0.6821854754,-0.01081177538
2.45,0.6802759439,-0.03515367074
2.46,0.6774985173,-0.05937517048
2.47,0.6738592977,-0.08344524853
2.48,0.6693655035,-0.1073331607
2.49,0.6640254564,-0.1310084853
2.5,0.6578485678,-0.1544411627
2.51,0.6508453234,-0.1776015354
2.52,0.6430272665,-0.2004603861
2.53,0.6344069797,-0.2229889765
2.54,0.6249980651,-0.2451590837
2.55,0.6148151237,-0.2669430378
2.56,0.6038737328,-0.2883137568
2.57,0.5921904226,-0.3092447816
2.58,0.5797826511,-0.32971031
2.59,0.5666687784,-0.3496852294
2.6,0.5528680391,-0.3691451485
2.61,0.5384005141,-0.3880664283
2.62,0.5232871009,-0.4064262115
2.63,0.5075494834,-0.4242024509
2.64,0.4912101,-0.4413739369
2.65,0.4742921116,-0.4579203233
2.66,0.4568193674,-0.473822152
2.67,0.4388163715,-0.4890608763
2.68,0.4203082472,-0.5036188835
2.69,0.4013207015,-0.517479515
2.7,0.3818799885,-0.5306270861
2.71,0.3620128722,-0.5430469034
2.72,0.3417465888,-0.554725282
2.73,0.3211088085,-0.5656495598
2.74,0.3001275964,-0.5758081115
2.75,0.278831374,-0.5851903605
2.76,0.2572488789,-0.5937867895
2.77,0.2354091256,-0.6015889494
2.78,0.2133413651,-0.6085894671
2.79,0.1910750446,-0.6147820513
2.8,0.1686397675,-0.6201614972
2.81,0.1460652528,-0.6247236891
2.82,0.1233812944,-0.6284656022
2.83,0.1006177211,-0.6313853021
2.84,0.07780435632,-0.6334819437
2.85,0.05497097779,-0.6347557676
2.86,0.03214727785,-0.6352080959
2.87,0.00936282387,-0.6348413257
2.88,-0.01335298095,-0.633658922
2.89,-0.03597093645,-0.6316654082
2.9,-0.05846208383,-0.628866356
2.91,-0.08079774353,-0.6252683736
2.92,-0.1029495525,-0.6208790921
2.93,-0.1248895009,-0.6157071514
2.94,-0.1465899682,-0.6097621838
2.95,-0.1680237582,-0.6030547973
2.96,-0.1891641342,-0.5955965568
2.97,-0.2099848519,-0.5873999645
2.98,-0.2304601931,-0.5784784389
2.99,-0.2505649972,-0.5688462929
3,-0.2702746924,-0.5585187105
3.01,-0.289565326,-0.5475117227
3.02,-0.3084135932,-0.535842182
3.03,-0.3267968655,-0.5235277363
3.04,-0.3446932172,-0.5105868013
3.05,-0.3620814517,-0.497038533
3.06,-0.3789411262,-0.4829027979
3.07,-0.3952525748,-0.4682001438
3.08,-0.4109969313,-0.452951769
3.09,-0.4261561502,-0.4371794908
3.1,-0.4407130266,-0.4209057138
3.11,-0.4546512148,-0.4041533971
3.12,-0.4679552458,-0.3869460214
3.13,-0.480610543,-0.369307555
3.14,-0.4926034373,-0.35126242
3.15,-0.5039211805,-0.3328354574
3.16,-0.5145519573,-0.3140518925
3.17,-0.5244848959,-0.2949372996
3.18,-0.5337100777,-0.2755175665
3.19,-0.5422185455,-0.2558188588
3.2,-0.5500023097,-0.235867584
3.21,-0.5570543542,-0.2156903561
3.22,-0.5633686401,-0.1953139587
3.23,-0.5689401087,-0.1747653099
3.24,-0.5737646828,-0.154071426
3.25,-0.5778392663,-0.1332593857
3.26,-0.5811617439,-0.1123562944
3.27,-0.5837309776,-0.09138924896
3.28,-0.5855468033,-0.07038530212
3.29,-0.5866100259,-0.04937142791
3.3,-0.5869224124,-0.0283744869
3.31,-0.5864866849,-0.007421192019
3.32,-0.5853065114,0.01346192525
3.33,-0.5833864959,0.03424854814
3.34,-0.5807321675,0.05491260742
3.35,-0.5773499679,0.07542831367
3.36,-0.5732472379,0.09577018892
3.37,-0.5684322033,0.1159130977
3.38,-0.562913959,0.1358322774
3.39,-0.5567024527,0.1555033679
3.4,-0.5498084672,0.1749024409
3.41,-0.5422436021,0.1940060273
3.42,-0.5340202541,0.2127911455
3.43,-0.525151597,0.2312353275
3.44,-0.51565156,0.2493166446
3.45,-0.5055348065,0.2670137323
3.46,-0.4948167104,0.2843058145
3.47,-0.4835133333,0.3011727262
3.48,-0.4716414,0.3175949358
3.49,-0.4592182734,0.3335535661
3.5,-0.4462619292,0.3490304146
3.51,-0.4327909296,0.3640079724
3.52,-0.4188243967,0.3784694426
3.53,-0.4043819853,0.3923987571
3.54,-0.389483855,0.4057805932
3.55,-0.3741506423,0.4186003879
3.56,-0.3584034319,0.4308443524
3.57,-0.3422637281,0.4424994848
3.58,-0.325753425,0.4535535819
3.59,-0.3088947776,0.4639952502
3.6,-0.2917103718,0.4738139149
3.61,-0.2742230945,0.4829998294
3.62,-0.2564561036,0.4915440821
3.63,-0.2384327976,0.499438603
3.64,-0.2201767853,0.5066761691
3.65,-0.2017118557,0.5132504089
3.66,-0.1830619474,0.519155805
3.67,-0.1642511182,0.5243876967
3.68,-0.1453035152,0.528942281
3.69,-0.1262433441,0.5328166124
3.7,-0.1070948396,0.5360086023
3.71,-0.08788223534,0.5385170162
3.72,-0.06862973403,0.5403414717
3.73,-0.04936147836,0.5414824334
3.74,-0.0301015216,0.5419412084
3.75,-0.01087379876,0.5417199402
3.76,0.008297901932,0.5408216015
3.77,0.02738996724,0.5392499866
3.78,0.04637898673,0.5370097019
3.79,0.06524178013,0.5341061571
3.8,0.08395542428,0.5305455533
3.81,0.1024972796,0.5263348725
3.82,0.1208450161,0.5214818648
3.83,0.1389766386,0.5159950348
3.84,0.156870512,0.5098836284
3.85,0.1745053853,0.5031576172
3.86,0.1918604154,0.4958276833
3.87,0.2089151901,0.4879052028
3.88,0.2256497509,0.479402229
3.89,0.2420446145,0.4703314743
3.9,0.2580807939,0.4607062922
3.91,0.273739819,0.450540658
3.92,0.2890037563,0.4398491491
3.93,0.3038552279,0.4286469248
3.94,0.3182774294,0.4169497058
3.95,0.3322541479,0.4047737523
3.96,0.3457697785,0.3921358424
3.97,0.3588093398,0.3790532499
3.98,0.3713584897,0.3655437212
3.99,0.3834035392,0.3516254523
4,0.3949314662,0.3373170649
4.01,0.4059299277,0.3226375828
4.02,0.4163872721,0.3076064071
4.03,0.4262925497,0.2922432917
4.04,0.4356355233,0.2765683185
4.05,0.4444066768,0.2606018718
4.06,0.452597224,0.2443646133
4.07,0.4601991162,0.227877456
4.08,0.4672050481,0.2111615388
4.09,0.4736084645,0.1942382
4.1,0.4794035644,0.1771289518
4.11,0.4845853051,0.1598554535
4.12,0.4891494056,0.1424394857
4.13,0.4930923485,0.1249029238
4.14,0.4964113815,0.1072677119
4.15,0.4991045176,0.08955583607
4.16,0.5011705349,0.07178929879
4.17,0.5026089751,0.05399009231
4.18,0.5034201414,0.0361801728
4.19,0.5036050956,0.01838143445
4.2,0.5031656539,0.0006156837164
4.21,0.5021043823,-0.01709538621
4.22,0.5004245912,-0.03473022077
4.23,0.4981303284,-0.05226742908
4.24,0.4952263727,-0.06968580878
4.25,0.491718225,-0.08696437055
4.26,0.4876120999,-0.1040823624
4.27,0.4829149158,-0.1210192932
4.28,0.4776342849,-0.1377549568
4.29,0.4717785013,-0.1542694545
4.3,0.4653565296,-0.1705432179
4.31,0.4583779919,-0.1865570315
4.32,0.4508531546,-0.2022920539
4.33,0.4427929139,-0.2177298394
4.34,0.4342087816,-0.2328523587
4.35,0.4251128687,-0.2476420192
4.36,0.4155178704,-0.2620816846
4.37,0.4054370481,-0.2761546938
4.38,0.3948842129,-0.2898448799
4.39,0.3838737072,-0.3031365874
4.4,0.3724203863,-0.31601469
4.41,0.3605395991,-0.3284646072
4.42,0.3482471685,-0.3404723196
4.43,0.3355593712,-0.3520243849
4.44,0.3224929174,-0.3631079518
4.45,0.309064929,-0.3737107742
4.46,0.2952929186,-0.383821224
4.47,0.2811947673,-0.3934283037
4.48,0.2667887025,-0.4025216577
4.49,0.252093275,-0.4110915831
4.5,0.2371273361,-0.4191290397
4.51,0.221910014,-0.4266256592
4.52,0.2064606904,-0.4335737538
4.53,0.1907989765,-0.4399663231
4.54,0.174944689,-0.4457970617
4.55,0.1589178254,-0.4510603643
4.56,0.1427385401,-0.4557513312
4.57,0.1264271191,-0.4598657723
4.58,0.1100039558,-0.4634002108
4.59,0.09348952584,-0.466351885
4.6,0.07690436227,-0.4687187508
4.61,0.06026903076,-0.4704994816
4.62,0.04360410461,-0.4716934691
4.63,0.02693013982,-0.4723008216
4.64,0.01026765039,-0.4723223627
4.65,-0.006362916484,-0.4717596285
4.66,-0.02294120497,-0.4706148638
4.67,-0.03944697502,-0.4688910185
4.68,-0.0558601267,-0.4665917415
4.69,-0.07216072415,-0.4637213754
4.7,-0.08832901947,-0.4602849492
4.71,-0.1043454762,-0.4562881711
4.72,-0.1201907927,-0.4517374193
4.73,-0.1358459249,-0.4466397336
4.74,-0.1512921089,-0.4410028046
4.75,-0.1665108833,-0.4348349633
4.76,-0.1814841108,-0.4281451696
4.77,-0.1961939998,-0.4209429994
4.78,-0.210623125,-0.4132386322
4.79,-0.2247544481,-0.405042837
4.8,-0.2385713373,-0.3963669577
4.81,-0.2520575873,-0.3872228984
4.82,-0.2651974373,-0.3776231073
4.83,-0.2779755902,-0.3675805601
4.84,-0.2903772293,-0.3571087436
4.85,-0.3023880359,-0.3462216372
4.86,-0.3139942056,-0.3349336954
4.87,-0.3251824638,-0.3232598288
4.88,-0.3359400808,-0.3112153846
4.89,-0.3462548865,-0.2988161273
4.9,-0.3561152835,-0.2860782178
4.91,-0.36551026,-0.2730181933
4.92,-0.3744294026,-0.2596529461
4.93,-0.382862907,-0.2459997016
4.94,-0.3908015887,-0.232075997
4.95,-0.3982368932,-0.2178996587
4.96,-0.4051609048,-0.2034887801
4.97,-0.4115663547,-0.1888616982
4.98,-0.4174466285,-0.1740369715
4.99,-0.4227957729,-0.1590333556
5,-0.4276085013,-0.1438697807
5.01,-0.431880199,-0.1285653272
5.02,-0.4356069268,-0.1131392025
5.03,-0.4387854245,-0.09761071668
5.04,-0.4414131135,-0.08199925894
5.05,-0.4434880981,-0.0663242733
5.06,-0.4450091661,-0.05060523469
5.07,-0.4459757888,-0.03486162504
5.08,-0.4463881201,-0.01911290923
5.09,-0.4462469945,-0.003378511314
5.1,-0.4455539246,0.01232220929
5.11,-0.4443110972,0.0279699814
5.12,-0.4425213697,0.04354564549
5.13,-0.4401882641,0.05903017699
5.14,-0.4373159618,0.07440470928
5.15,-0.4339092965,0.0896505565
5.16,-0.4299737464,0.104749236
5.17,-0.4255154265,0.1196824905
5.18,-0.4205410792,0.1344323102
5.19,-0.4150580644,0.1489809537
5.2,-0.409074349,0.1633109699
5.21,-0.4025984957,0.1774052178
5.22,-0.3956396511,0.1912468876
5.23,-0.3882075326,0.2048195198
5.24,-0.3803124157,0.218107025
5.25,-0.3719651195,0.2310937024
5.26,-0.3631769922,0.2437642582
5.27,-0.3539598961,0.2561038234
5.28,-0.3443261915,0.2680979705
5.29,-0.3342887205,0.2797327307
5.3,-0.3238607898,0.2909946096
5.31,-0.3130561538,0.3018706023
5.32,-0.3018889959,0.3123482082
5.33,-0.2903739107,0.3224154453
5.34,-0.2785258848,0.3320608632
5.35,-0.2663602777,0.3412735559
5.36,-0.2538928017,0.3500431739
5.37,-0.2411395024,0.3583599351
5.38,-0.2281167379,0.3662146356
5.39,-0.2148411578,0.3735986596
5.4,-0.2013296829,0.3805039879
5.41,-0.1875994831,0.3869232069
5.42,-0.1736679564,0.3928495157
5.43,-0.1595527067,0.3982767328
5.44,-0.1452715223,0.4031993023
5.45,-0.1308423532,0.4076122993
5.46,-0.1162832894,0.4115114339
5.47,-0.1016125381,0.4148930549
5.48,-0.08684840167,0.4177541533
5.49,-0.07200925468,0.4200923634
5.5,-0.05711352176,0.421905965
5.51,-0.04217965492,0.4231938833
5.52,-0.02722611111,0.4239556892
5.53,-0.01227132975,0.4241915975
5.54,0.002666289574,0.4239024659
5.55,0.01756840936,0.4230897919
5.56,0.03241677628,0.4217557097
5.57,0.04719324316,0.4199029859
5.58,0.06187979067,0.4175350149
5.59,0.07645854889,0.4146558132
5.6,0.09091181862,0.4112700129
5.61,0.1052220924,0.4073828551
5.62,0.1193720753,0.4030001817
5.63,0.1333447053,0.3981284272
5.64,0.1471231735,0.3927746095
5.65,0.1606909437,0.3869463203
5.66,0.1740317721,0.3806517142
5.67,0.1871297259,0.3738994979
5.68,0.1999692021,0.3666989186
5.69,0.2125349457,0.3590597512
5.7,0.2248120672,0.3509922859
5.71,0.2367860598,0.3425073142
5.72,0.2484428162,0.333616115
5.73,0.2597686447,0.3243304399
5.74,0.270750285,0.3146624983
5.75,0.2813749229,0.3046249413
5.76,0.2916302054,0.2942308459
5.77,0.3015042544,0.2834936981
5.78,0.31098568,0.2724273761
5.79,0.3200635931,0.2610461324
5.8,0.3287276182,0.2493645763
5.81,0.3369679042,0.2373976555
5.82,0.3447751356,0.2251606371
5.83,0.3521405427,0.2126690893
5.84,0.3590559111,0.1999388611
5.85,0.3655135906,0.1869860638
5.86,0.3715065034,0.1738270503
5.87,0.3770281514,0.1604783951
5.88,0.3820726235,0.1469568743
5.89,0.3866346012,0.1332794448
5.9,0.3907093641,0.1194632233
5.91,0.3942927948,0.1055254661
5.92,0.3973813825,0.09148354739
5.93,0.3999722267,0.0773549384
5.94,0.4020630393,0.06315718625
5.95,0.4036521465,0.0489078926
5.96,0.4047384898,0.03462469236
5.97,0.4053216266,0.02032523237
5.98,0.4054017295,0.006027150152
5.99,0.4049795853,-0.008251947415
6,0.4040565931,-0.02249450523
