"Freq [GHz]","re(S(Tx_p1,Tx_p1)) []","im(S(Tx_p1,Tx_p1)) []"
1,0.1927270025,-0.6985276323
1.01,0.1723053898,-0.7039175692
1.02,0.151583851,-0.7087341184
1.03,0.1305836249,-0.7129579173
1.04,0.1093268081,-0.7165707668
1.05,0.0878362981,-0.7195556468
1.06,0.06613573627,-0.7218967299
1.07,0.04424945117,-0.7235793935
1.08,0.02220240245,-0.7245902308
1.09,2.012504899E-05,-0.7249170601
1.1,-0.02227132613,-0.7245489324
1.11,-0.04464543117,-0.7234761374
1.12,-0.06707525962,-0.7216902085
1.13,-0.08953352448,-0.7191839257
1.14,-0.1119926357,-0.715951317
1.15,-0.1344247533,-0.7119876585
1.16,-0.1568018394,-0.7072894724
1.17,-0.1790957108,-0.7018545244
1.18,-0.2012780895,-0.6956818183
1.19,-0.2233206536,-0.6887715903
1.2,-0.2451950873,-0.6811253007
1.21,-0.26687313,-0.6727456251
1.22,-0.2883266248,-0.663636443
1.23,-0.3095275664,-0.6538028261
1.24,-0.3304481474,-0.6432510244
1.25,-0.351060805,-0.6319884506
1.26,-0.3713382658,-0.6200236644
1.27,-0.3912535901,-0.6073663537
1.28,-0.4107802152,-0.594027316
1.29,-0.4298919978,-0.5800184376
1.3,-0.4485632552,-0.5653526713
1.31,-0.4667688056,-0.5500440141
1.32,-0.4844840072,-0.5341074821
1.33,-0.5016847965,-0.5175590853
1.34,-0.5183477252,-0.5004158008
1.35,-0.5344499956,-0.4826955452
1.36,-0.5499694957,-0.4644171456
1.37,-0.5648848325,-0.4456003094
1.38,-0.5791753639,-0.4262655938
1.39,-0.5928212297,-0.4064343739
1.4,-0.6058033813,-0.3861288095
1.41,-0.6181036098,-0.3653718119
1.42,-0.6297045731,-0.3441870091
1.43,-0.6405898213,-0.3225987109
1.44,-0.6507438212,-0.3006318723
1.45,-0.6601519787,-0.2783120572
1.46,-0.6688006609,-0.2556654011
1.47,-0.6766772152,-0.2327185727
1.48,-0.6837699887,-0.2094987356
1.49,-0.6900683448,-0.1860335094
1.5,-0.6955626791,-0.1623509297
1.51,-0.7002444334,-0.1384794088
1.52,-0.7041061087,-0.1144476948
1.53,-0.7071412759,-0.09028483111
1.54,-0.7093445862,-0.0660201157
1.55,-0.7107117786,-0.04168305981
1.56,-0.7112396871,-0.0173033466
1.57,-0.710926246,0.00708921026
1.58,-0.709770493,0.03146470814
1.59,-0.707772572,0.05579319705
1.6,-0.7049337335,0.08004472118
1.61,-0.7012563339,0.1041893604
1.62,-0.696743833,0.1281972715
1.63,-0.6914007904,0.1520387298
1.64,-0.6852328601,0.1756841695
1.65,-0.6782467839,0.199104225
1.66,-0.6704503829,0.222269771
1.67,-0.6618525482,0.2451519626
1.68,-0.6524632292,0.267722275
1.69,-0.6422934218,0.2899525424
1.7,-0.6313551537,0.3118149972
1.71,-0.6196614697,0.3332823075
1.72,-0.6072264147,0.3543276151
1.73,-0.5940650155,0.3749245721
1.74,-0.5801932618,0.3950473771
1.75,-0.5656280852,0.4146708105
1.76,-0.5503873373,0.4337702693
1.77,-0.5344897669,0.4523218009
1.78,-0.5179549948,0.4703021359
1.79,-0.5008034891,0.4876887203
1.8,-0.4830565376,0.504459746
1.81,-0.4647362206,0.5205941817
1.82,-0.4458653817,0.5360718011
1.83,-0.4264675974,0.5508732112
1.84,-0.4065671469,0.5649798791
1.85,-0.3861889794,0.5783741577
1.86,-0.3653586814,0.5910393097
1.87,-0.3441024432,0.6029595315
1.88,-0.3224470237,0.6141199747
1.89,-0.3004197154,0.6245067668
1.9,-0.278048308,0.634107031
1.91,-0.2553610517,0.6429089037
1.92,-0.2323866193,0.6509015514
1.93,-0.2091540684,0.658075186
1.94,-0.1856928024,0.6644210786
1.95,-0.1620325317,0.6699315717
1.96,-0.1382032335,0.6746000906
1.97,-0.1142351121,0.6784211524
1.98,-0.09015855844,0.6813903742
1.99,-0.06600410943,0.6835044796
2,-0.04180240696,0.6847613033
2.01,-0.01758415688,0.6851597952
2.02,0.006619912184,0.6847000216
2.03,0.03077909015,0.6833831659
2.04,0.05486272667,0.6812115275
2.05,0.07884027236,0.6781885189
2.06,0.1026813199,0.6743186612
2.07,0.1263556449,0.6696075789
2.08,0.1498332466,0.6640619921
2.09,0.1730843882,0.6576897077
2.1,0.1960796372,0.6504996092
2.11,0.2187899044,0.6425016447
2.12,0.2411864837,0.6337068137
2.13,0.2632410905,0.6241271519
2.14,0.2849258997,0.6137757156
2.15,0.3062135833,0.6026665634
2.16,0.327077347,0.5908147375
2.17,0.3474909663,0.5782362431
2.18,0.3674288219,0.5649480265
2.19,0.3868659337,0.5509679523
2.2,0.4057779946,0.5363147787
2.21,0.4241414029,0.5210081321
2.22,0.4419332941,0.5050684801
2.23,0.459131571,0.4885171035
2.24,0.4757149335,0.4713760673
2.25,0.4916629068,0.4536681902
2.26,0.5069558685,0.4354170137
2.27,0.5215750747,0.4166467694
2.28,0.5355026845,0.3973823461
2.29,0.5487217836,0.3776492557
2.3,0.5612164063,0.3574735978
2.31,0.5729715562,0.3368820245
2.32,0.5839732259,0.3159017034
2.33,0.5942084147,0.2945602807
2.34,0.6036651453,0.2728858432
2.35,0.6123324787,0.2509068799
2.36,0.6202005281,0.2286522431
2.37,0.6272604711,0.2061511089
2.38,0.63350456,0.1834329372
2.39,0.6389261312,0.1605274322
2.4,0.6435196128,0.1374645009
2.41,0.6472805303,0.1142742134
2.42,0.6502055117,0.0909867614
2.43,0.65229229,0.0676324174
2.44,0.6535397048,0.04424149378
2.45,0.6539477018,0.0208443017
2.46,0.6535173318,-0.002528889822
2.47,0.6522507468,-0.02584789472
2.48,0.6501511956,-0.04908265046
2.49,0.6472230173,-0.07220325843
2.5,0.6434716336,-0.09518002398
2.51,0.6389035395,-0.1179834961
2.52,0.6335262925,-0.1405845066
2.53,0.6273485004,-0.1629542092
2.54,0.6203798074,-0.1850641172
2.55,0.6126308794,-0.2068861417
2.56,0.6041133872,-0.2283926284
2.57,0.5948399889,-0.2495563935
2.58,0.5848243106,-0.2703507602
2.59,0.5740809259,-0.2907495924
2.6,0.5626253344,-0.3107273295
2.61,0.5504739386,-0.3302590188
2.62,0.5376440197,-0.349320348
2.63,0.5241537127,-0.3678876762
2.64,0.5100219795,-0.385938064
2.65,0.495268582,-0.4034493024
2.66,0.4799140531,-0.4203999411
2.67,0.4639796677,-0.436769315
2.68,0.447487412,-0.4525375701
2.69,0.4304599526,-0.4676856876
2.7,0.4129206041,-0.4821955077
2.71,0.3948932963,-0.4960497511
2.72,0.3764025408,-0.5092320397
2.73,0.3574733964,-0.5217269165
2.74,0.3381314343,-0.5335198632
2.75,0.3184027029,-0.544597317
2.76,0.2983136913,-0.5549466861
2.77,0.2778912931,-0.5645563636
2.78,0.2571627692,-0.5734157402
2.79,0.2361557111,-0.5815152154
2.8,0.2148980026,-0.588846207
2.81,0.1934177823,-0.5954011599
2.82,0.1717434057,-0.6011735529
2.83,0.1499034067,-0.6061579042
2.84,0.1279264593,-0.6103497755
2.85,0.1058413395,-0.6137457746
2.86,0.0836768869,-0.616343557
2.87,0.06146196611,-0.6181418255
2.88,0.03922542902,-0.6191403288
2.89,0.01699607658,-0.6193398583
2.9,-0.005197378925,-0.6187422442
2.91,-0.02732635138,-0.6173503496
2.92,-0.04936241802,-0.6151680633
2.93,-0.07127735626,-0.6122002918
2.94,-0.09304318011,-0.6084529492
2.95,-0.1146321761,-0.6039329467
2.96,-0.1360169387,-0.5986481799
2.97,-0.1571704054,-0.5926075153
2.98,-0.1780658908,-0.5858207761
2.99,-0.1986771201,-0.5782987255
3,-0.2189782626,-0.57005305
3.01,-0.2389439636,-0.5610963414
3.02,-0.2585493761,-0.5514420767
3.03,-0.2777701912,-0.5411045984
3.04,-0.2965826684,-0.5300990924
3.05,-0.3149636644,-0.5184415658
3.06,-0.3328906611,-0.5061488236
3.07,-0.3503417934,-0.4932384436
3.08,-0.3672958745,-0.4797287517
3.09,-0.3837324222,-0.4656387954
3.1,-0.3996316821,-0.4509883168
3.11,-0.4149746517,-0.4357977247
3.12,-0.4297431021,-0.420088066
3.13,-0.4439195991,-0.4038809966
3.14,-0.4574875231,-0.3871987512
3.15,-0.4704310881,-0.3700641128
3.16,-0.4827353591,-0.3525003815
3.17,-0.494386269,-0.3345313428
3.18,-0.5053706334,-0.3161812352
3.19,-0.5156761652,-0.2974747177
3.2,-0.5252914874,-0.2784368369
3.21,-0.5342061448,-0.2590929929
3.22,-0.5424106143,-0.2394689063
3.23,-0.5498963147,-0.2195905832
3.24,-0.5566556142,-0.1994842819
3.25,-0.5626818373,-0.1791764776
3.26,-0.5679692707,-0.158693828
3.27,-0.5725131673,-0.1380631388
3.28,-0.5763097493,-0.1173113283
3.29,-0.5793562102,-0.09646539307
3.3,-0.581650715,-0.07555237287
3.31,-0.5831924002,-0.05459931594
3.32,-0.5839813713,-0.03363324431
3.33,-0.5840187,-0.01268111937
3.34,-0.5833064199,0.008230192508
3.35,-0.5818475209,0.02907395401
3.36,-0.5796459427,0.04982359068
3.37,-0.5767065666,0.07045272442
3.38,-0.5730352067,0.09093520661
3.39,-0.5686385997,0.1112451508
3.4,-0.5635243935,0.1313569652
3.41,-0.5577011347,0.1512453842
3.42,-0.5511782554,0.1708854998
3.43,-0.5439660582,0.1902527926
3.44,-0.5360757007,0.2093231618
3.45,-0.5275191788,0.2280729547
3.46,-0.518309309,0.2464789958
3.47,-0.5084597099,0.2645186148
3.48,-0.4979847821,0.2821696745
3.49,-0.4868996881,0.2994105972
3.5,-0.4752203306,0.316220391
3.51,-0.46296333,0.3325786745
3.52,-0.4501460016,0.3484657018
3.53,-0.4367863312,0.3638623854
3.54,-0.4229029505,0.3787503193
3.55,-0.4085151115,0.3931118001
3.56,-0.3936426604,0.4069298481
3.57,-0.3783060101,0.420188227
3.58,-0.3625261133,0.4328714627
3.59,-0.346324434,0.4449648608
3.6,-0.3297229183,0.4564545237
3.61,-0.3127439658,0.4673273659
3.62,-0.2954103993,0.4775711289
3.63,-0.2777454343,0.4871743945
3.64,-0.2597726489,0.4961265976
3.65,-0.2415159521,0.5044180368
3.66,-0.2229995526,0.5120398855
3.67,-0.204247927,0.5189842001
3.68,-0.1852857875,0.5252439287
3.69,-0.1661380499,0.5308129171
3.7,-0.1468298011,0.5356859151
3.71,-0.1273862664,0.5398585802
3.72,-0.1078327766,0.5433274815
3.73,-0.08819473561,0.5460901016
3.74,-0.06849758721,0.5481448374
3.75,-0.04876678257,0.5494909997
3.76,-0.02902774734,0.5501288123
3.77,-0.009305849105,0.5500594088
3.78,0.01037363518,0.5492848294
3.79,0.02998555146,0.5478080156
3.8,0.04950490065,0.5456328041
3.81,0.06890687049,0.54276392
3.82,0.08816686701,0.5392069681
3.83,0.1072605457,0.5349684235
3.84,0.1261638424,0.5300556211
3.85,0.1448530035,0.5244767441
3.86,0.1633046157,0.5182408111
3.87,0.1814956357,0.5113576622
3.88,0.1994034191,0.5038379445
3.89,0.2170057481,0.495693096
3.9,0.2342808596,0.4869353291
3.91,0.2512074724,0.4775776124
3.92,0.2677648127,0.4676336521
3.93,0.2839326406,0.4571178728
3.94,0.2996912743,0.4460453961
3.95,0.3150216146,0.4344320198
3.96,0.3299051679,0.4222941955
3.97,0.3443240684,0.4096490054
3.98,0.3582611002,0.3965141386
3.99,0.3716997175,0.3829078666
4,0.3846240642,0.3688490178
4.01,0.3970189931,0.3543569516
4.02,0.4088700833,0.3394515318
4.03,0.4201636572,0.3241530995
4.04,0.4308867962,0.3084824455
4.05,0.4410273553,0.2924607814
4.06,0.4505739768,0.2761097114
4.07,0.4595161032,0.2594512031
4.08,0.4678439884,0.2425075573
4.09,0.475548708,0.2253013786
4.1,0.4826221691,0.207855545
4.11,0.4890571181,0.1901931768
4.12,0.4948471476,0.1723376065
4.13,0.4999867027,0.1543123472
4.14,0.5044710855,0.1361410617
4.15,0.508296459,0.1178475309
4.16,0.5114598492,0.09945562281
4.17,0.5139591464,0.08098926091
4.18,0.5157931059,0.06247239277
4.19,0.5169613462,0.04392895876
4.2,0.5174643478,0.02538286081
4.21,0.517303449,0.006857931325
4.22,0.5164808421,-0.01162209771
4.23,0.5149995678,-0.0300336254
4.24,0.5128635084,-0.04835321238
4.25,0.5100773801,-0.06655761086
4.26,0.5066467243,-0.08462379439
4.27,0.5025778976,-0.1025289872
4.28,0.4978780609,-0.1202506932
4.29,0.4925551676,-0.1377667243
4.3,0.4866179503,-0.1550552286
4.31,0.4800759069,-0.1720947173
4.32,0.472939286,-0.1888640923
4.33,0.4652190705,-0.2053426716
4.34,0.4569269612,-0.2215102157
4.35,0.4480753589,-0.2373469517
4.36,0.4386773457,-0.252833598
4.37,0.4287466659,-0.2679513877
4.38,0.4182977055,-0.2826820909
4.39,0.4073454715,-0.2970080372
4.4,0.3959055698,-0.3109121363
4.41,0.3839941829,-0.3243778981
4.42,0.371628047,-0.3373894524
4.43,0.3588244278,-0.3499315672
4.44,0.3456010965,-0.3619896661
4.45,0.3319763046,-0.3735498451
4.46,0.3179687585,-0.3845988877
4.47,0.3035975934,-0.3951242803
4.48,0.2888823471,-0.4051142252
4.49,0.2738429329,-0.4145576536
4.5,0.2584996124,-0.4234442371
4.51,0.242872968,-0.4317643982
4.52,0.2269838748,-0.4395093204
4.53,0.2108534727,-0.4466709558
4.54,0.1945031377,-0.4532420335
4.55,0.1779544534,-0.4592160655
4.56,0.1612291827,-0.4645873521
4.57,0.1443492381,-0.4693509864
4.58,0.1273366538,-0.4735028573
4.59,0.1102135559,-0.4770396519
4.6,0.09300213394,-0.4799588567
4.61,0.07572461199,-0.4822587572
4.62,0.05840321978,-0.4839384375
4.63,0.04106016407,-0.4849977779
4.64,0.02371760014,-0.4854374521
4.65,0.006397603551,-0.4852589231
4.66,-0.01087785797,-0.484464438
4.67,-0.02808695227,-0.4830570221
4.68,-0.04520801027,-0.4810404717
4.69,-0.06221955306,-0.4784193464
4.7,-0.07910031869,-0.4751989599
4.71,-0.09582928849,-0.4713853699
4.72,-0.112385713,-0.4669853678
4.73,-0.1287491372,-0.4620064667
4.74,-0.144899426,-0.456456889
4.75,-0.1608167877,-0.4503455526
4.76,-0.1764817988,-0.4436820572
4.77,-0.1918754266,-0.4364766689
4.78,-0.2069790519,-0.4287403043
4.79,-0.2217744912,-0.4204845142
4.8,-0.2362440179,-0.4117214662
4.81,-0.250370383,-0.4024639264
4.82,-0.2641368347,-0.3927252411
4.83,-0.277527138,-0.3825193174
4.84,-0.2905255929,-0.3718606029
4.85,-0.303117052,-0.3607640655
4.86,-0.3152869377,-0.3492451724
4.87,-0.3270212577,-0.3373198681
4.88,-0.3383066208,-0.3250045525
4.89,-0.3491302511,-0.3123160584
4.9,-0.3594800014,-0.2992716283
4.91,-0.3693443662,-0.285888891
4.92,-0.3787124932,-0.272185838
4.93,-0.3875741945,-0.2581807993
4.94,-0.3959199567,-0.2438924187
4.95,-0.4037409498,-0.2293396296
4.96,-0.4110290359,-0.2145416295
4.97,-0.4177767761,-0.1995178554
4.98,-0.4239774373,-0.1842879579
4.99,-0.4296249975,-0.1688717764
5,-0.4347141507,-0.1532893129
5.01,-0.4392403106,-0.1375607066
5.02,-0.4431996132,-0.1217062083
5.03,-0.4465889189,-0.1057461545
5.04,-0.4494058135,-0.08970094188
5.05,-0.4516486081,-0.07359100136
5.06,-0.4533163387,-0.05743677277
5.07,-0.4544087643,-0.0412586793
5.08,-0.4549263641,-0.02507710214
5.09,-0.4548703346,-0.008912355377
5.1,-0.4542425849,0.007215339048
5.11,-0.4530457316,0.02328587602
5.12,-0.4512830931,0.03927929175
5.13,-0.4489586822,0.055175788
5.14,-0.4460771993,0.07095575593
5.15,-0.4426440228,0.08659979971
5.16,-0.4386652012,0.1020887597
5.17,-0.4341474419,0.1174037351
5.18,-0.429098101,0.1325261066
5.19,-0.4235251719,0.1474375583
5.2,-0.4174372726,0.1621200989
5.21,-0.4108436331,0.1765560829
5.22,-0.4037540816,0.1907282314
5.23,-0.3961790303,0.2046196514
5.24,-0.3881294602,0.2182138559
5.25,-0.3796169058,0.2314947823
5.26,-0.3706534386,0.2444468109
5.27,-0.3612516505,0.2570547822
5.28,-0.3514246366,0.2693040145
5.29,-0.3411859769,0.2811803199
5.3,-0.3305497182,0.2926700199
5.31,-0.3195303548,0.3037599608
5.32,-0.3081428098,0.3144375279
5.33,-0.2964024147,0.324690659
5.34,-0.2843248891,0.3345078577
5.35,-0.2719263208,0.3438782051
5.36,-0.2592231437,0.3527913718
5.37,-0.2462321173,0.3612376282
5.38,-0.2329703047,0.3692078547
5.39,-0.2194550507,0.3766935506
5.4,-0.2057039593,0.3836868429
5.41,-0.1917348716,0.3901804936
5.42,-0.177565843,0.3961679067
5.43,-0.1632151202,0.4016431339
5.44,-0.1487011183,0.4066008803
5.45,-0.1340423976,0.4110365086
5.46,-0.1192576403,0.4149460424
5.47,-0.1043656272,0.4183261695
5.48,-0.08938521451,0.4211742436
5.49,-0.07433531003,0.4234882856
5.5,-0.05923485016,0.4252669837
5.51,-0.04410277632,0.4265096934
5.52,-0.02895801175,0.4272164358
5.53,-0.01381943828,0.4273878956
5.54,0.001294126761,0.4270254188
5.55,0.01636395346,0.4261310081
5.56,0.03137142211,0.4247073193
5.57,0.04629804577,0.4227576557
5.58,0.06112549261,0.420285962
5.59,0.07583560799,0.417296818
5.6,0.09041043631,0.4137954304
5.61,0.1048322425,0.4097876253
5.62,0.1190835332,0.4052798386
5.63,0.1331470777,0.4002791068
5.64,0.1470059281,0.394793056
5.65,0.1606434398,0.3888298914
5.66,0.1740432908,0.3823983851
5.67,0.1871895011,0.3755078639
5.68,0.2000664513,0.3681681961
5.69,0.2126589007,0.3603897777
5.7,0.2249520054,0.3521835182
5.71,0.2369313353,0.3435608256
5.72,0.2485828903,0.3345335909
5.73,0.2598931173,0.3251141722
5.74,0.2708489249,0.315315378
5.75,0.2814376983,0.3051504498
5.76,0.2916473141,0.2946330451
5.77,0.3014661534,0.2837772188
5.78,0.3108831149,0.2725974053
5.79,0.319887627,0.2611083988
5.8,0.3284696597,0.2493253346
5.81,0.3366197354,0.2372636693
5.82,0.3443289388,0.2249391605
5.83,0.3515889267,0.2123678466
5.84,0.3583919365,0.1995660264
5.85,0.3647307941,0.1865502376
5.86,0.3705989215,0.1733372362
5.87,0.3759903429,0.1599439749
5.88,0.3808996906,0.1463875812
5.89,0.3853222097,0.1326853364
5.9,0.3892537625,0.118854653
5.91,0.3926908319,0.1049130532
5.92,0.3956305236,0.09087814652
5.93,0.3980705685,0.07676760811
5.94,0.4000093231,0.0625991562
5.95,0.4014457703,0.04839053026
5.96,0.4023795184,0.03415946877
5.97,0.4028108,0.01992368732
5.98,0.4027404701,0.00570085657
5.99,0.4021700028,-0.008491419472
6,0.4011014878,-0.02263562518
