"Freq [GHz]","re(S(Tx_p1,Tx_p1)) []","im(S(Tx_p1,Tx_p1)) []"
1,0.1745345362,-0.6238335221
1.01,0.1565180486,-0.6284879425
1.02,0.1382476021,-0.6326485478
1.03,0.1197410761,-0.6362988781
1.04,0.1010170648,-0.6394234512
1.05,0.08209482952,-0.6420077728
1.06,0.06299425291,-0.6440383457
1.07,0.04373579235,-0.6455026778
1.08,0.02434043464,-0.64638929
1.09,0.004829650877,-0.6466877213
1.1,-0.01477464808,-0.6463885351
1.11,-0.03445015575,-0.6454833225
1.12,-0.05417421371,-0.6439647059
1.13,-0.07392385482,-0.641826341
1.14,-0.09367584602,-0.6390629174
1.15,-0.1134067306,-0.6356701591
1.16,-0.1330928704,-0.631644823
1.17,-0.1527104866,-0.6269846971
1.18,-0.1722357017,-0.6216885967
1.19,-0.1916445793,-0.6157563605
1.2,-0.2109131642,-0.6091888454
1.21,-0.2300175227,-0.6019879194
1.22,-0.2489337809,-0.5941564548
1.23,-0.2676381638,-0.5856983191
1.24,-0.286107033,-0.5766183656
1.25,-0.3043169247,-0.5669224227
1.26,-0.3222445862,-0.5566172821
1.27,-0.3398670127,-0.545710686
1.28,-0.3571614828,-0.5342113131
1.29,-0.3741055938,-0.522128764
1.3,-0.390677296,-0.5094735449
1.31,-0.4068549271,-0.496257051
1.32,-0.4226172447,-0.4824915483
1.33,-0.4379434591,-0.4681901547
1.34,-0.452813265,-0.4533668201
1.35,-0.4672068722,-0.4380363053
1.36,-0.4811050358,-0.4222141604
1.37,-0.4944890854,-0.4059167016
1.38,-0.5073409537,-0.3891609877
1.39,-0.5196432039,-0.3719647953
1.4,-0.5313790562,-0.3543465934
1.41,-0.5425324133,-0.3363255167
1.42,-0.5530878855,-0.3179213387
1.43,-0.5630308141,-0.2991544434
1.44,-0.5723472938,-0.2800457963
1.45,-0.5810241947,-0.2606169153
1.46,-0.5890491822,-0.2408898401
1.47,-0.5964107368,-0.2208871008
1.48,-0.603098172,-0.2006316869
1.49,-0.6091016513,-0.1801470148
1.5,-0.6144122041,-0.1594568945
1.51,-0.6190217402,-0.1385854967
1.52,-0.6229230632,-0.1175573188
1.53,-0.6261098824,-0.09639715024
1.54,-0.6285768234,-0.07513003811
1.55,-0.6303194382,-0.05378125168
1.56,-0.6313342126,-0.03237624705
1.57,-0.6316185733,-0.01094063141
1.58,-0.6311708934,0.01049987298
1.59,-0.6299904962,0.03191946491
1.6,-0.6280776582,0.05329230052
1.61,-0.6254336102,0.07459252967
1.62,-0.6220605373,0.09579433226
1.63,-0.6179615773,0.1168719546
1.64,-0.6131408182,0.1377997457
1.65,-0.6076032935,0.1585521933
1.66,-0.6013549769,0.1791039598
1.67,-0.5944027751,0.1994299181
1.68,-0.5867545196,0.2195051867
1.69,-0.5784189568,0.239305165
1.7,-0.5694057372,0.2588055674
1.71,-0.5597254025,0.2779824582
1.72,-0.5493893725,0.2968122845
1.73,-0.5384099298,0.3152719095
1.74,-0.5268002035,0.3333386453
1.75,-0.5145741518,0.350990284
1.76,-0.5017465432,0.368205129
1.77,-0.488332937,0.3849620257
1.78,-0.4743496618,0.4012403902
1.79,-0.4598137935,0.4170202384
1.8,-0.4447431324,0.4322822136
1.81,-0.4291561785,0.447007613
1.82,-0.4130721066,0.461178414
1.83,-0.3965107399,0.4747772981
1.84,-0.379492523,0.4877876756
1.85,-0.362038494,0.5001937071
1.86,-0.3441702555,0.5119803259
1.87,-0.3259099453,0.5231332576
1.88,-0.307280206,0.5336390397
1.89,-0.2883041539,0.543485039
1.9,-0.2690053477,0.5526594689
1.91,-0.2494077562,0.5611514042
1.92,-0.2295357256,0.5689507957
1.93,-0.2094139468,0.5760484825
1.94,-0.1890674211,0.5824362043
1.95,-0.1685214271,0.588106611
1.96,-0.1478014862,0.593053272
1.97,-0.1269333279,0.5972706834
1.98,-0.1059428556,0.6007542747
1.99,-0.08485611188,0.6035004134
2,-0.06369924317,0.6055064088
2.01,-0.04249846533,0.606770514
2.02,-0.02128002858,0.6072919271
2.03,-7.018279824E-05,0.6070707906
2.04,0.0211048572,0.6061081899
2.05,0.04221894612,0.6044061503
2.06,0.06324604247,0.6019676324
2.07,0.08416024256,0.5987965271
2.08,0.1049358142,0.5948976483
2.09,0.1255472299,0.5902767254
2.1,0.1459692,0.5849403936
2.11,0.1661767049,0.5788961838
2.12,0.1861450274,0.5721525109
2.13,0.2058497834,0.5647186612
2.14,0.2252669536,0.5566047785
2.15,0.2443729132,0.5478218492
2.16,0.2631444618,0.5383816865
2.17,0.281558852,0.5282969131
2.18,0.2995938179,0.5175809439
2.19,0.3172276024,0.5062479662
2.2,0.3344389839,0.4943129205
2.21,0.3512073022,0.4817914798
2.22,0.3675124835,0.4687000276
2.23,0.3833350645,0.4550556357
2.24,0.398656216,0.4408760411
2.25,0.4134577649,0.4261796219
2.26,0.4277222159,0.4109853728
2.27,0.4414327719,0.3953128797
2.28,0.4545733539,0.3791822937
2.29,0.4671286191,0.3626143044
2.3,0.4790839786,0.3456301131
2.31,0.4904256144,0.3282514048
2.32,0.5011404945,0.3105003203
2.33,0.5112163876,0.2923994272
2.34,0.5206418766,0.2739716914
2.35,0.529406371,0.255240447
2.36,0.5375001186,0.2362293673
2.37,0.5449142152,0.2169624342
2.38,0.5516406146,0.1974639079
2.39,0.5576721362,0.1777582964
2.4,0.5630024725,0.157870325
2.41,0.5676261949,0.1378249046
2.42,0.5715387591,0.1176471016
2.43,0.5747365084,0.09736210592
2.44,0.577216677,0.07699520007
2.45,0.5789773915,0.05657172799
2.46,0.5800176718,0.03611706364
2.47,0.5803374307,0.01565657984
2.48,0.5799374721,-0.004784382837
2.49,0.578819489,-0.02518054714
2.5,0.5769860598,-0.04550672998
2.51,0.5744406434,-0.06573787317
2.52,0.5711875743,-0.0858490739
2.53,0.567232055,-0.105815615
2.54,0.5625801494,-0.1256129951
2.55,0.5572387731,-0.1452169579
2.56,0.5512156845,-0.1646035219
2.57,0.544519474,-0.1837490095
2.58,0.5371595521,-0.202630075
2.59,0.5291461369,-0.2212237335
2.6,0.5204902411,-0.2395073879
2.61,0.5112036567,-0.2574588569
2.62,0.5012989405,-0.2750564011
2.63,0.490789397,-0.2922787492
2.64,0.479689062,-0.3091051242
2.65,0.4680126843,-0.3255152675
2.66,0.4557757066,-0.341489464
2.67,0.4429942462,-0.3570085654
2.68,0.4296850746,-0.3720540136
2.69,0.4158655957,-0.3866078624
2.7,0.4015538244,-0.4006527996
2.71,0.3867683635,-0.4141721677
2.72,0.3715283803,-0.4271499837
2.73,0.3558535824,-0.4395709585
2.74,0.3397641933,-0.4514205152
2.75,0.3232809262,-0.4626848066
2.76,0.3064249588,-0.4733507317
2.77,0.289217906,-0.4834059517
2.78,0.2716817931,-0.4928389045
2.79,0.253839028,-0.5016388186
2.8,0.2357123731,-0.5097957259
2.81,0.2173249166,-0.5173004738
2.82,0.1987000437,-0.5241447356
2.83,0.1798614067,-0.5303210211
2.84,0.1608328956,-0.5358226845
2.85,0.1416386082,-0.5406439329
2.86,0.1223028191,-0.5447798326
2.87,0.10284995,-0.5482263147
2.88,0.08330453786,-0.5509801798
2.89,0.06369120493,-0.5530391014
2.9,0.04403462705,-0.5544016282
2.91,0.02435950273,-0.5550671853
2.92,0.004690521882,-0.5550360741
2.93,-0.01494766536,-0.5543094718
2.94,-0.03453047981,-0.5528894287
2.95,-0.05403344434,-0.5507788651
2.96,-0.07343221479,-0.5479815674
2.97,-0.09270261084,-0.5445021818
2.98,-0.1118206466,-0.5403462083
2.99,-0.1307625608,-0.5355199926
3,-0.1495048472,-0.5300307176
3.01,-0.1680242839,-0.5238863932
3.02,-0.1862979631,-0.5170958458
3.03,-0.2043033198,-0.5096687055
3.04,-0.2220181604,-0.5016153938
3.05,-0.2394206907,-0.4929471087
3.06,-0.2564895432,-0.4836758104
3.07,-0.2732038045,-0.4738142044
3.08,-0.2895430411,-0.4633757248
3.09,-0.3054873252,-0.4523745162
3.1,-0.3210172599,-0.4408254146
3.11,-0.3361140032,-0.4287439275
3.12,-0.3507592915,-0.4161462132
3.13,-0.3649354627,-0.4030490594
3.14,-0.3786254777,-0.3894698602
3.15,-0.3918129415,-0.3754265934
3.16,-0.4044821239,-0.3609377965
3.17,-0.416617978,-0.3460225417
3.18,-0.4282061593,-0.330700411
3.19,-0.4392330424,-0.3149914697
3.2,-0.4496857382,-0.2989162403
3.21,-0.4595521087,-0.2824956748
3.22,-0.4688207817,-0.2657511276
3.23,-0.477481164,-0.2487043268
3.24,-0.4855234539,-0.2313773457
3.25,-0.4929386522,-0.2137925739
3.26,-0.4997185727,-0.1959726878
3.27,-0.5058558508,-0.1779406209
3.28,-0.5113439517,-0.1597195336
3.29,-0.5161771773,-0.1413327832
3.3,-0.5203506716,-0.1228038933
3.31,-0.5238604256,-0.1041565232
3.32,-0.5267032805,-0.08541443731
3.33,-0.5288769302,-0.06660147428
3.34,-0.5303799223,-0.04774151625
3.35,-0.5312116583,-0.02885845804
3.36,-0.5313723924,-0.009976176516
3.37,-0.5308632293,0.008881500091
3.38,-0.5296861211,0.02769082257
3.39,-0.5278438626,0.04642815102
3.4,-0.5253400861,0.06506998487
3.41,-0.5221792546,0.08359299263
3.42,-0.5183666541,0.1019740414
3.43,-0.5139083853,0.1201902257
3.44,-0.5088113534,0.1382188968
3.45,-0.5030832576,0.1560376902
3.46,-0.4967325795,0.173624554
3.47,-0.4897685698,0.1909577762
3.48,-0.4822012356,0.2080160113
3.49,-0.4740413248,0.2247783066
3.5,-0.4653003114,0.241224128
3.51,-0.4559903785,0.2573333848
3.52,-0.4461244016,0.2730864542
3.53,-0.43571593,0.2884642052
3.54,-0.4247791686,0.3034480211
3.55,-0.4133289576,0.318019822
3.56,-0.4013807526,0.3321620864
3.57,-0.3889506033,0.3458578718
3.58,-0.3760551317,0.3590908346
3.59,-0.3627115101,0.3718452491
3.6,-0.3489374374,0.3841060257
3.61,-0.3347511161,0.3958587287
3.62,-0.320171228,0.407089592
3.63,-0.3052169093,0.4177855355
3.64,-0.2899077256,0.4279341792
3.65,-0.2742636465,0.4375238573
3.66,-0.2583050191,0.4465436307
3.67,-0.2420525421,0.4549832991
3.68,-0.2255272387,0.4628334121
3.69,-0.2087504299,0.4700852787
3.7,-0.1917437066,0.4767309766
3.71,-0.1745289027,0.48276336
3.72,-0.1571280668,0.4881760668
3.73,-0.1395634344,0.4929635248
3.74,-0.1218573998,0.4971209562
3.75,-0.1040324877,0.5006443822
3.76,-0.08611132535,0.503530626
3.77,-0.06811661374,0.5057773144
3.78,-0.05007109948,0.5073828796
3.79,-0.03199754644,0.5083465589
3.8,-0.01391870747,0.5086683939
3.81,0.004142703733,0.5083492289
3.82,0.02216404071,0.5073907077
3.83,0.04012275213,0.5057952701
3.84,0.05799640948,0.5035661472
3.85,0.07576273457,0.5007073557
3.86,0.0933996268,0.497223691
3.87,0.1108851901,0.4931207204
3.88,0.1281977596,0.4884047739
3.89,0.1453159279,0.4830829353
3.9,0.1622185712,0.4771630318
3.91,0.1788848747,0.4706536231
3.92,0.1952943576,0.463563989
3.93,0.2114268983,0.4559041172
3.94,0.227262758,0.4476846891
3.95,0.2427826047,0.4389170658
3.96,0.2579675366,0.4296132725
3.97,0.2727991042,0.4197859826
3.98,0.2872593327,0.4094485011
3.99,0.3013307435,0.3986147468
4,0.3149963746,0.3872992342
4.01,0.3282398012,0.3755170545
4.02,0.3410451548,0.3632838563
4.03,0.3533971422,0.3506158248
4.04,0.3652810635,0.3375296615
4.05,0.3766828295,0.3240425622
4.06,0.387588978,0.3101721953
4.07,0.3979866897,0.2959366791
4.08,0.4078638036,0.2813545587
4.09,0.4172088303,0.2664447821
4.1,0.426010966,0.2512266764
4.11,0.434260105,0.235719923
4.12,0.4419468507,0.2199445331
4.13,0.4490625271,0.2039208216
4.14,0.4555991881,0.187669382
4.15,0.4615496267,0.1712110603
4.16,0.466907383,0.1545669283
4.17,0.4716667511,0.1377582572
4.18,0.4758227857,0.1208064912
4.19,0.4793713069,0.1037332196
4.2,0.4823089046,0.08656015047
4.21,0.4846329419,0.06930908278
4.22,0.4863415573,0.05200187921
4.23,0.4874336663,0.03466043858
4.24,0.4879089616,0.01730666835
4.25,0.4877679126,-3.754288208E-05
4.26,0.4870117639,-0.01735035293
4.27,0.4856425326,-0.03460999336
4.28,0.4836630054,-0.05179479686
4.29,0.4810767332,-0.06888322439
4.3,0.4778880266,-0.08585389216
4.31,0.4741019491,-0.1026855985
4.32,0.4697243098,-0.1193573502
4.33,0.4647616551,-0.1358483892
4.34,0.4592212598,-0.152138218
4.35,0.4531111166,-0.1682066256
4.36,0.4464399254,-0.1840337129
4.37,0.439217081,-0.199599917
4.38,0.4314526608,-0.2148860362
4.39,0.4231574108,-0.2298732532
4.4,0.4143427311,-0.2445431592
4.41,0.4050206606,-0.2588777763
4.42,0.3952038609,-0.2728595799
4.43,0.3849055992,-0.2864715205
4.44,0.3741397309,-0.2996970445
4.45,0.3629206807,-0.3125201147
4.46,0.351263424,-0.3249252304
4.47,0.3391834662,-0.3368974456
4.48,0.3266968231,-0.348422388
4.49,0.3138199991,-0.3594862762
4.5,0.3005699656,-0.3700759362
4.51,0.2869641386,-0.380178818
4.52,0.2730203558,-0.3897830097
4.53,0.2587568532,-0.3988772526
4.54,0.244192241,-0.4074509543
4.55,0.2293454795,-0.4154942009
4.56,0.2142358539,-0.4229977688
4.57,0.1988829494,-0.4299531355
4.58,0.1833066257,-0.4363524893
4.59,0.1675269908,-0.4421887378
4.6,0.151564375,-0.447455516
4.61,0.1354393046,-0.4521471932
4.62,0.1191724753,-0.456258879
4.63,0.1027847251,-0.4597864277
4.64,0.08629700766,-0.4627264431
4.65,0.06973036521,-0.4650762809
4.66,0.05310590141,-0.4668340506
4.67,0.03644475423,-0.4679986169
4.68,0.01976806884,-0.4685695998
4.69,0.003096970565,-0.4685473729
4.7,-0.01354746213,-0.4679330622
4.71,-0.03014422449,-0.4667285429
4.72,-0.04667241219,-0.4649364355
4.73,-0.06311124787,-0.4625601009
4.74,-0.0794401074,-0.4596036346
4.75,-0.09563854594,-0.4560718603
4.76,-0.1116863237,-0.4519703216
4.77,-0.1275634312,-0.4473052739
4.78,-0.1432501146,-0.4420836747
4.79,-0.1587269002,-0.4363131734
4.8,-0.1739746185,-0.4300020997
4.81,-0.1889744283,-0.4231594519
4.82,-0.2037078397,-0.4157948838
4.83,-0.2181567372,-0.407918691
4.84,-0.2323034016,-0.3995417961
4.85,-0.2461305317,-0.3906757339
4.86,-0.2596212657,-0.3813326351
4.87,-0.272759201,-0.3715252093
4.88,-0.2855284148,-0.3612667279
4.89,-0.2979134825,-0.350571006
4.9,-0.3098994965,-0.3394523833
4.91,-0.3214720838,-0.3279257049
4.92,-0.3326174231,-0.3160063014
4.93,-0.3433222609,-0.3037099684
4.94,-0.3535739268,-0.291052945
4.95,-0.3633603486,-0.2780518928
4.96,-0.3726700658,-0.2647238735
4.97,-0.3814922428,-0.2510863267
4.98,-0.3898166811,-0.2371570465
4.99,-0.3976338307,-0.222954159
5,-0.4049348005,-0.2084960978
5.01,-0.4117113682,-0.1938015808
5.02,-0.4179559889,-0.1788895856
5.03,-0.423661803,-0.1637793251
5.04,-0.4288226434,-0.1484902227
5.05,-0.4334330416,-0.1330418876
5.06,-0.4374882328,-0.1174540896
5.07,-0.4409841606,-0.1017467339
5.08,-0.4439174799,-0.08593983605
5.09,-0.4462855601,-0.0700534963
5.1,-0.4480864864,-0.0541078744
5.11,-0.4493190606,-0.03812316421
5.12,-0.4499828012,-0.02211956831
5.13,-0.4500779421,-0.006117272752
5.14,-0.449605431,0.009863578169
5.15,-0.4485669264,0.02580290697
5.16,-0.446964794,0.04168072792
5.17,-0.4448021025,0.05747717177
5.18,-0.4420826179,0.07317251034
5.19,-0.4388107975,0.08874718074
5.2,-0.4349917826,0.1041818095
5.21,-0.4306313911,0.1194572362
5.22,-0.4257361085,0.1345545371
5.23,-0.4203130786,0.1494550479
5.24,-0.4143700929,0.1641403868
5.25,-0.4079155803,0.1785924764
5.26,-0.4009585946,0.192793566
5.27,-0.3935088023,0.2067262529
5.28,-0.3855764694,0.2203735029
5.29,-0.3771724475,0.2337186717
5.3,-0.368308159,0.2467455239
5.31,-0.3589955819,0.2594382529
5.32,-0.3492472339,0.2717814997
5.33,-0.3390761558,0.283760371
5.34,-0.3284958943,0.2953604572
5.35,-0.3175204843,0.3065678489
5.36,-0.3061644304,0.3173691536
5.37,-0.2944426885,0.3277515114
5.38,-0.2823706457,0.3377026103
5.39,-0.2699641011,0.3472106999
5.4,-0.257239245,0.3562646056
5.41,-0.2442126384,0.3648537415
5.42,-0.2309011914,0.3729681222
5.43,-0.2173221422,0.3805983745
5.44,-0.2034930344,0.3877357482
5.45,-0.1894316952,0.3943721256
5.46,-0.1751562125,0.4005000309
5.47,-0.1606849122,0.4061126383
5.48,-0.1460363347,0.4112037797
5.49,-0.1312292116,0.415767951
5.5,-0.1162824421,0.4198003186
5.51,-0.1012150692,0.4232967235
5.52,-0.08604625553,0.4262536862
5.53,-0.07079525963,0.42866841
5.54,-0.0554814114,0.4305387829
5.55,-0.04012408805,0.43186338
5.56,-0.02474268976,0.4326414635
5.57,-0.009356615425,0.4328729834
5.58,0.006014761641,0.4325585761
5.59,0.02135211787,0.4316995628
5.6,0.03663620358,0.4302979467
5.61,0.051847867,0.42835641
5.62,0.06696807809,0.4258783088
5.63,0.08197795228,0.422867669
5.64,0.09685877392,0.4193291792
5.65,0.1115920196,0.415268185
5.66,0.126159381,0.4106906805
5.67,0.1405427878,0.4056033003
5.68,0.15472443,0.4000133103
5.69,0.1686867798,0.3939285976
5.7,0.1824126137,0.3873576598
5.71,0.1958850331,0.3803095933
5.72,0.2090874859,0.3727940812
5.73,0.2220037863,0.3648213802
5.74,0.234618135,0.3564023071
5.75,0.2469151386,0.3475482238
5.76,0.2588798283,0.3382710231
5.77,0.2704976786,0.328583112
5.78,0.2817546245,0.3184973959
5.79,0.2926370789,0.3080272616
5.8,0.3031319494,0.2971865592
5.81,0.3132266537,0.2859895844
5.82,0.3229091351,0.2744510598
5.83,0.3321678767,0.262586115
5.84,0.3409919158,0.2504102676
5.85,0.3493708563,0.2379394026
5.86,0.3572948815,0.2251897516
5.87,0.3647547656,0.2121778721
5.88,0.3717418845,0.1989206256
5.89,0.3782482257,0.1854351558
5.9,0.3842663978,0.1717388667
5.91,0.3897896387,0.1578493998
5.92,0.3948118236,0.1437846112
5.93,0.3993274711,0.129562549
5.94,0.4033317498,0.1152014298
5.95,0.4068204831,0.1007196151
5.96,0.4097901536,0.08613558818
5.97,0.4122379062,0.0714679298
5.98,0.414161551,0.0567352949
5.99,0.4155595646,0.04195638849
6,0.4164310915,0.02714994184
