"Freq [GHz]","re(S(Tx_p1,Tx_p1)) []","im(S(Tx_p1,Tx_p1)) []"
1,0.1878813537,-0.7689323733
1.01,0.1649554386,-0.7741276038
1.02,0.1417249297,-0.7786553642
1.03,0.1182152881,-0.7824953398
1.04,0.09445288537,-0.7856286007
1.05,0.0704649351,-0.7880376171
1.06,0.04627942499,-0.7897062745
1.07,0.02192504926,-0.7906198856
1.08,-0.002568858452,-0.7907652009
1.09,-0.0271723918,-0.7901304176
1.1,-0.05185513786,-0.7887051854
1.11,-0.07658624279,-0.7864806116
1.12,-0.1013344769,-0.7834492632
1.13,-0.126068299,-0.7796051672
1.14,-0.1507559204,-0.7749438096
1.15,-0.1753653677,-0.7694621313
1.16,-0.1998645456,-0.7631585225
1.17,-0.2242212979,-0.7560328152
1.18,-0.2484034683,-0.748086274
1.19,-0.2723789606,-0.7393215838
1.2,-0.2961157968,-0.7297428369
1.21,-0.3195821756,-0.7193555178
1.22,-0.3427465287,-0.7081664853
1.23,-0.3655775764,-0.6961839543
1.24,-0.3880443823,-0.6834174741
1.25,-0.4101164066,-0.6698779067
1.26,-0.4317635578,-0.6555774017
1.27,-0.4529562434,-0.6405293708
1.28,-0.4736654195,-0.6247484601
1.29,-0.4938626385,-0.6082505208
1.3,-0.5135200956,-0.5910525788
1.31,-0.5326106738,-0.5731728022
1.32,-0.5511079876,-0.554630468
1.33,-0.5689864243,-0.5354459272
1.34,-0.5862211851,-0.5156405684
1.35,-0.6027883231,-0.4952367805
1.36,-0.6186647806,-0.474257914
1.37,-0.6338284245,-0.4527282413
1.38,-0.6482580797,-0.4306729161
1.39,-0.6619335611,-0.4081179313
1.4,-0.6748357037,-0.3850900765
1.41,-0.6869463904,-0.3616168946
1.42,-0.6982485794,-0.3377266373
1.43,-0.7087263281,-0.3134482198
1.44,-0.7183648161,-0.2888111756
1.45,-0.7271503664,-0.2638456101
1.46,-0.7350704642,-0.2385821533
1.47,-0.7421137743,-0.2130519132
1.48,-0.7482701568,-0.1872864277
1.49,-0.7535306798,-0.1613176167
1.5,-0.7578876319,-0.1351777338
1.51,-0.7613345315,-0.1088993184
1.52,-0.7638661348,-0.08251514623
1.53,-0.7654784417,-0.05605818164
1.54,-0.7661687005,-0.02956152847
1.55,-0.7659354096,-0.003058381754
1.56,-0.7647783184,0.02341802074
1.57,-0.7626984262,0.04983444664
1.58,-0.7596979786,0.07615771692
1.59,-0.7557804633,0.1023547535
1.6,-0.7509506028,0.1283926263
1.61,-0.7452143468,0.1542386003
1.62,-0.7385788615,0.1798601816
1.63,-0.7310525186,0.2052251632
1.64,-0.7226448812,0.23030167
1.65,-0.7133666892,0.2550582032
1.66,-0.703229843,0.2794636844
1.67,-0.6922473846,0.303487498
1.68,-0.6804334788,0.3270995335
1.69,-0.6678033915,0.3502702268
1.7,-0.6543734672,0.3729706006
1.71,-0.6401611052,0.3951723034
1.72,-0.6251847339,0.4168476481
1.73,-0.6094637844,0.4379696492
1.74,-0.5930186624,0.4585120589
1.75,-0.575870719,0.4784494022
1.76,-0.55804222,0.4977570108
1.77,-0.5395563146,0.5164110554
1.78,-0.5204370027,0.5343885775
1.79,-0.500709101,0.5516675192
1.8,-0.4803982084,0.568226752
1.81,-0.45953067,0.5840461045
1.82,-0.4381335407,0.5991063878
1.83,-0.4162345476,0.6133894209
1.84,-0.393862052,0.6268780532
1.85,-0.3710450099,0.6395561867
1.86,-0.3478129324,0.651408796
1.87,-0.3241958454,0.6624219473
1.88,-0.3002242486,0.6725828153
1.89,-0.2759290741,0.6818796992
1.9,-0.2513416439,0.6903020366
1.91,-0.226493628,0.6978404165
1.92,-0.2014170015,0.7044865897
1.93,-0.1761440013,0.7102334789
1.94,-0.1507070827,0.7150751861
1.95,-0.1251388762,0.7190069989
1.96,-0.09947214345,0.7220253953
1.97,-0.0737397335,0.7241280469
1.98,-0.04797453911,0.7253138197
1.99,-0.02220945282,0.7255827747
2,0.003522676705,0.7249361658
2.01,0.02918908826,0.7233764364
2.02,0.05475715149,0.7209072146
2.03,0.08019441,0.7175333069
2.04,0.1054686242,0.7132606897
2.05,0.1305478138,0.7080965001
2.06,0.1554002996,0.7020490245
2.07,0.1799947455,0.6951276864
2.08,0.2043001992,0.6873430317
2.09,0.2282861327,0.6787067134
2.1,0.2519224823,0.6692314745
2.11,0.2751796875,0.6589311295
2.12,0.2980287298,0.6478205445
2.13,0.3204411698,0.6359156159
2.14,0.3423891847,0.623233248
2.15,0.3638456035,0.6097913285
2.16,0.3847839426,0.5956087041
2.17,0.4051784396,0.5807051535
2.18,0.425004086,0.5651013597
2.19,0.44423666,0.5488188816
2.2,0.4628527565,0.5318801236
2.21,0.4808298174,0.5143083048
2.22,0.4981461597,0.4961274269
2.23,0.5147810034,0.4773622407
2.24,0.5307144971,0.4580382127
2.25,0.5459277431,0.4381814896
2.26,0.5604028207,0.4178188626
2.27,0.5741228085,0.3969777308
2.28,0.587071805,0.3756860637
2.29,0.5992349481,0.3539723629
2.3,0.6105984331,0.3318656237
2.31,0.6211495288,0.3093952954
2.32,0.6308765932,0.2865912412
2.33,0.6397690862,0.263483698
2.34,0.6478175823,0.2401032353
2.35,0.6550137806,0.2164807141
2.36,0.661350514,0.1926472449
2.37,0.6668217566,0.168634146
2.38,0.6714226293,0.1444729014
2.39,0.6751494043,0.1201951185
2.4,0.6779995077,0.09583248562
2.41,0.6799715208,0.07141672943
2.42,0.6810651793,0.04697957284
2.43,0.6812813715,0.02255269246
2.44,0.6806221347,-0.001832323586
2.45,0.67909065,-0.02614401767
2.46,0.6766912358,-0.0503511044
2.47,0.6734293391,-0.07442251213
2.48,0.6693115263,-0.09832742401
2.49,0.6643454714,-0.1220353187
2.5,0.6585399437,-0.1455160103
2.51,0.651904793,-0.1687396886
2.52,0.6444509344,-0.1916769574
2.53,0.636190331,-0.2142988733
2.54,0.6271359752,-0.2365769837
2.55,0.6173018689,-0.2584833629
2.56,0.6067030024,-0.2799906491
2.57,0.5953553314,-0.3010720794
2.58,0.5832757537,-0.3217015239
2.59,0.5704820837,-0.3418535197
2.6,0.5569930264,-0.3615033029
2.61,0.5428281495,-0.38062684
2.62,0.5280078553,-0.3992008589
2.63,0.5125533508,-0.4172028769
2.64,0.4964866169,-0.4346112301
2.65,0.4798303771,-0.451405099
2.66,0.4626080642,-0.4675645351
2.67,0.4448437876,-0.4830704846
2.68,0.4265622983,-0.4979048114
2.69,0.4077889537,-0.5120503195
2.7,0.3885496825,-0.5254907724
2.71,0.3688709469,-0.5382109128
2.72,0.3487797066,-0.5501964794
2.73,0.32830338,-0.5614342239
2.74,0.3074698065,-0.5719119249
2.75,0.2863072075,-0.5816184012
2.76,0.2648441473,-0.5905435241
2.77,0.2431094933,-0.5986782266
2.78,0.2211323767,-0.6060145131
2.79,0.1989421517,-0.6125454658
2.8,0.1765683562,-0.6182652509
2.81,0.1540406704,-0.6231691225
2.82,0.1313888774,-0.6272534252
2.83,0.1086428221,-0.6305155953
2.84,0.08583237106,-0.6329541604
2.85,0.06298737254,-0.6345687374
2.86,0.0401376161,-0.635360029
2.87,0.01731279298,-0.6353298191
2.88,-0.005457543466,-0.6344809661
2.89,-0.02814401691,-0.6328173951
2.9,-0.05071746683,-0.6303440886
2.91,-0.07314898683,-0.6270670759
2.92,-0.09540996242,-0.622993421
2.93,-0.1174721083,-0.6181312087
2.94,-0.1393075048,-0.6124895302
2.95,-0.1608886342,-0.6060784668
2.96,-0.1821884157,-0.5989090721
2.97,-0.2031802399,-0.5909933538
2.98,-0.2238380025,-0.5823442531
2.99,-0.2441361374,-0.5729756241
3,-0.2640496483,-0.5629022112
3.01,-0.2835541398,-0.5521396254
3.02,-0.3026258476,-0.5407043203
3.03,-0.3212416674,-0.5286135662
3.04,-0.3393791826,-0.5158854233
3.05,-0.3570166917,-0.5025387149
3.06,-0.3741332339,-0.4885929981
3.07,-0.3907086134,-0.474068535
3.08,-0.4067234233,-0.4589862626
3.09,-0.4221590678,-0.4433677617
3.1,-0.4369977828,-0.4272352254
3.11,-0.4512226562,-0.4106114267
3.12,-0.4648176463,-0.3935196859
3.13,-0.4777675989,-0.3759838369
3.14,-0.4900582631,-0.3580281933
3.15,-0.5016763065,-0.3396775136
3.16,-0.5126093278,-0.3209569671
3.17,-0.5228458691,-0.3018920981
3.18,-0.5323754267,-0.2825087902
3.19,-0.5411884598,-0.2628332312
3.2,-0.549276399,-0.2428918765
3.21,-0.5566316524,-0.2227114131
3.22,-0.563247611,-0.2023187234
3.23,-0.5691186525,-0.1817408491
3.24,-0.5742401438,-0.1610049544
3.25,-0.5786084422,-0.14013829
3.26,-0.582220895,-0.1191681572
3.27,-0.5850758381,-0.09812187152
3.28,-0.5871725932,-0.07702672698
3.29,-0.5885114639,-0.05590996068
3.3,-0.5890937298,-0.03479871743
3.31,-0.58892164,-0.01372001484
3.32,-0.5879984056,0.00729929119
3.33,-0.5863281899,0.0282325406
3.34,-0.5839160986,0.04905330278
3.35,-0.5807681677,0.0697354097
3.36,-0.5768913516,0.09025298847
3.37,-0.5722935085,0.1105804933
3.38,-0.566983386,0.1306927367
3.39,-0.5609706048,0.1505649205
3.4,-0.554265642,0.1701726654
3.41,-0.5468798128,0.1894920403
3.42,-0.5388252516,0.2084995909
3.43,-0.530114892,0.227172367
3.44,-0.520762446,0.2454879496
3.45,-0.5107823823,0.2634244767
3.46,-0.5001899036,0.2809606683
3.47,-0.4890009234,0.2980758505
3.48,-0.4772320417,0.3147499789
3.49,-0.4649005203,0.3309636603
3.5,-0.452024257,0.3466981745
3.51,-0.4386217599,0.3619354943
3.52,-0.42471212,0.3766583046
3.53,-0.4103149844,0.3908500204
3.54,-0.395450528,0.4044948047
3.55,-0.3801394254,0.4175775835
3.56,-0.3644028218,0.4300840615
3.57,-0.3482623042,0.4420007357
3.58,-0.3317398715,0.4533149084
3.59,-0.3148579045,0.4640146987
3.6,-0.2976391361,0.4740890529
3.61,-0.2801066205,0.4835277546
3.62,-0.2622837028,0.4923214326
3.63,-0.2441939881,0.500461568
3.64,-0.2258613106,0.507940501
3.65,-0.2073097026,0.5147514353
3.66,-0.1885633635,0.5208884423
3.67,-0.1696466287,0.5263464641
3.68,-0.1505839387,0.5311213148
3.69,-0.1313998079,0.5352096814
3.7,-0.1121187942,0.5386091237
3.71,-0.09276546776,0.5413180721
3.72,-0.07336438104,0.5433358255
3.73,-0.05394003817,0.5446625477
3.74,-0.03451686503,0.5452992626
3.75,-0.01511917949,0.5452478487
3.76,0.004228838053,0.544511032
3.77,0.0235031737,0.5430923791
3.78,0.04268000882,0.540996288
3.79,0.06173574826,0.5382279786
3.8,0.08064704827,0.5347934825
3.81,0.09939084381,0.530699631
3.82,0.1179443755,0.5259540436
3.83,0.1362852158,0.520565114
3.84,0.1543912949,0.5145419966
3.85,0.1722409262,0.5078945913
3.86,0.1898128304,0.5006335281
3.87,0.2070861597,0.4927701506
3.88,0.2240405214,0.4843164986
3.89,0.240656,0.4752852903
3.9,0.2569131796,0.4656899036
3.91,0.2727931651,0.4555443571
3.92,0.2882776025,0.4448632895
3.93,0.3033486987,0.4336619398
3.94,0.3179892408,0.4219561253
3.95,0.3321826138,0.4097622205
3.96,0.3459128183,0.3970971344
3.97,0.3591644873,0.383978288
3.98,0.3719229014,0.3704235906
3.99,0.3841740042,0.3564514164
4,0.3959044163,0.3420805804
4.01,0.4071014482,0.3273303134
4.02,0.4177531129,0.3122202375
4.03,0.4278481375,0.2967703404
4.04,0.4373759734,0.2810009504
4.05,0.4463268063,0.26493271
4.06,0.4546915645,0.2485865501
4.07,0.4624619276,0.2319836637
4.08,0.4696303325,0.2151454791
4.09,0.4761899803,0.1980936336
4.1,0.4821348406,0.1808499465
4.11,0.4874596566,0.1634363924
4.12,0.4921599478,0.145875074
4.13,0.4962320124,0.1281881952
4.14,0.4996729291,0.1103980345
4.15,0.5024805575,0.09252691718
4.16,0.5046535377,0.07459718933
4.17,0.5061912891,0.05663119038
4.18,0.5070940082,0.0386512266
4.19,0.5073626658,0.02067954449
4.2,0.5069990026,0.002738304375
4.21,0.5060055251,-0.01515044586
4.22,0.504385499,-0.03296479673
4.23,0.5021429437,-0.05068300293
4.24,0.4992826238,-0.06828350876
4.25,0.4958100421,-0.08574497334
4.26,0.4917314293,-0.1030462954
4.27,0.4870537351,-0.1201666378
4.28,0.481784617,-0.1370854515
4.29,0.475932429,-0.1537824994
4.3,0.4695062093,-0.1702378794
4.31,0.4625156675,-0.1864320475
4.32,0.4549711704,-0.2023458396
4.33,0.446883728,-0.2179604936
4.34,0.4382649781,-0.2332576708
4.35,0.4291271704,-0.2482194762
4.36,0.4194831502,-0.2628284791
4.37,0.4093463408,-0.277067732
4.38,0.3987307261,-0.2909207903
4.39,0.3876508318,-0.3043717299
4.4,0.3761217068,-0.3174051651
4.41,0.3641589031,-0.3300062656
4.42,0.3517784561,-0.3421607726
4.43,0.3389968638,-0.3538550146
4.44,0.3258310656,-0.3650759217
4.45,0.3122984208,-0.3758110402
4.46,0.2984166864,-0.3860485457
4.47,0.284203995,-0.3957772556
4.48,0.2696788311,-0.4049866408
4.49,0.254860009,-0.4136668367
4.5,0.2397666484,-0.4218086536
4.51,0.2244181505,-0.4294035855
4.52,0.2088341745,-0.436443819
4.53,0.1930346126,-0.4429222409
4.54,0.1770395654,-0.4488324447
4.55,0.1608693173,-0.4541687368
4.56,0.1445443114,-0.4589261417
4.57,0.1280851242,-0.4631004059
4.58,0.1115124403,-0.4666880014
4.59,0.09484702746,-0.4696861281
4.6,0.07810971071,-0.4720927155
4.61,0.06132134725,-0.4739064234
4.62,0.04450280091,-0.4751266415
4.63,0.02767491684,-0.4757534888
4.64,0.01085849619,-0.4757878112
4.65,-0.005925729069,-0.475231179
4.66,-0.02265712123,-0.4740858833
4.67,-0.03931516171,-0.4723549311
4.68,-0.05587947581,-0.4700420403
4.69,-0.07232985717,-0.4671516334
4.7,-0.08864629201,-0.4636888302
4.71,-0.1048089831,-0.4596594401
4.72,-0.1207983735,-0.4550699536
4.73,-0.1365951697,-0.449927532
4.74,-0.1521803647,-0.444239998
4.75,-0.1675352605,-0.4380158237
4.76,-0.1826414904,-0.4312641196
4.77,-0.1974810405,-0.423994621
4.78,-0.2120362711,-0.4162176755
4.79,-0.2262899372,-0.4079442281
4.8,-0.2402252089,-0.399185807
4.81,-0.2538256912,-0.3899545077
4.82,-0.2670754426,-0.3802629771
4.83,-0.2799589941,-0.3701243963
4.84,-0.2924613666,-0.3595524636
4.85,-0.3045680888,-0.3485613763
4.86,-0.3162652131,-0.3371658118
4.87,-0.3275393318,-0.3253809089
4.88,-0.3383775925,-0.3132222477
4.89,-0.3487677121,-0.3007058297
4.9,-0.358697991,-0.2878480567
4.91,-0.368157326,-0.2746657101
4.92,-0.3771352224,-0.2611759292
4.93,-0.3856218056,-0.2473961891
4.94,-0.3936078319,-0.2333442783
4.95,-0.4010846979,-0.2190382765
4.96,-0.4080444501,-0.204496531
4.97,-0.4144797929,-0.1897376338
4.98,-0.420384096,-0.1747803983
4.99,-0.425751401,-0.1596438348
5,-0.4305764268,-0.1443471273
5.01,-0.4348545753,-0.1289096093
5.02,-0.4385819342,-0.1133507392
5.03,-0.4417552814,-0.09769007619
5.04,-0.4443720861,-0.08194725608
5.05,-0.4464305112,-0.06614196655
5.06,-0.4479294132,-0.05029392287
5.07,-0.448868342,-0.03442284346
5.08,-0.4492475401,-0.01854842558
5.09,-0.44906794,-0.002690321
5.1,-0.4483311618,0.0131318881
5.11,-0.4470395091,0.02889871313
5.12,-0.4451959647,0.04459078297
5.13,-0.442804185,0.06018886751
5.14,-0.4398684938,0.07567390108
5.15,-0.4363938754,0.09102700556
5.16,-0.4323859666,0.1062295132
5.17,-0.4278510481,0.121262989
5.18,-0.4227960352,0.1361092532
5.19,-0.4172284674,0.1507504027
5.2,-0.4111564977,0.1651688324
5.21,-0.4045888808,0.1793472566
5.22,-0.3975349608,0.1932687291
5.23,-0.3900046582,0.2069166631
5.24,-0.382008456,0.2202748511
5.25,-0.3735573855,0.2333274836
5.26,-0.364663011,0.2460591678
5.27,-0.3553374144,0.2584549451
5.28,-0.3455931789,0.2705003086
5.29,-0.335443372,0.2821812199
5.3,-0.3249015284,0.2934841248
5.31,-0.3139816318,0.304395969
5.32,-0.3026980968,0.3149042127
5.33,-0.2910657498,0.3249968447
5.34,-0.27909981,0.3346623956
5.35,-0.2668158689,0.3438899507
5.36,-0.2542298713,0.352669162
5.37,-0.2413580936,0.360990259
5.38,-0.2282171237,0.3688440594
5.39,-0.2148238395,0.3762219789
5.4,-0.2011953876,0.3831160399
5.41,-0.1873491613,0.3895188801
5.42,-0.1733027788,0.3954237591
5.43,-0.159074061,0.4008245659
5.44,-0.1446810089,0.4057158242
5.45,-0.1301417816,0.4100926974
5.46,-0.1154746731,0.413950993
5.47,-0.1006980897,0.4172871661
5.48,-0.08583052755,0.4200983217
5.49,-0.07089054923,0.4223822168
5.5,-0.05589676136,0.4241372614
5.51,-0.04086779151,0.4253625185
5.52,-0.02582226549,0.4260577038
5.53,-0.0107787846,0.4262231843
5.54,0.004244096974,0.4258599758
5.55,0.01922789471,0.4249697407
5.56,0.03415421605,0.4235547835
5.57,0.04900478258,0.4216180468
5.58,0.06376145201,0.419163106
5.59,0.07840623992,0.4161941633
5.6,0.09292134117,0.412716041
5.61,0.1072891512,0.4087341741
5.62,0.1214922868,0.404254602
5.63,0.1355136068,0.3992839598
5.64,0.1493362323,0.3938294687
5.65,0.1629435663,0.3878989258
5.66,0.1763193135,0.3815006931
5.67,0.1894474987,0.3746436864
5.68,0.2023124864,0.3673373623
5.69,0.2148989979,0.3595917064
5.7,0.2271921296,0.3514172192
5.71,0.2391773699,0.3428249025
5.72,0.2508406159,0.3338262448
5.73,0.2621681896,0.3244332063
5.74,0.2731468533,0.3146582033
5.75,0.2837638246,0.3045140921
5.76,0.2940067911,0.2940141525
5.77,0.3038639239,0.2831720707
5.78,0.3133238908,0.2720019219
5.79,0.3223758693,0.2605181526
5.8,0.331009558,0.248735562
5.81,0.3392151882,0.2366692835
5.82,0.3469835347,0.2243347658
5.83,0.3543059253,0.2117477535
5.84,0.3611742506,0.1989242675
5.85,0.3675809724,0.1858805851
5.86,0.3735191314,0.1726332198
5.87,0.3789823547,0.1591989008
5.88,0.3839648625,0.1455945527
5.89,0.3884614733,0.1318372743
5.9,0.3924676093,0.117944318
5.91,0.395979301,0.1039330683
5.92,0.3989931903,0.08982102124
5.93,0.4015065338,0.07562576231
5.94,0.4035172049,0.06136494562
5.95,0.405023695,0.04705627232
5.96,0.4060251144,0.03271746916
5.97,0.4065211923,0.01836626712
5.98,0.406512276,0.004020379987
5.99,0.4059993293,-0.01030251695
6,0.4049839305,-0.02458480818
