"Freq [GHz]","re(S(Tx_p1,Tx_p1)) []","im(S(Tx_p1,Tx_p1)) []"
1,0.002109801386,-0.07018010675
1.01,-2.227164397E-05,-0.07005142832
1.02,-0.002152199292,-0.06986015661
1.03,-0.004277728745,-0.06960618112
1.04,-0.006396631766,-0.06928949956
1.05,-0.008506709068,-0.06891021271
1.06,-0.01060579423,-0.06846851911
1.07,-0.01269175714,-0.06796470986
1.08,-0.01476250708,-0.0673991634
1.09,-0.01681599526,-0.06677234029
1.1,-0.01885021704,-0.06608477817
1.11,-0.02086321373,-0.06533708671
1.12,-0.022853074,-0.0645299427
1.13,-0.02481793488,-0.06366408531
1.14,-0.02675598251,-0.06274031143
1.15,-0.02866545246,-0.06175947129
1.16,-0.0305446298,-0.06072246415
1.17,-0.03239184888,-0.05963023425
1.18,-0.03420549277,-0.05848376699
1.19,-0.03598399257,-0.05728408533
1.2,-0.03772582637,-0.05603224641
1.21,-0.03942951813,-0.05472933845
1.22,-0.04109363625,-0.05337647789
1.23,-0.04271679213,-0.05197480684
1.24,-0.04429763848,-0.05052549074
1.25,-0.04583486757,-0.04902971637
1.26,-0.04732720943,-0.04748869008
1.27,-0.04877342994,-0.04590363632
1.28,-0.05017232888,-0.04427579647
1.29,-0.05152273806,-0.04260642792
1.3,-0.05282351936,-0.04089680344
1.31,-0.05407356282,-0.0391482108
1.32,-0.05527178488,-0.03736195267
1.33,-0.05641712659,-0.03553934675
1.34,-0.05750855195,-0.03368172613
1.35,-0.05854504643,-0.03179043994
1.36,-0.05952561554,-0.02986685412
1.37,-0.06044928361,-0.02791235246
1.38,-0.06131509273,-0.02592833784
1.39,-0.06212210188,-0.02391623352
1.4,-0.06286938626,-0.02187748476
1.41,-0.06355603681,-0.01981356038
1.42,-0.06418116001,-0.01772595461
1.43,-0.06474387786,-0.01561618888
1.44,-0.06524332815,-0.01348581382
1.45,-0.0656786649,-0.01133641116
1.46,-0.06604905919,-0.0091695958
1.47,-0.06635370009,-0.006987017812
1.48,-0.06659179599,-0.004790364418
1.49,-0.06676257608,-0.002581361968
1.5,-0.06686529215,-0.0003617778317
1.51,-0.06689922065,0.001866577779
1.52,-0.06686366495,0.004101850103
1.53,-0.06675795789,0.006342138241
1.54,-0.06658146456,0.008585493722
1.55,-0.06633358526,0.01082991923
1.56,-0.06601375875,0.01307336752
1.57,-0.06562146561,0.01531374055
1.58,-0.06515623193,0.01754888882
1.59,-0.06461763298,0.01977661098
1.6,-0.06400529721,0.02199465368
1.61,-0.06331891032,0.02420071165
1.62,-0.0625582194,0.0263924282
1.63,-0.06172303727,0.02856739585
1.64,-0.06081324683,0.03072315739
1.65,-0.05982880547,0.03285720723
1.66,-0.05876974958,0.03496699305
1.67,-0.05763619898,0.03704991784
1.68,-0.05642836139,0.03910334222
1.69,-0.05514653686,0.04112458714
1.7,-0.05379112215,0.04311093695
1.71,-0.05236261499,0.04505964275
1.72,-0.05086161827,0.04696792613
1.73,-0.04928884403,0.04883298325
1.74,-0.04764511741,0.05065198927
1.75,-0.04593138026,0.05242210302
1.76,-0.04414869467,0.05414047216
1.77,-0.04229824623,0.05580423846
1.78,-0.04038134696,0.05741054353
1.79,-0.03839943811,0.05895653474
1.8,-0.0363540925,0.06043937147
1.81,-0.03424701668,0.0618562316
1.82,-0.0320800526,0.06320431822
1.83,-0.0298551791,0.06448086655
1.84,-0.02757451286,0.06568315113
1.85,-0.02524030904,0.06680849307
1.86,-0.02285496148,0.06785426757
1.87,-0.02042100253,0.06881791148
1.88,-0.01794110234,0.06969693101
1.89,-0.01541806784,0.0704889095
1.9,-0.01285484112,0.07119151524
1.91,-0.01025449746,0.07180250934
1.92,-0.007620242877,0.07231975356
1.93,-0.0049554111,0.07274121812
1.94,-0.00226346021,0.07306498943
1.95,0.0004520312894,0.07328927779
1.96,0.003187368843,0.07341242487
1.97,0.005938746686,0.07343291115
1.98,0.008702253154,0.07334936307
1.99,0.01147387645,0.07316056003
2,0.01424951087,0.0728654412
2.01,0.01702496344,0.07246311193
2.02,0.01979596103,0.07195284998
2.03,0.02255815779,0.07133411139
2.04,0.02530714312,0.07060653601
2.05,0.02803844987,0.0697699526
2.06,0.03074756301,0.06882438362
2.07,0.03342992854,0.06777004955
2.08,0.03608096286,0.06660737272
2.09,0.03869606224,0.06533698078
2.1,0.04127061277,0.06395970959
2.11,0.04380000031,0.06247660565
2.12,0.04627962092,0.06088892798
2.13,0.04870489123,0.05919814948
2.14,0.05107125912,0.05740595776
2.15,0.05337421446,0.05551425538
2.16,0.05560929997,0.05352515948
2.17,0.05777212211,0.05144100093
2.18,0.05985836202,0.0492643228
2.19,0.06186378645,0.04699787827
2.2,0.06378425861,0.04464462795
2.21,0.06561574906,0.04220773664
2.22,0.06735434634,0.03969056938
2.23,0.06899626757,0.03709668708
2.24,0.07053786884,0.03442984139
2.25,0.07197565536,0.03169396914
2.26,0.07330629146,0.02889318614
2.27,0.07452661018,0.02603178038
2.28,0.07563362267,0.02311420484
2.29,0.07662452723,0.02014506956
2.3,0.07749671789,0.01712913342
2.31,0.07824779274,0.01407129523
2.32,0.07887556171,0.01097658452
2.33,0.07937805395,0.007850151745
2.34,0.07975352473,0.004697258139
2.35,0.08000046183,0.001523265164
2.36,0.08011759137,-0.001666376438
2.37,0.08010388317,-0.004866137919
2.38,0.07995855544,-0.008070424122
2.39,0.07968107895,-0.01127358536
2.4,0.07927118057,-0.01446992953
2.41,0.07872884621,-0.01765373451
2.42,0.07805432307,-0.02081926063
2.43,0.07724812132,-0.02396076341
2.44,0.07631101507,-0.02707250633
2.45,0.0752440427,-0.03014877375
2.46,0.07404850654,-0.03318388381
2.47,0.07272597182,-0.03617220137
2.48,0.07127826504,-0.03910815092
2.49,0.06970747156,-0.04198622945
2.5,0.06801593264,-0.04480101916
2.51,0.06620624173,-0.04754720008
2.52,0.06428124012,-0.05021956248
2.53,0.062244012,-0.05281301914
2.54,0.0600978788,-0.05532261729
2.55,0.05784639298,-0.05774355031
2.56,0.05549333118,-0.06007116912
2.57,0.05304268676,-0.06230099325
2.58,0.05049866185,-0.06442872146
2.59,0.04786565874,-0.06645024202
2.6,0.04514827082,-0.06836164255
2.61,0.04235127299,-0.07015921932
2.62,0.0394796116,-0.07183948615
2.63,0.03653839391,-0.07339918277
2.64,0.03353287718,-0.07483528258
2.65,0.0304684573,-0.07614499992
2.66,0.0273506571,-0.0773257967
2.67,0.02418511435,-0.07837538848
2.68,0.02097756938,-0.07929174989
2.69,0.01773385251,-0.0800731194
2.7,0.01445987122,-0.08071800353
2.71,0.01116159714,-0.08122518027
2.72,0.007845052855,-0.08159370195
2.73,0.004516298589,-0.08182289736
2.74,0.001181418839,-0.08191237323
2.75,-0.002153491084,-0.08186201497
2.76,-0.005482338514,-0.08167198683
2.77,-0.008799046859,-0.08134273124
2.78,-0.01209756898,-0.08087496759
2.79,-0.01537190047,-0.08026969024
2.8,-0.01861609281,-0.07952816592
2.81,-0.02182426634,-0.07865193047
2.82,-0.02499062306,-0.07764278487
2.83,-0.02810945917,-0.07650279069
2.84,-0.03117517733,-0.07523426493
2.85,-0.03418229868,-0.07383977415
2.86,-0.03712547443,-0.07232212817
2.87,-0.03999949723,-0.07068437308
2.88,-0.04279931197,-0.06892978373
2.89,-0.04552002633,-0.0670618557
2.9,-0.04815692079,-0.06508429683
2.91,-0.05070545817,-0.06300101816
2.92,-0.05316129274,-0.06081612452
2.93,-0.05552027877,-0.05853390465
2.94,-0.05777847855,-0.05615882096
2.95,-0.05993216983,-0.05369549891
2.96,-0.06197785279,-0.05114871604
2.97,-0.06391225631,-0.04852339076
2.98,-0.06573234374,-0.04582457084
2.99,-0.06743531794,-0.04305742166
3,-0.06901862588,-0.04022721427
3.01,-0.07047996245,-0.03733931329
3.02,-0.07181727373,-0.03439916471
3.03,-0.07302875961,-0.03141228349
3.04,-0.07411287576,-0.02838424121
3.05,-0.07506833501,-0.02532065366
3.06,-0.07589410803,-0.02222716838
3.07,-0.07658942344,-0.01910945232
3.08,-0.07715376728,-0.0159731795
3.09,-0.07758688187,-0.01282401881
3.1,-0.07788876402,-0.009667621953
3.11,-0.07805966277,-0.00650961153
3.12,-0.07810007639,-0.00335556933
3.13,-0.07801074893,-0.0002110248503
3.14,-0.07779266617,0.002918555927
3.15,-0.07744705106,0.006027781488
3.16,-0.07697535862,0.009111345419
3.17,-0.07637927038,0.01216403671
3.18,-0.07566068831,0.01518074972
3.19,-0.07482172833,0.01815649373
3.2,-0.07386471339,0.0210864021
3.21,-0.07279216614,0.02396574106
3.22,-0.0716068012,0.02678991799
3.23,-0.07031151714,0.02955448931
3.24,-0.0689093881,0.03225516783
3.25,-0.06740365507,0.03488782972
3.26,-0.06579771702,0.03744852086
3.27,-0.06409512168,0.03993346284
3.28,-0.06229955615,0.04233905828
3.29,-0.06041483735,0.04466189579
3.3,-0.05844490229,0.04689875431
3.31,-0.05639379822,0.04904660692
3.32,-0.05426567271,0.05110262422
3.33,-0.05206476364,0.05306417709
3.34,-0.04979538915,0.05492883893
3.35,-0.04746193762,0.05669438746
3.36,-0.04506885764,0.05835880589
3.37,-0.04262064802,0.0599202837
3.38,-0.04012184792,0.06137721681
3.39,-0.03757702699,0.06272820734
3.4,-0.03499077577,0.06397206284
3.41,-0.03236769612,0.06510779506
3.42,-0.02971239185,0.0661346183
3.43,-0.02702945963,0.06705194725
3.44,-0.02432347997,0.06785939449
3.45,-0.02159900858,0.0685567675
3.46,-0.0188605679,0.06914406533
3.47,-0.01611263891,0.06962147491
3.48,-0.0133596533,0.06998936692
3.49,-0.01060598584,0.07024829145
3.5,-0.007855947153,0.07039897325
3.51,-0.005113776793,0.07044230675
3.52,-0.002383636658,0.07037935078
3.53,0.0003303952295,0.07021132304
3.54,0.00302433059,0.0699395944
3.55,0.005694276376,0.0695656829
3.56,0.008336439896,0.06909124768
3.57,0.01094713355,0.0685180827
3.58,0.01352277919,0.06784811032
3.59,0.01605991211,0.06708337481
3.6,0.01855518461,0.06622603573
3.61,0.02100536923,0.06527836128
3.62,0.02340736157,0.06424272161
3.63,0.02575818277,0.06312158206
3.64,0.02805498155,0.06191749651
3.65,0.03029503599,0.0606331006
3.66,0.03247575485,0.05927110513
3.67,0.03459467862,0.05783428944
3.68,0.03664948018,0.05632549491
3.69,0.03863796516,0.05474761851
3.7,0.04055807198,0.05310360655
3.71,0.04240787159,0.05139644844
3.72,0.04418556687,0.04962917072
3.73,0.04588949188,0.04780483113
3.74,0.04751811066,0.04592651296
3.75,0.04907001597,0.04399731947
3.76,0.05054392766,0.04202036863
3.77,0.05193869092,0.03999878795
3.78,0.05325327425,0.03793570957
3.79,0.05448676732,0.03583426559
3.8,0.0556383786,0.03369758355
3.81,0.0567074329,0.03152878224
3.82,0.05769336875,0.02933096766
3.83,0.05859573562,0.02710722923
3.84,0.05941419116,0.02486063627
3.85,0.06014849824,0.02259423471
3.86,0.06079852197,0.02031104398
3.87,0.06136422669,0.01801405418
3.88,0.06184567293,0.01570622353
3.89,0.0622430143,0.01339047592
3.9,0.06255649443,0.01106969879
3.91,0.06278644389,0.008746741191
3.92,0.0629332772,0.006424412044
3.93,0.06299748976,0.004105478611
3.94,0.06297965495,0.001792665161
3.95,0.06288042124,-0.0005113481839
3.96,0.06270050937,-0.002803926426
3.97,0.06244070961,-0.005082480506
3.98,0.06210187917,-0.007344467962
3.99,0.0616849396,-0.00958739345
4,0.06119087443,-0.01180880913
4.01,0.06062072683,-0.01400631495
4.02,0.05997559741,-0.01617755878
4.03,0.05925664218,-0.01832023652
4.04,0.0584650706,-0.02043209206
4.05,0.05760214377,-0.02251091725
4.06,0.05666917276,-0.02455455171
4.07,0.05566751705,-0.02656088271
4.08,0.05459858317,-0.02852784496
4.09,0.05346382335,-0.03045342036
4.1,0.05226473442,-0.03233563784
4.11,0.05100285676,-0.0341725731
4.12,0.04967977338,-0.03596234844
4.13,0.04829710916,-0.0377031326
4.14,0.04685653015,-0.03939314064
4.15,0.04535974298,-0.04103063387
4.16,0.0438084944,-0.04261391985
4.17,0.04220457088,-0.04414135246
4.18,0.04054979827,-0.04561133205
4.19,0.03884604157,-0.04702230563
4.2,0.03709520477,-0.04837276726
4.21,0.03529923065,-0.04966125843
4.22,0.03346010074,-0.05088636859
4.23,0.03157983524,-0.0520467358
4.24,0.02966049294,-0.05314104748
4.25,0.0277041712,-0.05416804126
4.26,0.02571300589,-0.05512650598
4.27,0.02368917129,-0.05601528275
4.28,0.02163488003,-0.05683326622
4.29,0.01955238293,-0.05757940585
4.3,0.01744396877,-0.05825270741
4.31,0.01531196406,-0.05885223448
4.32,0.01315873267,-0.05937711015
4.33,0.01098667541,-0.05982651877
4.34,0.008798229497,-0.0601997078
4.35,0.006595867904,-0.0604959898
4.36,0.004382098595,-0.06071474438
4.37,0.002159463632,-0.06085542042
4.38,-6.946185835E-05,-0.06091753814
4.39,-0.002302070872,-0.06090069139
4.4,-0.004535725864,-0.06080454992
4.41,-0.006767760246,-0.06062886166
4.42,-0.008995480063,-0.06037345509
4.43,-0.01121616584,-0.06003824158
4.44,-0.01342707458,-0.05962321771
4.45,-0.01562544204,-0.05912846765
4.46,-0.01780848503,-0.05855416543
4.47,-0.01997340408,-0.0579005772
4.48,-0.02211738617,-0.05716806349
4.49,-0.02423760769,-0.05635708132
4.5,-0.02633123764,-0.05546818626
4.51,-0.0283954409,-0.05450203442
4.52,-0.03042738182,-0.05345938428
4.53,-0.03242422786,-0.05234109845
4.54,-0.03438315354,-0.05114814524
4.55,-0.03630134445,-0.04988160014
4.56,-0.0381760015,-0.04854264704
4.57,-0.04000434526,-0.04713257938
4.58,-0.04178362049,-0.04565280103
4.59,-0.04351110083,-0.044104827
4.6,-0.04518409358,-0.04249028396
4.61,-0.04679994458,-0.04081091044
4.62,-0.04835604329,-0.03906855689
4.63,-0.04984982781,-0.03726518548
4.64,-0.05127879017,-0.03540286959
4.65,-0.05264048148,-0.03348379307
4.66,-0.05393251733,-0.03151024923
4.67,-0.05515258307,-0.02948463957
4.68,-0.0562984392,-0.02740947217
4.69,-0.05736792674,-0.02528735982
4.7,-0.05835897257,-0.0231210179
4.71,-0.05926959473,-0.02091326189
4.72,-0.06009790776,-0.01866700463
4.73,-0.06084212786,-0.01638525325
4.74,-0.06150057803,-0.01407110585
4.75,-0.06207169313,-0.01172774782
4.76,-0.06255402473,-0.009358447932
4.77,-0.06294624594,-0.006966554076
4.78,-0.06324715602,-0.004555488761
4.79,-0.06345568481,-0.002128744313
4.8,-0.063570897,0.0003101222019
4.81,-0.06359199621,0.002757494309
4.82,-0.06351832879,0.005209701722
4.83,-0.06334938744,0.007663026182
4.84,-0.06308481452,0.01011370753
4.85,-0.06272440519,0.01255795002
4.86,-0.06226811013,0.0149919288
4.87,-0.06171603806,0.01741179665
4.88,-0.06106845792,0.01981369083
4.89,-0.06032580076,0.02219374019
4.9,-0.0594886612,0.02454807231
4.91,-0.05855779867,0.02687282089
4.92,-0.05753413824,0.02916413313
4.93,-0.05641877104,0.03141817738
4.94,-0.05521295438,0.03363115067
4.95,-0.05391811149,0.03579928642
4.96,-0.05253583083,0.03791886218
4.97,-0.05106786506,0.03998620735
4.98,-0.0495161296,0.04199771093
4.99,-0.04788270079,0.04394982918
5,-0.0461698137,0.04583909336
5.01,-0.04437985949,0.04766211726
5.02,-0.04251538242,0.04941560477
5.03,-0.0405790765,0.05109635723
5.04,-0.03857378165,0.05270128073
5.05,-0.03650247965,0.05422739324
5.06,-0.03436828952,0.05567183155
5.07,-0.03217446274,0.05703185801
5.08,-0.02992437796,0.05830486713
5.09,-0.02762153542,0.05948839184
5.1,-0.0252695511,0.0605801096
5.11,-0.02287215043,0.06157784817
5.12,-0.02043316175,0.06247959115
5.13,-0.01795650955,0.06328348316
5.14,-0.01544620727,0.06398783478
5.15,-0.01290635001,0.06459112703
5.16,-0.01034110685,0.06509201565
5.17,-0.007754713054,0.0654893349
5.18,-0.005151461973,0.06578210107
5.19,-0.002535696844,0.06596951549
5.2,8.819764471E-05,0.0660509673
5.21,0.002715803907,0.06602603566
5.22,0.005342680149,0.06589449164
5.23,0.007964369164,0.06565629966
5.24,0.01057640721,0.06531161848
5.25,0.01317433296,0.06486080179
5.26,0.01575369646,0.06430439835
5.27,0.01831006815,0.06364315167
5.28,0.02083904787,0.06287799931
5.29,0.02333627376,0.06201007163
5.3,0.02579743126,0.06104069023
5.31,0.02821826186,0.05997136586
5.32,0.03059457191,0.05880379594
5.33,0.03292224119,0.05753986164
5.34,0.03519723144,0.05618162453
5.35,0.03741559463,0.05473132285
5.36,0.03957348109,0.05319136733
5.37,0.0416671475,0.05156433664
5.38,0.0436929645,0.04985297248
5.39,0.04564742423,0.04806017423
5.4,0.04752714745,0.04618899329
5.41,0.04932889051,0.04424262712
5.42,0.05104955192,0.04222441281
5.43,0.05268617866,0.0401378205
5.44,0.05423597215,0.03798644638
5.45,0.05569629387,0.03577400547
5.46,0.05706467057,0.03350432414
5.47,0.05833879924,0.03118133235
5.48,0.05951655153,0.02880905569
5.49,0.06059597792,0.02639160725
5.5,0.06157531139,0.02393317922
5.51,0.0624529707,0.02143803445
5.52,0.0632275633,0.01891049776
5.53,0.06389788777,0.01635494719
5.54,0.06446293582,0.01377580514
5.55,0.06492189388,0.01117752947
5.56,0.06527414428,0.008564604469
5.57,0.06551926592,0.005941531891
5.58,0.06565703458,0.003312821914
5.59,0.06568742277,0.0006829841482
5.6,0.06561059911,-0.001943481321
5.61,0.06542692736,-0.00456209284
5.62,0.06513696493,-0.007168396002
5.63,0.06474146105,-0.009757972368
5.64,0.06424135452,-0.01232644806
5.65,0.063637771,-0.01486950221
5.66,0.06293201998,-0.01738287524
5.67,0.06212559129,-0.01986237698
5.68,0.06122015136,-0.02230389459
5.69,0.06021753895,-0.02470340017
5.7,0.05911976069,-0.02705695833
5.71,0.05792898621,-0.02936073326
5.72,0.05664754293,-0.03161099576
5.73,0.05527791063,-0.03380412986
5.74,0.05382271563,-0.03593663914
5.75,0.0522847248,-0.03800515283
5.76,0.05066683926,-0.0400064315
5.77,0.04897208782,-0.04193737248
5.78,0.04720362026,-0.0437950149
5.79,0.0453647004,-0.04557654442
5.8,0.04345869894,-0.04727929754
5.81,0.04148908621,-0.04890076565
5.82,0.03945942472,-0.0504385986
5.83,0.03737336162,-0.05189060797
5.84,0.03523462104,-0.05325476993
5.85,0.03304699636,-0.05452922776
5.86,0.0308143424,-0.05571229391
5.87,0.0285405676,-0.05680245181
5.88,0.02622962613,-0.05779835714
5.89,0.02388550999,-0.05869883887
5.9,0.02151224122,-0.05950289984
5.91,0.019113864,-0.06020971697
5.92,0.0166944369,-0.06081864116
5.93,0.01425802515,-0.06132919679
5.94,0.01180869303,-0.06174108085
5.95,0.009350496338,-0.06205416175
5.96,0.006887474958,-0.0622684778
5.97,0.004423645608,-0.06238423535
5.98,0.001962994698,-0.06240180659
5.99,-0.0004905286346,-0.06232172708
6,-0.002933019313,-0.06214469295
