"Freq [GHz]","re(S(Tx_p1,Tx_p1)) []","im(S(Tx_p1,Tx_p1)) []"
1,-0.04386478605,-0.1723001035
1.01,-0.05041904989,-0.1706525307
1.02,-0.0569368958,-0.1687411329
1.03,-0.06340616665,-0.1665657444
1.04,-0.0698146776,-0.1641268185
1.05,-0.0761502461,-0.161425426
1.06,-0.08240072154,-0.1584632517
1.07,-0.08855401468,-0.1552425903
1.08,-0.09459812673,-0.1517663406
1.09,-0.1005211781,-0.1480379989
1.1,-0.1063114367,-0.1440616512
1.11,-0.1119573458,-0.1398419637
1.12,-0.1174475511,-0.1353841731
1.13,-0.1227709281,-0.1306940747
1.14,-0.1279166077,-0.1257780101
1.15,-0.1328740017,-0.1206428537
1.16,-0.1376328281,-0.1152959979
1.17,-0.1421831349,-0.1097453373
1.18,-0.146515323,-0.1039992523
1.19,-0.1506201696,-0.09806659111
1.2,-0.1544888488,-0.09195665109
1.21,-0.1581129529,-0.08567915945
1.22,-0.1614845119,-0.07924425269
1.23,-0.1645960126,-0.07266245537
1.24,-0.1674404159,-0.0659446581
1.25,-0.1700111738,-0.05910209481
1.26,-0.1723022449,-0.05214631928
1.27,-0.174308109,-0.04508918104
1.28,-0.1760237808,-0.03794280069
1.29,-0.1774448214,-0.03071954466
1.3,-0.1785673502,-0.0234319995
1.31,-0.179388054,-0.01609294566
1.32,-0.1799041963,-0.008715330966
1.33,-0.1801136245,-0.001312243702
1.34,-0.1800147759,0.006103114563
1.35,-0.1796066827,0.01351745638
1.36,-0.178888976,0.02091743599
1.37,-0.1778618876,0.02828967702
1.38,-0.1765262518,0.03562080022
1.39,-0.1748835046,0.0428974512
1.4,-0.1729356829,0.05010632812
1.41,-0.1706854214,0.05723420927
1.42,-0.1681359489,0.06426798045
1.43,-0.1652910831,0.07119466219
1.44,-0.162155224,0.0780014366
1.45,-0.1587333467,0.08467567394
1.46,-0.1550309921,0.09120495883
1.47,-0.1510542574,0.09757711594
1.48,-0.1468097845,0.1037802352
1.49,-0.142304748,0.1098026966
1.5,-0.1375468417,0.1156331942
1.51,-0.1325442642,0.1212607595
1.52,-0.1273057031,0.1266747843
1.53,-0.121840319,0.1318650429
1.54,-0.1161577274,0.1368217127
1.55,-0.1102679808,0.1415353955
1.56,-0.1041815488,0.1459971364
1.57,-0.09790929822,0.1501984425
1.58,-0.09146247211,0.1541313008
1.59,-0.08485266768,0.157788195
1.6,-0.07809181394,0.1611621209
1.61,-0.07119214839,0.164246601
1.62,-0.06416619322,0.1670356987
1.63,-0.05702673079,0.1695240301
1.64,-0.0497867787,0.1717067756
1.65,-0.04245956431,0.1735796905
1.66,-0.03505849884,0.1751391134
1.67,-0.02759715109,0.1763819745
1.68,-0.02008922085,0.1773058024
1.69,-0.01254851206,0.1779087291
1.7,-0.004988905672,0.1781894945
1.71,0.002575667515,0.1781474497
1.72,0.01013125424,0.1777825583
1.73,0.01766390616,0.1770953973
1.74,0.02515970718,0.1760871561
1.75,0.03260480084,0.174759635
1.76,0.03998541743,0.1731152418
1.77,0.04728790103,0.1711569873
1.78,0.0544987363,0.1688884803
1.79,0.06160457498,0.1663139202
1.8,0.06859226201,0.1634380892
1.81,0.07544886134,0.1602663435
1.82,0.08216168125,0.1568046028
1.83,0.08871829914,0.153059339
1.84,0.09510658587,0.1490375635
1.85,0.1013147294,0.144746814
1.86,0.107331258,0.1401951396
1.87,0.1131450623,0.1353910855
1.88,0.1187454173,0.130343676
1.89,0.1241220029,0.1250623973
1.9,0.1292649243,0.119557179
1.91,0.134164731,0.1138383746
1.92,0.1388124351,0.1079167415
1.93,0.1431995285,0.10180342
1.94,0.147318,0.09550991171
1.95,0.15116035,0.089048057
1.96,0.1547196051,0.08243001206
1.97,0.1579893318,0.07566822517
1.98,0.1609636483,0.06877541252
1.99,0.163637236,0.06176453346
2,0.1660053495,0.05464876531
2.01,0.1680638255,0.04744147773
2.02,0.1698090906,0.04015620675
2.03,0.1712381677,0.03280662851
2.04,0.1723486818,0.02540653272
2.05,0.1731388638,0.01796979592
2.06,0.1736075541,0.01051035459
2.07,0.1737542038,0.003042178221
2.08,0.1735788756,-0.004420757766
2.09,0.1730822434,-0.01186449897
2.1,0.1722655904,-0.01927513896
2.11,0.1711308059,-0.02663884608
2.12,0.1696803815,-0.0339418901
2.13,0.1679174056,-0.04117066859
2.14,0.1658455567,-0.04831173308
2.15,0.1634690964,-0.05535181486
2.16,0.1607928597,-0.06227785036
2.17,0.157822246,-0.06907700615
2.18,0.1545632074,-0.07573670347
2.19,0.1510222371,-0.08224464216
2.2,0.1472063562,-0.08858882409
2.21,0.1431230993,-0.0947575759
2.22,0.1387804998,-0.1007395712
2.23,0.1341870737,-0.1065238518
2.24,0.1293518026,-0.1120998485
2.25,0.1242841158,-0.1174574012
2.26,0.1189938715,-0.1225867773
2.27,0.1134913376,-0.1274786904
2.28,0.1077871712,-0.1321243175
2.29,0.1018923974,-0.1365153154
2.3,0.09581838806,-0.1406438356
2.31,0.08957683894,-0.1445025396
2.32,0.0831797471,-0.1480846114
2.33,0.07663938727,-0.1513837704
2.34,0.06996828789,-0.1543942825
2.35,0.0631792066,-0.1571109703
2.36,0.05628510543,-0.1595292223
2.37,0.04929912559,-0.1616450009
2.38,0.04223456188,-0.1634548489
2.39,0.03510483698,-0.1649558959
2.4,0.02792347544,-0.1661458622
2.41,0.02070407755,-0.1670230625
2.42,0.01346029308,-0.1675864084
2.43,0.006205795039,-0.167835409
2.44,-0.001045746638,-0.1677701711
2.45,-0.008280691309,-0.1673913979
2.46,-0.01548545375,-0.1667003869
2.47,-0.02264653012,-0.1656990258
2.48,-0.02975052372,-0.1643897883
2.49,-0.03678417049,-0.1627757282
2.5,-0.0437343642,-0.1608604721
2.51,-0.05058818132,-0.1586482122
2.52,-0.05733290542,-0.1561436963
2.53,-0.06395605117,-0.1533522182
2.54,-0.07044538783,-0.1502796065
2.55,-0.07678896223,-0.1469322122
2.56,-0.08297512107,-0.1433168956
2.57,-0.08899253273,-0.1394410121
2.58,-0.09483020828,-0.1353123973
2.59,-0.1004775219,-0.1309393507
2.6,-0.1059242305,-0.1263306195
2.61,-0.1111604924,-0.1214953801
2.62,-0.1161768857,-0.1164432202
2.63,-0.120964425,-0.1111841196
2.64,-0.1255145781,-0.10572843
2.65,-0.129819281,-0.1000868544
2.66,-0.1338709528,-0.09427042644
2.67,-0.1376625087,-0.08829048771
2.68,-0.1411873727,-0.08215866602
2.69,-0.1444394891,-0.07588685233
2.7,-0.147413333,-0.06948717739
2.71,-0.1501039195,-0.06297198806
2.72,-0.1525068122,-0.05635382322
2.73,-0.1546181304,-0.04964538934
2.74,-0.1564345551,-0.04285953581
2.75,-0.1579533344,-0.03600923005
2.76,-0.1591722873,-0.02910753248
2.77,-0.1600898066,-0.0221675713
2.78,-0.1607048603,-0.01520251728
2.79,-0.1610169928,-0.008225558461
2.8,-0.161026324,-0.00124987495
2.81,-0.1607335481,0.005711386263
2.82,-0.1601399303,0.01264513633
2.83,-0.1592473036,0.01953836942
2.84,-0.1580580638,0.02637818734
2.85,-0.1565751632,0.0331518239
2.86,-0.1548021041,0.03984666899
2.87,-0.1527429305,0.04645029225
2.88,-0.1504022192,0.05295046637
2.89,-0.1477850695,0.05933518993
2.9,-0.1448970923,0.0655927097
2.91,-0.1417443985,0.07171154251
2.92,-0.1383335852,0.07768049643
2.93,-0.1346717228,0.08348869143
2.94,-0.1307663398,0.08912557928
2.95,-0.1266254073,0.0945809629
2.96,-0.1222573229,0.09984501483
2.97,-0.1176708934,0.1049082951
2.98,-0.112875317,0.1097617681
2.99,-0.1078801646,0.1143968189
3,-0.1026953611,0.1188052686
3.01,-0.09733116466,0.1229793884
3.02,-0.09179814723,0.1269119137
3.03,-0.08610717292,0.1305960563
3.04,-0.08026937678,0.1340255163
3.05,-0.07429614282,0.1371944926
3.06,-0.06819908165,0.1400976927
3.07,-0.06199000779,0.1427303415
3.08,-0.05568091654,0.1450881889
3.09,-0.04928396075,0.1471675166
3.1,-0.04281142715,0.1489651433
3.11,-0.03627571268,0.1504784299
3.12,-0.02968930052,0.1517052826
3.13,-0.02306473612,0.1526441556
3.14,-0.01641460317,0.1532940523
3.15,-0.009751499514,0.153654526
3.16,-0.003088013154,0.1537256788
3.17,0.003563301665,0.1535081602
3.18,0.01018994825,0.1530031643
3.19,0.01677951107,0.1522124257
3.2,0.02331967912,0.1511382151
3.21,0.02979826906,0.1497833332
3.22,0.03620324801,0.1481511036
3.23,0.04252275599,0.1462453658
3.24,0.04874512795,0.1440704654
3.25,0.05485891545,0.1416312451
3.26,0.06085290769,0.1389330341
3.27,0.06671615223,0.1359816357
3.28,0.07243797497,0.1327833161
3.29,0.07800799966,0.1293447902
3.3,0.08341616674,0.125673208
3.31,0.08865275148,0.1217761395
3.32,0.09370838151,0.1176615593
3.33,0.09857405356,0.1133378301
3.34,0.1032411495,0.1088136858
3.35,0.1077014513,0.1040982136
3.36,0.1119471561,0.09920083605
3.37,0.1159708888,0.09413129168
3.38,0.1197657158,0.08889961599
3.39,0.1233251559,0.08351612133
3.4,0.1266431921,0.07799137649
3.41,0.1297142809,0.07233618593
3.42,0.1325333618,0.06656156851
3.43,0.1350958652,0.06067873595
3.44,0.1373977197,0.05469907101
3.45,0.1394353583,0.04863410534
3.46,0.1412057237,0.04249549716
3.47,0.1427062721,0.03629500878
3.48,0.1439349772,0.03004448396
3.49,0.1448903315,0.02375582522
3.5,0.1455713484,0.01744097109
3.51,0.1459775619,0.01111187336
3.52,0.1461090262,0.004780474415
3.53,0.1459663138,-0.001541315392
3.54,0.1455505128,-0.007841640199
3.55,0.1448632231,-0.01410872092
3.56,0.1439065521,-0.02033087733
3.57,0.1426831089,-0.02649654986
3.58,0.1411959976,-0.03259432111
3.59,0.1394488103,-0.03861293704
3.6,0.1374456181,-0.04454132775
3.61,0.1351909627,-0.05036862783
3.62,0.1326898455,-0.05608419632
3.63,0.1299477172,-0.06167763609
3.64,0.1269704657,-0.06713881277
3.65,0.1237644038,-0.07245787307
3.66,0.1203362557,-0.07762526252
3.67,0.1166931432,-0.08263174259
3.68,0.1128425707,-0.08746840714
3.69,0.1087924097,-0.09212669819
3.7,0.1045508829,-0.09659842097
3.71,0.1001265477,-0.1008757583
3.72,0.09552827843,-0.1049512839
3.73,0.0907652488,-0.1088179756
3.74,0.08584691365,-0.1124692268
3.75,0.08078299001,-0.115898858
3.76,0.07558343792,-0.1191011268
3.77,0.0702584408,-0.1220707373
3.78,0.06481838548,-0.124802849
3.79,0.05927384186,-0.127293084
3.8,0.05363554235,-0.1295375339
3.81,0.04791436106,-0.1315327656
3.82,0.04212129279,-0.1332758265
3.83,0.03626743182,-0.1347642479
3.84,0.03036395067,-0.1359960485
3.85,0.02442207869,-0.1369697362
3.86,0.01845308072,-0.1376843097
3.87,0.01246823565,-0.1381392582
3.88,0.006478815104,-0.1383345611
3.89,0.0004960621825,-0.1382706861
3.9,-0.005468829665,-0.1379485871
3.91,-0.0114047376,-0.1373697003
3.92,-0.01730063013,-0.1365359398
3.93,-0.02314558763,-0.1354496929
3.94,-0.02892882258,-0.1341138134
3.95,-0.0346396994,-0.1325316151
3.96,-0.04026775407,-0.1307068634
3.97,-0.04580271322,-0.1286437674
3.98,-0.05123451287,-0.1263469697
3.99,-0.0565533167,-0.1238215365
4,-0.06174953378,-0.1210729466
4.01,-0.06681383583,-0.1181070797
4.02,-0.07173717387,-0.1149302035
4.03,-0.07651079433,-0.1115489612
4.04,-0.08112625449,-0.107970357
4.05,-0.08557543735,-0.1042017422
4.06,-0.08985056573,-0.1002507998
4.07,-0.09394421579,-0.09612552892
4.08,-0.09784932973,-0.09183422867
4.09,-0.1015592278,-0.08738548145
4.1,-0.1050676197,-0.08278813578
4.11,-0.1083686146,-0.07805128869
4.12,-0.1114567316,-0.07318426769
4.13,-0.1143269077,-0.06819661245
4.14,-0.1169745066,-0.06309805601
4.15,-0.1193953253,-0.05789850582
4.16,-0.1215856012,-0.05260802447
4.17,-0.1235420167,-0.04723681015
4.18,-0.1252617046,-0.04179517702
4.19,-0.1267422515,-0.03629353537
4.2,-0.127981701,-0.03074237168
4.21,-0.1289785553,-0.02515222861
4.22,-0.1297317768,-0.019533685
4.23,-0.1302407881,-0.01389733579
4.24,-0.1305054717,-0.008253772084
4.25,-0.1305261682,-0.002613561211
4.26,-0.1303036742,0.003012773037
4.27,-0.1298392394,0.008614770047
4.28,-0.1291345619,0.01418205181
4.29,-0.1281917841,0.01970434214
4.3,-0.1270134867,0.0251714856
4.31,-0.1256026823,0.03057346616
4.32,-0.123962808,0.03590042549
4.33,-0.1220977177,0.04114268092
4.34,-0.1200116731,0.04629074298
4.35,-0.1177093342,0.05133533249
4.36,-0.1151957492,0.05626739726
4.37,-0.1124763434,0.06107812819
4.38,-0.1095569077,0.06575897496
4.39,-0.1064435865,0.07030166108
4.4,-0.1031428646,0.07469819846
4.41,-0.09966155405,0.07894090126
4.42,-0.09600677979,0.08302239927
4.43,-0.09218596538,0.08693565048
4.44,-0.08820681786,0.09067395311
4.45,-0.08407731221,0.0942309569
4.46,-0.07980567539,0.09760067367
4.47,-0.07540036997,0.1007774872
4.48,-0.07087007737,0.1037561625
4.49,-0.06622368071,0.1065318539
4.5,-0.06147024744,0.1091001127
4.51,-0.05661901161,0.1114568945
4.52,-0.05167935593,0.1135985646
4.53,-0.04666079362,0.1155219034
4.54,-0.04157295007,0.1172241112
4.55,-0.0364255444,0.1187028115
4.56,-0.03122837083,0.1199560539
4.57,-0.02599128014,0.1209823162
4.58,-0.0207241609,0.1217805055
4.59,-0.01543692086,0.1223499586
4.6,-0.0101394683,0.1226904416
4.61,-0.004841693494,0.122802149
4.62,0.000446549762,0.122685701
4.63,0.005715462441,0.1223421413
4.64,0.01095531841,0.121772933
4.65,0.01615648237,0.1209799548
4.66,0.0213094275,0.1199654953
4.67,0.02640475287,0.1187322475
4.68,0.03143320055,0.1172833021
4.69,0.03638567236,0.1156221398
4.7,0.04125324622,0.1137526239
4.71,0.04602719221,0.111678991
4.72,0.05069898806,0.1094058418
4.73,0.05526033431,0.1069381314
4.74,0.05970316892,0.104281158
4.75,0.06401968141,0.101440552
4.76,0.06820232644,0.09842226422
4.77,0.07224383684,0.09523255336
4.78,0.07613723611,0.09187797312
4.79,0.07987585027,0.08836535875
4.8,0.08345331909,0.08470181323
4.81,0.08686360675,0.08089469287
4.82,0.09010101177,0.07695159257
4.83,0.09316017634,0.07288033071
4.84,0.09603609488,0.06868893364
4.85,0.09872412201,0.06438561985
4.86,0.1012199797,0.05997878385
4.87,0.1035197639,0.05547697987
4.88,0.1056199502,0.05088890514
4.89,0.1075173986,0.04622338319
4.9,0.1092093584,0.04148934684
4.91,0.1106934711,0.03669582109
4.92,0.1119677738,0.03185190594
4.93,0.1130307007,0.02696675912
4.94,0.1138810846,0.02204957881
4.95,0.1145181576,0.01710958628
4.96,0.1149415505,0.01215600869
4.97,0.1151512924,0.007198061821
4.98,0.1151478082,0.002244933001
4.99,0.1149319171,-0.002694235894
5,0.1145048287,-0.007610365267
5.01,0.1138681396,-0.01249445444
5.02,0.1130238283,-0.01733759806
5.03,0.1119742506,-0.0221310023
5.04,0.1107221331,-0.0268660007
5.05,0.1092705668,-0.0315340698
5.06,0.1076229998,-0.03612684436
5.07,0.1057832294,-0.04063613223
5.08,0.1037553934,-0.0450539289
5.09,0.1015439613,-0.04937243153
5.1,0.09915372443,-0.05358405262
5.11,0.09658978558,-0.05768143319
5.12,0.09385754835,-0.06165745548
5.13,0.0909627058,-0.06550525514
5.14,0.08791122865,-0.06921823288
5.15,0.08470935299,-0.07279006561
5.16,0.08136356763,-0.076214717
5.17,0.07788060093,-0.07948644743
5.18,0.07426740732,-0.08259982337
5.19,0.07053115345,-0.08554972616
5.2,0.06667920394,-0.08833136015
5.21,0.06271910693,-0.09094026018
5.22,0.05865857928,-0.09337229843
5.23,0.05450549153,-0.09562369063
5.24,0.05026785268,-0.09769100159
5.25,0.04595379474,-0.09957115003
5.26,0.04157155717,-0.1012614127
5.27,0.03712947109,-0.1027594281
5.28,0.03263594355,-0.1040631989
5.29,0.02809944159,-0.1051710944
5.3,0.02352847631,-0.1060818516
5.31,0.01893158699,-0.1067945764
5.32,0.01431732511,-0.1073087432
5.33,0.009694238515,-0.1076241944
5.34,0.005070855662,-0.1077411391
5.35,0.0004556699018,-0.1076601512
5.36,-0.004142876029,-0.1073821666
5.37,-0.008716405387,-0.1069084797
5.38,-0.01325662259,-0.10624074
5.39,-0.01775532819,-0.1053809468
5.4,-0.02220443353,-0.1043314445
5.41,-0.02659597526,-0.1030949162
5.42,-0.03092212936,-0.1016743779
5.43,-0.03517522506,-0.1000731709
5.44,-0.03934775821,-0.09829495459
5.45,-0.0434324044,-0.09634369794
5.46,-0.04742203169,-0.09422367105
5.47,-0.0513097128,-0.09193943582
5.48,-0.05508873703,-0.0894958363
5.49,-0.05875262162,-0.08689798848
5.5,-0.06229512262,-0.08415126962
5.51,-0.06571024536,-0.08126130724
5.52,-0.06899225431,-0.0782339676
5.53,-0.07213568251,-0.07507534384
5.54,-0.07513534033,-0.07179174377
5.55,-0.07798632384,-0.06838967726
5.56,-0.08068402247,-0.06487584342
5.57,-0.08322412616,-0.0612571174
5.58,-0.08560263193,-0.05754053696
5.59,-0.0878158498,-0.05373328885
5.6,-0.08986040818,-0.04984269488
5.61,-0.09173325855,-0.04587619792
5.62,-0.09343167964,-0.04184134768
5.63,-0.09495328087,-0.03774578635
5.64,-0.09629600526,-0.03359723423
5.65,-0.09745813163,-0.02940347516
5.66,-0.09843827627,-0.02517234198
5.67,-0.09923539387,-0.020911702
5.68,-0.09984877792,-0.0166294424
5.69,-0.1002780604,-0.0123334557
5.7,-0.1005232109,-0.008031625301
5.71,-0.1005845353,-0.003731811124
5.72,-0.1004626733,0.0005581646808
5.73,-0.1001585959,0.004830531848
5.74,-0.09967360236,0.009077585959
5.75,-0.09900931575,0.01329170221
5.76,-0.09816767895,0.01746534897
5.77,-0.09715094939,0.0215911011
5.78,-0.09596169358,0.02566165302
5.79,-0.0946027809,0.02966983146
5.8,-0.09307737703,0.03360860795
5.81,-0.09138893677,0.03747111094
5.82,-0.08954119638,0.04125063763
5.83,-0.0875381655,0.04494066535
5.84,-0.08538411853,0.04853486263
5.85,-0.08308358566,0.05202709984
5.86,-0.08064134337,0.05541145938
5.87,-0.07806240463,0.05868224547
5.88,-0.07535200867,0.06183399348
5.89,-0.07251561038,0.06486147877
5.9,-0.06955886939,0.06775972507
5.91,-0.06648763882,0.07052401234
5.92,-0.06330795377,0.07314988419
5.93,-0.06002601947,0.07563315467
5.94,-0.05664819925,0.07796991463
5.95,-0.05318100223,0.08015653753
5.96,-0.04963107082,0.08218968466
5.97,-0.0460051681,0.08406630983
5.98,-0.04231016493,0.08578366356
5.99,-0.03855302704,0.08733929663
6,-0.03474080195,0.08873106309
