"Freq [GHz]","re(S(Tx_p1,Tx_p1)) []","im(S(Tx_p1,Tx_p1)) []"
1,-0.02071448951,-0.1398861607
1.01,-0.02538208784,-0.1389119865
1.02,-0.03002453112,-0.1377823191
1.03,-0.03463589655,-0.1364975155
1.04,-0.03921031573,-0.1350581898
1.05,-0.04374198319,-0.1334652039
1.06,-0.0482251642,-0.1317196582
1.07,-0.05265420177,-0.129822883
1.08,-0.05702352299,-0.1277764293
1.09,-0.06132764462,-0.1255820602
1.1,-0.06556117807,-0.1232417428
1.11,-0.06971883382,-0.1207576399
1.12,-0.07379542526,-0.118132102
1.13,-0.07778587194,-0.11536766
1.14,-0.08168520252,-0.1124670182
1.15,-0.08548855716,-0.1094330471
1.16,-0.08919118962,-0.1062687772
1.17,-0.09278846899,-0.1029773928
1.18,-0.09627588124,-0.09956222668
1.19,-0.0996490304,-0.09602675451
1.2,-0.1029036397,-0.09237459014
1.21,-0.1060355525,-0.08860948112
1.22,-0.1090407332,-0.08473530464
1.23,-0.111915268,-0.08075606381
1.24,-0.1146553657,-0.07667588436
1.25,-0.1172573588,-0.07249901163
1.26,-0.1197177041,-0.06822980791
1.27,-0.1220329843,-0.06387275009
1.28,-0.1241999085,-0.05943242759
1.29,-0.1262153144,-0.05491354047
1.3,-0.1280761692,-0.05032089787
1.31,-0.1297795721,-0.04565941654
1.32,-0.1313227561,-0.04093411953
1.33,-0.1327030905,-0.03615013504
1.34,-0.1339180836,-0.03131269527
1.35,-0.1349653857,-0.02642713535
1.36,-0.1358427925,-0.02149889223
1.37,-0.1365482488,-0.01653350357
1.38,-0.1370798527,-0.01153660641
1.39,-0.1374358594,-0.006513935868
1.4,-0.1376146863,-0.001471323538
1.41,-0.1376149181,0.003585304298
1.42,-0.1374353114,0.008649928707
1.43,-0.1370748009,0.01371644046
1.44,-0.1365325052,0.01877864273
1.45,-0.1358077322,0.02383025413
1.46,-0.134899986,0.02886491224
1.47,-0.1338089732,0.03387617751
1.48,-0.1325346092,0.03885753765
1.49,-0.1310770253,0.04380241258
1.5,-0.1294365751,0.04870415983
1.51,-0.1276138415,0.05355608058
1.52,-0.1256096434,0.05835142615
1.53,-0.1234250424,0.06308340525
1.54,-0.1210613496,0.06774519167
1.55,-0.1185201318,0.07232993265
1.56,-0.1158032178,0.07683075789
1.57,-0.1129127046,0.08124078911
1.58,-0.1098509628,0.08555315029
1.59,-0.1066206421,0.08976097846
1.6,-0.1032246764,0.09385743509
1.61,-0.0996662877,0.09783571813
1.62,-0.09594899064,0.1016890745
1.63,-0.09207659553,0.1054108133
1.64,-0.0880532112,0.1089943191
1.65,-0.08388324716,0.1124330664
1.66,-0.07957141491,0.115720634
1.67,-0.07512272866,0.1188507198
1.68,-0.07054250517,0.1218171562
1.69,-0.06583636276,0.1246139258
1.7,-0.0610102195,0.1272351771
1.71,-0.05607029047,0.1296752408
1.72,-0.0510230841,0.1319286458
1.73,-0.04587539755,0.1339901359
1.74,-0.04063431114,0.1358546859
1.75,-0.03530718175,0.1375175183
1.76,-0.02990163524,0.1389741192
1.77,-0.02442555784,0.1402202551
1.78,-0.01888708652,0.1412519882
1.79,-0.01329459834,0.1420656927
1.8,-0.007656698761,0.1426580697
1.81,-0.001982208991,0.1430261624
1.82,0.003719847731,0.1431673703
1.83,0.009440260786,0.1430794635
1.84,0.0151696478,0.1427605955
1.85,0.02089847122,0.1422093163
1.86,0.02661705574,0.1414245838
1.87,0.03231560664,0.1404057753
1.88,0.03798422894,0.1391526971
1.89,0.0436129473,0.1376655943
1.9,0.04919172671,0.1359451588
1.91,0.05471049377,0.1339925364
1.92,0.06015915866,0.1318093329
1.93,0.06552763767,0.1293976194
1.94,0.07080587616,0.1267599357
1.95,0.07598387199,0.1238992929
1.96,0.08105169932,0.1208191751
1.97,0.08599953265,0.1175235385
1.98,0.09081767109,0.1140168112
1.99,0.09549656276,0.1103038896
2,0.1000268292,0.1063901347
2.01,0.10439929,0.1022813669
2.02,0.1086049865,0.09798385882
2.03,0.1126352068,0.09350432745
2.04,0.1164815086,0.08884992439
2.05,0.1201357436,0.08402822504
2.06,0.1235900795,0.07904721626
2.07,0.1268370235,0.0739152828
2.08,0.1298694433,0.06864119234
2.09,0.1326805887,0.06323407931
2.1,0.1352641119,0.05770342739
2.11,0.1376140871,0.05205905087
2.12,0.1397250289,0.04631107482
2.13,0.14159191,0.04046991413
2.14,0.1432101778,0.03454625153
2.15,0.1445757699,0.02855101458
2.16,0.145685128,0.02249535173
2.17,0.1465352109,0.01639060753
2.18,0.1471235064,0.01024829703
2.19,0.1474480414,0.004080079441
2.2,0.1475073905,-0.002102268814
2.21,0.1473006839,-0.008286881632
2.22,0.146827613,-0.01446183124
2.23,0.1460884347,-0.02061515657
2.24,0.1450839746,-0.02673489203
2.25,0.143815628,-0.03280909634
2.26,0.1422853597,-0.03882588161
2.27,0.1404957023,-0.04477344244
2.28,0.1384497522,-0.0506400849
2.29,0.1361511654,-0.05641425537
2.3,0.1336041499,-0.06208456922
2.31,0.1308134582,-0.067639839
2.32,0.1277843772,-0.07306910233
2.33,0.124522717,-0.07836164922
2.34,0.1210347981,-0.08350704873
2.35,0.1173274371,-0.08849517504
2.36,0.1134079313,-0.09331623263
2.37,0.1092840413,-0.09796078068
2.38,0.104963973,-0.1024197565
2.39,0.1004563576,-0.1066844978
2.4,0.09577023124,-0.1107467642
2.41,0.09091501263,-0.1145987573
2.42,0.08590048029,-0.1182331395
2.43,0.08073674843,-0.1216430519
2.44,0.07543424204,-0.1248221303
2.45,0.07000367106,-0.1277645202
2.46,0.06445600392,-0.1304648906
2.47,0.05880244026,-0.1329184454
2.48,0.05305438317,-0.1351209344
2.49,0.04722341088,-0.1370686621
2.5,0.04132124808,-0.1387584949
2.51,0.03535973689,-0.1401878671
2.52,0.02935080765,-0.1413547852
2.53,0.02330644954,-0.1422578302
2.54,0.0172386812,-0.1428961587
2.55,0.01115952139,-0.1432695024
2.56,0.005080959818,-0.1433781657
2.57,-0.0009850717887,-0.1432230222
2.58,-0.007026728312,-0.1428055091
2.59,-0.0130322794,-0.1421276205
2.6,-0.01899013716,-0.1411918989
2.61,-0.02488888321,-0.1400014255
2.62,-0.0307172951,-0.138559809
2.63,-0.03646437195,-0.1368711729
2.64,-0.04211935929,-0.1349401414
2.65,-0.04767177296,-0.1327718247
2.66,-0.05311142208,-0.1303718021
2.67,-0.05842843094,-0.1277461047
2.68,-0.06361325989,-0.1249011967
2.69,-0.06865672493,-0.1218439561
2.7,-0.07355001629,-0.1185816537
2.71,-0.07828471561,-0.1151219318
2.72,-0.08285281191,-0.1114727823
2.73,-0.08724671622,-0.1076425237
2.74,-0.0914592749,-0.1036397774
2.75,-0.09548378151,-0.09947344402
2.76,-0.09931398737,-0.09515267865
2.77,-0.1029441106,-0.09068686626
2.78,-0.1063688439,-0.08608559647
2.79,-0.1095833607,-0.0813586383
2.8,-0.1125833202,-0.07651591478
2.81,-0.1153648705,-0.0715674775
2.82,-0.1179246509,-0.06652348129
2.83,-0.1202597924,-0.061394159
2.84,-0.1223679171,-0.05618979648
2.85,-0.1242471358,-0.05092070788
2.86,-0.1258960452,-0.04559721136
2.87,-0.1273137227,-0.0402296052
2.88,-0.1284997208,-0.03482814439
2.89,-0.1294540602,-0.02940301794
2.9,-0.130177221,-0.02396432666
2.91,-0.1306701342,-0.01852206179
2.92,-0.1309341709,-0.01308608429
2.93,-0.1309711308,-0.007666105039
2.94,-0.1307832306,-0.002271665783
2.95,-0.1303730903,0.003087878909
2.96,-0.1297437197,0.008403378805
2.97,-0.1288985039,0.01366590418
2.98,-0.1278411875,0.01886676095
2.99,-0.1265758592,0.02399750484
3,-0.1251069355,0.0290499544
3.01,-0.1234391435,0.03401620305
3.02,-0.121577504,0.03888862997
3.03,-0.119527314,0.04365990993
3.04,-0.1172941286,0.04832302202
3.05,-0.1148837438,0.05287125733
3.06,-0.1123021775,0.05729822548
3.07,-0.1095556525,0.06159786014
3.08,-0.1066505776,0.06576442347
3.09,-0.1035935302,0.06979250949
3.1,-0.1003912384,0.07367704654
3.11,-0.09705056326,0.07741329862
3.12,-0.09357848179,0.08099686589
3.13,-0.08998206979,0.0844236842
3.14,-0.08626848535,0.08769002368
3.15,-0.08244495263,0.09079248665
3.16,-0.07851874617,0.09372800452
3.17,-0.0744971757,0.0964938341
3.18,-0.07038757149,0.09908755311
3.19,-0.06619727027,0.1015070551
3.2,-0.06193360172,0.1037505436
3.21,-0.05760387569,0.1058165259
3.22,-0.05321536997,0.1077038064
3.23,-0.04877531879,0.1094114791
3.24,-0.04429090197,0.11093892
3.25,-0.03976923484,0.1122857792
3.26,-0.03521735872,0.1134519725
3.27,-0.03064223227,0.114437673
3.28,-0.02605072339,0.1152433022
3.29,-0.02144960196,0.1158695214
3.3,-0.0168455331,0.1163172223
3.31,-0.01224507129,0.1165875185
3.32,-0.007654654996,0.1166817364
3.33,-0.003080602003,0.116601406
3.34,0.001470894623,0.1163482524
3.35,0.005993770017,0.1159241871
3.36,0.0104820904,0.1153312995
3.37,0.01493005547,0.1145718481
3.38,0.01933200023,0.1136482535
3.39,0.02368239638,0.1125630896
3.4,0.02797585331,0.1113190768
3.41,0.03220711864,0.1099190746
3.42,0.0363710784,0.1083660749
3.43,0.04046275697,0.1066631954
3.44,0.04447731664,0.1048136738
3.45,0.04841005699,0.1028208623
3.46,0.0522564141,0.1006882216
3.47,0.05601195952,0.09841931686
3.48,0.05967239921,0.09601781294
3.49,0.06323357239,0.09348747019
3.5,0.06669145028,0.09083214092
3.51,0.07004213495,0.08805576613
3.52,0.07328185815,0.08516237249
3.53,0.07640698024,0.08215606986
3.54,0.07941398919,0.07904104898
3.55,0.08229949979,0.07582157958
3.56,0.085060253,0.07250200874
3.57,0.08769311545,0.06908675951
3.58,0.09019507928,0.06558032978
3.59,0.09256326213,0.06198729134
3.6,0.09479490742,0.05831228912
3.61,0.09688738497,0.05456004062
3.62,0.09883819185,0.05073533533
3.63,0.1006449536,0.04684303435
3.64,0.1023054257,0.04288806997
3.65,0.1038174956,0.03887544527
3.66,0.1051791844,0.03481023367
3.67,0.10638865,0.03069757843
3.68,0.1074441896,0.026542692
3.69,0.1083442426,0.02235085525
3.7,0.1090873944,0.0181274165
3.71,0.1096723801,0.01387779032
3.72,0.1100980883,0.009607456116
3.73,0.1103635656,0.005321956341
3.74,0.1104680207,0.001026894487
3.75,0.1104108298,-0.003272067342
3.76,0.1101915405,-0.007569211208
3.77,0.1098098779,-0.01185876653
3.78,0.1092657488,-0.0161349137
3.79,0.1085592477,-0.02039178812
3.8,0.1076906614,-0.02462348477
3.81,0.1066604747,-0.02882406319
3.82,0.1054693758,-0.03298755295
3.83,0.1041182608,-0.03710795972
3.84,0.1026082397,-0.04117927172
3.85,0.1009406404,-0.04519546678
3.86,0.09911701412,-0.04915051983
3.87,0.09713913948,-0.05303841098
3.88,0.09500902687,-0.05685313406
3.89,0.09272892226,-0.06058870561
3.9,0.09030131069,-0.06423917442
3.91,0.08772891938,-0.06779863151
3.92,0.08501472038,-0.0712612205
3.93,0.08216193266,-0.07462114845
3.94,0.07917402377,-0.07787269707
3.95,0.07605471087,-0.08101023431
3.96,0.07280796117,-0.08402822624
3.97,0.06943799174,-0.08692124925
3.98,0.06594926865,-0.0896840025
3.99,0.06234650543,-0.09231132056
4,0.05863466079,-0.09479818628
4.01,0.05481893563,-0.09713974373
4.02,0.05090476923,-0.09933131124
4.03,0.04689783473,-0.1013683945
4.04,0.04280403379,-0.1032466994
4.05,0.03862949043,-0.1049621456
4.06,0.0343805441,-0.1065108785
4.07,0.03006374191,-0.1078892828
4.08,0.02568583008,-0.1090939943
4.09,0.02125374454,-0.1101219124
4.1,0.01677460081,-0.110970212
4.11,0.012255683,-0.1116363546
4.12,0.00770443211,-0.1121180997
4.13,0.003128433573,-0.1124135148
4.14,-0.001464595953,-0.112520986
4.15,-0.006066822477,-0.1124392266
4.16,-0.01067030924,-0.1121672865
4.17,-0.0152670319,-0.1117045598
4.18,-0.01984889435,-0.111050792
4.19,-0.02440774506,-0.1102060868
4.2,-0.02893539396,-0.1091709112
4.21,-0.03342362977,-0.1079461011
4.22,-0.03786423776,-0.1065328642
4.23,-0.0422490179,-0.1049327839
4.24,-0.04656980326,-0.1031478204
4.25,-0.0508184788,-0.1011803123
4.26,-0.05498700017,-0.09903297634
4.27,-0.05906741286,-0.09670890644
4.28,-0.06305187127,-0.09421157145
4.29,-0.06693265786,-0.09154481213
4.3,-0.07070220229,-0.08871283689
4.31,-0.07435310042,-0.08572021649
4.32,-0.07787813309,-0.08257187768
4.33,-0.08127028476,-0.07927309582
4.34,-0.08452276178,-0.07582948638
4.35,-0.08762901033,-0.07224699543
4.36,-0.09058273389,-0.06853188912
4.37,-0.09337791028,-0.06469074212
4.38,-0.09600880812,-0.06073042513
4.39,-0.09847000264,-0.05665809141
4.4,-0.1007563909,-0.05248116237
4.41,-0.1028632063,-0.04820731238
4.42,-0.104786032,-0.04384445259
4.43,-0.1065208141,-0.03940071409
4.44,-0.1080638735,-0.03488443025
4.45,-0.1094119167,-0.03030411837
4.46,-0.1105620462,-0.0256684607
4.47,-0.1115117696,-0.02098628484
4.48,-0.112259007,-0.01626654364
4.49,-0.1128020988,-0.01151829459
4.5,-0.1131398111,-0.006750678845
4.51,-0.1132713402,-0.001972899833
4.52,-0.1131963166,0.002805798338
4.53,-0.1129148071,0.007576152747
4.54,-0.112427316,0.01232890365
4.55,-0.1117347854,0.01705481657
4.56,-0.1108385936,0.02174470434
4.57,-0.109740553,0.02638944916
4.58,-0.1084429063,0.03098002449
4.59,-0.106948322,0.03550751673
4.6,-0.1052598883,0.03996314664
4.61,-0.1033811059,0.04433829044
4.62,-0.1013158801,0.04862450051
4.63,-0.09906851107,0.0528135256
4.64,-0.09664368372,0.05689733052
4.65,-0.09404645605,0.06086811526
4.66,-0.09128224675,0.06471833339
4.67,-0.08835682172,0.06844070987
4.68,-0.08527627963,0.07202825795
4.69,-0.0820470367,0.07547429538
4.7,-0.07867581053,0.07877245971
4.71,-0.07516960325,0.08191672262
4.72,-0.07153568385,0.08490140339
4.73,-0.06778156989,0.08772118134
4.74,-0.06391500859,0.09037110723
4.75,-0.05994395737,0.09284661361
4.76,-0.05587656389,0.0951435241
4.77,-0.05172114568,0.09725806151
4.78,-0.04748616939,0.09918685491
4.79,-0.04318022978,0.1009269455
4.8,-0.03881202845,0.1024757912
4.81,-0.03439035249,0.1038312704
4.82,-0.0299240529,0.1049916843
4.83,-0.02542202315,0.1059557581
4.84,-0.02089317765,0.1067226408
4.85,-0.01634643044,0.1072919045
4.86,-0.011790674,0.1076635421
4.87,-0.007234758298,0.1078379635
4.88,-0.002687470183,0.1078159918
4.89,0.001842486888,0.1075988571
4.9,0.006346512676,0.1071881903
4.91,0.0108161295,0.1065860154
4.92,0.01524300107,0.1057947408
4.93,0.01961895066,0.1048171498
4.94,0.0239359787,0.10365639
4.95,0.02818627964,0.1023159623
4.96,0.03236225813,0.1007997085
4.97,0.03645654431,0.09911179834
4.98,0.04046200844,0.09725671617
4.99,0.04437177453,0.09523924634
5,0.04817923323,0.09306445845
5.01,0.05187805368,0.0907376919
5.02,0.0554621945,0.08826453989
5.03,0.05892591386,0.08565083309
5.04,0.06226377849,0.08290262281
5.05,0.06547067179,0.08002616396
5.06,0.06854180089,0.07702789768
5.07,0.07147270279,0.07391443378
5.08,0.07425924938,0.0706925331
5.09,0.07689765162,0.06736908966
5.1,0.0793844626,0.06395111294
5.11,0.0817165797,0.06044571008
5.12,0.08389124575,0.05686006821
5.13,0.08590604926,0.05320143695
5.14,0.08775892366,0.04947711103
5.15,0.08944814574,0.04569441329
5.16,0.09097233312,0.04186067782
5.17,0.09233044088,0.03798323358
5.18,0.09352175739,0.03406938836
5.19,0.09454589933,0.03012641316
5.2,0.095402806,0.02616152707
5.21,0.09609273281,0.02218188266
5.22,0.09661624424,0.01819455191
5.23,0.09697420603,0.01420651272
5.24,0.09716777687,0.01022463604
5.25,0.09719839947,0.00625567363
5.26,0.09706779122,0.002306246465
5.27,0.0967779343,-0.001617166169
5.28,0.09633106543,-0.005508236896
5.29,0.09572966525,-0.009360799757
5.3,0.0949764474,-0.013168859
5.31,0.0940743473,-0.01692659717
5.32,0.09302651075,-0.02062838244
5.33,0.09183628232,-0.02426877522
5.34,0.09050719364,-0.02784253408
5.35,0.08904295162,-0.0313446209
5.36,0.08744742658,-0.03477020538
5.37,0.08572464045,-0.03811466873
5.38,0.083878755,-0.04137360684
5.39,0.08191406014,-0.04454283263
5.4,0.07983496235,-0.04761837785
5.41,0.0776459733,-0.05059649418
5.42,0.07535169867,-0.05347365379
5.43,0.07295682717,-0.05624654928
5.44,0.07046611985,-0.05891209307
5.45,0.0678843997,-0.06146741626
5.46,0.06521654155,-0.06390986701
5.47,0.06246746235,-0.06623700847
5.48,0.05964211175,-0.0684466162
5.49,0.05674546315,-0.07053667533
5.5,0.05378250503,-0.07250537721
5.51,0.0507582328,-0.07435111582
5.52,0.04767764102,-0.07607248386
5.53,0.04454571603,-0.07766826859
5.54,0.04136742904,-0.07913744739
5.55,0.03814772968,-0.08047918323
5.56,0.03489153993,-0.08169281991
5.57,0.0316037485,-0.08277787717
5.58,0.02828920569,-0.08373404575
5.59,0.0249527186,-0.08456118241
5.6,0.02159904682,-0.08525930483
5.61,0.01823289843,-0.08582858663
5.62,0.01485892654,-0.08626935231
5.63,0.01148172603,-0.08658207235
5.64,0.008105830756,-0.08676735834
5.65,0.004735711092,-0.0868259582
5.66,0.001375771734,-0.08675875154
5.67,-0.001969650151,-0.08656674525
5.68,-0.005296286523,-0.0862510691
5.69,-0.008599939808,-0.08581297165
5.7,-0.01187648401,-0.08525381634
5.71,-0.01512186563,-0.08457507769
5.72,-0.0183321044,-0.08377833785
5.73,-0.02150329386,-0.08286528328
5.74,-0.02463160183,-0.08183770169
5.75,-0.0277132708,-0.08069747921
5.76,-0.03074461814,-0.07944659781
5.77,-0.03372203646,-0.0780871329
5.78,-0.03664199372,-0.07662125118
5.79,-0.03950103355,-0.07505120876
5.8,-0.04229577544,-0.07337934941
5.81,-0.04502291507,-0.07160810306
5.82,-0.0476792247,-0.06973998449
5.83,-0.05026155359,-0.06777759216
5.84,-0.05276682861,-0.06572360728
5.85,-0.05519205496,-0.06358079295
5.86,-0.05753431697,-0.06135199343
5.87,-0.05979077915,-0.05904013362
5.88,-0.06195868737,-0.05664821846
5.89,-0.0640353702,-0.05417933258
5.9,-0.0660182405,-0.05163663986
5.91,-0.06790479713,-0.04902338307
5.92,-0.06969262697,-0.04634288351
5.93,-0.07137940704,-0.04359854059
5.94,-0.0729629069,-0.04079383144
5.95,-0.07444099123,-0.03793231035
5.96,-0.07581162262,-0.03501760817
5.97,-0.07707286455,-0.03205343159
5.98,-0.07822288459,-0.02904356228
5.99,-0.07925995777,-0.02599185579
6,-0.08018247009,-0.02290224041
