"Freq [GHz]","re(S(Antenna1_1_p1,Antenna1_1_p1)) []","im(S(Antenna1_1_p1,Antenna1_1_p1)) []"
3,-0.0398084163739172,0.0473301640500098
3.002,-0.0349281064402797,0.0503666963929358
3.004,-0.0298562100717559,0.0530936816055039
3.006,-0.0246113662964799,0.055499615780707
3.008,-0.0192128929358045,0.0575741033738481
3.01,-0.0136807174193162,0.0593078949430534
3.012,-0.0080353107593209,0.0606929252689734
3.014,-0.002297616467,0.061722340853709
3.016,0.0035110180772615,0.0623905346990836
3.018,0.0093689197322891,0.0626931591652996
3.02,0.0152541599192344,0.0626271544098626
3.022,0.0211446331724318,0.0621907583077097
3.024,0.0270181313738956,0.0613835164537486
3.026,0.0328524222049032,0.0602062875481017
3.028,0.0386253262102432,0.058661248065368
3.03,0.0443147934610373,0.0567518838089627
3.032,0.0498989819606383,0.0544829841515421
3.034,0.0553563333727654,0.0518606305626614
3.036,0.0606656482789263,0.0488921764251114
3.038,0.0658061622441003,0.0455862293407316
3.04,0.0707576175996573,0.041952620727452
3.042,0.0755003380027793,0.0380023803885012
3.044,0.0800152953816755,0.033747699315255
3.046,0.0842841793959211,0.0292018909549826
3.048,0.088289465781439,0.0243793519047711
3.05,0.0920144735895981,0.019295509532942
3.052,0.0954434309802654,0.0139667794593192
3.054,0.0985615322983611,0.0084105071656425
3.056,0.101354988773778,0.0026449121371017
3.058,0.10381108381458,-0.0033109711831923
3.06,0.105918217473454,-0.009437357466144
3.062,0.107665952817304,-0.0157137744533756
3.064,0.109045054960265,-0.0221191336978308
3.066,0.110047524380047,-0.0286317999868591
3.068,0.110666634618025,-0.0352296608968094
3.07,0.110896952363155,-0.0418902075179542
3.072,0.11073436782004,-0.0485906060377477
3.074,0.110176109961616,-0.0553077741462071
3.076,0.109220759466655,-0.0620184645106187
3.078,0.107868261842548,-0.068699338236436
3.08,0.106119930033999,-0.0753270491433636
3.082,0.103978444317846,-0.0818783218719168
3.084,0.101447851484708,-0.0883300312292972
3.086,0.0985335522080145,-0.0946592836559353
3.088,0.0952422868009602,-0.100843495358653
3.09,0.0915821220619118,-0.10686047190491
3.092,0.0875624234090742,-0.112688484036994
3.094,0.0831938293049227,-0.118306342625693
3.096,0.0784882197711687,-0.123693478372598
3.098,0.0734586792149232,-0.12883000824024
3.1,0.0681194584567317,-0.133696808929634
3.102,0.0624859262013902,-0.138275584754182
3.104,0.0565745238920572,-0.142548930769672
3.106,0.0504027152186167,-0.146500400669544
3.108,0.0439889222110627,-0.150114557684723
3.11,0.0373524762986766,-0.153377040047803
3.112,0.0305135480358038,-0.156274607230581
3.114,0.0234930837551603,-0.158795193344675
3.116,0.0163127395595532,-0.160927947814595
3.118,0.0089948051327476,-0.162663280972707
3.12,0.0015621351105843,-0.163992897425664
3.122,-0.0059619312767937,-0.164909833491752
3.124,-0.013553643330724,-0.165408479808709
3.126,-0.0211889214367172,-0.165484609211494
3.128,-0.0288434364760587,-0.165135394379583
3.13,-0.0364926927132933,-0.164359423553368
3.132,-0.0441121077988937,-0.163156705919177
3.134,-0.0516771001290741,-0.161528683262504
3.136,-0.0591631670926232,-0.159478222989081
3.138,-0.0665459740151834,-0.157009619313468
3.14,-0.0738014339014729,-0.154128576414319
3.142,-0.0809057895747553,-0.150842202056882
3.144,-0.0878356980028071,-0.147158979581364
3.146,-0.0945683094992883,-0.143088750257579
3.148,-0.101081345589,-0.138642679805168
3.15,-0.107353179065685,-0.133833226979314
3.152,-0.113362908330614,-0.128674103821741
3.154,-0.119090428540871,-0.123180235086444
3.156,-0.124516505225148,-0.11736770817043
3.158,-0.129622840505767,-0.11125372411913
3.16,-0.134392139924997,-0.1048565418062
3.162,-0.13880817036384,-0.0981954192680609
3.164,-0.142855822211503,-0.0912905497128429
3.166,-0.146521161763374,-0.0841629973040678
3.168,-0.14979148030572,-0.0768346270290804
3.17,-0.152655344964719,-0.0693280320625197
3.172,-0.155102637007813,-0.0616664582451416
3.174,-0.15712459090509,-0.0538737297484475
3.176,-0.158713827248198,-0.0459741649455529
3.178,-0.15986438082455,-0.0379924973891049
3.18,-0.160571726644225,-0.0299537920467891
3.182,-0.160832793816978,-0.0218833599306125
3.184,-0.160645984676803,-0.0138066733553659
3.186,-0.160011177551315,-0.0057492768939741
3.188,-0.158929734173179,0.0022632960232868
3.19,-0.157404497430839,0.0102056145303038
3.192,-0.155439780755652,0.0180524338746342
3.194,-0.153041360242646,0.0257787841682181
3.196,-0.150216453601975,0.033360057282418
3.198,-0.146973699137991,0.0407720882417757
3.2,-0.14332312935373,0.0479912432227894
3.202,-0.13927613187686,0.0549944959949646
3.204,-0.134845421805298,0.0617595136106267
3.206,-0.130044988969313,0.068264728490239
3.208,-0.124890057777354,0.0744894164992757
3.21,-0.119397030633269,0.0804137673728775
3.212,-0.113583438612484,0.086018954153428
3.214,-0.107467871554703,0.09128719717683
3.216,-0.101069923591252,0.0962018274122069
3.218,-0.0944101196851152,0.10074734234995
3.22,-0.0875098467121231,0.10490945909219
3.222,-0.0803912767318944,0.108675165380079
3.224,-0.0730772945176681,0.112032761041527
3.226,-0.0655914124542709,0.114971899192869
3.228,-0.057957691484007,0.117483620587836
3.23,-0.0502006560906923,0.119560381806527
3.232,-0.0423452087624384,0.121196080577542
3.234,-0.0344165442543293,0.122386073325435
3.236,-0.0264400589327052,0.123127190936031
3.238,-0.0184412640442378,0.123417742431805
3.24,-0.0104456966277855,0.123257520549346
3.242,-0.0024788307594365,0.122647796811509
3.244,0.0054340116182042,0.121591314785392
3.246,0.0132677452221988,0.120092273318853
3.248,0.0209976133673004,0.118156306248331
3.25,0.0285992646831941,0.115790462868736
3.252,0.0360488430821963,0.113003170659995
3.254,0.0433230630309125,0.109804205061588
3.256,0.05039929212763,0.106204646189474
3.258,0.0572556214561229,0.102216836388615
3.26,0.063870941385979,0.0978543295155401
3.262,0.0702250058787528,0.0931318363458767
3.264,0.0762985016987787,0.0880651702325408
3.266,0.0820731048164988,0.0826711832107919
3.268,0.0875315387320858,0.0769676996874806
3.27,0.0926576266962632,0.0709734537825212
3.272,0.0974363381050076,0.0647080138325669
3.274,0.101853830113924,0.0581917125846045
3.276,0.105897486849089,0.0514455682842885
3.278,0.109555950989296,0.0444912125786684
3.28,0.112819151226009,0.0373508076980925
3.282,0.115678325046425,0.0300469699522053
3.284,0.11812603478577,0.0226026892760719
3.286,0.120156180334944,0.0150412472736922
3.288,0.121764005990155,0.0073861405580288
3.29,0.122946102531628,-0.0003390035728831
3.292,0.12370040241924,-0.0081105033461739
3.294,0.12402617489378,-0.0159046997366418
3.296,0.123924008773079,-0.023698035830773
3.298,0.12339580223396,-0.0314671289768355
3.3,0.122444732471457,-0.0391888454464228
3.302,0.121075238528416,-0.0468403702121151
3.304,0.119292986589909,-0.0543992755310014
3.306,0.11710483793821,-0.061843585743429
3.308,0.114518814765809,-0.0691518417195208
3.31,0.111544057045428,-0.076303156553872
3.312,0.108190781257513,-0.0832772765702563
3.314,0.104470237777865,-0.0900546320761575
3.316,0.100394658628995,-0.0966163869601482
3.318,0.0959772121311889,-0.102944484332427
3.32,0.0912319516202778,-0.10902169205181
3.322,0.0861737572616443,-0.114831638050632
3.324,0.0808182880900507,-0.120358848282835
3.326,0.0751819254679896,-0.125588779718771
3.328,0.0692817139155766,-0.130507847012503
3.33,0.0631353093363989,-0.13510344798931
3.332,0.0567609183451574,-0.13936398766119
3.334,0.0501772435736132,-0.143278894170539
3.336,0.0434034273123818,-0.146838636033537
3.338,0.0364589920464709,-0.150034735586264
3.34,0.0293637865231706,-0.152859775658534
3.342,0.0221379291913556,-0.155307408222135
3.344,0.0148017524805417,-0.157372358211758
3.346,0.0073757496995614,-0.159050426318793
3.348,-0.000119482447862401,-0.160338484560195
3.35,-0.0076632919332003,-0.161234476725585
3.352,-0.015235026505975,-0.161737409708095
3.354,-0.0228140853185594,-0.161847349225905
3.356,-0.0303799670545436,-0.161565405242145
3.358,-0.0379123199162873,-0.160893725593388
3.36,-0.0453909902556577,-0.159835479537161
3.362,-0.0527960695415047,-0.158394842530216
3.364,-0.0601079395368996,-0.156576980850818
3.366,-0.0673073185982083,-0.154388028477913
3.368,-0.074375305808182,-0.151835076842069
3.37,-0.081293421515878,-0.148926140762073
3.372,-0.0880436510086154,-0.14567014348267
3.374,-0.0946084850621443,-0.142076889027973
3.376,-0.1009709607869,-0.138157037115797
3.378,-0.107114697269678,-0.13392207284755
3.38,-0.113023936161207,-0.129384282658402
3.382,-0.118683575662388,-0.124556717320719
3.384,-0.124079207601361,-0.119453166865756
3.386,-0.129197150627052,-0.114088120554714
3.388,-0.13402448161398,-0.108476736651829
3.39,-0.138549070615226,-0.102634805340106
3.392,-0.142759606240624,-0.0965787078398427
3.394,-0.14664562895851,-0.0903253834486111
3.396,-0.150197554139371,-0.0838922823806961
3.398,-0.153406702000717,-0.0772973293426966
3.4,-0.156265316062391,-0.0705588755207032
3.402,-0.15876659192209,-0.0636956589437687
3.404,-0.160904690760614,-0.0567267544667164
3.406,-0.162674764386569,-0.0496715292548152
3.408,-0.164072964929995,-0.0425495924163688
3.41,-0.165096465894117,-0.0353807487062691
3.412,-0.165743466875082,-0.0281849435114924
3.414,-0.166013212149618,-0.0209822166342984
3.416,-0.165905988065196,-0.013792645120556
3.418,-0.165423136994181,-0.0066362937416567
3.42,-0.164567052405299,0.000466841414081903
3.422,-0.163341183029532,0.0074968849467498
3.424,-0.161750028035694,0.0144341373756723
3.426,-0.159799130418402,0.0212591328324505
3.428,-0.157495067702099,0.0279526909216459
3.43,-0.154845442864221,0.0344959715544223
3.432,-0.151858868779244,0.0408705338204984
3.434,-0.148544944215471,0.0470583845939932
3.436,-0.144914242624828,0.0530420381282367
3.438,-0.140978283006042,0.058804565964782
3.44,-0.136749501740447,0.0643296494313316
3.442,-0.132241226669312,0.0696016311831896
3.444,-0.127467640001209,0.0746055670120871
3.446,-0.122443745767175,0.0793272700765404
3.448,-0.117185327981459,0.0837533611064443
3.45,-0.111708912644983,0.0878713119050697
3.452,-0.106031720648731,0.0916694886804575
3.454,-0.100171621033875,0.0951371918081607
3.456,-0.09414708292556,0.0982646951064471
3.458,-0.0879771210970906,0.101043278724708
3.46,-0.0816812451614454,0.103465265945498
3.462,-0.0752794003970106,0.105524049999848
3.464,-0.0687919107056631,0.10721412279541
3.466,-0.0622394177235148,0.108531096356281
3.468,-0.0556428203188813,0.109471726273358
3.47,-0.0490232114582306,0.110033925363431
3.472,-0.0424018121592742,0.110216779935203
3.474,-0.03579990728865,0.110020557560142
3.476,-0.0292387801500443,0.109446712345846
3.478,-0.022739644374532,0.108497890309511
3.48,-0.0163235776351966,0.107177926649264
3.482,-0.0100114538793048,0.105491837110627
3.484,-0.0038238774284309,0.103445812145894
3.486,0.00221888553303309,0.101047204063906
3.488,0.0080969715503125,0.09830450676804
3.49,0.0137909860604689,0.0952273369802606
3.492,0.0192820681532692,0.0918264091992489
3.494,0.0245519519390654,0.088113506490816
3.496,0.0295830309821475,0.0841014473190888
3.498,0.0343584141375817,0.0798040525470258
3.5,0.0388619862897041,0.0752361024552853
3.502,0.0430784641100191,0.0704132965183897
3.504,0.0469934471427065,0.0653522049777406
3.506,0.0505934703651136,0.0600702215410045
3.508,0.0538660515114988,0.0545855089277293
3.51,0.0567997349977333,0.0489169451213396
3.512,0.0593841358447188,0.0430840645477051
3.514,0.0616099759987821,0.037106998290935
3.516,0.0634691216470268,0.0310064102970137
3.518,0.0649546123255172,0.0248034337461727
3.52,0.0660606887192841,0.0185196034050668
3.522,0.0667828197518814,0.0121767869769119
3.524,0.0671177185634796,0.00579711664791531
3.526,0.0670633602762267,-0.00059708326364385
3.528,0.0666189946455733,-0.0069833694031569
3.53,0.0657851509968159,-0.0133392499137795
3.532,0.0645636445459692,-0.0196422590840896
3.534,0.0629575735043536,-0.0258700303350073
3.536,0.0609713171664338,-0.0320003708590112
3.538,0.0586105200805543,-0.0380113357362015
3.54,0.0558820862023656,-0.043881296305572
3.542,0.0527941552310154,-0.0495890177698544
3.544,0.0493560848278174,-0.0551137266223396
3.546,0.0455784204181342,-0.0604351834943045
3.548,0.041472869776218,-0.0655337476013828
3.55,0.0370522623837496,-0.0703904477876409
3.552,0.0323305197223388,-0.0749870433959245
3.554,0.0273226060707768,-0.0793060897532569
3.556,0.022044487107416,-0.0833309957500091
3.558,0.0165130819885201,-0.087046084261795
3.56,0.0107462053932972,-0.0904366438729317
3.562,0.0047625205363692,-0.0934889829205502
3.564,-0.0014185255012367,-0.0961904767685064
3.566,-0.0077767622425721,-0.0985296121697808
3.568,-0.0142913542743175,-0.100496033317388
3.57,-0.0209408742860125,-0.102080573882264
3.572,-0.027703368617157,-0.103275292737913
3.574,-0.0345564241314933,-0.104073509171054
3.576,-0.0414772463474554,-0.104469822177739
3.578,-0.0484427281538878,-0.104460135744487
3.58,-0.0554295271636767,-0.104041679013776
3.582,-0.0624141397234403,-0.103213014333771
3.584,-0.0693729797110083,-0.101974050891644
3.586,-0.0762824527851495,-0.10032604663028
3.588,-0.0831190356410981,-0.0982716118480836
3.59,-0.0898593532881057,-0.09581470058154
3.592,-0.0964802558589198,-0.0929606077703925
3.594,-0.102958893471606,-0.0897159499051367
3.596,-0.109272795777332,-0.0860886531567522
3.598,-0.115399942243466,-0.0820879274884519
3.6,-0.121318839960645,-0.0777242438494725
3.602,-0.127008592442901,-0.0730093015506105
3.604,-0.132448971029657,-0.0679559972217206
3.606,-0.13762048551849,-0.0625783832509062
3.608,-0.142504445487649,-0.0568916246756615
3.61,-0.147083026436995,-0.050911958095738
3.612,-0.151339333216361,-0.0446566358581521
3.614,-0.155257454949971,-0.0381438812041398
3.616,-0.158822520795937,-0.0313928222884733
3.618,-0.162020752129166,-0.0244234383111256
3.62,-0.164839510997106,-0.0172564961418723
3.622,-0.167267347756115,-0.0099134859876295
3.624,-0.169294035687849,-0.0024165495835042
3.626,-0.170910613894137,0.0052115862626502
3.628,-0.17210942076865,0.0129476825711301
3.63,-0.172884120444368,0.0207680630566082
3.632,-0.173229726414995,0.028648690898818
3.634,-0.173142628129426,0.0365652444910559
3.636,-0.172620600656966,0.0444931969626495
3.638,-0.171662820622538,0.0524078959927797
3.64,-0.170269870309919,0.0602846421094449
3.642,-0.168443745531557,0.0680987708627652
3.644,-0.166187845063433,0.0758257341952086
3.646,-0.163506971643336,0.0834411788447424
3.648,-0.160407317731018,0.0909210294511712
3.65,-0.156896449528577,0.0982415653652503
3.652,-0.152983285159624,0.105379501631058
3.654,-0.148678075905325,0.112312064999707
3.656,-0.14399236669665,0.11901707224231
3.658,-0.138938970159888,0.125473002610705
3.66,-0.133531925615384,0.131659073253001
3.662,-0.127786457227304,0.137555304301919
3.664,-0.121718926403173,0.143142596103295
3.666,-0.115346784882081,0.148402784572079
3.668,-0.108688512440261,0.15331871172262
3.67,-0.101763569872825,0.157874281750557
3.672,-0.0945923286910555,0.162054515822759
3.674,-0.0871960105439443,0.165845609621727
3.676,-0.0795966184136932,0.169234976571289
3.678,-0.0718168661444721,0.172211297229234
3.68,-0.0638801029441264,0.174764558443037
3.682,-0.055810242078823,0.176886090664703
3.684,-0.0476316758706615,0.178568598419977
3.686,-0.0393692028187307,0.179806190627641
3.688,-0.0310479420241881,0.180594403364029
3.69,-0.0226932482003765,0.180930213768023
3.692,-0.0143306323693649,0.180812061481478
3.694,-0.0059856703383258,0.18023984711998
3.696,0.0023160748460327,0.179214944568673
3.698,0.0105491485605412,0.177740192197948
3.7,0.0186882832235107,0.175819889893556
3.702,0.0267084857240661,0.173459786395813
3.704,0.0345851254012333,0.170667059842525
3.706,0.0422940136744972,0.167450297510116
3.708,0.0498114883530651,0.163819467447977
3.71,0.057114495938801,0.159785885900597
3.712,0.0641806671765955,0.155362179512244
3.714,0.0709883990662286,0.150562244610166
3.716,0.0775169225388321,0.145401199060613
3.718,0.0837463796201069,0.139895329494147
3.72,0.0896578873027053,0.134062037996019
3.722,0.095233602618909,0.127919781077882
3.724,0.100456786454613,0.12148800457797
3.726,0.105311857234862,0.114787078366978
3.728,0.109784443090767,0.107838222447692
3.73,0.113861434607022,0.100663435206894
3.732,0.1175310210089,0.0932854139889865
3.734,0.120782734667084,0.085727477641334
3.736,0.123607481408249,0.0780134802122289
3.738,0.125997569119364,0.0701677326034839
3.74,0.127946730429527,0.062214912710408
3.742,0.129450139472642,0.0541799796523107
3.744,0.130504424177816,0.0460880874199026
3.746,0.131107673533863,0.0379644944841643
3.748,0.131259433259797,0.029834478264655
3.75,0.130960706899488,0.0217232437705912
3.752,0.130213940117816,0.0136558405593962
3.754,0.129023004087293,0.00565707392873
3.756,0.127393178853233,-0.0022485803405166
3.758,0.125331118665811,-0.0100370548519212
3.76,0.122844826969284,-0.0176847766111624
3.762,0.119943610936281,-0.0251687392040927
3.764,0.116638046843745,-0.032466582308573
3.766,0.112939928274918,-0.0395566608974686
3.768,0.108862216048811,-0.0464181126066502
3.77,0.104418984868238,-0.0530309259005456
3.772,0.0996253615844228,-0.0593759956018286
3.774,0.0944974642771478,-0.0654351807925478
3.776,0.0890523396503015,-0.0711913563928664
3.778,0.0833078911368841,-0.0766284587130915
3.78,0.0772828075069969,-0.0817315263842861
3.782,0.070996498286992,-0.0864867377627048
3.784,0.0644690121789799,-0.0908814431329067
3.786,0.0577209665429087,-0.0949041890154023
3.788,0.0507734700961891,-0.0985447392640081
3.79,0.0436480509063462,-0.101794094190977
3.792,0.0363665740892708,-0.104644496785713
3.794,0.0289511733020179,-0.107089443208551
3.796,0.0214241742865173,-0.109123677938548
3.798,0.013808018330284,-0.110743198559064
3.8,0.0061251973328088,-0.111945240165885
3.802,-0.0016018242213465,-0.112728264485272
3.804,-0.0093506691506984,-0.113091946692399
3.806,-0.0170991169753154,-0.113037153123134
3.808,-0.0248251676907396,-0.112565914575916
3.81,-0.0325070984577479,-0.111681403603121
3.812,-0.0401235247577408,-0.11038790309556
3.814,-0.0476534500181189,-0.108690771366558
3.816,-0.0550763204230347,-0.106596411046597
3.818,-0.0623720709155211,-0.104112227601974
3.82,-0.0695211695405601,-0.101246595295908
3.822,-0.0765046590960106,-0.0980088123124796
3.824,-0.0833041961313738,-0.0944090638685135
3.826,-0.0899020843463962,-0.0904583769405641
3.828,-0.0962813074143807,-0.0861685790375409
3.83,-0.102425557808347,-0.0815522530519394
3.832,-0.108319263511071,-0.0766226990247737
3.834,-0.113947608384145,-0.0713938858612002
3.836,-0.119296559024591,-0.0658804086351818
3.838,-0.124352878151752,-0.0600974496325055
3.84,-0.129104143310856,-0.0540607334420435
3.842,-0.13353876128458,-0.0477864859749999
3.844,-0.137645979186258,-0.0412913933318673
3.846,-0.14141589764452,-0.0345925606957212
3.848,-0.144839478801573,-0.027707473238701
3.85,-0.147908554459733,-0.0206539600783281
3.852,-0.150615833548697,-0.0134501488861199
3.854,-0.152954908433013,-0.0061144341203666
3.856,-0.154920259086858,0.00133456123867411
3.858,-0.15650725576326,0.0088780269560488
3.86,-0.157712163187663,0.0164969980992049
3.862,-0.158532145907179,0.0241723915864365
3.864,-0.158965266228112,0.031885042270292
3.866,-0.15901048447532,0.0396157433878902
3.868,-0.158667663107184,0.0473452774075764
3.87,-0.15793756292021,0.0550544533050266
3.872,-0.156821842076619,0.0627241460918681
3.874,-0.155323056688005,0.0703353301383015
3.876,-0.153444655386659,0.0778691169186197
3.878,-0.151190974215148,0.0853067937300796
3.88,-0.148567233063007,0.0926298585148214
3.882,-0.14557952797747,0.099820062239573
3.884,-0.142234825773441,0.10685944284857
3.886,-0.138540951765439,0.113730364976292
3.888,-0.13450657964195,0.120415561579339
3.89,-0.130141221200592,0.126898170436208
3.892,-0.125455209759644,0.133161772977241
3.894,-0.120459684279791,0.139190438365044
3.896,-0.1151665725353,0.144968755988813
3.898,-0.109588570346103,0.150481881283332
3.9,-0.10373911873417,0.155715570996316
3.902,-0.0976323819998469,0.160656222365259
3.904,-0.0912832173797382,0.165290910535579
3.906,-0.0847071507061198,0.169607429241018
3.908,-0.0779203411361585,0.173594324006255
