"Freq [GHz]","re(S(Antenna1_1_p1,Antenna1_1_p1)) []","im(S(Antenna1_1_p1,Antenna1_1_p1)) []"
3,0.0146503287320828,-0.0831234542099902
3.002,0.0119707099597203,-0.0830954788070642
3.004,0.0093172690882441,-0.0829390009744961
3.006,0.0066967366835201,-0.082656454579293
3.008,0.0041156646041955,-0.0822506356161519
3.01,0.0015804058306838,-0.0817246887869466
3.012,-0.0009029042093209,-0.0810820952210266
3.014,-0.003328365117,-0.080326657326291
3.016,-0.0056903299727385,-0.0794624855409164
3.018,-0.0079834196227109,-0.0784939796147004
3.02,-0.0102025392139656,-0.0774258141001374
3.022,-0.0123428925095682,-0.0762629193422903
3.024,-0.0143999937361044,-0.0750104633062514
3.026,-0.0163696801450968,-0.0736738326918983
3.028,-0.0182481232397568,-0.072258613084632
3.03,-0.0200318378889627,-0.0707705685810373
3.032,-0.0217176903393617,-0.0692156212384579
3.034,-0.0233029065972345,-0.0675998299573386
3.036,-0.0247850766910737,-0.0659293689108886
3.038,-0.0261621606958997,-0.0642105063802684
3.04,-0.0274324907803427,-0.062449582078548
3.042,-0.0285947749672207,-0.0606529858654988
3.044,-0.0296480963583245,-0.058827135919445
3.046,-0.0305919131340789,-0.0569784562570174
3.048,-0.031426057758561,-0.0551133553402289
3.05,-0.0321507318004019,-0.053238204488058
3.052,-0.0327665037797346,-0.0513593168016808
3.054,-0.0332743031816389,-0.0494829254243575
3.056,-0.033675412626222,-0.0476151643228983
3.058,-0.0339714614754203,-0.0457620469731923
3.06,-0.034164415946546,-0.043929447726144
3.062,-0.0342565696326961,-0.0421230825533756
3.064,-0.0342505320597345,-0.0403484908478308
3.066,-0.0341492161099529,-0.0386110185168591
3.068,-0.0339558264719751,-0.0369158004268094
3.07,-0.0336738431068446,-0.0352677455579542
3.072,-0.0333070088199602,-0.0336715212587477
3.074,-0.0328593127183839,-0.0321315398182071
3.076,-0.0323349727533451,-0.0306519451656187
3.078,-0.0317384204574517,-0.029236601466436
3.08,-0.0310742816660008,-0.0278890816133636
3.082,-0.0303473590721543,-0.0266126577319168
3.084,-0.0295626134252924,-0.0254102924392972
3.086,-0.0287251440079855,-0.0242846314559353
3.088,-0.0278401690490398,-0.0232379975986529
3.09,-0.0269130066580882,-0.0222723844849097
3.092,-0.0259490540799258,-0.0213894535369943
3.094,-0.0249537678490773,-0.0205905314656928
3.096,-0.0239326435134313,-0.0198766076625976
3.098,-0.0228911954302768,-0.0192483348002396
3.1,-0.0218349370472683,-0.0187060286896342
3.102,-0.0207693598546098,-0.0182496716041824
3.104,-0.0196999154519428,-0.0178789143296723
3.106,-0.0186319941013833,-0.0175930803895444
3.108,-0.0175709071109373,-0.0173911734447226
3.11,-0.0165218675913234,-0.0172718806778034
3.112,-0.0154899722941962,-0.0172335834405811
3.114,-0.0144801838548397,-0.0172743641946747
3.116,-0.0134973143004468,-0.0173920163445947
3.118,-0.0125460077672524,-0.0175840555327067
3.12,-0.0116307262094157,-0.0178477307456636
3.122,-0.0107557325267937,-0.0181800363817521
3.124,-0.009925078620724,-0.0185777261387088
3.126,-0.0091425909867172,-0.019037326491494
3.128,-0.0084118580230587,-0.0195551514395835
3.13,-0.0077362195642933,-0.0201273180433677
3.132,-0.0071187563288937,-0.0207497620691768
3.134,-0.0065622795890741,-0.0214182548525036
3.136,-0.0060693239626232,-0.0221284194890812
3.138,-0.0056421386451834,-0.0228757487734679
3.14,-0.0052826826914729,-0.0236556230173194
3.142,-0.0049926183347553,-0.0244633266798821
3.144,-0.0047733076128071,-0.0252940685533642
3.146,-0.0046258088292883,-0.0261429983085791
3.148,-0.0045508748589999,-0.0270052255701681
3.15,-0.0045489522156854,-0.0278758384823145
3.152,-0.0046201808906145,-0.0287499220658411
3.154,-0.0047643957208707,-0.0296225757344438
3.156,-0.0049811291751476,-0.0304889321714304
3.158,-0.0052696137057668,-0.03134417477013
3.16,-0.005628786604997,-0.0321835557101999
3.162,-0.0060572955038402,-0.0330024126990609
3.164,-0.0065535045615028,-0.0337961855728429
3.166,-0.0071155010333744,-0.0345604335940678
3.168,-0.0077411045857201,-0.0352908504290804
3.17,-0.0084278752847191,-0.0359832800025197
3.172,-0.0091731239878129,-0.0366337311451416
3.174,-0.0099739224550899,-0.0372383916584475
3.176,-0.0108271155581982,-0.0377936418155529
3.178,-0.01172933243455,-0.0382960668991049
3.18,-0.0126769999342246,-0.0387424700567891
3.182,-0.0136663557069782,-0.0391298819456125
3.184,-0.0146934620168031,-0.0394555729856659
3.186,-0.0157542207413154,-0.0397170616049741
3.188,-0.0168443875531787,-0.0399121233867132
3.19,-0.017959588100839,-0.0400387998296962
3.192,-0.0190953333456522,-0.0400954035053658
3.194,-0.0202470355006462,-0.0400805261217819
3.196,-0.0214100250919751,-0.039993042697582
3.198,-0.0225795665609913,-0.0398321156282243
3.2,-0.0237508762787301,-0.0395971994772106
3.202,-0.0249191385328604,-0.0392880409950354
3.204,-0.0260795229382983,-0.0389046836393733
3.206,-0.027227201752013,-0.0384474653197611
3.208,-0.028357366752354,-0.0379170199807242
3.21,-0.0294652459662692,-0.0373142753571225
3.212,-0.0305461211684844,-0.036640451666572
3.214,-0.0315953449027026,-0.03589705712317
3.216,-0.0326083562722517,-0.0350858857177931
3.218,-0.0335806982551152,-0.0342090108300503
3.22,-0.0345080333921231,-0.0332687801578099
3.222,-0.0353861599618944,-0.0322678090699205
3.224,-0.0362110275776681,-0.031208972898473
3.226,-0.0369787521842709,-0.0300953987971313
3.228,-0.037685631164007,-0.0289304564621643
3.23,-0.0383281571006923,-0.0277177479134726
3.232,-0.0389030323324384,-0.0264610972424584
3.234,-0.0394071816143293,-0.0251645386145652
3.236,-0.0398377654927052,-0.023832304383969
3.238,-0.0401921923032378,-0.0224688114481951
3.24,-0.0404681286657855,-0.0210786474906537
3.242,-0.0406635116894365,-0.0196665573284914
3.244,-0.0407765582717958,-0.0182374270246079
3.246,-0.0408057747678012,-0.0167962681711467
3.248,-0.0407499646226996,-0.0153482013556688
3.25,-0.0406082374868059,-0.0138984401102636
3.252,-0.0403800143078037,-0.0124522720930054
3.254,-0.0400650342490875,-0.0110150418384117
3.256,-0.03966335937237,-0.009592132054526
3.258,-0.0391753777038771,-0.00818894481038547
3.26,-0.038601807194021,-0.00681088189655988
3.262,-0.0379436957612472,-0.00546332562112325
3.264,-0.0372024236112213,-0.00415161836745921
3.266,-0.0363797014035011,-0.00288104350820808
3.268,-0.0354775682779142,-0.0016568039085194
3.27,-0.0344983897537368,-0.000484002319478819
3.272,-0.0334448528349924,0.000632378962566901
3.274,-0.0323199601360761,0.0016874983246045
3.276,-0.0311270229409106,0.0026766750342885
3.278,-0.0298696541407043,0.0035954090986684
3.28,-0.0285517568939911,0.0044394007280925
3.282,-0.0271775154635745,0.0052045690522053
3.284,-0.0257513819242297,0.0058870711560719
3.286,-0.0242780631450559,0.0064833196436922
3.288,-0.0227625064998447,0.0069900000380288
3.29,-0.0212098828883719,0.0074040872371169
3.292,-0.0196255705307596,0.0077228602178261
3.294,-0.0180151365062202,0.0079439179993582
3.296,-0.0163843168469212,0.008065190960227
3.298,-0.0147389971360397,0.0080849553531645
3.3,-0.013085189968543,0.0080018417335772
3.302,-0.0114290138025837,0.0078148466878849
3.304,-0.00977666928009131,0.0075233388889986
3.306,-0.00813441605679021,0.007127066866571
3.308,-0.00650854829719064,0.0066261643504792
3.31,-0.00490537041057217,0.006021151866128
3.312,-0.00333117154048717,0.0053129394297437
3.314,-0.00179220061513481,0.0045028273138425
3.316,-0.00029464158300506,0.0035925021898518
3.318,0.00115541242218886,0.0025840352275733
3.32,0.00255198383627782,0.0014798766981903
3.322,0.00388923487464434,0.000282847259367499
3.324,0.00516149268705066,-0.0010038690828354
3.326,0.00636327173798956,-0.0023767355987713
3.328,0.00748929790557659,-0.0038318762125034
3.33,0.00853452902639894,-0.0053650879093103
3.332,0.0094941774651574,-0.0069718565811901
3.334,0.0103637288736132,-0.0086473738105387
3.336,0.0111389614223818,-0.0103865540135371
3.338,0.011815963336471,-0.0121840545662642
3.34,0.0123911488031707,-0.014034296438534
3.342,0.0128612722913556,-0.015931484562135
3.344,0.0132234420905417,-0.0178696311917576
3.346,0.0134751315295614,-0.0198425784387925
3.348,0.0136141890421376,-0.021844022960195
3.35,0.0136388457987997,-0.0238675393755847
3.352,0.013547722732025,-0.0259066056880951
3.354,0.0133398350014406,-0.0279546285459051
3.356,0.0130145945654564,-0.0300049683751454
3.358,0.0125718121137127,-0.0320509642373879
3.36,0.0120116964843423,-0.0340859599701611
3.362,0.0113348520284953,-0.0361033286212161
3.364,0.0105422755731004,-0.0380964973058183
3.366,0.0096353497817917,-0.040058971429613
3.368,0.008615838391818,-0.0419843586250688
3.37,0.007485875314122,-0.0438663916010731
3.372,0.0062479560113846,-0.0456989506676705
3.374,0.0049049261178557,-0.0474760845659735
3.376,0.0034599691831002,-0.049192032331797
3.378,0.0019165917703224,-0.0508412416425503
3.38,0.000278610128793298,-0.0524183880584022
3.382,-0.0014498674423884,-0.0539183917207186
3.384,-0.003264455921361,-0.0553364345957557
3.386,-0.0051605125070519,-0.0566679745947139
3.388,-0.0071331547239797,-0.0579087595518292
3.39,-0.0091772793952256,-0.0590548399401057
3.392,-0.0112875836006238,-0.0601025793698427
3.394,-0.0134585832785102,-0.0610486648786111
3.396,-0.0156846354893711,-0.0618901152306961
3.398,-0.0179599588607167,-0.0626242877726966
3.4,-0.0202786550623914,-0.0632488838607032
3.402,-0.02263472993209,-0.0637619540737687
3.404,-0.0250221156206139,-0.0641618995467164
3.406,-0.027434691096569,-0.0644474753348152
3.408,-0.0298663046679949,-0.0646177891313688
3.41,-0.0323107939131168,-0.0646723012482691
3.412,-0.0347620079500817,-0.0646108208814924
3.414,-0.0372138262606176,-0.0644335047242984
3.416,-0.0396601802911956,-0.064140849560556
3.418,-0.0420950723151809,-0.0637336882316567
3.42,-0.0445125944586885,-0.0632131812059181
3.422,-0.0469069473015325,-0.0625808091832502
3.424,-0.0492724573346944,-0.0618383635443277
3.426,-0.0516035943344016,-0.0609879355475495
3.428,-0.0538949870250987,-0.0600319060183541
3.43,-0.0561414383972206,-0.0589729330855777
3.432,-0.058337940763244,-0.0578139390695016
3.434,-0.0604796881134712,-0.0565580964660068
3.436,-0.0625620897048277,-0.0552088152017633
3.438,-0.0645807808260424,-0.053769726745218
3.44,-0.0665316332704467,-0.0522446683386684
3.442,-0.068410765159312,-0.0506376683368104
3.444,-0.0702145489512094,-0.0489529293079129
3.446,-0.071939618547175,-0.0471948115734596
3.448,-0.0735828757514594,-0.0453678164835557
3.45,-0.0751414949949826,-0.0434765700749303
3.452,-0.0766129281387308,-0.0415258055095425
3.454,-0.0779949057738748,-0.0395203460818393
3.456,-0.07928544103556,-0.0374650887335529
3.458,-0.0804828286270906,-0.0353649866152917
3.46,-0.0815856457314454,-0.0332250332245025
3.462,-0.0825927505370106,-0.0310502453231525
3.464,-0.0835032798746631,-0.02884564736659
3.466,-0.0843166462835148,-0.0266162551987194
3.468,-0.0850325340728813,-0.0243670617106421
3.47,-0.0856508943982306,-0.022103020883569
3.472,-0.0861719397192742,-0.019829034631797
3.474,-0.08659613764865,-0.017549937967358
3.476,-0.0869242030800443,-0.0152704865541542
3.478,-0.087157091804532,-0.0129953438554885
3.48,-0.0872959911151966,-0.0107290695357356
3.482,-0.0873423114493048,-0.0084761077093733
3.484,-0.0872976765984309,-0.0062407771361061
3.486,-0.0871639146769669,-0.0040272606340942
3.488,-0.0869430474996875,-0.00183959659295999
3.49,-0.0866372797595311,0.00031832952026065
3.492,-0.0862489890467308,0.00244279292924887
3.494,-0.0857807140209346,0.00453023650081601
3.496,-0.0852351436178525,0.00657727668908883
3.498,-0.0846151060924183,0.00858070877702578
3.5,-0.0839235567502959,0.0105375124152852
3.502,-0.0831635671399809,0.0124448546383897
3.504,-0.0823383134172935,0.0143000938077406
3.506,-0.0814510646148864,0.0161007821010045
3.508,-0.0805051717985012,0.0178446676677293
3.51,-0.0795040563722667,0.0195296957213396
3.512,-0.0784511991352812,0.0211540095077051
3.514,-0.0773501291512179,0.022715950330935
3.516,-0.0762044133069732,0.0242140574870137
3.518,-0.0750176452764828,0.0256470672461727
3.52,-0.0737934357557159,0.0270139107550668
3.522,-0.0725354018201186,0.0283137130899119
3.524,-0.0712471575155204,0.0295457903119153
3.526,-0.0699323042907733,0.0307096467263561
3.528,-0.0685944216174267,0.0318049716468431
3.53,-0.0672370582411841,0.0328316357362205
3.532,-0.0658637236978308,0.0337896870359104
3.534,-0.0644778800939464,0.0346793465449927
3.536,-0.0630829338275662,0.0355010039709888
3.538,-0.0616822284264457,0.0362552120737985
3.54,-0.0602790376216344,0.036942681914428
3.542,-0.0588765577469846,0.0375642769001456
3.544,-0.0574779020241826,0.0381210079376604
3.546,-0.0560860937758658,0.0386140265556955
3.548,-0.054704061473782,0.0390446195686172
3.55,-0.0533346324202504,0.0394142018423591
3.552,-0.0519805287076612,0.0397243108240755
3.554,-0.0506443615992232,0.0399765992367431
3.556,-0.049328627972584,0.0401728287599909
3.558,-0.0480357060714799,0.040314862868205
3.56,-0.0467678517667028,0.0404046600570683
3.562,-0.0455271955836308,0.0404442670394498
3.564,-0.0443157395412367,0.0404358114014936
3.566,-0.0431353553325721,0.0403814940902192
3.568,-0.0419877807443175,0.0402835834926118
3.57,-0.0408746194360125,0.0401444069477364
3.572,-0.039797338637157,0.0399663438950872
3.574,-0.0387572674814933,0.0397518194669463
3.576,-0.0377555972774554,0.0395032960722607
3.578,-0.0367933805438878,0.0392232672695132
3.58,-0.0358715303299767,0.0389142501412238
3.582,-0.0349908213384403,0.0385787781902292
3.584,-0.0341518896910083,0.0382193947743561
3.586,-0.0333552340551495,0.0378386456867196
3.588,-0.0326012166510981,0.0374390728539164
3.59,-0.0318900648381057,0.03702320699736
3.592,-0.0312218721689198,0.0365935616674075
3.594,-0.0305966016316063,0.0361526261958633
3.596,-0.0300140865673323,0.0357028596552478
3.598,-0.0294740345234656,0.0352466845275481
3.6,-0.0289760290706453,0.0347864809545275
3.602,-0.0285195336329014,0.0343245802683895
3.604,-0.0281038941996575,0.0338632595632794
3.606,-0.0277283434484902,0.0334047366630938
3.608,-0.0273920050476489,0.0329511638433385
3.61,-0.0270938965469947,0.032504623592262
3.612,-0.0268329350063613,0.0320671233518479
3.614,-0.0266079404199714,0.0316405905258602
3.616,-0.0264176411059367,0.0312268686115267
3.618,-0.026260678819166,0.0308277129988744
3.62,-0.0261356134671063,0.0304447865281277
3.622,-0.0260409283861147,0.0300796560523705
3.624,-0.0259750362778491,0.0297337895964958
3.626,-0.0259362844241373,0.0294085523726502
3.628,-0.0259229604506502,0.0291052042711301
3.63,-0.0259332983883682,0.0288248975666082
3.632,-0.0259654845889951,0.028568674498818
3.634,-0.026017664008426,0.0283374650270559
3.636,-0.0260879459359663,0.0281320856778495
3.638,-0.0261744107185384,0.0279532378547797
3.64,-0.0262751157709186,0.0278015071594449
3.642,-0.0263881019475571,0.0276773616927652
3.644,-0.026511400405433,0.0275811536152086
3.646,-0.0266430381123357,0.0275131169747424
3.648,-0.0267810453586182,0.0274733691411712
3.65,-0.0269234610002771,0.0274619114052503
3.652,-0.0270683398946243,0.027478629501058
3.654,-0.0272137583063254,0.027523294439707
3.656,-0.0273578209586504,0.0275955655423097
3.658,-0.0274986665538884,0.0276949910307054
3.66,-0.0276344747283841,0.0278210104930015
3.662,-0.0277634709143041,0.0279729580119192
3.664,-0.0278839330931725,0.0281500643232947
3.666,-0.027994197242081,0.0283514603220791
3.668,-0.028092663059261,0.0285761811826205
3.67,-0.0281777991238248,0.0288231687905573
3.672,-0.0282481481210555,0.029091277112759
3.674,-0.0283023323439443,0.0293792760617268
3.676,-0.0283390575036932,0.0296858565412887
3.678,-0.0283571186544721,0.0300096350492341
3.68,-0.0283554029341264,0.030349159253037
3.682,-0.028332894898823,0.0307029134147029
3.684,-0.0282886794106615,0.0310693244899773
3.686,-0.0282219452587307,0.0314467676016411
3.688,-0.0281319884141881,0.0318335725670289
3.69,-0.0280182145103765,0.0322280308780227
3.692,-0.0278801413993649,0.0326284015464785
3.694,-0.0277174007363258,0.03303291862498
3.696,-0.0275297400039673,0.0334397976346733
3.698,-0.0273170234194588,0.0338472434859484
3.7,-0.0270792326564893,0.0342534569525563
3.702,-0.0268164673959339,0.0346566423738134
3.704,-0.0265289447387667,0.0350550155115247
3.706,-0.0262169987755028,0.0354468101255164
3.708,-0.0258810794569349,0.0358302859412066
3.71,-0.025521751211199,0.0362037363229969
3.712,-0.0251396901334045,0.0365654949282438
3.714,-0.0247356824637714,0.0369139440001658
3.716,-0.0243106205711679,0.0372475204406126
3.718,-0.0238654997398931,0.0375647238061465
3.72,-0.0234014141272947,0.0378641223060192
3.722,-0.022919552041091,0.0381443597838819
3.724,-0.0224211910453868,0.0384041620539699
3.726,-0.0219076923551379,0.0386423426109784
3.728,-0.0213804949692334,0.0388578083306924
3.73,-0.0208411091529785,0.0390495648048945
3.732,-0.0202911098011001,0.0392167210289865
3.734,-0.0197321292429158,0.039358493511334
3.736,-0.0191658495717514,0.0394742104722289
3.738,-0.0185939953206363,0.0395633147934839
3.74,-0.0180183247104728,0.039625366830408
3.742,-0.0174406221573582,0.0396600463223107
3.744,-0.0168626891481839,0.0396671541399026
3.746,-0.0162863362141369,0.0396466130441643
3.748,-0.0157133738802034,0.039598467444655
3.75,-0.0151456042135119,0.0395228837055912
3.752,-0.0145848123691837,0.0394201482193962
3.754,-0.014032757850707,0.03929066524873
3.756,-0.0134911664197666,0.0391349561694834
3.758,-0.0129617218581894,0.0389536538180788
3.76,-0.0124460581427159,0.0387475009088376
3.762,-0.0119457523917186,0.0385173438359073
3.764,-0.0114623173592548,0.038264128831427
3.766,-0.0109971951664823,0.0379888958825314
3.768,-0.010551751238989,0.0376927724233498
3.77,-0.0101272686297624,0.0373769678094544
3.772,-0.0097249434465772,0.0370427650681714
3.774,-0.0093458806858522,0.0366915144674522
3.776,-0.0089910901046985,0.0363246263771336
3.778,-0.0086614839161159,0.0359435626269085
3.78,-0.0083578747190031,0.0355498286757139
3.782,-0.008080973714008,0.0351449669572952
3.784,-0.0078313900390201,0.0347305477270933
3.786,-0.0076096309450913,0.0343081619745977
3.788,-0.0074161028758109,0.0338794131159919
3.79,-0.0072511117316538,0.0334459109290228
3.792,-0.0071148659707292,0.0330092630842871
3.794,-0.0070074784379821,0.0325710693714487
3.796,-0.0069289702234827,0.032132915101452
3.798,-0.006879273219716,0.0316963653709362
3.8,-0.0068582348671912,0.0312629601241152
3.802,-0.0068656225113465,0.0308342088477277
3.804,-0.0069011273906984,0.0304115870416007
3.806,-0.0069643698923154,0.0299965326208656
3.808,-0.0070549045597396,0.029590442710084
3.81,-0.0071722244477479,0.0291946716448792
3.812,-0.0073157667577408,0.0288105292624396
3.814,-0.0074849172581189,0.0284392796834423
3.816,-0.0076790150130347,0.0280821408624026
3.818,-0.0078973568055211,0.0277402842260262
3.82,-0.0081392010605601,0.0274148354520924
3.822,-0.0084037725260106,0.0271068750685204
3.824,-0.0086902642013738,0.0268174394884865
3.826,-0.0089978417263962,0.0265475227138359
3.828,-0.0093256452043807,0.0262980774536591
3.83,-0.0096727917783472,0.0260700175980606
3.832,-0.0100383767010709,0.0258642194292263
3.834,-0.0104214752541453,0.0256815242357998
3.836,-0.0108211432845912,0.0255227393518182
3.838,-0.0112364173517525,0.0253886404694945
3.84,-0.0116663150608562,0.0252799728799565
3.842,-0.0121098345245796,0.0251974531130001
3.844,-0.0125659538062582,0.0251417699811327
3.846,-0.0130336302945196,0.0251135850632788
3.848,-0.0135117991115735,0.025113533677299
3.85,-0.0139993717997328,0.0251422245146719
3.852,-0.0144952357086972,0.0252002397678801
3.854,-0.0149982518930128,0.0252881344796334
3.856,-0.0155072537468584,0.0254064350886741
3.858,-0.0160210463132597,0.0255556389160488
3.86,-0.0165384043576625,0.0257362118392049
3.862,-0.0170580716431789,0.0259485862364365
3.864,-0.017578760133112,0.026193158871292
3.866,-0.0180991493563195,0.0264702883907902
3.868,-0.0186178865111844,0.0267802920095764
3.87,-0.0191335853102102,0.0271234432950266
3.872,-0.0196448279836188,0.0274999676218681
3.874,-0.0201501647130051,0.0279100403283015
3.876,-0.0206481153596588,0.0283537817586197
3.878,-0.0211371706211481,0.0288312552400796
3.88,-0.0216157941740074,0.0293424627148214
3.882,-0.0220824250104698,0.029887341749573
