"Freq [GHz]","re(S(Antenna1_1_p1,Antenna1_1_p1)) []","im(S(Antenna1_1_p1,Antenna1_1_p1)) []"
3,-0.119563140773917,0.0368899786900098
3.002,-0.11529100390028,0.0445683799529358
3.004,-0.110556650321756,0.0519730519055039
3.006,-0.10537656681648,0.059076667980707
3.008,-0.0997688499658045,0.0658528759738481
3.01,-0.0937531426893162,0.0722763942430534
3.012,-0.0873505759693209,0.0783231031689734
3.014,-0.080583695287,0.083970128853709
3.016,-0.0734763961727385,0.0891959349990836
3.018,-0.0660538349727109,0.0939803905652996
3.02,-0.0583423539639656,0.0983048534098626
3.022,-0.0503693895895682,0.10215223760771
3.024,-0.0421633835261044,0.105507075053749
3.026,-0.0337536844550968,0.108355575448102
3.028,-0.0251704523497568,0.110685684165368
3.03,-0.0164445546589627,0.112487123308963
3.032,-0.00760746159936168,0.113751436851542
3.034,0.00130885996376545,0.114472026462661
3.036,0.0102720572169263,0.114644176925111
3.038,0.0192495007841003,0.114265084340732
3.04,0.0282083985596573,0.113333864227452
3.042,0.0371159077027793,0.111851571208501
3.044,0.0459392477916755,0.109821192595255
3.046,0.0546458160859211,0.107247648264983
3.048,0.063203300861439,0.104137784434771
3.05,0.0715797934295981,0.100500344832942
3.052,0.0797438997102654,0.0963459589693192
3.054,0.0876648531783611,0.0916871073056425
3.056,0.095312620253778,0.0865380801271017
3.058,0.10265800961458,0.0809149413168077
3.06,0.109672773273454,0.074835472833856
3.062,0.116329710117304,0.0683191249966244
3.064,0.122602763160265,0.0613869493721692
3.066,0.128467111180047,0.0540615333731409
3.068,0.133899263418025,0.0463669334631906
3.07,0.138877139263155,0.0383285846820458
3.072,0.14338015592004,0.0299732296012523
3.074,0.147389301861616,0.0213288271417929
3.076,0.150887206866655,0.0124244552543813
3.078,0.153858211042548,0.003290222433564
3.08,0.156288422833999,-0.0060428386233636
3.082,0.158165772617846,-0.0155428712019168
3.084,0.159480065784708,-0.0251773028792972
3.086,0.160223020508014,-0.0349129546759353
3.088,0.16038830170096,-0.0447161544806529
3.09,0.159971557861912,-0.0545528494599097
3.092,0.158970437009074,-0.0643887232869943
3.094,0.157384602904923,-0.0741893114856928
3.096,0.155215747771169,-0.0839201248125976
3.098,0.152467589494923,-0.0935467621002396
3.1,0.149145872526732,-0.103035031879634
3.102,0.14525834847139,-0.112351072744182
3.104,0.140814763072057,-0.121461466639672
3.106,0.135826832388617,-0.130333362379544
3.108,0.130308198171063,-0.138934583614723
3.11,0.124274405428677,-0.147233749747803
3.112,0.117742842995804,-0.155200381630581
3.114,0.11073269669516,-0.162805016044675
3.116,0.103264891399553,-0.170019303114595
3.118,0.0953620219927476,-0.176816118572707
3.12,0.0870482855305843,-0.183169652925664
3.122,0.0783494024032063,-0.189055515591752
3.124,0.069292534599276,-0.194450815308709
3.126,0.0599061978132828,-0.199334250911494
3.128,0.0502201691569413,-0.203686191379583
3.13,0.0402653864357067,-0.207488750653368
3.132,0.0300738506111063,-0.210725851519177
3.134,0.0196785144109259,-0.213383297562504
3.136,0.0091131779973768,-0.215448821589081
3.138,-0.0015876294251834,-0.216912143613468
3.14,-0.0123887658914729,-0.217765007314319
3.142,-0.0232545910547553,-0.218001223956882
3.144,-0.0341490940361071,-0.217616696181364
3.146,-0.0450360132102883,-0.216609447757579
3.148,-0.0558789606189999,-0.214979631505168
3.15,-0.0666415524456854,-0.212729543379315
3.152,-0.0772875306106145,-0.209863622521741
3.154,-0.0877808906108707,-0.206388441376444
3.156,-0.0980860105451476,-0.20231269367043
3.158,-0.108167773855767,-0.19764717335913
3.16,-0.117991696894997,-0.1924047451362
3.162,-0.12752404896384,-0.186600304808061
3.164,-0.136731976011503,-0.180250739332843
3.166,-0.145583616863374,-0.173374874224068
3.168,-0.15404821890572,-0.16599341251908
3.17,-0.162096253564719,-0.15812887311252
3.172,-0.169699521307813,-0.149805515755142
3.174,-0.17683125680509,-0.141049263918447
3.176,-0.183466227848198,-0.131887619025553
3.178,-0.18958083112455,-0.122349567149105
3.18,-0.195153182544225,-0.112465488076789
3.182,-0.200163195716978,-0.102267043265613
3.184,-0.204592666376803,-0.0917870770056659
3.186,-0.208425336351315,-0.0810594980149741
3.188,-0.211646960773179,-0.0701191657767132
3.19,-0.214245368330839,-0.0590017681696962
3.192,-0.216210503155652,-0.0477436953653658
3.194,-0.217534474442646,-0.0363819157717819
3.196,-0.218211586601975,-0.024953841687582
3.198,-0.218238366237991,-0.0134971989832243
3.2,-0.21761358425373,-0.00204989216221057
3.202,-0.21633825557686,0.00935013233496464
3.204,-0.214415655905298,0.0206650215606267
3.206,-0.211851299569313,0.031857153220239
3.208,-0.208652934607354,0.0428892715092757
3.21,-0.204830512353269,0.0537246228528776
3.212,-0.200396162132484,0.064327089463428
3.214,-0.195364141264703,0.07466132172683
3.216,-0.189750794771252,0.0846928671022069
3.218,-0.183574492585115,0.0943882976499497
3.22,-0.176855566062123,0.10371533089219
3.222,-0.169616233791894,0.112642951080079
3.224,-0.161880525407668,0.121141519941527
3.226,-0.153674187494271,0.129182887592869
3.228,-0.145024594294007,0.136740495687836
3.23,-0.135960642410692,0.143789472806527
3.232,-0.126512647112438,0.150306727577542
3.234,-0.116712227464329,0.156271027625435
3.236,-0.106592189802705,0.161663081236031
3.238,-0.0961864017132378,0.166465601031805
3.24,-0.0855296671857855,0.170663365149346
3.242,-0.0746575953894365,0.174243270011509
3.244,-0.0636064672917958,0.177194373985392
3.246,-0.0524131000278012,0.179507928618853
3.248,-0.0411147041726996,0.181177405748331
3.25,-0.0297487522868059,0.182198515168736
3.252,-0.0183528320988037,0.182569207659995
3.254,-0.0069645100230875,0.182289676361588
3.256,0.00437880920763002,0.181362341089474
3.258,0.0156400189861229,0.179791831688615
3.26,0.026782447485979,0.17758495551554
3.262,0.0377699895287528,0.174750657545877
3.264,0.0485672378987787,0.171299977502541
3.266,0.0591396058864988,0.167245990700792
3.268,0.0694534511620858,0.162603743107481
3.27,0.0794761913862631,0.157390184512521
3.272,0.0891764117250076,0.151624087512567
3.274,0.0985239718139239,0.145325962304604
3.276,0.107490103049089,0.138517963094288
3.278,0.116047497389296,0.131223797218668
3.28,0.124170391626009,0.123468615388093
3.282,0.131834644346425,0.115278911052205
3.284,0.13901779958577,0.106682407196072
3.286,0.145699151634944,0.0977079400736922
3.288,0.151859789990155,0.0883853509880288
3.29,0.157482649431628,0.0787453570771169
3.292,0.16255253741924,0.0688194378378261
3.294,0.16705616639378,0.0586397189993582
3.296,0.170982165673079,0.048238841140227
3.298,0.17432109873396,0.0376498523831645
3.3,0.177065455771457,0.0269060803235772
3.302,0.179209657928416,0.0160410222178849
3.304,0.180750036689909,0.0050882274589986
3.306,0.18168481553821,-0.005918813073429
3.308,0.182014088565809,-0.0169467732695208
3.31,0.181739778545428,-0.027962596604872
3.312,0.180865603657513,-0.0389335991502563
3.314,0.179397035177865,-0.0498275598261575
3.316,0.177341242728995,-0.0606128174701482
3.318,0.174707045101189,-0.0712583489024267
3.32,0.171504855450278,-0.0817338588618097
3.322,0.167746611581644,-0.0920098492506325
3.324,0.163445721530051,-0.102057692132835
3.326,0.15861699644799,-0.111849695168771
3.328,0.153276578415577,-0.121359161982503
3.33,0.147441874786399,-0.13056044420931
3.332,0.141131486185157,-0.13942899666119
3.334,0.134365135573613,-0.147941417370539
3.336,0.127163599202382,-0.156075489533537
3.338,0.119548630066471,-0.163810220586264
3.34,0.111542890983171,-0.171125868758534
3.342,0.103169880211356,-0.178003972922135
3.344,0.0944538639305417,-0.184427376711758
3.346,0.0854198067095614,-0.190380249118793
3.348,0.0760932966321376,-0.195848099560195
3.35,0.0665004881387997,-0.200817794025585
3.352,0.056668028842025,-0.205277562408095
3.354,0.0466229926014406,-0.209217013825905
3.356,0.0363928203154564,-0.212627133942145
3.358,0.0260052539537127,-0.215500296093388
3.36,0.0154882756743423,-0.217830260737161
3.362,0.0048700436484953,-0.219612174530216
3.364,-0.0058211640168996,-0.220842571150818
3.366,-0.0165570112242083,-0.221519362877913
3.368,-0.027309163332182,-0.221641848442069
3.37,-0.038049342735878,-0.221210689462073
3.372,-0.0487493875586154,-0.220227916182671
3.374,-0.0593813096121443,-0.218696912327974
3.376,-0.0699173512968998,-0.216622408285797
3.378,-0.0803300406496776,-0.21401046383755
3.38,-0.0905922480312067,-0.210868462548402
3.382,-0.100677244182388,-0.207205087030719
3.384,-0.110558753941361,-0.203030311495756
3.386,-0.120211013867052,-0.198355376404714
3.388,-0.12960882741398,-0.193192770131829
3.39,-0.138727620715226,-0.187556209550106
3.392,-0.147543499440624,-0.181460607549843
3.394,-0.15603330255851,-0.174922055698611
3.396,-0.164174657739371,-0.167957787750696
3.398,-0.171946038500717,-0.160586152312697
3.4,-0.179326814862391,-0.152826572970703
3.402,-0.18629731152209,-0.144699519983769
3.404,-0.192838854760614,-0.136226460236716
3.406,-0.198933832686569,-0.127429824344815
3.408,-0.204565735729995,-0.118332952661369
3.41,-0.209719216994117,-0.108960054228269
3.412,-0.214380128975082,-0.0993361462814924
3.414,-0.218535583149618,-0.0894870113742984
3.416,-0.222173979065196,-0.079439129120556
3.418,-0.225285059694181,-0.0692196226816567
3.42,-0.227859941905299,-0.0588561908759181
3.422,-0.229891158929532,-0.0483770463832502
3.424,-0.231372691335694,-0.0378108445103277
3.426,-0.232299998718402,-0.0271866097835495
3.428,-0.232670046102099,-0.0165336646983541
3.43,-0.232481331764221,-0.0058815548355777
3.432,-0.231733904679244,0.0047400356004984
3.434,-0.230429374685471,0.0153013581939932
3.436,-0.228570937174828,0.0257726853482367
3.438,-0.226163370806042,0.036124394744782
3.44,-0.223213042240447,0.0463270530613316
3.442,-0.219727907699312,0.0563515013931896
3.444,-0.215717502141209,0.0661689458320871
3.446,-0.211192931057175,0.0757510398765404
3.448,-0.206166850581459,0.0850699749064443
3.45,-0.200653450314983,0.0940985675050697
3.452,-0.194668423958731,0.102810344580457
3.454,-0.188228935953875,0.111179630408161
3.456,-0.18135358792556,0.119181632706447
3.458,-0.174062370527091,0.126792521524708
3.46,-0.166376623081445,0.133989516845498
3.462,-0.158318977487011,0.140750962499848
3.464,-0.149913299634663,0.14705640669541
3.466,-0.141184627783515,0.152886673956281
3.468,-0.132159107832881,0.158223935873358
3.47,-0.122863918968231,0.163051779963431
3.472,-0.113327199779274,0.167355269935203
3.474,-0.10357796600865,0.171121010560142
3.476,-0.0936460270600443,0.174337194145846
3.478,-0.083561901194532,0.176993660309511
3.48,-0.0733567210591966,0.179081935049264
3.482,-0.0630621404293048,0.180595271910627
3.484,-0.0527102388784309,0.181528687245894
3.486,-0.0423334204569669,0.181878991763906
3.488,-0.0319643142596875,0.18164481026804
3.49,-0.0216356694395311,0.180826600680261
3.492,-0.0113802510067308,0.179426665949249
3.494,-0.0012307350509346,0.177449158840816
3.496,0.00878039971214749,0.174900080509089
3.498,0.0186209744275817,0.171787275647026
3.5,0.0282592195797041,0.168120415215285
3.502,0.0376638820100191,0.16391098064839
3.504,0.0468043261427065,0.159172233837741
3.506,0.0556506407651136,0.153919187591004
3.508,0.0641737393114988,0.148168565267729
3.51,0.0723454594977333,0.14193875639134
3.512,0.0801386624447188,0.135249766737705
3.514,0.0875273255987821,0.128123159800935
3.516,0.0944866361470268,0.120581996637014
3.518,0.100993076225517,0.112650767586173
3.52,0.107024506419284,0.104355317975067
3.522,0.112560250951881,0.0957227707199119
3.524,0.11758116566348,0.0867814443619153
3.526,0.122069713376227,0.0775607659163561
3.528,0.126010028945573,0.0680911762368431
3.53,0.129387974896816,0.0584040373762205
3.532,0.132191202245969,0.0485315334159104
3.534,0.134409193304354,0.0385065673649927
3.536,0.136033311566434,0.0283626554209888
3.538,0.137056828480554,0.0181338190857985
3.54,0.137474962802366,0.007854478081428
3.542,0.137284898931015,-0.0024406668898544
3.544,0.136485806627817,-0.0127167416523396
3.546,0.135078851618134,-0.0229388181343045
3.548,0.133067199676218,-0.0330720231113828
3.55,0.13045601119375,-0.0430816612476409
3.552,0.127252437132339,-0.0529333224759245
3.554,0.123465597860777,-0.0625930021632569
3.556,0.119106563877416,-0.0720272102200091
3.558,0.11418832581852,-0.081203087861795
3.56,0.108725756053297,-0.0900885145729317
3.562,0.102735572066369,-0.0986522183205502
3.564,0.0962362835287633,-0.106863881468506
3.566,0.0892481364574279,-0.114694241869781
3.568,0.0817930594656825,-0.122115199217388
3.57,0.0738945901039875,-0.129099903982264
3.572,0.065577805492843,-0.135622852137913
3.574,0.0568692501485067,-0.141659978971054
3.576,0.0477968447025446,-0.147188736477739
3.578,0.0383898056561122,-0.152188175244487
3.58,0.0286785515900233,-0.156639022713776
3.582,0.0186946072215597,-0.160523744133771
3.584,0.0084705016589917,-0.163826614391644
3.586,-0.0019603305751495,-0.16653376883028
3.588,-0.0125636604810981,-0.168633262348084
3.59,-0.0233045731481057,-0.17011510738154
3.592,-0.0341475791089198,-0.170971322070392
3.594,-0.0450567296826063,-0.171195954705137
3.596,-0.0559957352813323,-0.170785116756752
3.598,-0.0669280801934656,-0.169736998188452
3.6,-0.0778171444806453,-0.168051884049473
3.602,-0.0886263229729014,-0.165732158150611
3.604,-0.0993191445796575,-0.162782305421721
3.606,-0.10985939619849,-0.159208903350906
3.608,-0.120211238647649,-0.155020602505661
3.61,-0.130339327066995,-0.150228113335738
3.612,-0.140208930876361,-0.144844172458152
3.614,-0.149786048649971,-0.13888351522414
3.616,-0.159037522295937,-0.132362823468473
3.618,-0.167931149529166,-0.125300684541126
3.62,-0.176435793897106,-0.117717536421872
3.622,-0.184521492856115,-0.10963560801763
3.624,-0.192159556587849,-0.101078845643504
3.626,-0.199322669594137,-0.0920728475873498
3.628,-0.20598498906865,-0.0826447842588699
3.63,-0.212122231444368,-0.0728233109233918
3.632,-0.217711756814995,-0.062638480721182
3.634,-0.222732658429426,-0.0521216487829441
3.636,-0.227165828656966,-0.0413053763921505
3.638,-0.230994033822538,-0.0302233228652203
3.64,-0.234201978409919,-0.0189101412505551
3.642,-0.236776363631557,-0.0074013685772348
3.644,-0.238705935563433,0.0042666984352086
3.646,-0.239981532843336,0.0160571079347424
3.648,-0.240596126931018,0.0279323848311712
3.65,-0.240544849128577,0.0398546478302503
3.652,-0.239825016759624,0.051785739043058
3.654,-0.238436155105325,0.063687341839707
3.656,-0.23637999509665,0.0755211226223097
3.658,-0.233660488859888,0.0872488475507054
3.66,-0.230283796315384,0.0988325169930015
3.662,-0.226258274227304,0.110234491881919
3.664,-0.221594458903173,0.121417627123295
3.666,-0.216305035842081,0.132345388372079
3.668,-0.210404800730261,0.14298199170262
3.67,-0.203910625582825,0.153292516050557
3.672,-0.196841400131055,0.163243029722759
3.674,-0.189217979853944,0.172800710521727
3.676,-0.181063117453693,0.181933957371289
3.678,-0.172401393574472,0.190612505329234
3.68,-0.163259139264126,0.198807533943037
3.682,-0.153664349678823,0.206491768164703
3.684,-0.143646590130662,0.213639578219977
3.686,-0.133236904378731,0.220227072927641
3.688,-0.122467711164188,0.226232187864029
3.69,-0.111372688650377,0.231634763668023
3.692,-0.0999866705193649,0.236416626481478
3.694,-0.0883455185363258,0.24056164981998
3.696,-0.0764860105139673,0.244055820668673
3.698,-0.0644457012894588,0.246887289397948
3.7,-0.0522628042064893,0.249046420493556
3.702,-0.0399760538059339,0.250525824595813
3.704,-0.0276245665087667,0.251320395242525
3.706,-0.0152477104415028,0.251427324210116
3.708,-0.00288496329193487,0.250846117447977
3.71,0.00942422878880104,0.249578602900597
3.712,0.0216405886465955,0.247628917812244
3.714,0.0337251508462286,0.245003507010166
3.716,0.045639396198832,0.241711091160613
3.718,0.0573453965001069,0.237762642494146
3.72,0.0688059441727053,0.233171341896019
3.722,0.079984686698909,0.227952533457882
3.724,0.0908462609746132,0.22212366778797
3.726,0.101356416234862,0.215704236476978
3.728,0.111482134790767,0.208715700217692
3.73,0.121191757907022,0.201181408976894
3.732,0.1304550869089,0.193126511718987
3.734,0.139243499167084,0.184577865181334
3.736,0.147530043208249,0.175563926202229
3.738,0.155289533419364,0.166114650003484
3.74,0.162498635429527,0.156261372130408
3.742,0.169135944672642,0.146036688952311
3.744,0.175182058277816,0.135474337929903
3.746,0.180619635633863,0.124609061744164
3.748,0.185433449459797,0.113476483714655
3.75,0.189610434499488,0.102112967955591
3.752,0.193139720517816,0.0905554839493962
3.754,0.196012652987293,0.07884146585873
3.756,0.198222821453233,0.0670086753694834
3.758,0.199766051965811,0.0550950588980788
3.76,0.200640419069284,0.0431386075288376
3.762,0.200846218136281,0.0311772192029073
3.764,0.200385958243745,0.019248561143427
3.766,0.199264324074918,0.0073899346425314
3.768,0.197488136548811,-0.0043618542966502
3.77,0.195066311768238,-0.0159706260205456
3.772,0.192009794584423,-0.0274009486918286
3.774,0.188331503577148,-0.0386182559325478
3.776,0.184046258050302,-0.0495889607128664
3.778,0.179170698446884,-0.0602805616030915
3.78,0.173723199286997,-0.0706617433442861
3.782,0.167723787236992,-0.0807024686627048
3.784,0.16119403971898,-0.0903740678329067
3.786,0.154156987072909,-0.0996493115154023
3.788,0.146637007386189,-0.108502485264008
3.79,0.138659726106346,-0.116909451090977
3.792,0.130251899059271,-0.124847699985713
3.794,0.121441307592018,-0.132296401108551
3.796,0.112256644066517,-0.139236434638548
3.798,0.102727401630284,-0.145650428759064
3.8,0.0928837621928088,-0.151522774965885
3.802,0.0827564798386535,-0.156839643485272
3.804,0.0723767820893016,-0.161588992292399
3.806,0.0617762543476846,-0.165760566623134
3.808,0.0509867371102604,-0.169345886375916
3.81,0.0400402250922521,-0.172338236903121
3.812,0.0289687678422592,-0.17473265019556
3.814,0.0178043769318811,-0.176525874666558
3.816,0.0065789349069653,-0.177716350846597
3.818,-0.0046758936455211,-0.178304170001974
3.82,-0.0159287356675601,-0.178291042395908
3.822,-0.0271485960560106,-0.17768024741248
3.824,-0.0383049217013738,-0.176476597668513
3.826,-0.0493676731463962,-0.174686383340564
3.828,-0.0603073842143807,-0.172317328537541
3.83,-0.0710952224583472,-0.169378535251939
3.832,-0.0817030400110709,-0.165880440124774
3.834,-0.0921034225141453,-0.1618347521612
3.836,-0.102269739144591,-0.157254405235182
3.838,-0.112176175901752,-0.152153508222506
3.84,-0.121797779820856,-0.146547287002044
3.842,-0.13111049098458,-0.140452037965
3.844,-0.140091173986258,-0.133885073771867
3.846,-0.14871764704452,-0.126864672995721
3.848,-0.156968711201573,-0.119410034988701
3.85,-0.164824168959733,-0.111541229608328
3.852,-0.172264855648697,-0.10327914723612
3.854,-0.179272656033013,-0.0946454577203666
3.856,-0.185830524886858,-0.0856625625713259
3.858,-0.19192250896326,-0.0763535480339512
3.86,-0.197533761787663,-0.0667421417607951
3.862,-0.202650569907179,-0.0568526748635635
3.864,-0.207260360928112,-0.046710030478708
3.866,-0.21135172777532,-0.0363396034392098
3.868,-0.214914442807184,-0.0257672547404236
3.87,-0.21793947422021,-0.0150192715949734
3.872,-0.220419003176619,-0.0041223177281319
3.874,-0.222346441288005,0.0068966106583015
3.876,-0.223716443886659,0.0180102276386197
3.878,-0.224524923215148,0.0291910127700796
3.88,-0.224769065263007,0.0404112516458214
3.882,-0.22444734137747,0.051643094925573
3.884,-0.223559521173441,0.0628586016285704
3.886,-0.222106680665439,0.0740297972462923
3.888,-0.22009121144195,0.0851287284293394
3.89,-0.217516831500592,0.0961275170962084
3.892,-0.214388586059644,0.106998418227241
3.894,-0.210712851159791,0.117713884365044
3.896,-0.2064973355653,0.128246617198813
3.898,-0.201751077776103,0.138569639583332
3.9,-0.19648444135417,0.148656351636316
3.902,-0.190709106269847,0.158480596365259
3.904,-0.184438055569738,0.168016726235579
3.906,-0.17768556686612,0.177239669041018
3.908,-0.170467186146159,0.186124991906255
3.91,-0.162799709697563,0.194648966541053
3.912,-0.154701160545584,0.202788642114046
3.914,-0.146190754795342,0.210521900823107
3.916,-0.13728887107183,0.217827531978307
