"Freq [GHz]","re(S(Antenna1_1_1,Antenna1_1_1)) []","im(S(Antenna1_1_1,Antenna1_1_1)) []"
2,-0.0102873593905189,-0.508387408540548
2.008,-0.0315171635538378,-0.506998819977796
2.016,-0.0522539639511979,-0.504809086371018
2.024,-0.0725050712765822,-0.501866221150986
2.032,-0.0922797459014682,-0.498209634557778
2.04,-0.11158749297638,-0.493870452373336
2.048,-0.130436431055658,-0.48887210989645
2.056,-0.148831780098575,-0.483231226884879
2.064,-0.166774524769356,-0.476958759042664
2.072,-0.184260315590459,-0.470061406367203
2.08,-0.201278671837774,-0.462543239795349
2.088,-0.217812544576835,-0.454407487076701
2.096,-0.23383828547402,-0.445658399313287
2.104,-0.249326047321962,-0.436303103727887
2.112,-0.264240616971824,-0.426353338400967
2.12,-0.278542652778066,-0.415826962737454
2.128,-0.292193519476886,-0.40474928354623
2.136,-0.305152604720411,-0.393150874063586
2.144,-0.317372023432565,-0.381072117469384
2.152,-0.328812582545532,-0.368563521830566
2.16,-0.339440642321404,-0.355683498579113
2.168,-0.349229949892387,-0.342497133988013
2.176,-0.358163121411988,-0.329074550212947
2.184,-0.366232683744458,-0.315488960275614
2.192,-0.373441618283459,-0.301814539672769
2.2,-0.379803384279863,-0.288124245775982
2.208,-0.385341433922214,-0.274487714620068
2.216,-0.390088263388213,-0.260969353891641
2.224,-0.394084070843075,-0.247626732451891
2.232,-0.397375112201855,-0.234509342867423
2.24,-0.40001185756861,-0.221657786458734
2.248,-0.40204705564772,-0.209103402909895
2.256,-0.403524973934317,-0.196889300142507
2.264,-0.404514722769204,-0.185018526776437
2.272,-0.405070325336834,-0.173485977256498
2.28,-0.405235544066204,-0.16228580937925
2.288,-0.405047264805652,-0.151407105046587
2.296,-0.404534888209482,-0.140835808989484
2.304,-0.4037201852937,-0.130556726274339
2.312,-0.402617616425887,-0.120555477991939
2.32,-0.401235094096706,-0.110820316521003
2.328,-0.399575150996209,-0.101343706372262
2.336,-0.397636456276574,-0.0921235841971877
2.344,-0.395415604685707,-0.083164222690081
2.352,-0.392909086244583,-0.0744766383190885
2.36,-0.390115329472587,-0.0660785025210517
2.368,-0.387036700258648,-0.057993540015179
2.376,-0.383681332917548,-0.0502504256085275
2.384,-0.380064671259801,-0.0428812211009446
2.392,-0.37621060662219,-0.0359194245825692
2.4,-0.372152117387016,-0.029397733445487
2.408,-0.367931340092464,-0.0233456470864952
2.416,-0.3635990348235,-0.0177870531611146
2.424,-0.359213444994061,-0.01273795023704
2.432,-0.35483859139768,-0.0082044583211741
2.44,-0.350542079290736,-0.00418125644414311
2.448,-0.346392532114649,-0.000650563779375913
2.456,-0.342456793319753,0.00241825098680761
2.464,-0.338797056182072,0.00506838570981627
2.472,-0.335468088939733,0.00735464200768712
2.48,-0.332514718573609,0.00934182179888068
2.488,-0.329969721439098,0.0111025608140106
2.496,-0.327852244469322,0.0127147103448222
2.504,-0.326189872318842,0.0142506338060862
2.512,-0.32497624964026,0.0158060620381604
2.52,-0.324158525901835,0.0174705790688905
2.528,-0.323690822932281,0.019311810116788
2.536,-0.323516096299154,0.0213855656291554
2.544,-0.323569023781085,0.0237338068547301
2.552,-0.323779270359122,0.0263832990724551
2.56,-0.324074974396692,0.0293450155471632
2.568,-0.324386292326703,0.0326143239160474
2.576,-0.324648836466888,0.0361719557815809
2.584,-0.324806841892292,0.0399857298670697
2.592,-0.324815903217347,0.0440129684877467
2.6,-0.324645131227384,0.0482035160921198
2.608,-0.324278593543547,0.0525032368077747
2.616,-0.323715924312823,0.0568578360589978
2.624,-0.322972016944771,0.0612168206334416
2.632,-0.322058875212402,0.0655174052373688
2.64,-0.321042398318014,0.0697372641365357
2.648,-0.319977643120251,0.0738656068179872
2.656,-0.318919956189677,0.0779068629990683
2.664,-0.317923161278079,0.0818836730100638
2.672,-0.31703454703313,0.0858364398437366
2.68,-0.316289964083996,0.0898215540487554
2.688,-0.315709388190216,0.0939083098431856
2.696,-0.31529330650849,0.0981746307307461
2.704,-0.315020254734234,0.102701824934548
2.712,-0.314845772838725,0.107568685706919
2.72,-0.314702958192407,0.112845329316708
2.728,-0.314504682120463,0.118587215045805
2.736,-0.314147407685612,0.124829809214791
2.744,-0.313516413193518,0.131584334317438
2.752,-0.312498732569636,0.138847361403245
2.76,-0.310973745244634,0.146605856638172
2.768,-0.308801737530203,0.154747489594647
2.776,-0.305891045820441,0.163166188650929
2.784,-0.30217530360802,0.171736733318932
2.792,-0.297617436249462,0.18032182363477
2.8,-0.292211570160692,0.188779955601581
2.808,-0.285982711872982,0.196973475567189
2.816,-0.278984243035704,0.204776169452386
2.824,-0.271293465332358,0.212079784331394
2.832,-0.263005596352876,0.218798976615318
2.84,-0.25422674744128,0.224874324068356
2.848,-0.245066494731619,0.230273214426347
2.856,-0.235630677356552,0.234988614334584
2.864,-0.226015020194374,0.239035910003334
2.872,-0.216300086785463,0.242448176986969
2.88,-0.20654793101516,0.245270364844554
2.888,-0.196800648204908,0.247552961045523
2.896,-0.187080844956001,0.249345720758915
2.904,-0.177393870854623,0.250692014235484
2.912,-0.167731501844367,0.251624256849769
2.92,-0.158076649411211,0.25216075906383
2.928,-0.148408602287393,0.25230417951375
2.936,-0.138708292989133,0.252041601263503
2.944,-0.128963119318278,0.251346096786436
2.952,-0.119170934112697,0.250179517495805
2.96,-0.109342933581886,0.248496151550132
2.968,-0.0995053104343891,0.246246847156826
2.976,-0.0896996762592816,0.243383200356803
2.984,-0.0799823818575542,0.239861452916509
2.992,-0.0704229607555599,0.23564582916688
3,-0.0611019796885194,0.23071114782741
3.008,-0.0520278063596395,0.225092211316054
3.016,-0.0433594320765333,0.218707068650015
3.024,-0.0352064998853591,0.211566209679968
3.032,-0.0276816445433765,0.203696821443259
3.04,-0.0208985473430938,0.19514321291152
3.048,-0.0149700894341507,0.185967360649087
3.056,-0.0100063817861913,0.176249639499521
3.064,-0.00611243527288321,0.166089684150986
3.072,-0.00338526954404855,0.155607210965816
3.08,-0.00191034042213778,0.144942533559745
3.088,-0.00175728226537138,0.134256446348838
3.096,-0.00297509838054526,0.123729139130855
3.104,-0.00558707046313952,0.113557847956514
3.112,-0.00958577749562137,0.103953041181901
3.12,-0.0149286974920494,0.0951330761418491
3.128,-0.0215809740595895,0.0873478987903601
3.136,-0.0294236677895288,0.080870247370433
3.144,-0.0381893665133444,0.0758522008069911
3.152,-0.0476630176586495,0.072445086308944
3.16,-0.0576040915605714,0.0707621270573214
3.168,-0.0677552647440837,0.0708737012510548
3.176,-0.0778521178056113,0.0728049740432815
3.184,-0.0876331294453552,0.0765361395943444
3.192,-0.0968491947338158,0.0820052811674144
3.2,-0.105271917056353,0.0891136188377152
3.208,-0.11270001901431,0.097732691437624
3.216,-0.11896337978471,0.107712834818043
3.224,-0.1239244198246,0.118892191763292
3.232,-0.127476798029263,0.13110543332095
3.24,-0.129541637704748,0.144191393310953
3.248,-0.130061731803781,0.157998915830572
3.256,-0.12909936841635,0.172276228584606
3.264,-0.126607111185233,0.187045177665716
3.272,-0.122491680430186,0.202262644278865
3.28,-0.116671097596077,0.217836538420256
3.288,-0.109049599409656,0.233663490519941
3.296,-0.0995196597478719,0.249620877619424
3.304,-0.0879666404089956,0.26555947302599
3.312,-0.0742758232194075,0.281297476391395
3.32,-0.0583413717287805,0.296616582657445
3.328,-0.040076603651627,0.311260597680482
3.336,-0.0194248375684336,0.324936918910824
3.344,0.00362998299043998,0.337320986848328
3.352,0.0290536849759967,0.348063594130995
3.36,0.0567540190655783,0.356800730526962
3.368,0.0865751978524793,0.363165458917266
3.376,0.118312344004083,0.366786093635163
3.384,0.151741501920177,0.367208845157722
3.392,0.186352964459222,0.36424065312531
3.4,0.221734773122398,0.357668435515139
3.408,0.257439900386308,0.347341643760166
3.416,0.292997938148177,0.333177996236475
3.424,0.327927650605929,0.315166693671919
3.432,0.361749810027495,0.293369024716088
3.44,0.393999740701074,0.267916406562507
3.448,0.424239034760424,0.239006033106781
3.456,0.452065969453283,0.206894414709244
3.464,0.477124243391265,0.17188918375546
3.472,0.499109752946368,0.134339604911455
3.48,0.517775242365055,0.0946262661113586
3.488,0.532932775331942,0.0531504357086482
3.496,0.544454085111402,0.0103235540049113
3.504,0.552316182732427,-0.0334062327852271
3.512,0.556522218102219,-0.0776728995917648
3.52,0.55705037656424,-0.122143283134128
3.528,0.553960475134695,-0.166454202198228
3.536,0.547350889810344,-0.210264624534065
3.544,0.537353192217992,-0.253259511664236
3.552,0.52412655303078,-0.295152517327936
3.56,0.507852142361586,-0.335687580421904
3.568,0.488727733235025,-0.374639497207402
3.576,0.466962682254529,-0.411813593571016
3.584,0.442773423872653,-0.447044645025457
3.592,0.416379573608816,-0.480195209058034
3.6,0.388000693519604,-0.511153541259263
3.608,0.357853732546715,-0.53983126374114
3.616,0.326151117235551,-0.566160942533329
3.624,0.293099436516491,-0.590093711302125
3.632,0.258867658502448,-0.611576335543434
3.64,0.223686802524914,-0.630595841718027
3.648,0.187751360466599,-0.647153210336397
3.656,0.151242447832965,-0.661259611371055
3.664,0.11433285799079,-0.672936938676578
3.672,0.0771872079793034,-0.682216626955326
3.68,0.0399621154870918,-0.689138688811467
3.688,0.00280635729611653,-0.693750930424407
3.696,-0.0341390223515425,-0.696108298565014
3.704,-0.0707406676176834,-0.696272311489931
3.712,-0.106872930225163,-0.694310530780718
3.72,-0.142417939275052,-0.690296039335349
3.728,-0.177265701493102,-0.684306900947158
3.736,-0.211314208140711,-0.676425587802069
3.744,-0.24446952524349,-0.666738372350906
3.752,-0.276645190904896,-0.655345448820549
3.76,-0.307773845746232,-0.642359656357773
3.768,-0.337794100912277,-0.627837674064488
3.776,-0.366641999504379,-0.611868897282693
3.784,-0.394259859279092,-0.594544063810147
3.792,-0.420596291650237,-0.575955012306529
3.8,-0.445606262994121,-0.556194400633171
3.808,-0.469251186231992,-0.535355363532192
3.816,-0.491499022863371,-0.51353109037385
3.824,-0.512324367502236,-0.490814308023116
3.832,-0.531708479606687,-0.467296661547427
3.84,-0.549639221859039,-0.443067996279219
3.848,-0.566110862758302,-0.418215558017185
3.856,-0.581123703390522,-0.392823142748069
3.864,-0.594683495643094,-0.366970241806389
3.872,-0.6068006313846,-0.340731241075317
3.88,-0.617475013528486,-0.314152374818716
3.888,-0.626716212288952,-0.287314246687292
3.896,-0.634550821119519,-0.260292494746677
3.904,-0.64100093628112,-0.233140112318107
3.912,-0.646087334204036,-0.205902446483354
3.92,-0.649827416666626,-0.178617855038052
3.928,-0.652233267269342,-0.151318908642144
3.936,-0.653309964399932,-0.124034119791832
3.944,-0.653054291263678,-0.0967901412514502
3.952,-0.651453968330795,-0.0696143393875963
3.96,-0.648487508518687,-0.0425376153322537
3.968,-0.644124762085942,-0.0155973217046571
3.976,-0.638328178926765,0.0111598932282186
3.984,-0.631054773399087,0.0376754871994953
3.992,-0.622258734109533,0.0638768386088482
4,-0.611894581192375,0.0896756245795275
4.008,-0.599981729081396,0.11498144499072
4.016,-0.586416356656078,0.139685561255517
4.024,-0.571166975547399,0.163646104096909
4.032,-0.554219101710031,0.186703832536722
4.04,-0.535579547852262,0.208685000010266
4.048,-0.515280086745705,0.229405151314497
4.056,-0.493380295299976,0.248673687744356
4.064,-0.469960839213146,0.266305770346224
4.072,-0.445103849914388,0.282123295756461
4.08,-0.418996584403474,0.295907293996933
4.088,-0.391827279781914,0.307493926850755
4.096,-0.363811102118375,0.316743108248468
4.104,-0.335185915680708,0.323543244995289
4.112,-0.306207228721504,0.327815066778752
4.12,-0.277142520958593,0.329514417097683
4.128,-0.248263828147867,0.328607063740062
4.136,-0.219866421608464,0.325106228600652
4.144,-0.192227943035162,0.319132928368923
4.152,-0.165597479701701,0.310799166013785
4.16,-0.140203152019861,0.300247016873041
4.168,-0.116247970826423,0.287644080331613
4.176,-0.0939066872443273,0.273178331990121
4.184,-0.0733237245264832,0.257052574068989
4.192,-0.0546466389529638,0.239526185532262
4.2,-0.0379166733673335,0.220823513066116
4.208,-0.0231440165686043,0.201112948577117
4.216,-0.0103511188675984,0.180583567544703
4.224,0.000458056916110549,0.159412997317358
4.232,0.00929393240397279,0.137765775759571
4.24,0.0161771142089837,0.115792807911877
4.248,0.0211343761249296,0.0936319247004759
4.256,0.0242821934231512,0.071371895686856
4.264,0.0255657464230718,0.0491094324882933
4.272,0.024963703920207,0.0269732148373599
4.28,0.0224872194140392,0.00508920625443199
4.288,0.0181506587328805,-0.0164117184753333
4.296,0.0119743182457752,-0.0373921675415075
4.304,0.00398779538363985,-0.0577075875074369
4.312,-0.00576629414902336,-0.0772067866318416
4.32,-0.0172988663278853,-0.0956863549014775
4.328,-0.0304389040019594,-0.113000521297098
4.336,-0.0450684099351051,-0.129006427451964
4.344,-0.0610545788581872,-0.143569983207532
4.352,-0.0782455354984303,-0.1565722599742
4.36,-0.0964725296529001,-0.167913824828354
4.368,-0.115553315702836,-0.177518632425512
4.376,-0.135300949330376,-0.18533091699692
4.384,-0.155532759528898,-0.191285483284094
4.392,-0.176012705164578,-0.195434865035206
4.4,-0.196555192869435,-0.197824705672519
4.408,-0.216991116394297,-0.19852678662497
4.416,-0.237172938253081,-0.197634755016729
4.424,-0.256978667713542,-0.195258673459651
4.432,-0.276314444621537,-0.191518691330639
4.44,-0.295106443667151,-0.186557503635606
4.448,-0.313327968245141,-0.180524239701694
4.456,-0.331000788615631,-0.173480205195779
4.464,-0.348135199635934,-0.165507128110299
4.472,-0.364754530837617,-0.156667022154919
4.48,-0.380889321286255,-0.147000084476391
4.488,-0.396571201548731,-0.136524067097863
4.496,-0.411826846488231,-0.125235134789246
4.504,-0.426695405329789,-0.113095595689805
4.512,-0.441164987031415,-0.100052215134275
4.52,-0.455184925359843,-0.0860702196033235
4.528,-0.468710791955375,-0.0711014300885248
4.536,-0.48167719506504,-0.0550981858891126
4.544,-0.49399774248218,-0.0380185192898373
4.552,-0.505566111573344,-0.0198312304966263
4.56,-0.516258166494124,-0.000520647424865
4.568,-0.525935026836296,0.0199091213502306
4.576,-0.534446964037006,0.0414306047946503
4.584,-0.541637981140942,0.0639901946300524
4.592,-0.547350916637187,0.0875062854033508
4.6,-0.551432902096562,0.111868410723975
4.608,-0.553740994642815,0.136937431685054
4.616,-0.554147797401766,0.162546808585729
4.624,-0.55254687337959,0.18850496091762
4.632,-0.548822093680785,0.214576074947522
4.64,-0.542965319302448,0.240534213086239
4.648,-0.534970647660161,0.266143029653054
4.656,-0.524862131642732,0.291159554726793
4.664,-0.512700408730456,0.315342866132463
4.672,-0.498582312975713,0.338460849327587
4.68,-0.482639062042258,0.360296845332611
4.688,-0.465036379857611,0.380667329428891
4.696,-0.445963141617842,0.399574795452168
4.704,-0.425535394305948,0.416697705507405
4.712,-0.403981410143171,0.431902296174518
4.72,-0.381558203128012,0.445072125776874
4.728,-0.358604902294638,0.456083105787818
4.736,-0.335334499687796,0.465061749267531
4.744,-0.311980430352534,0.472051829806445
4.752,-0.28875493402697,0.477131882775193
4.76,-0.265841507072721,0.480406871206653
4.768,-0.243409476524654,0.481992820907805
4.776,-0.221593172789407,0.482027256668514
4.784,-0.200496903380813,0.480655105986722
4.792,-0.180196140867174,0.478022215685465
4.8,-0.160740131961688,0.474269639866966
4.808,-0.142155634862418,0.469529008518512
4.816,-0.124453224829779,0.463921665483863
4.824,-0.107627001775124,0.457553492078335
4.832,-0.0916610992256354,0.45050967266656
4.84,-0.0765393877932802,0.44286338237319
4.848,-0.0622463104921963,0.434675081802145
4.856,-0.0487698381084568,0.425995210112065
4.864,-0.0361033813416558,0.416867377435243
4.872,-0.0242466159223658,0.407331740732563
4.88,-0.0131916055700458,0.397419147102072
4.888,-0.00296123910746265,0.387168418263646
4.896,0.00641870047002742,0.376633909215195
4.904,0.0149324045903243,0.365873714523244
4.912,0.0225675669869168,0.354953337303735
4.92,0.0293181544567942,0.343945081596045
4.928,0.0351868702251052,0.332926654498938
4.936,0.0401871214463461,0.321979111919523
4.944,0.0442788456266529,0.311185651541535
4.952,0.0475567001788145,0.300658751477731
4.96,0.0500986862892779,0.290472262538478
4.968,0.0519774889671313,0.280685411043936
4.976,0.0537542923320099,0.271372126926185
4.984,0.0550722968864268,0.262319833495137
4.992,0.0558937054590704,0.253543193068202
5,0.056233243993469,0.245077990302042
5.008,0.0549939812354503,0.237259542925827
5.016,0.053552965241934,0.23035788014005
5.024,0.0526495138242085,0.224151215063649
5.032,0.0518050695454962,0.218410126891069
5.04,0.0510656827860261,0.212933966449404
5.048,0.050410293523499,0.207772289487349
5.056,0.0498591890695267,0.202855306133911
5.064,0.0494044703714426,0.198107866366284
5.072,0.048988461337167,0.19346227403685
5.08,0.0486439612431741,0.188908265159519
5.088,0.0483473232161174,0.184400050214918
5.096,0.048038620196035,0.179927510264765
5.104,0.0476629892320279,0.175529096352604
5.112,0.0472692955442455,0.171127512155984
5.12,0.0468204974153217,0.166707491689146
5.128,0.0463118742156583,0.162182825631625
5.136,0.0456608580984456,0.157483695026786
5.144,0.0447404970970172,0.15277811291296
5.152,0.0435224107652585,0.148124155419088
5.16,0.0419947516347329,0.143586281183481
5.168,0.0401631977549994,0.139231000607121
5.176,0.0380508789207913,0.135122441977535
5.184,0.0356972392333129,0.131318067300681
5.192,0.0332039973952546,0.127857935013376
5.2,0.0306177140872709,0.124745675204561
5.208,0.0279594082981341,0.121998736323637
5.216,0.0252923790575982,0.119624553435862
5.224,0.0226814360362725,0.117616047255995
5.232,0.0201894060439956,0.115951468235611
5.24,0.0178736597265274,0.114595068609592
5.248,0.0157828512817138,0.113498586388395
5.256,0.0140051362830097,0.112620137342522
5.264,0.0125361288660203,0.111854090024078
5.272,0.0113568398186514,0.111119409759689
5.28,0.0104470417507226,0.11034770472096
5.288,0.00977130094215979,0.109477785998736
5.296,0.00928111113631081,0.108459122716433
5.304,0.00891781357155939,0.107254693415466
5.312,0.00861613746713505,0.105843055414143
5.32,0.00830815465682986,0.104219498482821
5.328,0.0079274135163996,0.102396203105256
5.336,0.00741300282091319,0.100401383609114
5.344,0.00671329704588942,0.0982774588416501
5.352,0.00578915119823586,0.0960783538768823
5.36,0.00461634471198768,0.093866091480861
5.368,0.0031871186817051,0.0917068780739525
5.376,0.00150099074110722,0.0896695953986272
5.384,-0.000466023453390748,0.0878522439997476
5.392,-0.00259015126393291,0.0863004078069201
5.4,-0.00480856825112699,0.0850464729422066
5.408,-0.00705279948094725,0.0841058562343491
5.416,-0.00925318329688856,0.083476344409757
5.424,-0.0113433010952867,0.0831385703992006
5.432,-0.0132640913537272,0.0830575668834773
5.44,-0.0148697768715098,0.083176625093422
5.448,-0.0160373167920055,0.0833383819795285
5.456,-0.0170100488423613,0.0834704703948663
5.464,-0.0178189883734939,0.0835410697411785
5.472,-0.0184987472073008,0.0835283796053892
5.48,-0.0190848845266486,0.0834204313637097
5.488,-0.019611563706968,0.0832142975885822
5.496,-0.020109627651229,0.0829148309318468
5.504,-0.0212141478521126,0.0828741604453235
5.512,-0.022908019330038,0.0834944311779444
5.52,-0.0230246989834573,0.0844192616022516
5.528,-0.021565291344137,0.0846035120371408
5.536,-0.0206411886517723,0.0836430175804701
5.544,-0.0204674079948447,0.0821533689550864
5.552,-0.0206815558032737,0.0804985879752218
5.56,-0.0213038589548583,0.0788035255922117
5.568,-0.0221552851119593,0.0773798343743352
5.576,-0.0231819539973623,0.0761137610611947
5.584,-0.0244191731865657,0.074957614951581
5.592,-0.0258379093886451,0.0739617950710523
5.6,-0.0273980677161587,0.0731683109331932
5.608,-0.0290507622811347,0.0726084940598634
5.616,-0.0307410318873777,0.0723012885666396
5.624,-0.0324108616905443,0.0722522003567834
5.632,-0.0338967338893273,0.0726736761091327
5.64,-0.0351359486713977,0.0732847812334603
5.648,-0.036118471373257,0.073984791574957
5.656,-0.0368441290068226,0.0747076110239306
