"Freq [GHz]","re(S(Antenna1_1_1,Antenna1_1_1)) []","im(S(Antenna1_1_1,Antenna1_1_1)) []"
2,-0.0108974580811189,-0.510116576845448
2.008,-0.0324954140192378,-0.508502110190196
2.016,-0.0535300160236979,-0.506014169376018
2.024,-0.0739959828890823,-0.502720190050986
2.032,-0.0938947478205682,-0.498680806891778
2.04,-0.11323294477048,-0.493949173482336
2.048,-0.132020813772958,-0.48857052783245
2.056,-0.150270546656475,-0.482582013096379
2.064,-0.167994595192356,-0.476012772139764
2.072,-0.185203972490459,-0.468884343271603
2.08,-0.201906594552774,-0.461211388333149
2.088,-0.218105729861835,-0.453002779868101
2.096,-0.23379864644902,-0.444263058786487
2.104,-0.248975563282962,-0.434994247339087
2.112,-0.263619020723224,-0.425197965993967
2.12,-0.277703779107856,-0.414877760695454
2.128,-0.291199152424986,-0.404041581343229
2.136,-0.30406764953336,-0.392702226085586
2.144,-0.316262537506865,-0.380882028555384
2.152,-0.327738186421032,-0.368614735216566
2.16,-0.338450191788404,-0.355945409501213
2.168,-0.348358617385387,-0.342930368479113
2.176,-0.357431218753988,-0.329636169983347
2.184,-0.365646355984458,-0.316137655095914
2.192,-0.372995305676459,-0.302515145279169
2.2,-0.379483715159863,-0.288850987079982
2.208,-0.385132006671214,-0.275225718959068
2.216,-0.389974630315513,-0.261714193821641
2.224,-0.394058174329575,-0.248382018433891
2.232,-0.397438458042355,-0.235282661388423
2.24,-0.40017684427041,-0.222455533057734
2.248,-0.40233610064172,-0.209925256695895
2.256,-0.403977619291317,-0.197717555989707
2.264,-0.405163586085204,-0.185817513772837
2.272,-0.405936543245834,-0.174204060998198
2.28,-0.406324649690204,-0.16285668879725
2.288,-0.406342480913652,-0.151755165508687
2.296,-0.405992416371482,-0.140884124091484
2.304,-0.4052674593487,-0.130236933291339
2.312,-0.404155183626547,-0.119818415520939
2.32,-0.402642370145706,-0.109646096347003
2.328,-0.400719812692909,-0.0997498308492616
2.336,-0.398386745304674,-0.0901698333501877
2.344,-0.395654379990707,-0.080953318470781
2.352,-0.392548138676583,-0.0721501220506885
2.36,-0.389108308006587,-0.0638077910160517
2.368,-0.385389023856648,-0.055966696882579
2.376,-0.381455683746947,-0.0486557296599275
2.384,-0.377381067563401,-0.0418890660821446
2.392,-0.37324059841049,-0.0356643847439692
2.4,-0.369107277720116,-0.029962734321487
2.408,-0.365046868965664,-0.0247500686454952
2.416,-0.3611138768602,-0.0199802665713146
2.424,-0.357348776023562,-0.01559927859234
2.432,-0.35377679499588,-0.0115499074831741
2.44,-0.350408375176136,-0.00777665359837311
2.448,-0.347241221692949,-0.00423004701107591
2.456,-0.344263668675453,-0.00086995043939239
2.464,-0.341458918645072,0.00233255749001627
2.472,-0.338809605184333,0.00539493392218712
2.48,-0.336302084083829,0.00832456950148068
2.488,-0.333929887463331,0.0111216345835106
2.496,-0.331695875749972,0.0137829887868322
2.504,-0.329610284119042,0.0163038658176392
2.512,-0.32769854469576,0.0186838537054384
2.52,-0.325994434399935,0.0209400622116105
2.528,-0.324528629452581,0.023101603168188
2.536,-0.323326529668154,0.0252105970079554
2.544,-0.322403221917585,0.0273200650880301
2.552,-0.321759452251822,0.0294900284503551
2.56,-0.321379208363482,0.0317822700437632
2.568,-0.321229320110503,0.0342544088770474
2.576,-0.321261234328888,0.0369540478403809
2.584,-0.321414841368292,0.0399137759548697
2.592,-0.321623958967347,0.0431477258024467
2.6,-0.321822848439384,0.0466502152116498
2.608,-0.321952978539547,0.0503967577479747
2.616,-0.321969185835823,0.0543474374249978
2.624,-0.321844417883771,0.0584523437454416
2.632,-0.321559446225402,0.0626480911313688
2.64,-0.321147449479957,0.0668865110795357
2.648,-0.320647761427351,0.0711359982759872
2.656,-0.320108860578677,0.0753840546350683
2.664,-0.319582754635079,0.0796414911550638
2.672,-0.31911633280813,0.0839429995126366
2.68,-0.318742824981996,0.0883447020875854
2.688,-0.318474399275216,0.0929188380409856
2.696,-0.318296830679489,0.0977460885547461
2.704,-0.318166961383234,0.102906340183548
2.712,-0.318013370408325,0.108468895262919
2.72,-0.317740309935497,0.114483235740708
2.728,-0.317234588992863,0.120971417607805
2.736,-0.316374735838812,0.127923017790791
2.744,-0.315041489629518,0.135293289277438
2.752,-0.313122394545636,0.143013645552245
2.76,-0.310509544227634,0.150985348993672
2.768,-0.307167971517203,0.159045012935647
2.776,-0.303091014840441,0.167055085343929
2.784,-0.29830890673902,0.174885135105332
2.792,-0.292884102117462,0.18242292681477
2.8,-0.286903240762232,0.189583305595581
2.808,-0.280466661073982,0.196313894501189
2.816,-0.273676664280704,0.202596968462386
2.824,-0.266625874069358,0.208447304480394
2.832,-0.259387028404376,0.213906267954218
2.84,-0.25200537868738,0.219032826722156
2.848,-0.244494574542619,0.223892537733347
2.856,-0.236836514309552,0.228545785536584
2.864,-0.228985187289374,0.233036639602334
2.872,-0.220874076281963,0.237383628640969
2.88,-0.21242628047816,0.241573512241154
2.888,-0.203566206493908,0.245558788266323
2.896,-0.194231495307001,0.249259247808915
2.904,-0.184383825798623,0.252567427350484
2.912,-0.174017364684367,0.255357363264869
2.92,-0.163163902885211,0.25749567838383
2.928,-0.151894098475393,0.25885376726475
2.936,-0.140314692355033,0.259319726400503
2.944,-0.128562022800278,0.258808711741436
2.952,-0.116792585942597,0.257270594206805
2.96,-0.105171721951586,0.254694102228132
2.968,-0.0938617128033891,0.251107051809826
2.976,-0.0830106329792816,0.246572720840803
2.984,-0.0727431929915542,0.241182872402309
2.992,-0.0631545691055599,0.23504831900388
3,-0.0543078499855194,0.22828820081391
3.008,-0.0462743653496395,0.221037548956054
3.016,-0.0390010303304333,0.213407579886015
3.024,-0.0324653215441591,0.205471230682968
3.032,-0.0266429738912765,0.197275718724259
3.04,-0.0215189039474938,0.18884595684942
3.048,-0.0170959646733507,0.180191761251787
3.056,-0.0134003433611913,0.171317817947621
3.064,-0.0104828541498832,0.162235032735786
3.072,-0.00841590333814855,0.152971722542116
3.08,-0.00728645491173778,0.143583131246745
3.088,-0.00718582793257138,0.134157965522838
3.096,-0.00819755545514526,0.124821018219955
3.104,-0.0103847787621395,0.115731431636014
3.112,-0.0137787121066214,0.107076690583701
3.12,-0.0183695854890494,0.0990629594121491
3.128,-0.0241163322958895,0.0919170407613601
3.136,-0.0309050037459288,0.085871840479433
3.144,-0.0385435541128444,0.0810837514989911
3.152,-0.0468417956448495,0.077686012813944
3.16,-0.0555922123765714,0.0757709895823214
3.168,-0.0645820896410837,0.0753897812240548
3.176,-0.0736044929666113,0.0765558048282715
3.184,-0.0824668131623552,0.0792516117622444
3.192,-0.0909959493988158,0.0834378032335144
3.2,-0.0990396677527528,0.0890626689017152
3.208,-0.10646418972581,0.096071109125624
3.216,-0.11314856891211,0.104411521539043
3.224,-0.1189768421616,0.114039619395292
3.232,-0.123829242010263,0.12491856534895
3.24,-0.127573893856748,0.137015297787653
3.248,-0.130060378625781,0.150293436052872
3.256,-0.13116193219535,0.164746594452806
3.264,-0.130617513103233,0.180300612618716
3.272,-0.128185249420186,0.196816239856865
3.28,-0.123644118725477,0.214115291218256
3.288,-0.116787519213856,0.231969506031041
3.296,-0.107436329303772,0.250102065703424
3.304,-0.0954513095549956,0.26819287924899
3.312,-0.0807437241864075,0.285887233982695
3.32,-0.0632832664557805,0.302807080049845
3.328,-0.043102670284627,0.318563981368782
3.336,-0.0202987419663336,0.332772644951224
3.344,0.00497009177443998,0.345063943929328
3.352,0.0324892916810967,0.355096470567995
3.36,0.0619960781678883,0.362565874237962
3.368,0.0931888065161793,0.367211525215266
3.376,0.125729903709983,0.368821819772963
3.384,0.159236491835177,0.367258563303322
3.392,0.193412701454222,0.36240067796321
3.4,0.227901972178398,0.354162872317869
3.408,0.262343201323308,0.342499943372966
3.416,0.296374440594177,0.327405672835875
3.424,0.329636099566229,0.308911860854019
3.432,0.361773916303195,0.287087603206688
3.44,0.392441957710684,0.262038798133507
3.448,0.421305871196224,0.233907760981881
3.456,0.448046532796483,0.202872742507744
3.464,0.472364137346265,0.16914709987536
3.472,0.493982667815668,0.132977863118555
3.48,0.512654578460255,0.0946434736767586
3.488,0.528165443343642,0.0544505402691282
3.496,0.540338268593002,0.0127295513330113
3.504,0.549029367946927,-0.0301709622144271
3.512,0.554149302077519,-0.0738825922636648
3.52,0.55566283928934,-0.118037979646528
3.528,0.553570456266675,-0.162275256386828
3.536,0.547914830571994,-0.206240918127365
3.544,0.538778437760492,-0.249595499730636
3.552,0.52628025527538,-0.292018665858636
3.56,0.510571722313586,-0.333213552058504
3.568,0.491832138495325,-0.372910233972052
3.576,0.470263704956229,-0.410868251277576
3.584,0.446086418232653,-0.446878164797857
3.592,0.419533020099016,-0.480762175755984
3.6,0.390844186629474,-0.512373881612363
3.608,0.360264109477825,-0.54159728010934
3.616,0.328036584733161,-0.568345159803829
3.624,0.294401683181201,-0.592557030257585
3.632,0.259592111797158,-0.614194888380225
3.64,0.223835159384894,-0.633244997028887
3.648,0.187346579646779,-0.649713328663871
3.656,0.150330355674733,-0.663622690545859
3.664,0.11297820585985,-0.675010383394808
3.672,0.0754693103919934,-0.683925886524775
3.68,0.0379703595337018,-0.690428795827037
3.688,0.000635830153106528,-0.694587040130047
3.696,-0.0363915981339025,-0.696475375597244
3.704,-0.0729805644717734,-0.696174135652441
3.712,-0.109010546801693,-0.693768197009718
3.72,-0.144371421819412,-0.689346111746249
3.728,-0.178963085714582,-0.682999351383358
3.736,-0.212695137000681,-0.674821611400569
3.744,-0.24548660599009,-0.664908132674206
3.752,-0.277267344992296,-0.653355003802489
3.76,-0.307977618316958,-0.640256087746273
3.768,-0.337556889079777,-0.625705774216618
3.776,-0.365957544281879,-0.609799041591993
3.784,-0.393140006751192,-0.592629274371347
3.792,-0.419072275437437,-0.574287379775429
3.8,-0.443729265263861,-0.554860934352571
3.808,-0.467091945511143,-0.534433430456492
3.816,-0.489146300584841,-0.51308369030645
3.824,-0.509882159581536,-0.490885504856916
3.832,-0.529291958700587,-0.467907537249227
3.84,-0.54736951125934,-0.444213508299519
3.848,-0.564108862705002,-0.419862656949425
3.856,-0.579503302390522,-0.394910444696869
3.864,-0.593544590753994,-0.369409452451289
3.872,-0.6062224415385,-0.343410403284517
3.88,-0.617523585881386,-0.316967381485716
3.888,-0.627436421856752,-0.290128995459792
3.896,-0.635944980747029,-0.262942891496177
3.904,-0.64303010536534,-0.235461232090407
3.912,-0.648671213985236,-0.207739238695354
3.92,-0.652847112340326,-0.179835776161452
3.928,-0.655536844303242,-0.151813693721244
3.936,-0.656720505543532,-0.123739947459232
3.944,-0.656379961241378,-0.0956855524309802
3.952,-0.654499432441095,-0.0677254280881963
3.96,-0.651065942695887,-0.0399382066672537
3.968,-0.646069643728842,-0.0124060701906571
3.976,-0.639504062486065,0.0147853315644186
3.984,-0.631366329217287,0.0415468504930953
3.992,-0.621657455031853,0.0677856907643482
4,-0.610382726748055,0.0934051612761275
4.008,-0.597544843486096,0.11830372263642
4.016,-0.583167903248078,0.142373152098717
4.024,-0.567275477184699,0.165503962555809
4.032,-0.549898774490431,0.187582274153022
4.04,-0.531078015232662,0.208489965733016
4.048,-0.510863952877105,0.228105155529567
4.056,-0.489319458246776,0.246303066438656
4.064,-0.466521963756146,0.262956421871024
4.072,-0.442567277627388,0.277937457999961
4.08,-0.417559472183174,0.291127312270033
4.088,-0.391622346107164,0.302406791908555
4.096,-0.364897043718195,0.311663635371968
4.104,-0.337542087813708,0.31879534428229
4.112,-0.309732930040404,0.323712136981352
4.12,-0.281660991855993,0.326339947461083
4.128,-0.253531869396667,0.326626488997762
4.136,-0.225560749669864,0.324539416270952
4.144,-0.197975334773262,0.320062306695263
4.152,-0.171011463489101,0.313210448542085
4.16,-0.144908560217761,0.304027890365441
4.168,-0.119905344290123,0.292588991923613
4.176,-0.0962350474924273,0.278999248148221
4.184,-0.0741202690916482,0.263395227569189
4.192,-0.0537654159139638,0.245936703564662
4.2,-0.0353618846813335,0.226818436666016
4.208,-0.0190724610852043,0.206266834797817
4.216,-0.00502513478729838,0.184523811123303
4.224,0.00668718050111055,0.161845469922288
4.232,0.0160086835760728,0.138495499664371
4.24,0.0229211837323837,0.114738198062677
4.248,0.0274429826966296,0.0908315467926759
4.256,0.0296233603096512,0.067031362669656
4.264,0.0295539703539318,0.0435576793126933
4.272,0.027342597810807,0.0206073791372599
4.28,0.0231119076156392,-0.00164435957726801
4.288,0.0169956775464805,-0.0230477339352333
4.296,0.0091334818495752,-0.0434774331360075
4.304,-0.000333798263560152,-0.0628306135811169
4.312,-0.0112673940791234,-0.0810240870017216
4.32,-0.0235339969532853,-0.0979834168744775
4.328,-0.0369983287954594,-0.113661691739798
4.336,-0.0515363599255051,-0.128019095564964
4.344,-0.0670304332100372,-0.141023841116232
4.352,-0.0833680914012103,-0.1526506820774
4.36,-0.1004408410563,-0.162879752968254
4.368,-0.118142941965736,-0.171696165164812
4.376,-0.136371382102276,-0.17908991734262
4.384,-0.155026753221798,-0.185052626017114
4.392,-0.173998759910978,-0.189589334929946
4.4,-0.193188108549835,-0.192713729178999
4.408,-0.212501053234977,-0.194447359186129
4.416,-0.231851022873821,-0.194818561213329
4.424,-0.251159959693111,-0.19386071589221
4.432,-0.270359104627257,-0.191609969680749
4.44,-0.289389127560231,-0.188104028131866
4.448,-0.308201640885941,-0.183378068637394
4.456,-0.326753113439231,-0.177456290107829
4.464,-0.345002314731234,-0.170359435675479
4.472,-0.362908522382017,-0.162101586304529
4.48,-0.380428689007455,-0.152690602356891
4.488,-0.397514855678931,-0.142129442648363
4.496,-0.414112086506531,-0.130418241576946
4.504,-0.430155556746019,-0.117554821030705
4.512,-0.445570929700305,-0.103543469049275
4.52,-0.460279749246843,-0.0883964697066235
4.528,-0.474196605829475,-0.0721313448332248
4.536,-0.48723152376194,-0.0547749182518126
4.544,-0.49929195908848,-0.0363644382304973
4.552,-0.510284892962744,-0.0169480678677763
4.56,-0.520118802770324,0.003415209959135
4.568,-0.528705329896396,0.0246561517151306
4.576,-0.535960524724106,0.0466960985978503
4.584,-0.541805628188952,0.0694479003657524
4.592,-0.546167434552187,0.0928167110041508
4.6,-0.548978360255562,0.116700483052875
4.608,-0.550176407207415,0.140990049705154
4.616,-0.549705245729866,0.165568767572529
4.624,-0.54751464577099,0.19031178767972
4.632,-0.543569985421085,0.215095942734632
4.64,-0.537821499480648,0.239772616862539
4.648,-0.530242317059361,0.264181577236554
4.656,-0.520823309814032,0.288152497215493
4.664,-0.509574976488056,0.311505670636563
4.672,-0.496530726979353,0.334054882517587
4.68,-0.481749604408058,0.355611311296011
4.688,-0.465319810212381,0.375987217291991
4.696,-0.447385055845442,0.394998077770268
4.704,-0.428060637453848,0.412505889025205
4.712,-0.407503998422171,0.428364660692288
4.72,-0.385888928373712,0.442444764677474
4.728,-0.363396651390638,0.454615772223118
4.736,-0.340285153205796,0.464816790868331
4.744,-0.316786568072734,0.473014943426645
4.752,-0.29313371230867,0.479214326365193
4.76,-0.269551617372921,0.483455798046953
4.768,-0.246248279220954,0.485808525918305
4.776,-0.223414767131207,0.486370969476514
4.784,-0.201218477646913,0.485264472071822
4.792,-0.179800260027274,0.482627361234225
4.8,-0.159273111837788,0.478608801538376
4.808,-0.139722391482518,0.473362833104212
4.816,-0.121207073266679,0.467043650339763
4.824,-0.103762179314024,0.459799481888035
4.832,-0.0874038977322354,0.45176892783186
4.84,-0.0721322308365702,0.44308097310159
4.848,-0.0579347547247963,0.433852987194845
4.856,-0.0447900106750568,0.424190632604965
4.864,-0.0326703657971558,0.414188541272243
4.872,-0.0215442010718658,0.403931505350263
4.88,-0.0113770658202458,0.393492708129232
4.888,-0.00213605353496265,0.382943113975366
4.896,0.00621582193054642,0.372349856918515
4.904,0.0137188049681243,0.361773051588444
4.912,0.0204157570696168,0.351267679452535
4.92,0.0263522508126942,0.340883366239625
4.928,0.0315764330063052,0.330663912407848
4.936,0.0361385744261061,0.320646715440643
4.944,0.0400880525076429,0.310873277173145
4.952,0.0434867013321445,0.301357707448831
4.96,0.0463853565843979,0.292109277435878
4.968,0.0488294103085013,0.283133722753736
4.976,0.0508681536570029,0.274365107859185
4.984,0.0524895608733968,0.265854290314457
4.992,0.0537162991928644,0.257622231042548
5,0.054576780863989,0.249686571887882
5.008,0.0552279822160403,0.242284024918327
5.016,0.055731664238234,0.23508457184215
5.024,0.0559648581997085,0.227990648295249
5.032,0.0559460689018962,0.221120861467489
5.04,0.0556699041564261,0.214502630530465
5.048,0.055176732040099,0.208137360715549
5.056,0.0544847163791267,0.202032037532711
5.064,0.0536164768221426,0.196195685678384
5.072,0.052605064637567,0.19063845421875
5.08,0.0514716309854642,0.185343750984619
5.088,0.0502395056334174,0.180306175406918
5.096,0.048939096696135,0.175508848384265
5.104,0.0475910383764278,0.170916695386804
5.112,0.0461812824265455,0.166537750014784
5.12,0.0447213614806217,0.162367327638646
5.128,0.0432301991033583,0.158422821835595
5.136,0.0417515923681456,0.154703132157886
5.144,0.0402958410665172,0.15114459803206
5.152,0.0388638949465585,0.147721932649888
5.16,0.0374502759555329,0.144412759835881
5.168,0.0360443682218394,0.141199410408921
5.176,0.0346322223280913,0.138070191105135
5.184,0.0331986655560129,0.135019988655081
5.192,0.0317293348125546,0.132060753904376
5.2,0.0302218786809709,0.129195199243261
5.208,0.0286701954388341,0.126421536388187
5.216,0.0270692215050982,0.123749703456262
5.224,0.0254186998294725,0.121191937222695
5.232,0.0237237280238956,0.118761025680311
5.24,0.0219947042292274,0.116468451516392
5.248,0.0202466599629138,0.114322632663895
5.256,0.0185021387989297,0.112336711266022
5.264,0.0167849724910203,0.110499119425078
5.272,0.0151124830827514,0.108795781834889
5.28,0.0134990321704226,0.10721146606846
5.288,0.0119544493990598,0.105727752615836
5.296,0.0104832945206108,0.104324619734053
5.304,0.00908467197865939,0.102982156735066
5.312,0.00775260064323505,0.101682219886143
5.32,0.00647688113672986,0.100409857343021
5.328,0.0052443512600996,0.0991543604907557
5.336,0.00404038186461319,0.097909844717414
5.344,0.00285044497048942,0.0966753174273501
5.352,0.00166158472503586,0.0954542485896823
5.36,0.000463639417387678,0.094253712779951
5.368,-0.000749903399894902,0.0930832156054525
5.376,-0.00198261499579278,0.0919541198563272
5.384,-0.00323668561139075,0.0908837560238776
5.392,-0.00449592877043291,0.0898752519289201
5.4,-0.00575232762332699,0.0889317963237066
5.408,-0.00699750990564725,0.0880537485347491
5.416,-0.00822366223228856,0.087238897990657
5.424,-0.00942424658763665,0.0864829785629006
5.432,-0.0105944596592372,0.0857803432345773
5.44,-0.0117260765743298,0.085119557786322
5.448,-0.0128194115077055,0.0844861072626285
5.456,-0.0138895510855613,0.0838884661906663
5.464,-0.0149352198718939,0.0833256686711285
5.472,-0.0159549792244008,0.0827959936595892
5.48,-0.0169476270743486,0.0822970091043898
5.488,-0.017912510216068,0.0818257785651622
5.496,-0.018849696108929,0.0813791687536268
5.504,-0.0197896207129126,0.0809874177749035
5.512,-0.020677637117238,0.0806916013890444
5.52,-0.0214440896926573,0.0803198113063516
5.528,-0.022231024605527,0.0798560604544408
5.536,-0.0230623358539123,0.0794515715022701
5.544,-0.0238764636757697,0.0790993145108864
5.552,-0.0246607987773137,0.0787698791293218
5.56,-0.0254142163907183,0.0784530937778117
5.568,-0.0261460273192593,0.0781432933217352
5.576,-0.0268603410987623,0.0778391399517947
5.584,-0.0275591364461657,0.077537472675381
5.592,-0.0282471931454451,0.0772371515260723
5.6,-0.0289295100778587,0.0769387123659532
5.608,-0.0296106967385347,0.0766443987619734
5.616,-0.0302943832141777,0.0763579757916196
5.624,-0.0309827234625443,0.0760843455294834
5.632,-0.0317007871848273,0.0758418192561327
5.64,-0.0324151565188777,0.0756378736796603
5.648,-0.033113496527087,0.075470481886157
5.656,-0.0337886287657026,0.0753357989430306
