"Freq [GHz]","re(S(Antenna1_1_1,Antenna1_1_1)) []","im(S(Antenna1_1_1,Antenna1_1_1)) []"
2,-0.0110365328111189,-0.505117585939548
2.008,-0.0314430857614378,-0.503621336104796
2.016,-0.0513503009696979,-0.501529460615018
2.024,-0.0708163579627823,-0.498886201362986
2.032,-0.0898990284584682,-0.495714726727778
2.04,-0.10865095234438,-0.492018421802336
2.048,-0.127115335960658,-0.48778317116545
2.056,-0.145322283611575,-0.482980522694379
2.064,-0.163285945297356,-0.477571574977664
2.072,-0.181002625622459,-0.471511391893303
2.08,-0.198449952263774,-0.464753717989649
2.088,-0.215587149501835,-0.457255749476701
2.096,-0.23235640574402,-0.448982709139287
2.104,-0.248685266608962,-0.439911980189887
2.112,-0.264489930060724,-0.430036573934967
2.12,-0.279679270401956,-0.419367738577454
2.128,-0.294166425077486,-0.407935021316229
2.136,-0.30786229855541,-0.395783036364586
2.144,-0.320667023655565,-0.382983813972384
2.152,-0.332504546155532,-0.369628307992566
2.16,-0.343314886168404,-0.355823269822213
2.168,-0.353057600542387,-0.341687364353813
2.176,-0.361714248616988,-0.327346552958647
2.184,-0.369289710292458,-0.312928996628214
2.192,-0.375812268687459,-0.298559763044769
2.2,-0.381332439079863,-0.284355636297982
2.208,-0.385920597539214,-0.270420326002068
2.216,-0.389663532529813,-0.256840353541641
2.224,-0.392660106725375,-0.243681857611891
2.232,-0.395016270480555,-0.230988511092423
2.24,-0.39683970941761,-0.218780678940734
2.248,-0.39823443375572,-0.207055875832895
2.256,-0.399289605838317,-0.195845771651507
2.264,-0.400121386249204,-0.185071854452437
2.272,-0.400799554490834,-0.174648588723598
2.28,-0.401364064672204,-0.16449910803165
2.288,-0.401830135772652,-0.154544155366687
2.296,-0.402188747159482,-0.144708502183484
2.304,-0.4024087265897,-0.134927039684339
2.312,-0.402440303407887,-0.125150154471939
2.32,-0.402219906251296,-0.115348043221003
2.328,-0.401675904388909,-0.105513685927262
2.336,-0.400734930236674,-0.0956642805331877
2.344,-0.399328381705707,-0.085841038161081
2.352,-0.397398689599583,-0.0761073415160886
2.36,-0.394904948274587,-0.0665453727360517
2.368,-0.391827546524648,-0.057251414128479
2.376,-0.388171497606548,-0.0483301096519275
2.384,-0.383968248550801,-0.0398880410241446
2.392,-0.37927584402919,-0.0320270158269692
2.4,-0.374177422791016,-0.024837483038487
2.408,-0.368778128447464,-0.0183924831614952
2.416,-0.3632006142575,-0.0127425061721146
2.424,-0.357579407441362,-0.00791157347004
2.432,-0.35205446693838,-0.0038947836761741
2.44,-0.346764315400036,-0.000657471940143112
2.448,-0.341839148896649,0.00186396588962409
2.456,-0.337394325475753,0.00375963263980761
2.464,-0.333524607008072,0.00514221625181627
2.472,-0.330299480121733,0.00614183131178712
2.48,-0.327759814983609,0.00689991279098068
2.488,-0.325916040113098,0.00756250899611065
2.496,-0.324747922518322,0.00827334916882215
2.504,-0.324258285145842,0.00917002612308625
2.512,-0.32436518836626,0.0104076204541604
2.52,-0.324902912845835,0.0120897659558905
2.528,-0.325742350058281,0.014281256585788
2.536,-0.326746815048954,0.0170149335291554
2.544,-0.327779676607385,0.0202912321997301
2.552,-0.328711817071122,0.0240795010284551
2.56,-0.329428525851692,0.0283209884791632
2.568,-0.329835469681703,0.0329333111690474
2.576,-0.329863437489888,0.0378161446819709
2.584,-0.329471625358292,0.0428578222249697
2.592,-0.328649303409347,0.0479424862063467
2.6,-0.327415788192384,0.0529574151611198
2.608,-0.325818727504547,0.0578001431617747
2.616,-0.323930786484823,0.0623850006319978
2.624,-0.321844901051771,0.0666487334194416
2.632,-0.319651311243402,0.0705065932343688
2.64,-0.317503989552514,0.0739872077605357
2.648,-0.315523158543251,0.0771302366359872
2.656,-0.313814793960677,0.0799999644290683
2.664,-0.312467209215079,0.0826884240640638
2.672,-0.31154453398113,0.0853107119367366
2.68,-0.311081390953996,0.0879988428256554
2.688,-0.311079091795216,0.0908944383956856
2.696,-0.31150360457349,0.0941406139927461
2.704,-0.312285460299234,0.097873484293548
2.712,-0.313321667855725,0.102213744977919
2.72,-0.314479599904407,0.107258801741708
2.728,-0.315602701530363,0.113075906981805
2.736,-0.316517764894812,0.119696727290791
2.744,-0.317043413369518,0.127113701289438
2.752,-0.317007732741636,0.135303929618245
2.76,-0.316226780547634,0.144236755240172
2.768,-0.314505282064203,0.153700696550647
2.776,-0.311724045415441,0.163519721231929
2.784,-0.30780484511102,0.173493920243332
2.792,-0.302715174155462,0.18340976642077
2.8,-0.296470372953692,0.193051309882581
2.808,-0.289132954166982,0.202211636020189
2.816,-0.280809116837704,0.210703878172386
2.824,-0.271642622832358,0.218371088780394
2.832,-0.261806382477276,0.225094330878318
2.84,-0.25149225170838,0.230798453031356
2.848,-0.240899669184619,0.235455151271347
2.856,-0.230223849141552,0.239083090410584
2.864,-0.219644287257374,0.241745046022334
2.872,-0.209314328635463,0.243542222773969
2.88,-0.19935248853716,0.244606092847724
2.888,-0.189836111116908,0.245088266198323
2.896,-0.180797805037001,0.245149040783915
2.904,-0.172224917589623,0.244945375858484
2.912,-0.164062111803367,0.244619077919769
2.92,-0.156216908007211,0.24428598336783
2.928,-0.148567855371393,0.24402686436475
2.936,-0.140974824174033,0.243880678314503
2.944,-0.133290767148278,0.243840633959436
2.952,-0.125374198235697,0.243853368189805
2.96,-0.117101585849886,0.243821329143132
2.968,-0.108378858601389,0.243608256504826
2.976,-0.0991512740532816,0.243047452675803
2.984,-0.0894110012395542,0.241952361394409
2.992,-0.0792019087815599,0.24012882502488
3,-0.0686212225595194,0.23738828693641
3.008,-0.0575353553976395,0.233608677455054
3.016,-0.0464154486795333,0.228469066094015
3.024,-0.0355442757483591,0.221877553513968
3.032,-0.0252305405828765,0.213809133106259
3.04,-0.0157923858494938,0.20431092428552
3.048,-0.00754012641935074,0.193503298275087
3.056,-0.000759221195191265,0.181576862011521
3.064,0.00430553850811679,0.168785509630986
3.072,0.00746373654595145,0.155435974594816
3.08,0.00859018748686222,0.141874507513845
3.088,0.00763236985762862,0.128471454706838
3.096,0.00461407150145474,0.115604614582755
3.104,-0.000364899448139522,0.103642298882514
3.112,-0.00713286400162137,0.0929270233479008
3.12,-0.0154539970430494,0.0837606999258491
3.128,-0.0250892443781595,0.0765148969573601
3.136,-0.0356309809535288,0.071488386978433
3.144,-0.0465834617856444,0.0685607265279911
3.152,-0.0575899674486495,0.067717589916944
3.16,-0.0683187817515714,0.0688782701583214
3.168,-0.0784764219490837,0.0719056143700548
3.176,-0.0878177983766113,0.0766186289793815
3.184,-0.0961527793183552,0.0828069073323444
3.192,-0.103348854768816,0.0902459349005144
3.2,-0.109329826757353,0.0987122822607152
3.208,-0.11407069363831,0.107997706383624
3.216,-0.11758912750671,0.117921246600043
3.224,-0.1199341563789,0.128338521238292
3.232,-0.121172842841263,0.13914759785995
3.24,-0.121375888577748,0.150291018710953
3.248,-0.120603179641781,0.161753800554572
3.256,-0.11918370269035,0.173453540349606
3.264,-0.116958077435233,0.185679279884716
3.272,-0.113723400264186,0.198558465259065
3.28,-0.109314891099077,0.212137960742256
3.288,-0.103524973082656,0.226426144543041
3.296,-0.0961132160388719,0.241379542406424
3.304,-0.0868197202029956,0.25689217949299
3.312,-0.0753811904784075,0.272788470999395
3.32,-0.0615487632349805,0.288820267544445
3.328,-0.045106514200627,0.304668424622482
3.336,-0.0258895069423336,0.319948990460824
3.344,-0.00380024261356002,0.334223821172328
3.352,0.0211775558799967,0.347015152927995
3.36,0.0489687515295783,0.357823406681962
3.368,0.0794009181774793,0.366147288249066
3.376,0.112223720257083,0.371462940309963
3.384,0.147098104114177,0.373047675279722
3.392,0.183348661516222,0.37083924658931
3.4,0.220459329713398,0.364600006632139
3.408,0.257878324887308,0.354180276655166
3.416,0.295035744396877,0.339523080289475
3.424,0.331361561262829,0.320665042672919
3.432,0.366303146598395,0.297733517785088
3.44,0.399341505292074,0.270940202624507
3.448,0.430005504210424,0.240571673466781
3.456,0.457883503779283,0.206977426234244
3.464,0.482631964489265,0.17055611241006
3.472,0.503980779289368,0.131740728411455
3.48,0.521735269792055,0.0909835372869586
3.488,0.535774967459942,0.0487414771646482
3.496,0.546049469507402,0.00546274412291127
3.504,0.552695066708427,-0.0383895782112271
3.512,0.555788759427219,-0.0825059612477648
3.52,0.55528899554704,-0.126587604884128
3.528,0.551304640094595,-0.170300800496228
3.536,0.543974388783444,-0.213343628331065
3.544,0.533459611470992,-0.255447429267236
3.552,0.519937575883781,-0.296376821394936
3.56,0.503595328090586,-0.335928456392904
3.568,0.484624443915025,-0.373928759201002
3.576,0.463216795708529,-0.410230925712716
3.584,0.439561406363653,-0.444711466271857
3.592,0.413842391438816,-0.477266578218434
3.6,0.386237924976604,-0.507808609891263
3.608,0.356920108399715,-0.53626284381514
3.616,0.326055577518551,-0.562564781213329
3.624,0.293806652043091,-0.586658056994125
3.632,0.260288973388448,-0.608412670399434
3.64,0.225739403841614,-0.627839418750027
3.648,0.190328192423299,-0.644925977958397
3.656,0.154213790819665,-0.659657000284055
3.664,0.11755258813979,-0.672023846799577
3.672,0.0804997264173034,-0.682024816152326
3.68,0.0432096446880918,-0.689665697510967
3.688,0.00583628642111653,-0.694960545659807
3.696,-0.0314670659055425,-0.697932567683514
3.704,-0.0685483362436834,-0.698615009267431
3.712,-0.105257560075163,-0.697051933902518
3.72,-0.141448104190052,-0.693298799419349
3.728,-0.176978135471102,-0.687422752351158
3.736,-0.211712257194711,-0.679502580392069
3.744,-0.24552322074989,-0.669628285512906
3.752,-0.278302833635796,-0.657922345940549
3.76,-0.309986452019358,-0.644525592461773
3.768,-0.340460820101577,-0.629472832118488
3.776,-0.369635954429679,-0.612878075100693
3.784,-0.397434152592092,-0.594862390593147
3.792,-0.423791290058237,-0.575552190619529
3.8,-0.448657792226121,-0.555077180950441
3.808,-0.471999200318992,-0.533568052118792
3.816,-0.493796266799371,-0.51115400181045
3.824,-0.514044536742236,-0.487960194442016
3.832,-0.532753395648687,-0.464105273566827
3.84,-0.549944590252039,-0.439699047384219
3.848,-0.565650256056302,-0.414840466385185
3.856,-0.579910512241132,-0.389616004902069
3.864,-0.592770709882594,-0.364098545020389
3.872,-0.6042784417581,-0.338346842265317
3.88,-0.614434680276286,-0.312381757387716
3.888,-0.623289009147752,-0.286272052328292
3.896,-0.630912559721519,-0.260061366538677
3.904,-0.63734444466712,-0.233760006112107
3.912,-0.642612049805037,-0.207367343592281
3.92,-0.646728419535626,-0.180875016285452
3.928,-0.649690373137342,-0.154270737343744
3.936,-0.651477493726932,-0.127542551153132
3.944,-0.652052091209678,-0.10068333212945
3.952,-0.651360192686795,-0.0736953038095963
3.96,-0.649333561252687,-0.0465943446452537
3.968,-0.645892689910142,-0.0194138492246571
3.976,-0.640950664618565,0.00779207113921859
3.984,-0.634417742407587,0.0349462371314953
3.992,-0.626206449992933,0.0619470499198482
4,-0.616236977743375,0.0886682430755275
4.008,-0.604540661800396,0.11504350319772
4.016,-0.590929375267078,0.140859391484517
4.024,-0.575364631444399,0.165910083477709
4.032,-0.557840356424031,0.189971652160022
4.04,-0.538387091390262,0.212808583533966
4.048,-0.517074722879705,0.234181132152497
4.056,-0.494013589134976,0.253853166453356
4.064,-0.469332589279146,0.271602524556224
4.072,-0.443147521827788,0.287200186826461
4.08,-0.415785251229474,0.300435938230933
4.088,-0.387513933654214,0.311169016304755
4.096,-0.358621708735375,0.319301512076468
4.104,-0.329407996686708,0.324781114309289
4.112,-0.300174519709504,0.327601920286752
4.12,-0.271216480663593,0.327803327554683
4.128,-0.242831862360867,0.325414830220062
4.136,-0.215334986181464,0.320540091293852
4.144,-0.188937650716162,0.313443796560323
4.152,-0.163820134639701,0.304320851184785
4.16,-0.140121886554861,0.293377698771041
4.168,-0.117942281486423,0.280823064523613
4.176,-0.0973434841483273,0.266859370661121
4.184,-0.0783551832713832,0.251675288895989
4.192,-0.0609964186751638,0.235561302988262
4.2,-0.0451668235803335,0.218638535793116
4.208,-0.0308073482636043,0.200901074038117
4.216,-0.0179019280935984,0.182407409591703
4.224,-0.00645039464488945,0.163197717237358
4.232,0.00352643873697279,0.143301141846271
4.24,0.0119838929919837,0.122744240625477
4.248,0.0188529852389296,0.101559994464476
4.256,0.0241693477791512,0.079647320764856
4.264,0.0276485019920718,0.0571157911282933
4.272,0.029096140613207,0.0341452103603599
4.28,0.0283818238956392,0.010918119358432
4.288,0.0253974813910805,-0.0123435057203333
4.296,0.0200683066657752,-0.0353826699165075
4.304,0.0123624968296398,-0.0579146043184369
4.312,0.00229912774697664,-0.0796365202278416
4.32,-0.0101606876898853,-0.100053614015477
4.328,-0.0246771974989594,-0.118991144119698
4.336,-0.0410351194891051,-0.136216258190764
4.344,-0.0589887471841872,-0.151522915305532
4.352,-0.0782597782194303,-0.1647506095542
4.36,-0.0985474400089001,-0.175790892179354
4.368,-0.119540033236836,-0.184591431645512
4.376,-0.140928265435376,-0.19114410352492
4.384,-0.162393977260898,-0.195431680957094
4.392,-0.183639845410578,-0.197671338464206
4.4,-0.204437909546435,-0.198034758668519
4.408,-0.224609494755297,-0.19672549665597
4.416,-0.244030483352081,-0.193966429671729
4.424,-0.262633454542542,-0.189986291900651
4.432,-0.280406543499537,-0.185006075200739
4.44,-0.297391846605151,-0.179268564741606
4.448,-0.313717515308141,-0.172984335433694
4.456,-0.329510469608631,-0.166165254942779
4.464,-0.344896725927734,-0.158870532648299
4.472,-0.360005545333617,-0.151112367834919
4.48,-0.374957364118455,-0.142857177272391
4.488,-0.389852435489731,-0.134029679563863
4.496,-0.404760841904231,-0.124519569844246
4.504,-0.419740937635789,-0.114140358649805
4.512,-0.434743089505415,-0.102726377395875
4.52,-0.449666256861843,-0.0901821207153235
4.528,-0.464406019834375,-0.0763775920355248
4.536,-0.47881950035604,-0.0612006711163126
4.544,-0.49273009319618,-0.0445659038108373
4.552,-0.505934024548344,-0.0264219301946263
4.56,-0.518208353211124,-0.006757196933865
4.568,-0.529319967370296,0.0143962942342306
4.576,-0.539035096567006,0.0369613353876503
4.584,-0.547128854011752,0.0608159764030524
4.592,-0.553394347394187,0.0857960124143508
4.6,-0.557650943021562,0.111699306292975
4.608,-0.559751333708815,0.138291678423054
4.616,-0.559587139304766,0.165314037412729
4.624,-0.55709285388059,0.19249038859662
4.632,-0.552216259601785,0.219439926109722
4.64,-0.545058894058448,0.245952643392939
4.648,-0.535698217227161,0.271783795116054
4.656,-0.524239811792732,0.296691969932793
4.664,-0.510821133071456,0.320457010113463
4.672,-0.495606812655213,0.342884562030587
4.68,-0.478783332398258,0.363809613915611
4.688,-0.460541788313181,0.383118790201891
4.696,-0.440860468532542,0.400933670731168
4.704,-0.420093415706948,0.416809638488405
4.712,-0.398508945444171,0.430679830966518
4.72,-0.376418949123012,0.442517096548674
4.728,-0.354275930139638,0.452388597973818
4.736,-0.332057931080796,0.460466253756231
4.744,-0.309931637538534,0.466842290221145
4.752,-0.28803025859397,0.471622485901193
4.76,-0.266455289874721,0.474912863807653
4.768,-0.245311709976654,0.476831099806805
4.776,-0.224660939278607,0.477491679801514
4.784,-0.204542458568813,0.477000291347722
4.792,-0.184978431973874,0.475449848898465
4.8,-0.165979029782488,0.472917968113966
4.808,-0.147548041147418,0.469466003201512
4.816,-0.129689590713779,0.465145256487863
4.824,-0.112406554093124,0.459989882615935
4.832,-0.0957106350666354,0.45401285113156
4.84,-0.0796283902692802,0.44722773565739
4.848,-0.0641994543721963,0.439647100708145
4.856,-0.0494764562884568,0.431287690780065
4.864,-0.0355234266266558,0.422175371958243
4.872,-0.0224128244223658,0.412349431323563
4.88,-0.0102083296912458,0.401840729527072
4.888,0.000992594480537354,0.390728117859646
4.896,0.0111069208986464,0.379125837231195
4.904,0.0200767719533243,0.367154033690244
4.912,0.0278635019619168,0.354948520864735
4.92,0.0344520304067942,0.342656309927045
4.928,0.0398539457761052,0.330430058283938
4.936,0.0441091344323461,0.318421785966523
4.944,0.0471889999666529,0.306834500774135
4.952,0.0493003574998145,0.295799467037231
4.96,0.0506016604092779,0.285403217650478
4.968,0.0512391483621313,0.275711505842936
4.976,0.0521014407360099,0.266377686026185
4.984,0.0524973265143668,0.257437424839137
4.992,0.0523904405500704,0.248949684785202
5,0.051829718401469,0.240950281472042
5.008,0.0492865179757503,0.234958155340827
5.016,0.047250964535934,0.23023298234205
5.024,0.0466864182692085,0.225711434064649
5.032,0.0465964562224962,0.221465921241969
5.04,0.0468534841170261,0.217139695011405
5.048,0.047437343509499,0.212831924064949
5.056,0.0482852545975267,0.208424156850111
5.064,0.0492829514654426,0.203818412111284
5.072,0.050236270908167,0.19897504627885
5.08,0.0511588473599741,0.193900933744519
5.088,0.0519526060181174,0.188588163697918
5.096,0.052498376671035,0.183134747340765
5.104,0.0527573881931278,0.177724920821604
5.112,0.0527733273454455,0.172193110336984
5.12,0.0524887978163217,0.166572202591146
5.128,0.0518121468756583,0.160736520752625
5.136,0.0505361278814456,0.154681626971596
5.144,0.0486697101250172,0.14883971982796
5.152,0.0462539554052585,0.143341762658888
5.16,0.0433622144437329,0.138304495475781
5.168,0.0400952715499994,0.133822910882121
5.176,0.0365748374827913,0.129964232504535
5.184,0.0329358228230829,0.126763736484681
5.192,0.0293798044982546,0.124148256314376
5.2,0.0259747098637709,0.122067011591561
5.208,0.0227701326390341,0.120526136524637
5.216,0.0198652943215982,0.119462265919862
5.224,0.0173428192162725,0.118790561671995
5.232,0.0152640133669956,0.118409122412911
5.24,0.0136652992255274,0.118204399953592
5.248,0.0125560118057138,0.118057328000395
5.256,0.0120053231540097,0.117817080606422
5.264,0.0118863326580203,0.117349368467678
5.272,0.0120808292206514,0.116571950069689
5.28,0.0124845840867226,0.11542291604196
5.288,0.0129827377556598,0.113867746086736
5.296,0.0134566648543108,0.111900936161433
5.304,0.0137910143924594,0.109545942646466
5.312,0.0138805209604351,0.106853451382143
5.32,0.0136361954038299,0.103898074871821
5.328,0.0129905387363996,0.100773670926256
5.336,0.0119014786239132,0.097587555431714
5.344,0.0103548009118894,0.0944539461546501
5.352,0.00836493520423586,0.0914870197208823
5.36,0.00597404879198768,0.088793987325351
5.368,0.0032495016527051,0.0864685947099525
5.376,0.000269879266107216,0.0845991246006272
5.384,-0.00288817593769075,0.0833355233457476
5.392,-0.00601081559093291,0.08260395226592
5.4,-0.00897885084812699,0.0823774874272066
5.408,-0.0116843891664473,0.0826011722063491
5.416,-0.0140372300773886,0.083195939641757
5.424,-0.0159700424322866,0.0840639367272006
5.432,-0.0174420298127272,0.0850948970789773
5.44,-0.0183203499005098,0.086059478130522
5.448,-0.0186068060610055,0.0866186136765285
5.456,-0.0187019119013613,0.0869294714493663
5.464,-0.0186831722884939,0.0869817122650285
5.472,-0.0186226822033008,0.0867833011909892
5.48,-0.0185834179636486,0.0863575649597097
5.488,-0.018616546883268,0.0857396456115822
5.496,-0.018759807615229,0.0849726419168468
5.504,-0.0194989352705426,0.0852072023313235
5.512,-0.020391123875438,0.0869836244959444
5.52,-0.0188647500464573,0.0875467290962516
5.528,-0.016000219006637,0.0854548774031408
5.536,-0.0151117187047723,0.0823807935324701
5.544,-0.0158491406298447,0.0794059289564864
5.552,-0.0173249015852737,0.0766485583342218
5.56,-0.0194273711428583,0.0743054618213117
5.568,-0.0215662444739593,0.0726011380943352
5.576,-0.0237899981093623,0.0713244739541947
5.584,-0.0261942594975657,0.070452216753581
5.592,-0.0286787044277451,0.0700197199320523
5.6,-0.0311373841741587,0.0700369204021932
5.608,-0.0334650204648347,0.0704877698348634
5.616,-0.0355632399830777,0.0713311898646396
5.624,-0.0373463879495443,0.0725034885737834
5.632,-0.0383338186673273,0.0740830794861327
5.64,-0.0387943787823977,0.0756165090793603
5.648,-0.038842596080257,0.076962164891957
5.656,-0.0385610965908227,0.0780383731246306
5.664,-0.0381974762158133,0.0783797082695358
