"Freq [GHz]","re(S(Antenna1_1_1,Antenna1_1_1)) []","im(S(Antenna1_1_1,Antenna1_1_1)) []"
3,-0.242036569958263,-0.183101049920029
3.01,-0.247327854601218,-0.172743881883217
3.02,-0.252260126990938,-0.162265614270162
3.03,-0.256839010411336,-0.151649681373212
3.04,-0.26106070907131,-0.140878603266912
3.05,-0.26491249132289,-0.129936686801598
3.06,-0.268373860588641,-0.118812306702638
3.07,-0.27141819133498,-0.107499618251015
3.08,-0.274014590636056,-0.0959996530365896
3.09,-0.276129770977686,-0.0843208420745494
3.1,-0.277729776646746,-0.0724790780104
3.11,-0.278781481974172,-0.0604974608700422
3.12,-0.279253855862687,-0.0484058669651656
3.13,-0.279119045616593,-0.0362404433458041
3.14,-0.278353366538693,-0.0240430704364813
3.15,-0.276938278567871,-0.0118607731293581
3.16,-0.2748613980671,0.000254993071598926
3.17,-0.272117533110453,0.0122492802907244
3.18,-0.268709665012458,0.0240649042373755
3.19,-0.26464973994011,0.0356440700417189
3.2,-0.259959100348711,0.0469303522202933
3.21,-0.25466838581687,0.0578709306787837
3.22,-0.248816772369555,0.0684189054651799
3.23,-0.242450492157152,0.0785354544976501
3.24,-0.235620672167233,0.0881915741066301
3.25,-0.228380633957673,0.0973691598889123
3.26,-0.220782886113598,0.106061245734208
3.27,-0.212876104339354,0.114271311959631
3.28,-0.204702412916964,0.122011687281555
3.29,-0.196295257480921,0.129301181603809
3.3,-0.187678091149788,0.136162182668478
3.31,-0.178863998303996,0.14261751079859
3.32,-0.169856268299278,0.148687345020352
3.33,-0.16064982348,0.154386509305947
3.34,-0.151233319502434,0.159722345647426
3.35,-0.141591682884188,0.164693315058219
3.36,-0.131708835905798,0.169288374567373
3.37,-0.121570381255302,0.173487094061097
3.38,-0.111166065561621,0.177260415131335
3.39,-0.100491903452697,0.180571922377556
3.4,-0.089551901560948,0.183379494689973
3.41,-0.0783593666527757,0.185637225044975
3.42,-0.066937804034111,0.187297529732988
3.43,-0.0553214102713211,0.188313397579156
3.44,-0.0435551449345597,0.188640746702224
3.45,-0.0316943397471391,0.188240850867358
3.46,-0.0198037835680894,0.187082769882748
3.47,-0.00795622012253483,0.185145673900807
3.48,0.00376977823007029,0.182420902238581
3.49,0.0152925423401763,0.178913557308095
3.5,0.0265305473831349,0.174643419272166
3.51,0.0374059782384697,0.169644987113218
3.52,0.0478483513221147,0.163966512115543
3.53,0.0577978678192621,0.157667985186926
3.54,0.0672081554209224,0.150818159941156
3.55,0.0760480859459341,0.143490818138955
3.56,0.0843024378925123,0.135760594836917
3.57,0.0919712924289363,0.127698754742951
3.58,0.0990681972630154,0.119369335824823
3.59,0.105617278223327,0.110826043496796
3.6,0.111649603219297,0.10211019246061
3.61,0.117199186874808,0.0932498655377083
3.62,0.122299052150262,0.0842603104510882
3.63,0.126977735342992,0.0751454484920439
3.64,0.131256539550233,0.0659002491857577
3.65,0.135147722448284,0.0565136464602261
3.66,0.138653671357743,0.0469716493206101
3.67,0.141766992055477,0.0372603283496951
3.68,0.14447134074769,0.0273684341224222
3.69,0.14674277433261,0.0172895031012624
3.7,0.14855138786151,0.00702341290094044
3.71,0.149863046081201,-0.00342256145940161
3.72,0.150641085331711,-0.0140330803088425
3.73,0.150847944063602,-0.0247843359384908
3.74,0.150446754353368,-0.0356438123292874
3.75,0.149402975386025,-0.0465701666260835
3.76,0.147686159889954,-0.0575132650064477
3.77,0.145271913662407,-0.0684144776137725
3.78,0.142144040391415,-0.0792073859761125
3.79,0.138296775353478,-0.089819067113991
3.8,0.133736918345579,-0.100172084923719
3.81,0.128485602550752,-0.110187240346983
3.82,0.122579399037153,-0.119787021414757
3.83,0.116070467955707,-0.128899567684097
3.84,0.109025534564262,-0.137462844467991
3.85,0.101523580461995,-0.145428632352527
3.86,0.0936522885599218,-0.152765895019339
3.87,0.085503439239526,-0.159463104689497
3.88,0.077167603283361,-0.165529180339344
3.89,0.0687285911836352,-0.170992823368157
3.9,0.0602581805932531,-0.175900199191237
3.91,0.0518116427593675,-0.180311093359345
3.92,0.0434245257682149,-0.184293839438886
3.93,0.0351110332856048,-0.187919453802242
3.94,0.0268641792843979,-0.191255499708507
3.95,0.0186577235579441,-0.194360233193875
3.96,0.010449717615902,-0.19727755085405
3.97,0.0021873425418768,-0.200033175253469
3.98,-0.0061873910772986,-0.202632387802624
3.99,-0.0147315725630737,-0.205059470793413
4,-0.0234954532915912,-0.207278865378424
4.01,-0.0325171089852862,-0.209237910122135
4.02,-0.0418180985918333,-0.210870905952789
4.03,-0.0514004178941441,-0.212104165616806
4.04,-0.0612449357967381,-0.212861653393843
4.05,-0.0713113886781447,-0.213070800448141
4.06,-0.0815399017071205,-0.212668089639704
4.07,-0.0918539105922453,-0.21160403470199
4.08,-0.10216427618339,-0.209847226620306
4.09,-0.112374316445584,-0.207387181753338
4.1,-0.122385427531942,-0.204235797415563
4.11,-0.132102926541031,-0.200427302733497
4.12,-0.141441726662232,-0.196016681235856
4.13,-0.150331451364821,-0.191076638268475
4.14,-0.158720614967256,-0.185693287633851
4.15,-0.16657954175063,-0.179960828830659
4.16,-0.173901772030856,-0.173975576186728
4.17,-0.180703803879166,-0.167829770033299
4.18,-0.187023144701341,-0.161605640765165
4.19,-0.192914783997497,-0.155370198985953
4.2,-0.198446337449832,-0.149171183975941
4.21,-0.203692236875343,-0.143034519544096
4.22,-0.2087274371406,-0.136963502494195
4.23,-0.213621163656753,-0.130939799180256
4.24,-0.218431229051778,-0.124926161545945
4.25,-0.223199396834616,-0.118870615095283
4.26,-0.227948170462649,-0.112711737007711
4.27,-0.2326792491409,-0.106384545599217
4.28,-0.237373728766717,-0.0998264773351069
4.29,-0.241993961391289,-0.0929829372568088
4.3,-0.246486835637851,-0.0858119716762786
4.31,-0.250788120457493,-0.0782877190882507
4.32,-0.254827441311766,-0.0704024311736464
4.33,-0.258533432946609,-0.0621670042938066
4.34,-0.261838638242135,-0.0536101028389282
4.35,-0.264683791482298,-0.0447760733643622
4.36,-0.267021220443318,-0.0357219331339099
4.37,-0.268817214240442,-0.0265137576788501
4.38,-0.270053313575107,-0.0172227954885457
4.39,-0.270726575235086,-0.00792160436911004
4.4,-0.270848932076221,0.00131955151641559
4.41,-0.270445811207967,0.0104358726843174
4.42,-0.269554185452696,0.0193706597920639
4.43,-0.268220222991197,0.0280773654752049
4.44,-0.266496676431724,0.0365210534579714
4.45,-0.264440124400947,0.0446792763682453
4.46,-0.262108155823492,0.0525423886642999
4.47,-0.259556574304823,0.0601133038846061
4.48,-0.256836701038783,0.0674067010712374
4.49,-0.253992867022598,0.0744476811158936
4.5,-0.251060203494074,0.0812698872064654
4.51,-0.248062856313838,0.0879131268917446
4.52,-0.245012758821442,0.0944205735629513
4.53,-0.241909086937603,0.100835670582972
4.54,-0.238738494034685,0.107198910059196
4.55,-0.235476172309974,0.113544695720246
4.56,-0.232087723277684,0.119898521131721
4.57,-0.228531746210307,0.126274691631299
4.58,-0.224762980454987,0.132674788849638
4.59,-0.220735777447235,0.139087021915739
4.6,-0.216407637923013,0.145486535001082
4.61,-0.211742538142138,0.151836655561184
4.62,-0.206713785857347,0.158090981973132
4.63,-0.201306192741347,0.164196135992094
4.64,-0.195517416132775,0.170094950788791
4.65,-0.18935840323625,0.175729838353072
4.66,-0.182852951309391,0.181046081459993
4.67,-0.176036470382481,0.185994822027516
4.68,-0.168954090938146,0.190535565678356
4.69,-0.161658291893994,0.194638081178502
4.7,-0.154206236118899,0.198283634387928
4.71,-0.146656989245915,0.201465551369703
4.72,-0.139068774857316,0.20418914724039
4.73,-0.131496385728489,0.206471082530581
4.74,-0.123988841294971,0.208338220115826
4.75,-0.116587356252112,0.209826053773696
4.76,-0.109323671496161,0.210976772210416
4.77,-0.102218795884165,0.211837016332067
4.78,-0.0952822116422743,0.212455387327502
4.79,-0.0885116033948541,0.212879774723433
4.8,-0.0818931737827806,0.213154594414791
4.81,-0.0754025995327258,0.213318058042313
4.82,-0.0690066592171261,0.213399626648673
4.83,-0.0626655210982912,0.213417829174446
4.84,-0.056335624241502,0.213378639397734
4.85,-0.0499730193915128,0.213274596602262
4.86,-0.0435369700569467,0.213084823220519
4.87,-0.0369935576577313,0.212776031695198
4.88,-0.0303189982202678,0.21230453375326
4.89,-0.0235023709619673,0.211619168733748
4.9,-0.0165474857565187,0.210664971664094
4.91,-0.00947367567011369,0.209387313025477
4.92,-0.00231539138008918,0.207736179215202
4.93,0.00487941655383404,0.205670228511092
4.94,0.0120520254915999,0.203160265541179
4.95,0.0191365647672338,0.20019182134196
4.96,0.0260642340913504,0.196766607563523
4.97,0.0327677550827111,0.1929027189863
4.98,0.0391856750251774,0.188633578692023
4.99,0.0452661637446111,0.184005737423745
5,0.0509700009920763,0.179075742517264
5.01,0.0562725397711256,0.173906368039668
5.02,0.0611645342802492,0.168562539847332
5.03,0.0656518295645615,0.163107294975516
5.04,0.0697540100305868,0.157598085564456
5.05,0.0735021829618041,0.152083680361766
5.06,0.0769361278970973,0.146601841919813
5.07,0.0801010659104255,0.141177874290588
5.08,0.0830442998236812,0.135824059105548
5.09,0.0858119508651608,0.130539929217164
5.1,0.0884459754263369,0.125313282679253
5.11,0.0909815997918376,0.120121809250681
5.12,0.0934452648840984,0.114935191620396
5.13,0.0958531352292128,0.109717544752978
5.14,0.098210199248747,0.104430067367659
5.15,0.100509969989798,0.0990337888651767
5.16,0.102734785324945,0.0934923034055646
5.17,0.104856698372497,0.0877743822735126
5.18,0.106838938522489,0.0818563521513646
5.19,0.108637904567871,0.0757241181215036
5.2,0.110205624913752,0.069374705914349
5.21,0.111492583734026,0.0628172003027731
5.22,0.11245077065958,0.056072973806747
5.23,0.113036772664296,0.0491751325097923
5.24,0.113214695824821,0.0421671569827224
5.25,0.11295869045715,0.0351007800472214
5.26,0.112254861601025,0.0280332157396267
5.27,0.111102381759125,0.0210239224585171
5.28,0.109513681153664,0.0141311429948637
5.29,0.107513670803765,0.00740849928005482
5.3,0.105138044850442,0.00090192905030479
5.31,0.102430798834584,-0.00535277361899515
5.32,0.0994411809498842,-0.011331606506659
5.33,0.0962203485620516,-0.0170230693249196
5.34,0.0928180283500139,-0.0224279040371209
5.35,0.0892794680669207,-0.027557933011281
5.36,0.0856429250288939,-0.0324341494339083
5.37,0.0819378652708632,-0.037084281034292
5.38,0.0781839601480073,-0.0415400832301453
5.39,0.0743908759583533,-0.0458346185173201
5.4,0.0705587692525779,-0.0499997476682126
5.41,0.0666793404500776,-0.0540640012122833
5.42,0.0627372647465835,-0.0580509272255041
5.43,0.0587118180044669,-0.0619779374715216
5.44,0.0545785423370287,-0.065855610196004
5.45,0.0503108431372858,-0.0696873647351007
5.46,0.0458814657589495,-0.0734694067061382
5.47,0.0412638542489862,-0.0771908540880378
5.48,0.0364334331377013,-0.0808339871204153
5.49,0.0313688685477923,-0.084374612746194
5.5,0.0260533546977285,-0.0877825816791634
5.51,0.0204759361756361,-0.0910225325289024
5.52,0.0146328239234169,-0.0940549531624353
5.53,0.00852860530145144,-0.0968376345144206
5.54,0.0021771992917919,-0.0993275506011883
5.55,-0.0043976215425336,-0.101483131817503
5.56,-0.0111623172687659,-0.103266819587704
5.57,-0.0180744130642719,-0.104647712090687
5.58,-0.0250841451144567,-0.105604049978794
5.59,-0.032136890239683,-0.106125259375393
5.6,-0.0391762432015189,-0.106213278280155
5.61,-0.046147502984678,-0.105882943453511
5.62,-0.053001250699989,-0.105161305219673
5.63,-0.0596966594026921,-0.104085854761017
5.64,-0.0662041811499325,-0.102701778095302
5.65,-0.0725073091940255,-0.101058472788604
5.66,-0.0786032091687086,-0.099205659608726
5.67,-0.0845021397906741,-0.0971894764247732
5.68,-0.0902257217102056,-0.0950489481564889
5.69,-0.095804245557205,-0.0928131799787452
5.7,-0.101273314950216,-0.0904995322495884
5.71,-0.106670185500463,-0.0881129142799715
5.72,-0.112030176027156,-0.0856462004048949
5.73,-0.117383494631424,-0.0830816452555627
5.74,-0.122752746779483,-0.0803930724599816
5.75,-0.128151286792747,-0.0775485476252236
5.76,-0.133582460668192,-0.0745132262635252
5.77,-0.139039678374247,-0.0712520931023851
5.78,-0.144507169597731,-0.0677323689790727
5.79,-0.149961225975159,-0.0639254442008013
5.8,-0.155371720032182,-0.0598082878093035
5.81,-0.160703714254991,-0.0553643601069727
5.82,-0.165919023658089,-0.0505841138444111
5.83,-0.170977658057741,-0.0454651954274533
5.84,-0.175839132542507,-0.0400124530808894
5.85,-0.180463682576971,-0.0342378278798569
5.86,-0.184813444267432,-0.0281601560028214
5.87,-0.188853656266233,-0.0218048606997035
5.88,-0.19255391148852,-0.0152034714772645
5.89,-0.195889439824626,-0.00839288779086444
5.9,-0.19884234964251,-0.00141431037516578
5.91,-0.20140271035177,0.00568820393175668
5.92,-0.203569328258071,0.0128695545563048
5.93,-0.205350067346859,0.0200857026843465
5.94,-0.206761591500704,0.0272959318565696
5.95,-0.207828458941023,0.034465075998126
5.96,-0.208581571036088,0.0415655008728524
5.97,-0.209056055570509,0.048578629711597
5.98,-0.209288739530549,0.055495837430404
5.99,-0.209315420269528,0.0623185995412466
6,-0.209168174458719,0.0690578582866195
6.01,-0.208872942990168,0.0757326520131525
6.02,-0.208447598971492,0.0823681283686547
6.03,-0.20790065149638,0.0889931203482766
6.04,-0.207230669130766,0.0956374967489205
6.05,-0.206426433696812,0.102329505148463
6.06,-0.20546776934984,0.109093305767464
6.07,-0.204326940493413,0.115946856715521
6.08,-0.202970481568735,0.122900262496021
6.09,-0.201361310330486,0.129954646005429
6.1,-0.199460983232998,0.137101561149762
6.11,-0.197231969558203,0.144322929012428
6.12,-0.194639843520141,0.151591461211832
6.13,-0.191655314958014,0.158871526158442
6.14,-0.188256032365256,0.166120413199763
6.15,-0.184428099275546,0.173289951570352
6.16,-0.180167242831837,0.180328439340687
6.17,-0.175479568794645,0.187182828564359
6.18,-0.170381835890064,0.193801094726308
6.19,-0.164901186238872,0.200134693757063
6.2,-0.159074287347229,0.206140981542737
6.21,-0.152945870694004,0.211785446302359
6.22,-0.146566697251696,0.217043588036809
6.23,-0.139991031350061,0.221902280882999
6.24,-0.133273759029579,0.226360473236045
6.25,-0.126467334979957,0.230429119683029
6.26,-0.119618776040134,0.234130296737893
6.27,-0.112766934641034,0.237495520868126
6.28,-0.105940274855882,0.240563360177933
6.29,-0.099155342635155,0.243376496707394
6.3,-0.0924160675776971,0.245978449352978
6.31,-0.0857139661504476,0.248410200968387
6.32,-0.0790292424755171,0.250706982869458
6.33,-0.0723327091346287,0.252895457413578
6.34,-0.0655883872648645,0.254991503853216
6.35,-0.0587565964113922,0.256998763238275
6.36,-0.0517973133526771,0.258908037655381
6.37,-0.0446735678358351,0.260697575360536
6.38,-0.0373546489035802,0.262334213549383
6.39,-0.0298189153924905,0.263775294670174
6.4,-0.0220560357176173,0.264971229724908
6.41,-0.0140685197056239,0.265868545534002
6.42,-0.00587244859872512,0.266413230060351
6.43,0.00250264732893139,0.26655417437385
6.44,0.0110147667060284,0.266246503193421
6.45,0.019611227487819,0.265454588215475
6.46,0.0282311794684782,0.264154549276861
6.47,0.0368087018038335,0.262336069260213
6.48,0.0452763051746185,0.260003382242816
6.49,0.0535686200155643,0.257175338476375
6.5,0.0616260267681916,0.25388450734266
6.51,0.069397970635812,0.250175346061601
6.52,0.0768457125815068,0.246101532638663
6.53,0.0839442957591076,0.241722633685914
6.54,0.0906835590959638,0.237100338698572
6.55,0.0970681002535752,0.232294539396363
6.56,0.103116173915286,0.22735955554173
6.57,0.10885760349165,0.222340805151142
6.58,0.114330869961218,0.217272182998319
6.59,0.119579615800756,0.212174352556863
6.6,0.124648852117966,0.207054074384223
6.61,0.1295811803115,0.201904601119324
6.62,0.134413330001518,0.196707073280042
6.63,0.139173275491682,0.19143276383806
6.64,0.143878129429459,0.186045951995433
6.65,0.148532930649033,0.180507164060198
6.66,0.153130356563026,0.174776508451818
6.67,0.157651306922209,0.168816847238333
6.68,0.162066237948157,0.162596589221698
6.69,0.16633707666159,0.156091947296235
6.7,0.170419523488952,0.149288569770898
6.71,0.174265550774452,0.142182519352952
6.72,0.177825927001583,0.134780628513328
6.73,0.181052630352664,0.127100297439716
6.74,0.183901056855863,0.119168822297439
6.75,0.186331964874768,0.111022342548875
6.76,0.188313128440211,0.102704486511029
6.77,0.18982068743499,0.094264775577189
6.78,0.190840186374564,0.0857568297543455
6.79,0.191367285222348,0.0772364050174861
6.8,0.1914081119417,0.0687592912826921
6.81,0.190979212787925,0.060379111366788
6.82,0.190107048672168,0.0521450828797509
6.83,0.188826992315078,0.044099834716552
6.84,0.187181799960436,0.0362773987406133
6.85,0.185219567638294,0.0287015211950552
6.86,0.182991229507566,0.0213844479847471
6.87,0.180547708787946,0.0143263293171301
6.88,0.17793688523224,0.0075153605652068
6.89,0.175200583933544,0.00092872715002082
6.9,0.172371816889131,-0.00546564318986074
6.91,0.16947251084307,-0.0117065897578583
6.92,0.166511932341077,-0.0178366321777146
6.93,0.163485975378282,-0.0238984939748521
6.94,0.160377410197214,-0.0299314890554437
6.95,0.157157112893357,-0.0359680477191334
6.96,0.153786212437714,-0.04203065705995
6.97,0.150219012540498,-0.0481294602743889
6.98,0.146406480001463,-0.0542607104115311
6.99,0.142300045068617,-0.0604062039381553
7,0.137855434943038,-0.0665337428231193
7.01,0.133036263141117,-0.0725985934185681
7.02,0.127817119483808,-0.0785458371739922
7.03,0.122185948018947,-0.0843134455242236
7.04,0.116145554756248,-0.0898358650270469
7.05,0.109714150891427,-0.0950478698826514
7.06,0.102924901638333,-0.0998884278595567
7.07,0.0958245156068463,-0.104304331608959
7.08,0.0884709665896986,-0.108253366305778
7.09,0.0809304898268335,-0.111706815694449
7.1,0.0732740366917742,-0.114651149260044
7.11,0.065573402316643,-0.117088779708828
7.12,0.057897261643611,-0.11903783255598
7.13,0.0503073601653947,-0.120530926252439
7.14,0.0428551018635759,-0.12161301936415
7.15,0.0355787627751516,-0.122338440727218
7.16,0.0285015280291825,-0.122767274300319
7.17,0.0216305061149437,-0.122961320672198
7.18,0.0149568157049038,-0.122979897030997
7.19,0.0084567708963883,-0.12287576093062
7.2,0.00209411188857303,-0.122691449053744
7.21,-0.00417685037956154,-0.122456305397511
7.22,-0.0104073826970631,-0.122184432326007
7.23,-0.016650041400716,-0.121873736736541
7.24,-0.0229542606683991,-0.121506162317471
7.25,-0.0293621500572475,-0.121049107669251
7.26,-0.0359048236604865,-0.12045793340732
7.27,-0.0425995457313199,-0.119679371637437
7.28,-0.0494479129735305,-0.118655575463898
7.29,-0.056435207530145,-0.117328492453168
7.3,-0.0635309593074021,-0.115644222192998
7.31,-0.0706906535163269,-0.113557023334442
7.32,-0.0778584288482434,-0.111032671569462
7.33,-0.0849705328617895,-0.108050932247984
7.34,-0.0919592497720849,-0.104606991914597
7.35,-0.098756990053804,-0.100711784563448
7.36,-0.105300234997396,-0.0963912395035664
7.37,-0.111533060494145,-0.0916845615304487
7.38,-0.117410015271023,-0.0866417206513068
7.39,-0.122898197326343,-0.0813203745191459
7.4,-0.127978443375211,-0.0757824690539204
7.41,-0.132645619445743,-0.0700907621245885
7.42,-0.136908063639038,-0.0643054944274812
7.43,-0.140786281779603,-0.0584813969612253
7.44,-0.144311032333405,-0.0526651809654778
7.45,-0.147520954952668,-0.0468936088508159
7.46,-0.150459901754858,-0.0411922020698659
7.47,-0.153174124953804,-0.0355746024643728
7.48,-0.155709461178077,-0.0300425742146793
7.49,-0.15810863774481,-0.0245866118293895
7.5,-0.160408810704545,-0.0191871015494178
7.51,-0.16263943087394,-0.0138159741165762
7.52,-0.164820523394026,-0.00843877433944424
7.53,-0.166961455842748,-0.00301706185732368
7.54,-0.169060259257046,0.00248895525178487
7.55,-0.171103552164439,0.0081176688906112
7.56,-0.173067098039887,0.0139033304381906
7.57,-0.174916999704356,0.0198734648493447
7.58,-0.17661150152756,0.0260465898790046
7.59,-0.17810333121054,0.0324303898654475
7.6,-0.179342471786123,0.0390204812685267
7.61,-0.180279215993552,0.045799881167536
7.62,-0.180867322011573,0.0527392515417934
7.63,-0.181067066777328,0.0597979433017875
7.64,-0.180847987977671,0.0669258072622477
7.65,-0.180191113388487,0.0740656807308333
7.66,-0.179090505574065,0.0811564032569372
