"Freq [GHz]","re(S(Antenna1_1_1,Antenna1_1_1)) []","im(S(Antenna1_1_1,Antenna1_1_1)) []"
3,-0.242106164769263,-0.181473114775029
3.01,-0.246993947767218,-0.171118328457217
3.02,-0.251525162445938,-0.160742232622962
3.03,-0.255730436942336,-0.150328302268912
3.04,-0.25963151874031,-0.139852572169912
3.05,-0.26323991467989,-0.129285966452798
3.06,-0.266556044525641,-0.118596789692638
3.07,-0.26956888976398,-0.107753295114015
3.08,-0.272256120461056,-0.0967262677555896
3.09,-0.274584695415586,-0.0854915743235494
3.1,-0.276511946201246,-0.0740326287824
3.11,-0.277987168745222,-0.0623427057320422
3.12,-0.278953746649587,-0.0504270046781656
3.13,-0.279351809938593,-0.0383043340828041
3.14,-0.279121397747693,-0.0260082536344813
3.15,-0.278206031371871,-0.0135874989741581
3.16,-0.2765565375031,-0.00110552075460107
3.17,-0.274134886652453,0.0113609910049244
3.18,-0.270917752429458,0.0237246571930755
3.19,-0.26689945924011,0.0358909976787189
3.2,-0.262093984777711,0.0477629072642933
3.21,-0.25653572366107,0.0592457524727837
3.22,-0.250278802707655,0.0702527182601799
3.23,-0.243394859370952,0.0807099604166501
3.24,-0.235969342585733,0.0905610890766301
3.25,-0.228096552199673,0.0997705304459123
3.26,-0.219873778024598,0.108325391831208
3.27,-0.211395017484354,0.116235578781631
3.28,-0.202744817852964,0.123532077527755
3.29,-0.193992802177921,0.130263492881509
3.3,-0.185189387149788,0.136491110060278
3.31,-0.176363093966996,0.14228289860959
3.32,-0.167519701884278,0.147706984004352
3.33,-0.158643315186,0.152825163163947
3.34,-0.149699230978034,0.157687027883426
3.35,-0.140638328405488,0.162325189678219
3.36,-0.131402568068598,0.166751980371373
3.37,-0.121931110344302,0.170957850305097
3.38,-0.112166532081621,0.174911522862335
3.39,-0.102060652057697,0.178561807475556
3.4,-0.091579545946948,0.181840841695673
3.41,-0.0807074377257757,0.184668439072092
3.42,-0.069449274492111,0.186957168816888
3.43,-0.0578319094743211,0.188617782881156
3.44,-0.0459039223495597,0.189564633029224
3.45,-0.0337341859371391,0.189720769168358
3.46,-0.0214093413644894,0.189022471757748
3.47,-0.00903037096903483,0.187423031796807
3.48,0.00329153200597029,0.184895644712581
3.49,0.0154395981611763,0.181435323760095
3.5,0.0272964241491349,0.177059767086166
3.51,0.0387490221144697,0.171809133568218
3.52,0.0496937627911147,0.165744704584543
3.53,0.0600409820272621,0.158946438240326
3.54,0.0697190018019224,0.151509467904156
3.55,0.0786773060569341,0.143539655612955
3.56,0.0868886220305123,0.135148386179917
3.57,0.0943496905329363,0.126446866591951
3.58,0.101080576048015,0.117540270514823
3.59,0.107122461247427,0.108522123358796
3.6,0.112533989121997,0.09946934902961
3.61,0.117386345742808,0.0904383841007083
3.62,0.121757400843262,0.0814627063630882
3.63,0.125725327179992,0.0725520216570439
3.64,0.129362187636233,0.0636932203347577
3.65,0.132727998094284,0.0548530584352261
3.66,0.135865743520743,0.0459823672527101
3.67,0.138797742622477,0.0370214555675951
3.68,0.14152363508469,0.0279062691054222
3.69,0.14402011960861,0.0185748140382624
3.7,0.14624241663151,0.00897334733194044
3.71,0.148127287551901,-0.000938119834401611
3.72,0.149597327210402,-0.0111813737228425
3.73,0.150566169305502,-0.0217568632814908
3.74,0.150944209545368,-0.0326420141532874
3.75,0.150644457687025,-0.0437910120930835
3.76,0.149588167382954,-0.0551359777184477
3.77,0.147709952390407,-0.0665893841697725
3.78,0.144962163216415,-0.0780475267764125
3.79,0.141318361931478,-0.089394835832191
3.8,0.136775780840579,-0.100508825624719
3.81,0.131356684990752,-0.111265477516983
3.82,0.125108578323153,-0.121544860549757
3.83,0.118103203926707,-0.131236786330097
3.84,0.110434305238862,-0.140246274692991
3.85,0.102214139744595,-0.148498576766527
3.86,0.0935687851429218,-0.155943467895339
3.87,0.084632348469526,-0.162558497771497
3.88,0.075540281492361,-0.168350880100344
3.89,0.0664221124866352,-0.173357734049157
3.9,0.0573940121102531,-0.177644457569837
3.91,0.0485516999603675,-0.181301127264645
3.92,0.0399642554862149,-0.184436968247886
3.93,0.0316694016386048,-0.187173114186242
3.94,0.0236707748973979,-0.189634058720507
3.95,0.0159375804339441,-0.191938367554875
3.96,0.008406853208602,-0.19418934808105
3.97,0.0009883317980768,-0.196466444053469
3.98,-0.0064282886222986,-0.198818120259624
3.99,-0.0139641921660737,-0.201256922589413
4,-0.0217410398355912,-0.203757241882424
4.01,-0.0298701488542862,-0.206256093128135
4.02,-0.0384421508038333,-0.208656963232689
4.03,-0.0475180140441441,-0.210836505090206
4.04,-0.0571222213037381,-0.212653596384843
4.05,-0.0672387197071447,-0.213960060520141
4.06,-0.0778100275771205,-0.214612190594704
4.07,-0.0887396118952453,-0.21448213992799
4.08,-0.09989737082169,-0.213468249350306
4.09,-0.111127792699284,-0.211503474388338
4.1,-0.122260142727942,-0.208561237451563
4.11,-0.133119867677031,-0.204658251610497
4.12,-0.143540323593232,-0.199854112929856
4.13,-0.153373920585821,-0.194247719822475
4.14,-0.162501844894256,-0.187970827467951
4.15,-0.17084164618163,-0.181179255887659
4.16,-0.178352160060856,-0.174042437713728
4.17,-0.185035445479166,-0.166732095079299
4.18,-0.190935645693341,-0.159410879286165
4.19,-0.196134903782497,-0.152221786518953
4.2,-0.200746670265932,-0.145279086446941
4.21,-0.204906912662743,-0.138661378504096
4.22,-0.2087638728056,-0.132407228566195
4.23,-0.212467100900753,-0.126513654273256
4.24,-0.216156535267778,-0.120937529361945
4.25,-0.219952381352616,-0.115599777617283
4.26,-0.223946480792649,-0.110392041702211
4.27,-0.2281957574799,-0.105185345335317
4.28,-0.232718180414717,-0.0998401344501069
4.29,-0.237491510966289,-0.0942169894878088
4.3,-0.242454909215851,-0.0881872551662786
4.31,-0.247513272165493,-0.0816428389172507
4.32,-0.252543984849666,-0.0745044867016464
4.33,-0.257405590803209,-0.0667279537018066
4.34,-0.261947747496135,-0.0583076392009282
4.35,-0.266021741190298,-0.0492774401743622
4.36,-0.269490792294318,-0.0397087872529099
4.37,-0.272239404235442,-0.0297060351028501
4.38,-0.274181085299107,-0.0193995800874457
4.39,-0.275263905438086,-0.00893724449231004
4.4,-0.275473522241221,0.00152540848841559
4.41,-0.274833512439967,0.0118350951673174
4.42,-0.273403056610696,0.0218504276020639
4.43,-0.271272225612197,0.0314504379372049
4.44,-0.268555293074524,0.0405414310289714
4.45,-0.265382631229547,0.0490617379822453
4.46,-0.261891829315492,0.0569841235512999
4.47,-0.258218696636823,0.0643157870046061
4.48,-0.254488782598783,0.0710960843272374
4.49,-0.250809964668598,0.0773922525858936
4.5,-0.247266537974074,0.0832935459403654
4.51,-0.243915098329838,0.0889042680472946
4.52,-0.240782363796442,0.0943362217681513
4.53,-0.237864933347603,0.099701084455972
4.54,-0.235130861856685,0.105103173015196
4.55,-0.232522829348974,0.110632988116246
4.56,-0.229962617264684,0.116361840716721
4.57,-0.227356566790207,0.122337771788299
4.58,-0.224601681777887,0.128582889876638
4.59,-0.221592047401235,0.135092175296739
4.6,-0.218225253916013,0.141833738289082
4.61,-0.214408540321138,0.148750469576184
4.62,-0.210064395974347,0.155762981604132
4.63,-0.205135382027347,0.162773706156394
4.64,-0.199587952995775,0.169671978420461
4.65,-0.19341508334825,0.176339900908072
4.66,-0.186637530038391,0.182658739313993
4.67,-0.179303603336481,0.188515556932516
4.68,-0.171487374440146,0.193809752419356
4.69,-0.163285320423994,0.198459132100502
4.7,-0.154811501306779,0.202405130503928
4.71,-0.146191463451215,0.205616802439703
4.72,-0.137555174509316,0.20809324959739
4.73,-0.129029391829489,0.209864217954581
4.74,-0.120729950843971,0.210988711680826
4.75,-0.112754507442112,0.211551603697896
4.76,-0.105176278233161,0.211658376047116
4.77,-0.098039284525165,0.211428280995667
4.78,-0.0913555186822743,0.210986357842502
4.79,-0.0851043202228541,0.210454859393433
4.8,-0.0792340840557806,0.209944715397791
4.81,-0.0736662359277258,0.209547685999313
4.82,-0.0683012236006261,0.209329821854673
4.83,-0.0630260963185912,0.209326757694446
4.84,-0.057723107864502,0.209541224922734
4.85,-0.0522786850745128,0.209942989537262
4.86,-0.0465920701849467,0.210471225536519
4.87,-0.0405829724157313,0.211039129698198
4.88,-0.0341976497892678,0.21154040530846
4.89,-0.0274129782799673,0.211857091576748
4.9,-0.0202382387145187,0.211868119759094
4.91,-0.0127145401431137,0.211457931841477
4.92,-0.00491199235408918,0.210524518041202
4.93,0.00307508688783404,0.208986296414092
4.94,0.0111345051801999,0.206787378859179
4.95,0.0191435448259338,0.20390091276296
4.96,0.0269767599863504,0.200330354067523
4.97,0.0345136548047111,0.1961086899013
4.98,0.0416457242161774,0.191295779758023
4.99,0.0482824266606111,0.185974103745745
5,0.0543557653460763,0.180243295464564
5.01,0.0598232796751256,0.174213885383688
5.02,0.0646693692682492,0.168000691887732
5.03,0.0689049848495615,0.161716277152516
5.04,0.0725658155795868,0.155464838925456
5.05,0.0757091713218041,0.149336846608766
5.06,0.0784098092231973,0.143404659834813
5.07,0.0807549789806255,0.137719294641588
5.08,0.0828389713974812,0.132308438333548
5.09,0.0847574534271608,0.127175750329164
5.1,0.0866018588093369,0.122301438455253
5.11,0.0884540912008376,0.117644052466681
5.12,0.0903817769730984,0.113143398327396
5.13,0.0924342857222128,0.108724436498278
5.14,0.094639713206747,0.104301991920159
5.15,0.097002991115798,0.0997860621961767
5.16,0.099505250073945,0.0950874765385646
5.17,0.102104512385497,0.0901236216555126
5.18,0.104737731023489,0.0848239293113646
5.19,0.107324117520571,0.0791348061735036
5.2,0.109769624480152,0.073023695715349
5.21,0.111972367155026,0.0664819888227731
5.22,0.11382869215358,0.059526553757747
5.23,0.115239540448296,0.0521997288447923
5.24,0.116116709125821,0.0445677165007224
5.25,0.11638860065315,0.0367174215478214
5.26,0.116005062749025,0.0287518894288767
5.27,0.114940970563125,0.0207846019975171
5.28,0.113198275237664,0.0129329825048637
5.29,0.110806345141765,0.00531152535205482
5.3,0.107820541901442,-0.00197499316469521
5.31,0.104319096208084,-0.00883776578399515
5.32,0.100398470224484,-0.015209238476659
5.33,0.0961675000589516,-0.0210470628249196
5.34,0.0917406995540139,-0.0263364401271209
5.35,0.0872311652709207,-0.031090692001281
5.36,0.0827435509598939,-0.0353500097639083
5.37,0.0783675736948632,-0.039178459379292
5.38,0.0741724788940073,-0.0426594336563453
5.39,0.0702028273483533,-0.0458898443634201
5.4,0.0664758792685779,-0.0489734283076126
5.41,0.0629807494320776,-0.0520135980562833
5.42,0.0596793929265835,-0.0551062959875041
5.43,0.0565093654934669,-0.0583333116415216
5.44,0.0533881909507287,-0.061756494457004
5.45,0.0502190651174958,-0.0654132406851007
5.46,0.0468975378769495,-0.0693135553771382
5.47,0.0433187496909862,-0.0734388957800378
5.48,0.0393847566647013,-0.0777428881574153
5.49,0.0350114635537923,-0.082153893508194
5.5,0.0301347022607285,-0.0865792733383634
5.51,0.0247150404416361,-0.0909110906043024
5.52,0.0187409820764169,-0.0950328807233353
5.53,0.0122303258344514,-0.0988270436744206
5.54,0.0052295713587919,-0.102182359019188
5.55,-0.0021886024295336,-0.105001107269503
5.56,-0.0099296223767659,-0.107205302123704
5.57,-0.0178827769337719,-0.108741595693687
5.58,-0.0259280415405567,-0.109584513315794
5.59,-0.033943489356783,-0.109737795189393
5.6,-0.0418127638485189,-0.109233762300155
5.61,-0.049432085454678,-0.108130770763511
5.62,-0.056716306828989,-0.106508960957673
5.63,-0.0636036086036921,-0.104464629299517
5.64,-0.0700585389949325,-0.102103645972351
5.65,-0.0760732294110255,-0.099534399582904
5.66,-0.0816667574417086,-0.096860767116726
5.67,-0.0868827637066741,-0.0941755848937732
5.68,-0.0917855466602056,-0.0915550401004889
5.69,-0.096454954981605,-0.0890543136057452
5.7,-0.100980458724516,-0.0867047026465884
5.71,-0.105454812132163,-0.0845123386409715
5.72,-0.109967718247156,-0.0824585053018949
5.73,-0.114599877083424,-0.0805014640295627
5.74,-0.119417750124483,-0.0785796099629816
5.75,-0.124469306845747,-0.0766157213897236
5.76,-0.129780952372192,-0.0745220208605252
5.77,-0.135355759555247,-0.0722057455818851
5.78,-0.141173060998731,-0.0695749151550727
5.79,-0.147189391242159,-0.0665439886348013
5.8,-0.153340709103182,-0.0630391198713035
5.81,-0.159545774516991,-0.0590027385639727
5.82,-0.165710503311589,-0.0543972168264111
5.83,-0.171733073584884,-0.0492074173334533
5.84,-0.177509514709807,-0.0434419684148894
5.85,-0.182939473673971,-0.0371331703348569
5.86,-0.187931828984432,-0.0303355068238214
5.87,-0.192409812414233,-0.0231228175227035
5.88,-0.19631531271852,-0.0155842713878645
5.89,-0.199612070020626,-0.00781936670626444
5.9,-0.20228753025151,6.77402177342201E-05
5.91,-0.20435321451577,0.00797421539715668
5.92,-0.205843556905071,0.0158044392103048
5.93,-0.206813279182859,0.0234754090753465
5.94,-0.207333477821704,0.0309212798295696
5.95,-0.207486700139923,0.038096731704126
5.96,-0.207361362645368,0.0449789447448524
5.97,-0.207045908521009,0.051568068853597
5.98,-0.206623115974549,0.057886194602404
5.99,-0.206164939131528,0.0639749453722466
6,-0.205728208178719,0.0698919076436195
6.01,-0.205351431903168,0.0757061917786525
6.02,-0.205052847939492,0.0814934561156547
6.03,-0.20482976554238,0.0873307386038766
6.04,-0.204659154040766,0.0932914183999205
6.05,-0.204499353234812,0.099440587261463
6.06,-0.20429272967184,0.105831049096464
6.07,-0.203969072832413,0.112500102164521
6.08,-0.203449519426623,0.119467197203021
6.09,-0.202650802613486,0.126732511540429
6.1,-0.201489642394998,0.134276444847762
6.11,-0.199887114496203,0.142060017082428
6.12,-0.197772850406141,0.150026138219832
6.13,-0.195088930038014,0.158101713181442
6.14,-0.191793324011256,0.166200536228663
6.15,-0.187862736502546,0.174226914082262
6.16,-0.183294687741837,0.182079928936287
6.17,-0.178108671404645,0.189658211254359
6.18,-0.172346234628064,0.196865039873308
6.19,-0.166069855960872,0.203613530010063
6.2,-0.159360554152229,0.209831616619737
6.21,-0.152314234935904,0.215466501895359
6.22,-0.145036882845396,0.220488218897809
6.23,-0.137638808266061,0.224891982236999
6.24,-0.130228265766579,0.228699048172045
6.25,-0.122904848660957,0.231955893884029
6.26,-0.115753125091134,0.234731646794893
6.27,-0.108837006662034,0.237113830373026
6.28,-0.102195315522882,0.239202641124033
6.29,-0.095838952278155,0.241104107006394
6.3,-0.0897499554316971,0.242922591304978
6.31,-0.0838826019534476,0.244753183039387
6.32,-0.0781665379955171,0.246674545147458
6.33,-0.0725117621637287,0.248742774050578
6.34,-0.0668151314299845,0.250986753425216
6.35,-0.0609679341062922,0.253405376426275
6.36,-0.0548639849906771,0.255966866682381
6.37,-0.0484076572788351,0.258610266745536
6.38,-0.0415212715145802,0.261249000712383
6.39,-0.0341513134674905,0.263776260088774
6.4,-0.0262730449586173,0.266071837080808
6.41,-0.0178931914686239,0.268009927052602
6.42,-0.00905053198772512,0.269467366017351
6.43,0.000185640861931391,0.27033174799085
6.44,0.0097190772820284,0.270508885580421
6.45,0.019431902878819,0.269929130365475
6.46,0.0291913790806782,0.268552149714861
6.47,0.0388576578202335,0.266369857334213
6.48,0.0482920425906185,0.263407312184816
6.49,0.0573652374105643,0.259721521369375
6.5,0.0659650690031916,0.25539820919566
6.51,0.074003191889812,0.250546736020601
6.52,0.0814203439065068,0.245293461469263
6.53,0.0881897960151076,0.239773949237914
6.54,0.0943187439319638,0.234124488454572
6.55,0.0998475097975752,0.228473464710363
6.56,0.104846555216286,0.22293314082373
6.57,0.10941145279465,0.217592401877142
6.58,0.113656102186518,0.212510974383319
6.59,0.117704609891156,0.207715551005863
6.6,0.121682359583966,0.203198134501223
6.61,0.1257068791625,0.198916769209324
6.62,0.129879146158518,0.194798661134042
6.63,0.134275961464682,0.19074551184406
6.64,0.138943962236459,0.186640721536133
6.65,0.143895733081033,0.182357964436598
6.66,0.149108327123026,0.177770527239718
6.67,0.154524325583209,0.172760729533333
6.68,0.160055372964157,0.167228732463698
6.69,0.16558792854059,0.161100084020235
6.7,0.170990806082252,0.154331446964898
6.71,0.176123933005152,0.146914099088952
6.72,0.180847673863183,0.138874972736328
6.73,0.185032026835664,0.130275193514716
6.74,0.188565030200863,0.121206273492439
6.75,0.191359789727768,0.111784286700875
6.76,0.193359666113211,0.102142498608529
6.77,0.19454131383799,0.092423016913789
6.78,0.194915437276564,0.0827680791033455
6.79,0.194525300841348,0.0733115871664861
6.8,0.1934431883207,0.0641714478666921
6.81,0.191765137983925,0.055443188174788
6.82,0.189604373446168,0.0471951974067509
6.83,0.187083910432678,0.039465817500552
6.84,0.184328833518006,0.0322623679736133
6.85,0.181458722858194,0.0255620688910552
6.86,0.178580665607566,0.0193147163967471
6.87,0.175783220257946,0.0134468782831301
6.88,0.17313162871724,0.0078673133092068
6.89,0.170664485191544,0.00247327684162082
6.9,0.168391992247131,-0.00284264873206074
6.91,0.16629585528207,-0.0081855656028583
6.92,0.164330792050077,-0.0136514757627146
6.93,0.162427566363282,-0.0193210461858521
6.94,0.160497388794214,-0.0252542441654437
6.95,0.158437465557377,-0.0314861283581334
6.96,0.156137418721014,-0.03802403781895
6.97,0.153486249068398,-0.0448463595783889
6.98,0.150379468275463,-0.0519029885995311
6.99,0.146725999475617,-0.0591175062821553
7,0.142454431752038,-0.0663910101271193
7.01,0.137518229648117,-0.0736074244007681
7.02,0.131899535587808,-0.0806400200223922
7.03,0.125611273614947,-0.0873587780720236
7.04,0.118697356237248,-0.0936381545210469
7.05,0.111230915521427,-0.0993647526466514
7.06,0.103310609405333,-0.104444390594557
7.07,0.0950551942731463,-0.108808072763959
7.08,0.0865966836794986,-0.112416429381778
7.09,0.0780725255615835,-0.115262283758449
7.1,0.0696173155363742,-0.117371132169044
7.11,0.061354609012643,-0.118799465530828
7.12,0.053389399610611,-0.11963101697798
7.13,0.0458017934423947,-0.119971172156439
7.14,0.0386423263305759,-0.11993991267855
7.15,0.0319292580111516,-0.119663773257818
7.16,0.0256480362521825,-0.119267364218019
7.17,0.0197529692169437,-0.118865042807198
7.18,0.0141709880779038,-0.118553304995997
7.19,0.0088072369523883,-0.11840441468062
7.2,0.00355209984057303,-0.118461697448744
7.21,-0.00171081901156154,-0.118736808086511
7.22,-0.0070963053256631,-0.119209140793007
7.23,-0.012709301690716,-0.119827405350541
7.24,-0.0186373776043991,-0.120513245086471
7.25,-0.0249443966802475,-0.121166639644251
7.26,-0.0316657875974865,-0.12167271959047
7.27,-0.0388057161373199,-0.121909532807637
7.28,-0.0463363277385305,-0.121756246017298
7.29,-0.054199090863145,-0.121101241920168
7.3,-0.0623081395144021,-0.119849585796998
7.31,-0.0705553799023269,-0.117929381666442
7.32,-0.0788170189250434,-0.115296612463462
7.33,-0.0869610790810895,-0.111938162311984
7.34,-0.0948554063659849,-0.107872836978597
7.35,-0.102375648352804,-0.103150331152448
7.36,-0.109412684297396,-0.0978482240175664
7.37,-0.115879030008145,-0.0920672137444487
7.38,-0.121713808139023,-0.0859249152542068
7.39,-0.126885975527343,-0.0795486366406459
7.4,-0.131395612755211,-0.0730676149671204
7.41,-0.135273214356743,-0.0666052224905885
7.42,-0.138577049723038,-0.0602716498244812
7.43,-0.141388790879603,-0.0541575359382253
7.44,-0.143807717413405,-0.0483289443514778
7.45,-0.145943895372468,-0.0428239883058159
7.46,-0.147910788431218,-0.0376512952948659
7.47,-0.149817786639904,-0.0327903739603728
7.48,-0.151763131364077,-0.0281938220036793
7.49,-0.15382767812481,-0.0237911973913895
7.5,-0.156069871106545,-0.0194942692904178
7.51,-0.15852221619894,-0.0152032914966762
7.52,-0.161189436024026,-0.0108138842975442
7.53,-0.164048379775748,-0.00622408852812368
7.54,-0.167049652595046,-0.00134116091121513
7.55,-0.170120826611439,0.0039122921986112
7.56,-0.173171009355887,0.0095931901001906
7.57,-0.176096472945656,0.0157341421343447
7.58,-0.17878699904276,0.0223410989950046
7.59,-0.18113256435894,0.0293926006994475
7.6,-0.183029981795123,0.0368406425285267
7.61,-0.184389124403552,0.044613093486536
7.62,-0.185138386565573,0.0526175212927934
7.63,-0.185229077642328,0.0607462058935875
7.64,-0.184638503744671,0.0688820637101477
7.65,-0.183371555774487,0.0769051548145533
7.66,-0.181460701287065,0.0846994128472372
