"Freq [GHz]","re(S(Antenna1_1_1,Antenna1_1_1)) []","im(S(Antenna1_1_1,Antenna1_1_1)) []"
3,-0.240203129169263,-0.184924979536689
3.01,-0.246033719507218,-0.175044268114217
3.02,-0.251635126551938,-0.164875975906962
3.03,-0.256958042377336,-0.154366630984912
3.04,-0.26193312588431,-0.143481403476912
3.05,-0.26647891761519,-0.132209697325598
3.06,-0.270511078660341,-0.120567380481638
3.07,-0.27395155054498,-0.108595469927015
3.08,-0.276736296558056,-0.0963556575505896
3.09,-0.278820573688586,-0.0839235524795494
3.1,-0.280181140171246,-0.0713808392584
3.11,-0.280815345115972,-0.0588076567398422
3.12,-0.280737573830687,-0.0462763765328656
3.13,-0.279973941869593,-0.0338476339375041
3.14,-0.278556369877693,-0.0215689979224813
3.15,-0.276517192814871,-0.0094761579641581
3.16,-0.2738852631601,0.00240395982539893
3.17,-0.270684141959553,0.0140490630883244
3.18,-0.266932507998958,0.0254374060343755
3.19,-0.26264644456341,0.0365447261377189
3.2,-0.257842875810411,0.0473429205842933
3.21,-0.25254319427807,0.0578007742787837
3.22,-0.246776088861655,0.0678865917871799
3.23,-0.240578752530952,0.0775721594296501
3.24,-0.233995985892833,0.0868371552026301
3.25,-0.227077150566673,0.0956729913436123
3.26,-0.219871377678598,0.104085143079008
3.27,-0.212421818798354,0.112093274544631
3.28,-0.204759959742964,0.119728868462755
3.29,-0.196901065665921,0.127030526360809
3.3,-0.188841671030788,0.134037544833078
3.31,-0.180559706261996,0.14078270703559
3.32,-0.172017419690678,0.147285399778352
3.33,-0.163166789394,0.153546142067947
3.34,-0.153956708861034,0.159543399351426
3.35,-0.144340944474588,0.165233199376219
3.36,-0.134285748693098,0.170551625705373
3.37,-0.123776088425302,0.175419825429697
3.38,-0.112819688280621,0.179750801181335
3.39,-0.101448450894697,0.183457029190556
3.4,-0.089717226069948,0.186457882689673
3.41,-0.0777002882967757,0.188685947983192
3.42,-0.065486178859111,0.190091567513488
3.43,-0.0531717314061211,0.190645275031156
3.44,-0.0408561088990597,0.190338140063224
3.45,-0.0286355502901391,0.189180343568358
3.46,-0.0165992917444894,0.187198515959748
3.47,-0.00482684724903483,0.184432450722807
3.48,0.00661343650307029,0.180931762188581
3.49,0.0176648407051763,0.176752906842195
3.5,0.0282821469901349,0.171956776689766
3.51,0.0384313145104697,0.166606852261218
3.52,0.0480892498091147,0.160767724305543
3.53,0.0572437893512621,0.154503691343326
3.54,0.0658938238839224,0.147877137251556
3.55,0.0740493285140341,0.140946484754955
3.56,0.0817309652652123,0.133763680297917
3.57,0.0889689158559363,0.126371359503951
3.58,0.0958006898040154,0.118800019913823
3.59,0.102267817470427,0.111065651883796
3.6,0.108411549466397,0.10316831705161
3.61,0.114267898651808,0.0950921041037083
3.62,0.119862538568262,0.0868067427559482
3.63,0.125206173378992,0.0782709403630439
3.64,0.130291003624233,0.0694372611397577
3.65,0.135088818199284,0.0602581348932261
3.66,0.139551068128743,0.0506924016945101
3.67,0.143611041539477,0.0407116980696951
3.68,0.14718800622158,0.0303059866094222
3.69,0.15019294988961,0.0194876190782624
3.7,0.15253536451851,0.00829349104994044
3.71,0.154130412621901,-0.00321493719940161
3.72,0.154905791481402,-0.0149537447428425
3.73,0.154807669220602,-0.0268205518994908
3.74,0.153805193012368,-0.0387000172653874
3.75,0.151893236755025,-0.0504703124640835
3.76,0.149093240786954,-0.0620100080994477
3.77,0.145452171596407,-0.0732048195447725
3.78,0.141039777677415,-0.0839537243994125
3.79,0.135944427913478,-0.094174061327991
3.8,0.130267883776679,-0.103805331254719
3.81,0.124119387577752,-0.112811532431983
3.82,0.117609447162153,-0.121181959938757
3.83,0.110843678573707,-0.128930481844097
3.84,0.103917041045862,-0.136093370806991
3.85,0.096908768463595,-0.142725824148527
3.86,0.0898782710179218,-0.148897355068739
3.87,0.082862249082526,-0.154686287324497
3.88,0.075873221491361,-0.160173637708344
3.89,0.0688996158356352,-0.165436723565157
3.9,0.0619074972122531,-0.170542881907837
3.91,0.0548439155193675,-0.175543719928345
3.92,0.0476417404294149,-0.180470328145886
3.93,0.0402257273906048,-0.185329862586242
3.94,0.0325194364933979,-0.190103837884507
3.95,0.0244525186519441,-0.194748368104875
3.96,0.015967809259602,-0.19919644620605
3.97,0.0070276412532768,-0.203362185351069
3.98,-0.0023811829172986,-0.207146765150224
3.99,-0.0122442366670737,-0.210445656740413
4,-0.0225184664935912,-0.213156561410424
4.01,-0.0331334944102862,-0.215187408140135
4.02,-0.0439951727128333,-0.216463725401689
4.03,-0.0549911274214441,-0.216934743039706
4.04,-0.0659978401521381,-0.216577684847843
4.05,-0.0768886702401447,-0.215399874202141
4.06,-0.0875421318841205,-0.213438475449704
4.07,-0.0978497231152453,-0.21075791216799
4.08,-0.10772265283169,-0.207445213832306
4.09,-0.117096929164384,-0.203603725233638
4.1,-0.125936434778942,-0.199345745288263
4.11,-0.134233810374031,-0.194784735631497
4.12,-0.142009168408232,-0.190027744744856
4.13,-0.149306845810821,-0.185168638581475
4.14,-0.156190559147256,-0.180282619200951
4.15,-0.16273743011233,-0.175422369494459
4.16,-0.169031402977156,-0.170615999053728
4.17,-0.175156572905166,-0.165866807290299
4.18,-0.181190897510341,-0.161154738253165
4.19,-0.187200680358497,-0.156439292137953
4.2,-0.193236114281932,-0.151663585757941
4.21,-0.199328064855943,-0.146759221436596
4.22,-0.2054861768026,-0.141651621671295
4.23,-0.211698304179753,-0.136265511613256
4.24,-0.217931206141778,-0.130530267073945
4.25,-0.224132409144616,-0.124384885775283
4.26,-0.230233112799649,-0.117782375077211
4.27,-0.236151998311,-0.110693373783817
4.28,-0.241799780777917,-0.103108845110107
4.29,-0.247084321152289,-0.0950416906598088
4.3,-0.251916078839851,-0.0865271534172786
4.31,-0.256213642837493,-0.0776219087992507
4.32,-0.259909033163666,-0.0684017915826464
4.33,-0.262952427881009,-0.0589581801673066
4.34,-0.265315952329135,-0.0493931559601282
4.35,-0.266996179675298,-0.0398136643693622
4.36,-0.268015045301318,-0.0303250212279099
4.37,-0.268418970648442,-0.0210242091198501
4.38,-0.268276127270107,-0.0119934829214457
4.39,-0.267671933083486,-0.00329483232531004
4.4,-0.266703048134021,0.00503417685741559
4.41,-0.265470303325967,0.0129827478423174
4.42,-0.264071129971696,0.0205670940380639
4.43,-0.262592142255197,0.0278284724762049
4.44,-0.261102543034524,0.0348291192119714
4.45,-0.259648967396947,0.0416464091718453
4.46,-0.258252252103492,0.0483657502666999
4.47,-0.256906436079823,0.0550728569106061
4.48,-0.255580072072783,0.0618461172642374
4.49,-0.254219698408598,0.0687497560618936
4.5,-0.252755100135074,0.0758284058153654
4.51,-0.251105818356338,0.0831035413072946
4.52,-0.249188255975942,0.0905720282481513
4.53,-0.246922699126603,0.098206808639972
4.54,-0.244239619099685,0.105959528819196
4.55,-0.241084738355974,0.113764729626246
4.56,-0.237422511634684,0.121545091767721
4.57,-0.233237868816207,0.129217169974499
4.58,-0.228536260216487,0.136697063002638
4.59,-0.223342213160235,0.143905544334739
4.6,-0.217696730012013,0.150772303265082
4.61,-0.211653919998138,0.157239097099184
4.62,-0.205277260154347,0.163261765644132
4.63,-0.198635828543747,0.168811188760394
4.64,-0.191800764713375,0.173873356579891
4.65,-0.18484210680425,0.178448764615072
4.66,-0.177826052505391,0.182551337597993
4.67,-0.170812614198481,0.186207041460516
4.68,-0.163853597174146,0.189452273026356
4.69,-0.156990829512994,0.192332042981202
4.7,-0.150254611130879,0.194897911494458
4.71,-0.143662411972215,0.197205606456703
4.72,-0.137217921132316,0.19931226864039
4.73,-0.130910609943489,0.201273317916581
4.74,-0.124716002002971,0.203139019928826
4.75,-0.118596832787112,0.204950929685896
4.76,-0.112505223422861,0.206738483262116
4.77,-0.106385891605965,0.208516077589667
4.78,-0.100180292156274,0.210281003249502
4.79,-0.0938314368988541,0.212012565172433
4.8,-0.0872890159777806,0.213672639958791
4.81,-0.0805143488897258,0.215207780732313
4.82,-0.0734846558816261,0.216552811432673
4.83,-0.0661961679718912,0.217635670305546
4.84,-0.058665688314502,0.218383098971734
4.85,-0.0509303708545128,0.218726649073262
4.86,-0.0430456718409467,0.218608415977519
4.87,-0.0350816374557313,0.217985919514198
4.88,-0.0271178791079678,0.21683563462546
4.89,-0.0192377396163673,0.215154822229948
4.9,-0.0115222400635187,0.212961502595094
4.91,-0.00404441245811369,0.210292621413477
4.92,0.00313543936291082,0.207200659240202
4.93,0.00997313222983404,0.203749096282092
4.94,0.0164424060311999,0.200007247744279
4.95,0.0225350841037338,0.19604502012846
4.96,0.0282597277153504,0.191928100348523
4.97,0.0336390744397111,0.1877139912523
4.98,0.0387066546901774,0.183449164606023
4.99,0.0435030196946111,0.179167438864745
5,0.0480719936594763,0.174889532974564
5.01,0.0524572865750256,0.170623617524588
5.02,0.0566996921352492,0.166366601019732
5.03,0.0608349688615615,0.162105859312516
5.04,0.0648923840615868,0.157821137205456
5.05,0.0688938096738041,0.153486416882766
5.06,0.0728532092971973,0.149071636277713
5.07,0.0767763524178255,0.144544236593848
5.08,0.0806606308995812,0.139870597667348
5.09,0.0844949210761608,0.135017468106164
5.1,0.0882595180563369,0.129953506952253
5.11,0.0919262438198376,0.124651018325681
5.12,0.0954588824080984,0.119087893649396
5.13,0.0988141085504128,0.113249686624278
5.14,0.101943046616947,0.107131655926659
5.15,0.104793523520798,0.100740538293177
5.16,0.107312978694945,0.0940957764365646
5.17,0.109451875436497,0.0872299346845126
5.18,0.111167349715489,0.0801880922373646
5.19,0.112426747013571,0.0730261063329036
5.2,0.113210658658352,0.065807769477849
5.21,0.113515081018026,0.0586010291767731
5.22,0.11335239007458,0.051473573409747
5.23,0.112750939365296,0.0444881875607923
5.24,0.111753240116821,0.0376983433747224
5.25,0.11041284436755,0.0311444781178214
5.26,0.108790205985525,0.0248513596739767
5.27,0.106947915334125,0.0188268189095171
5.28,0.104945778056664,0.0130619814708637
5.29,0.102836223044765,0.00753296393105482
5.3,0.100660481355442,0.00220384007230479
5.31,0.098445881357084,-0.00296944915589515
5.32,0.0962044709704842,-0.00803465672435895
5.33,0.0939330258913516,-0.0130387098879196
5.34,0.0916143522050139,-0.0180235374991209
5.35,0.0892196632619207,-0.023022601384281
5.36,0.0867117206638939,-0.0280583829569083
5.37,0.0840483832798632,-0.033140950714292
5.38,0.0811862107045073,-0.0382676093633453
5.39,0.0780838118088533,-0.0434235223683201
5.4,0.0747047032095779,-0.0485831196376126
5.41,0.0710195328020776,-0.0537120594182833
5.42,0.0670076142215835,-0.0587695070155041
5.43,0.0626577962634669,-0.0637105175280216
5.44,0.0579687459827287,-0.068488357616857
5.45,0.0529487524043058,-0.0730566575489007
5.46,0.0476151601539495,-0.0773713385971382
5.47,0.0419935226919862,-0.0813923033360378
5.48,0.0361165364447013,-0.0850848991734153
5.49,0.0300227837363923,-0.088421168587194
5.5,0.0237552905356285,-0.0913808859103634
5.51,0.0173598951557361,-0.0939523560121024
5.52,0.0108834322184169,-0.0961329239023353
5.53,0.00437176190645144,-0.0979291255194206
5.54,-0.0021322911692081,-0.0993564048261883
5.55,-0.0085909851915336,-0.100438335427504
5.56,-0.0149735574077659,-0.101205317916404
5.57,-0.0212578117391719,-0.101692770818887
5.58,-0.0274312405960567,-0.101938888790594
5.59,-0.033491544533783,-0.101982098464393
5.6,-0.0394464567605189,-0.101858387723155
5.61,-0.045312837384678,-0.101598714943511
5.62,-0.051115070968389,-0.101226712547673
5.63,-0.0568828671127421,-0.100756883032517
5.64,-0.0626486237960325,-0.100193447583851
5.65,-0.0684445554750255,-0.099529951886904
5.66,-0.0742998103667086,-0.098749667863726
5.67,-0.0802378007656741,-0.0978267609617732
5.68,-0.0862739498492056,-0.0967281298189889
5.69,-0.092414018463605,-0.0954157724026052
5.7,-0.098653125668116,-0.0938494966289884
5.71,-0.104975519767163,-0.0919897738779715
5.72,-0.111355099579156,-0.0898005321038949
5.73,-0.117756633570424,-0.0872516976205627
5.74,-0.124137578844083,-0.0843213192579816
5.75,-0.130450367440747,-0.0809971425907236
5.76,-0.136645000552492,-0.0772775401872252
5.77,-0.142671776932247,-0.0731717466488851
5.78,-0.148483975000731,-0.0686993912740727
5.79,-0.154040312058159,-0.0638893650408013
5.8,-0.159307018178182,-0.0587781017169035
5.81,-0.164259385361991,-0.0534073925120727
5.82,-0.168882687318189,-0.0478218875994111
5.83,-0.173172407672084,-0.0420664632424533
5.84,-0.177133766134807,-0.0361836464068894
5.85,-0.180780586177971,-0.0302112868118569
5.86,-0.184133601540432,-0.0241806478988214
5.87,-0.187218346625833,-0.0181150534987035
5.88,-0.19006280970582,-0.0120291768458645
5.89,-0.192695045507826,-0.00592899997146444
5.9,-0.19514094019651,0.00018759036873422
5.91,-0.19742229768877,0.00632966241615668
5.92,-0.199555374299071,0.0125116912633048
5.93,-0.201549933140859,0.0187517675008465
5.94,-0.203408831501704,0.0250697324063696
5.95,-0.205128097976123,0.031485393127326
5.96,-0.206697413542368,0.0380169376388524
5.97,-0.208100885337009,0.044679621774597
5.98,-0.209317998227549,0.051484753163404
5.99,-0.210324644831928,0.0584389519182466
6,-0.211094166974019,0.0655436395396195
6.01,-0.211598378883468,0.0727946965294525
6.02,-0.211808580585292,0.0801822384736547
6.03,-0.21169659526938,0.0876904864368766
6.04,-0.211235873158766,0.0952977442819205
6.05,-0.210402691651812,0.102976532194463
6.06,-0.20917744969784,0.110693953377864
6.07,-0.207546008710413,0.118412380601721
6.08,-0.205500981792335,0.126090534892921
6.09,-0.203042830673486,0.133684990274529
6.1,-0.200180604046998,0.141152078769762
6.11,-0.196932153220203,0.148450099810428
6.12,-0.193323693257741,0.155541667806832
6.13,-0.189388639711014,0.162395976321442
6.14,-0.185165735993256,0.168990727123263
6.15,-0.180696581286246,0.175313478370962
6.16,-0.176022760017837,0.181362208815287
6.17,-0.171182845470645,0.187144972720359
6.18,-0.166209588915064,0.192678623375708
6.19,-0.161127603530872,0.197986696186863
6.2,-0.155951806977229,0.203096650734537
6.21,-0.150686802552904,0.208036755332259
6.22,-0.145327268482396,0.212832947375809
6.23,-0.139859301914061,0.217506005920999
6.24,-0.134262549411579,0.222069332051045
6.25,-0.128512863995257,0.226527551112029
6.26,-0.122585174564534,0.230876041597893
6.27,-0.116456244740134,0.235101376771626
6.28,-0.110107033665882,0.239182551747033
6.29,-0.103524446102155,0.243092781700394
6.3,-0.0967023582986971,0.246801604886178
6.31,-0.0896419145534476,0.250277016027987
6.32,-0.0823511884345171,0.253487388900218
6.33,-0.0748443769334287,0.256403014374878
6.34,-0.0671407358169845,0.258997167981716
6.35,-0.0592634634182922,0.261246713608275
6.36,-0.0512387033966771,0.263132329414381
6.37,-0.0430947719015351,0.264638496621536
6.38,-0.0348616352675802,0.265753411500383
6.39,-0.0265705879390905,0.266468963835474
6.4,-0.0182540193266173,0.266780877489808
6.41,-0.0099451274585239,0.266689038465602
6.42,-0.00167744009972512,0.266197960471351
6.43,0.00651595830093139,0.26531726977015
6.44,0.0146035306700284,0.264062046867821
6.45,0.022556678646819,0.262452850264375
6.46,0.0303512974908782,0.260515271573561
6.47,0.0379693046782335,0.258278929452013
6.48,0.0453999161566185,0.255775892504816
6.49,0.0526404430925643,0.253038616064375
6.5,0.0596964208282916,0.25009756726066
6.51,0.066580954905112,0.246978783501601
6.52,0.0733132656714068,0.243701646487663
6.53,0.0799165211811076,0.240277152260914
6.54,0.0864151477239638,0.236706913932572
6.55,0.0928318860965752,0.232983054435363
6.56,0.099184906055286,0.22908904335503
6.57,0.10548529400465,0.225001417137942
6.58,0.111735189559918,0.220692215278819
6.59,0.117926771625156,0.216131879015563
6.6,0.124042193301966,0.211292307418223
6.61,0.1300544534315,0.206149753407324
6.62,0.135929085977818,0.200687271590042
6.63,0.141626461087082,0.19489649378806
6.64,0.147104435698889,0.188778596826933
6.65,0.152321070838733,0.182344428026598
6.66,0.157237151374026,0.175613849735718
6.67,0.161818292314209,0.168614445608333
6.68,0.166036488315157,0.161379783750698
6.69,0.16987104486959,0.153947455269735
6.7,0.173308908837352,0.146357095340438
6.71,0.176344481086152,0.138648558724052
6.72,0.178979036362183,0.130860365488828
6.73,0.181219890869664,0.123028471968716
6.74,0.183079448812863,0.115185363081439
6.75,0.184574227776068,0.107359419046875
6.76,0.185723920520811,0.099574484767029
6.77,0.18655050501219,0.091849569221789
6.78,0.187077377378164,0.0841986206943455
6.79,0.187328459396348,0.0766303574614861
6.8,0.1873272298247,0.0691481730196921
6.81,0.187095646611925,0.061750171134288
6.82,0.186652961589168,0.0544294106275509
6.83,0.186014474405578,0.047174444356792
6.84,0.185190317513006,0.0399702214931133
6.85,0.184184402016194,0.0327993842298552
6.86,0.182993673484566,0.0256439372377471
6.87,0.181607824379946,0.0184872073951301
6.88,0.18000958097634,0.0113159515382068
6.89,0.178175631741144,0.00412242440002082
6.9,0.176078194744031,-0.00309380773006074
6.91,0.17368714486487,-0.0103245205108583
6.92,0.170972546793077,-0.0175521347307146
6.93,0.167907378353282,-0.0247497950468521
6.94,0.164470190545214,-0.0318822729451437
6.95,0.160647441553357,-0.0389076544900334
6.96,0.156435263580014,-0.04577968602665
6.97,0.151840474864398,-0.0524505757834889
6.98,0.146880723320463,-0.0588739955885311
6.99,0.141583739129617,-0.0650080029831553
7,0.135985765542638,-0.0708176116051193
7.01,0.130129321688817,-0.0762767770275681
7.02,0.124060515622608,-0.0813696292023922
7.03,0.117826164765247,-0.0860908647860236
7.04,0.111470988773248,-0.0904453001900469
7.05,0.105035118631427,-0.0944466700256514
7.06,0.098552118201333,-0.0981158236131567
7.07,0.0920476488668463,-0.101478519912459
7.08,0.0855388341821986,-0.104563041099378
7.09,0.0790343082255835,-0.107397839150849
7.1,0.0725348686193742,-0.110009401328044
7.11,0.066034609471643,-0.112420474091828
7.12,0.059522385288511,-0.11464873045798
7.13,0.0529834524509947,-0.116705911106439
7.14,0.0464011507983959,-0.11859742119215
7.15,0.0397585153696516,-0.120322330399818
7.16,0.0330397433618825,-0.121873704365019
7.17,0.0262314754459437,-0.123239192046198
7.18,0.0193238780949038,-0.124401802865997
7.19,0.0123115310433883,-0.12534082497452
7.2,0.00519412906757303,-0.126032854819044
7.21,-0.00202299872556154,-0.126452924314511
7.22,-0.0093285616506631,-0.126575719577007
7.23,-0.016705197576716,-0.126376882020541
7.24,-0.0241296179963991,-0.125834369379471
7.25,-0.0315730499536475,-0.124929832844251
7.26,-0.0390020094486865,-0.12364994155932
7.27,-0.0463794208804699,-0.121987563081637
7.28,-0.0536660660951305,-0.119942693449298
7.29,-0.060822307505145,-0.117523029297168
7.3,-0.0678099898854021,-0.114744087079998
7.31,-0.0745943897363269,-0.111628805529842
7.32,-0.0811460565192434,-0.108206609522162
7.33,-0.0874423824930895,-0.104511966987084
7.34,-0.0934687486639849,-0.100582523943397
7.35,-0.099219124956804,-0.0964569522004476
7.36,-0.104696049385396,-0.0921726813305664
7.37,-0.109909969242145,-0.0877637052464487
7.38,-0.114877989292923,-0.0832586527563068
7.39,-0.119622130223043,-0.0786792875106459
7.4,-0.124167248259911,-0.0740395625391204
7.41,-0.128538796955943,-0.0693452991755885
7.42,-0.132760622298038,-0.0645944993274812
7.43,-0.136852971530603,-0.0597782409852253
7.44,-0.140830866830405,-0.0548820549622778
7.45,-0.144702950792168,-0.0498876447042159
7.46,-0.148470860935218,-0.0447747913949659
7.47,-0.152129137332904,-0.0395232857988728
7.48,-0.155665622400077,-0.0341147441526793
7.49,-0.15906227655181,-0.0285341932403895
7.5,-0.162296311037445,-0.0227713453054178
7.51,-0.16534153273994,-0.0168215200535762
7.52,-0.168169800170065,-0.0106862034175442
7.53,-0.170752503439048,-0.00437325817212368
7.54,-0.173062000035446,0.00210318312778487
7.55,-0.175072955541439,0.0087231061486112
7.56,-0.176763553823887,0.0154612477891906
7.57,-0.178116549018356,0.0222879429876447
7.58,-0.17912013420276,0.0291701594163046
7.59,-0.17976859882194,0.0360726954705475
7.6,-0.180062741796123,0.0429595131498267
7.61,-0.180010003692552,0.049795167756536
7.62,-0.179624282836573,0.0565462812197934
7.63,-0.178925408905728,0.0631829881987875
7.64,-0.177938265020171,0.0696802697911477
7.65,-0.176691574993887,0.0760190784875533
7.66,-0.175216402886565,0.0821871587492372
