"Freq [GHz]","re(S(Antenna1_1_1,Antenna1_1_1)) []","im(S(Antenna1_1_1,Antenna1_1_1)) []"
3,-0.246844030017263,-0.186413987047029
3.01,-0.252801067100218,-0.174723545112117
3.02,-0.258037822075938,-0.162793822940262
3.03,-0.262544675043336,-0.150704050838912
3.04,-0.26632741289631,-0.138532049144912
3.05,-0.26940624984389,-0.126350684649598
3.06,-0.271814040952641,-0.114224707353638
3.07,-0.27359381308608,-0.102208139342015
3.08,-0.274795770191356,-0.0903423522015896
3.09,-0.275473952194586,-0.0786549274105494
3.1,-0.275682741009246,-0.0671593508574
3.11,-0.275473410320972,-0.0558555481030422
3.12,-0.274890910057687,-0.0447312247081656
3.13,-0.273971063753593,-0.0337639340276041
3.14,-0.272738334506693,-0.0229237609700013
3.15,-0.271204288787871,-0.0121764763272581
3.16,-0.2693668528511,-0.00148699271260107
3.17,-0.267210418922453,0.0091770670733244
3.18,-0.264706815625458,0.0198418883113755
3.19,-0.26181711247411,0.0305242717827189
3.2,-0.258494182523611,0.0412289249342933
3.21,-0.25468590203947,0.0519464143667837
3.22,-0.250338823810655,0.0626519296781799
3.23,-0.245402124580952,0.0733049701216501
3.24,-0.239831598840833,0.0838500179616301
3.25,-0.233593453447673,0.0942182069789123
3.26,-0.226667655485598,0.104329933519708
3.27,-0.219050595175354,0.114098294408531
3.28,-0.210756856612964,0.123433174908755
3.29,-0.201819931046921,0.132245755538809
3.3,-0.192291769097788,0.140453162147078
3.31,-0.182241139284996,0.14798295632459
3.32,-0.171750840899378,0.154777153049352
3.33,-0.1609139032535,0.160795465949947
3.34,-0.149828983313034,0.166017515489426
3.35,-0.138595245391588,0.170443793587219
3.36,-0.127307062644098,0.174095256205373
3.37,-0.116048912499302,0.177011507983097
3.38,-0.104890847778621,0.179247647499035
3.39,-0.0938849028936972,0.180869944472556
3.4,-0.083062744520948,0.181950620903673
3.41,-0.0724347979247757,0.182562090990192
3.42,-0.061990978476111,0.182771075761488
3.43,-0.0517030392953211,0.182633041313156
3.44,-0.0415284204716597,0.182187406620224
3.45,-0.0314153593821391,0.181453929024358
3.46,-0.0213089103524894,0.180430601750748
3.47,-0.0111574314050348,0.179093293204807
3.48,-0.00091903789992971,0.177397227995581
3.49,0.0094324977801763,0.175280265117395
3.5,0.0199028991501349,0.172667780448866
3.51,0.0304740249254697,0.169478822128218
3.52,0.0411023250991147,0.165633087997543
3.53,0.0517193076032621,0.161058190007326
3.54,0.0622340502979224,0.155696625921556
3.55,0.0725376259790341,0.149511881408955
3.56,0.0825091437692123,0.142493138869917
3.57,0.0920229669929363,0.134658167234951
3.58,0.100956555247015,0.126054106729823
3.59,0.109198311552427,0.116756029726796
3.6,0.116654798271397,0.10686334202061
3.61,0.123256723558808,0.0964942720696083
3.62,0.128963190433262,0.0857788612623882
3.63,0.133763837954992,0.0748510028030439
3.64,0.137678674427233,0.0638401659767577
3.65,0.140755596654284,0.0528634783322261
3.66,0.143065783171743,0.0420188158365101
3.67,0.144697333780577,0.0313794717896951
3.68,0.14574767750669,0.0209908443104222
3.69,0.14631537971761,0.0108694132542624
3.7,0.14649203096051,0.00100408177594044
3.71,0.146354893514901,-0.00864024403640161
3.72,0.145960914569402,-0.0181171551458425
3.73,0.145342595667602,-0.0274917999349908
3.74,0.144506044834368,-0.0368331060682874
3.75,0.143431347906025,-0.0462058310270835
3.76,0.142075194944954,-0.0556631159694477
3.77,0.140375504933407,-0.0652401652537725
3.78,0.138257624348015,-0.0749495679494125
3.79,0.135641547763078,-0.084778627123991
3.8,0.132449532398579,-0.0946888845567187
3.81,0.128613457857752,-0.104617835876983
3.82,0.124081320262153,-0.114482644508757
3.83,0.118822339435707,-0.124185498002097
3.84,0.112830290424862,-0.133620120284691
3.85,0.106124833103595,-0.142678871193527
3.86,0.0987507899579218,-0.151259833261339
3.87,0.090775496866526,-0.159273308429497
3.88,0.082284507934361,-0.166647218819344
3.89,0.0733760622919352,-0.173331017653157
3.9,0.0641548052253531,-0.179297857137837
3.91,0.0547252959593675,-0.184544916599345
3.92,0.0451858257642149,-0.189091950121886
3.93,0.0356230178866048,-0.192978256158242
3.94,0.0261075909923979,-0.196258390218507
3.95,0.0166915520599441,-0.198997024415475
3.96,0.007406952300602,-0.20126340402675
3.97,-0.0017337941147232,-0.203125854294469
3.98,-0.0107361543132986,-0.204646757269624
3.99,-0.0196205151260737,-0.205878352144413
4,-0.0284183262895912,-0.206859622120424
4.01,-0.0371677059693862,-0.207614425078135
4.02,-0.0459088801518333,-0.208150916668689
4.03,-0.0546798108611441,-0.208462209664706
4.04,-0.0635123230717381,-0.208528123342843
4.05,-0.0724289759181447,-0.208317806184141
4.06,-0.0814408451631205,-0.207792969124704
4.07,-0.0905463000922453,-0.20691144507819
4.08,-0.09973077760169,-0.205630794554906
4.09,-0.108967482583384,-0.203911701034538
4.1,-0.118218886003942,-0.201720941800563
4.11,-0.127438848785031,-0.199033771622497
4.12,-0.136575176073232,-0.195835615471856
4.13,-0.145572399360521,-0.192123023300475
4.14,-0.154374591735456,-0.187903894466951
4.15,-0.16292804285363,-0.183197023591459
4.16,-0.171183648525856,-0.178031055759728
4.17,-0.179098904500166,-0.172442962487299
4.18,-0.186639428529341,-0.166476163860165
4.19,-0.193779969498497,-0.160178425981653
4.2,-0.200504892571932,-0.153599659786243
4.21,-0.206808155234943,-0.146789737633296
4.22,-0.2126928102926,-0.139796431933195
4.23,-0.218170088185753,-0.132663565034256
4.24,-0.223258123124778,-0.125429444495945
4.25,-0.227980397289516,-0.118125642577283
4.26,-0.232363983413749,-0.110776162844211
4.27,-0.2364376718091,-0.103397022613817
4.28,-0.240230070643817,-0.0959962628801069
4.29,-0.243767770167289,-0.0885743817788088
4.3,-0.247073660546851,-0.0811251697202786
4.31,-0.250165488626493,-0.0736369058860507
4.32,-0.253054731764666,-0.0660938574917464
4.33,-0.255745853576009,-0.0584780054260066
4.34,-0.258235989856135,-0.0507709037767282
4.35,-0.260515091431298,-0.0429555695923622
4.36,-0.262566524642318,-0.0350182915249099
4.37,-0.264368103332642,-0.0269502461928501
4.38,-0.265893497283907,-0.0187488180474457
4.39,-0.267113936195486,-0.01041853317331
4.4,-0.268000105350921,-0.00197153951558441
4.41,-0.268524112769967,0.00657240595731741
4.42,-0.268661399383696,0.0151864499150639
4.43,-0.268392464346197,0.0238376279769049
4.44,-0.267704287481524,0.0324882616786714
4.45,-0.266591350590947,0.0410976762052903
4.46,-0.265056186624492,0.0496241239613999
4.47,-0.263109417953823,0.0580267838954061
4.48,-0.260769282687783,0.0662676999992374
4.49,-0.258060683162098,0.0743135274788936
4.5,-0.255013826163474,0.0821369691933654
4.51,-0.251662551871438,0.0897178084262946
4.52,-0.248042470503042,0.0970434739891513
4.53,-0.244189036065003,0.104109108835972
4.54,-0.240135689312685,0.110917148369196
4.55,-0.235912192664974,0.117476450126246
4.56,-0.231543263047684,0.123801046046921
4.57,-0.227047583932207,0.129908612825999
4.58,-0.222437248289487,0.135818771441338
4.59,-0.217717652573235,0.141551333840939
4.6,-0.212887830084013,0.147124612724082
4.61,-0.207941183606138,0.152553900242184
4.62,-0.202866552806547,0.157850204401132
4.63,-0.197649534313247,0.163019309903394
4.64,-0.192273961512475,0.168061205953891
4.65,-0.18672344704165,0.172969897255072
4.66,-0.180982894241491,0.177733591157993
4.67,-0.175039891855481,0.182335231892516
4.68,-0.168885919176146,0.186753335231356
4.69,-0.162517304403994,0.190963064859302
4.7,-0.155935895606879,0.194937482118498
4.71,-0.149149420933215,0.198648898086103
4.72,-0.142171530875316,0.20207025592819
4.73,-0.135021529561489,0.205176474923581
4.74,-0.127723815391271,0.207945691785826
4.75,-0.120307062218612,0.210360342483896
4.76,-0.112803181296061,0.212408034728116
4.77,-0.105246112815565,0.214082170185667
4.78,-0.0976705023127743,0.215382284706502
4.79,-0.0901103233043541,0.216314085567433
4.8,-0.0825975116517806,0.216889176052791
4.81,-0.0751606805327258,0.217124471072213
4.82,-0.0678239851856261,0.217041321566373
4.83,-0.0606062042978912,0.216664381562046
4.84,-0.053520099294502,0.216020267354134
4.85,-0.0465721020215128,0.215136074050162
4.86,-0.0397623673539467,0.214037828802519
4.87,-0.0330852076476313,0.212748970477198
4.88,-0.0265299038078678,0.21128895190846
4.89,-0.0200818623270973,0.209672061017948
4.9,-0.0137240622909187,0.207906549848094
4.91,-0.00743871121351369,0.205994147220477
4.92,-0.00120900853308918,0.203930008765202
4.93,0.00497910058383404,0.201703130512792
4.94,0.0111353046711999,0.199297220788179
4.95,0.0172635613027338,0.19669198991552
4.96,0.0233610985403504,0.193864784230423
4.97,0.0294178717267111,0.1907924601624
4.98,0.0354165342011774,0.187453370387023
4.99,0.0413329443559111,0.183829319299745
5,0.0471371903673763,0.179907340857564
5.01,0.0527950729217556,0.175681159886588
5.02,0.0582699484334492,0.171152217448732
5.03,0.0635248032366615,0.166330171317516
5.04,0.0685244075165868,0.161232821482456
5.05,0.0732373875098041,0.155885454724966
5.06,0.0776380574061973,0.150319648219413
5.07,0.0817078688808255,0.144571616244988
5.08,0.0854363640915812,0.138680220712848
5.09,0.0888215570701608,0.132684795725364
5.1,0.0918697126613369,0.126622950525253
5.11,0.0945945410263376,0.120528519071681
5.12,0.0970158713026984,0.114429811368396
5.13,0.0991579104438128,0.108348297891278
5.14,0.101047224424447,0.102297822599659
5.15,0.102710600502498,0.0962843964861767
5.16,0.104172955475945,0.0903065773315646
5.17,0.105455448962497,0.0843563937988126
5.18,0.106573940000489,0.0784207306756646
5.19,0.107537895342571,0.0724830567144036
5.2,0.108349818058352,0.066525353921849
5.21,0.109005222517026,0.0605300956047731
5.22,0.10949313722758,0.054482122377647
5.23,0.109797077042296,0.0483702799557923
5.24,0.109896392256421,0.0421887072157224
5.25,0.10976787754825,0.0359376957458214
5.26,0.109387510064725,0.0296240792249767
5.27,0.108732184278025,0.0232611498805171
5.28,0.107781319442564,0.0168681347958637
5.29,0.106518234406765,0.0104692959847548
5.3,0.104931208828442,0.00409274124050479
5.31,0.103014180343084,-0.00223095276239515
5.32,0.100767057534484,-0.00847019901843895
5.33,0.0981956580103516,-0.0145938378916196
5.34,0.0953113062230139,-0.0205724634353209
5.35,0.0921301460238207,-0.026379564606281
5.36,0.0886722351909939,-0.0319924286999083
5.37,0.0849604959645632,-0.037392775981292
5.38,0.0810195953317173,-0.0425671156923453
5.39,0.0768748227546533,-0.0475068312623201
5.4,0.0725510242014779,-0.0522080178386126
5.41,0.0680716390734776,-0.0566711042722833
5.42,0.0634578750855835,-0.0609002983834041
5.43,0.0587280438334669,-0.0649028956203216
5.44,0.0538970708407287,-0.068688490537804
5.45,0.0489761856583058,-0.0722681280876007
5.46,0.0439727925699495,-0.0756534286095382
5.47,0.0388905188289862,-0.0788557172928378
5.48,0.0337294345050013,-0.0818851869269153
5.49,0.0284864363274923,-0.084750122607194
5.5,0.0231557846613285,-0.0874562159403634
5.51,0.0177297785879361,-0.0900059978771024
5.52,0.0121995491896169,-0.0923984184083353
5.53,0.00655594365335144,-0.0946286002794206
5.54,0.0007904654232919,-0.0966877902311883
5.55,-0.0051037722245336,-0.0985635250191035
5.56,-0.0111311281697659,-0.100240020061704
5.57,-0.0172926050731719,-0.101698776554687
5.58,-0.0235851649260567,-0.102919389052194
5.59,-0.030001240373783,-0.103880520147793
5.6,-0.0365284855815189,-0.104560994554355
5.61,-0.043149798716578,-0.104940951991511
5.62,-0.049843631149189,-0.105002989300673
5.63,-0.0565845803638921,-0.104733217134517
5.64,-0.0633442426124525,-0.104122158222851
5.65,-0.0700922817564255,-0.103165420709904
5.66,-0.0767976526706086,-0.101864092613726
5.67,-0.0834299043033741,-0.100224821457773
5.68,-0.0899604783512056,-0.0982595636110889
5.69,-0.096363917749605,-0.0959850116453452
5.7,-0.102618903179116,-0.0934217303230884
5.71,-0.108709046494163,-0.0905930533859715
5.72,-0.114623386139156,-0.0875238103294949
5.73,-0.120356549553424,-0.0842389648104627
5.74,-0.125908570727283,-0.0807622525599816
5.75,-0.131284373745747,-0.0771149057567236
5.76,-0.136492955976592,-0.0733145454502252
5.77,-0.141546322922447,-0.0693743106948851
5.78,-0.146458242426331,-0.0653022773470727
5.79,-0.151242895897359,-0.0611012000908013
5.8,-0.155913508067182,-0.0567685908713035
5.81,-0.160481037095991,-0.0522971263859727
5.82,-0.164953000297189,-0.0476753589552111
5.83,-0.169332501949084,-0.0428886882783733
5.84,-0.173617516461807,-0.0379205388549894
5.85,-0.177800466096971,-0.0327536785316569
5.86,-0.181868116604432,-0.0273716076038214
5.87,-0.185801798462133,-0.0217599458607035
5.88,-0.18957794606782,-0.0159077451598645
5.89,-0.193168932890926,-0.00980865923846444
5.9,-0.19654416695141,-0.00346190717726578
5.91,-0.19967139882707,0.00312702406715668
5.92,-0.202518183445071,0.0099459841543048
5.93,-0.205053427039859,0.0169761040003465
5.94,-0.207248943605704,0.0241921008633696
5.95,-0.209080938622123,0.031562947756526
5.96,-0.210531335874368,0.0390528932518524
5.97,-0.211588863954009,0.046622799177997
5.98,-0.212249824174549,0.054231742114404
5.99,-0.212518472332528,0.0618388062722466
6,-0.212406962394619,0.0694049752646195
6.01,-0.211934821928668,0.0768950159304525
6.02,-0.211127955066522,0.0842792363126547
6.03,-0.21001719895338,0.0915349964118766
6.04,-0.208636492443766,0.0986478537089205
6.05,-0.207020747570812,0.105612239469463
6.06,-0.20520354388084,0.112431583095464
6.07,-0.203214790007413,0.119117833763021
6.08,-0.201078512854335,0.125690366259051
6.09,-0.198810939371486,0.132174301989029
6.1,-0.196419030009998,0.138598321661762
6.11,-0.193899602213203,0.144992090363428
6.12,-0.191239149917141,0.151383454953832
6.13,-0.188414421493314,0.157795603248442
6.14,-0.185393764878656,0.164244392887263
6.15,-0.182139191943846,0.170736059305962
6.16,-0.178609054706837,0.177265499091287
6.17,-0.174761171989645,0.183815294597359
6.18,-0.170556199456064,0.190355598680308
6.19,-0.165961003456872,0.196844940995563
6.2,-0.160951784262229,0.203231948404737
6.21,-0.155516698110904,0.209457902041859
6.22,-0.149657751958396,0.215459982721809
6.23,-0.143391788741061,0.221174995611999
6.24,-0.136750442278579,0.226543316078045
6.25,-0.129779014199857,0.231512767905029
6.26,-0.122534307856634,0.236042136757893
6.27,-0.115081536331034,0.240104034416626
6.28,-0.107490499824882,0.243686868844033
6.29,-0.099831293001155,0.246795732336394
6.3,-0.0921698507716971,0.249452097129978
6.31,-0.0845636661824476,0.251692296510087
6.32,-0.0770580139165171,0.253564862527448
6.33,-0.0696829860564287,0.255126884381378
6.34,-0.0624515944569845,0.256439632939216
6.35,-0.0553591201602922,0.257563763159275
6.36,-0.0483837989976771,0.258554449650381
6.37,-0.0414888308179351,0.259456827171536
6.38,-0.0346255975471802,0.260302095963383
6.39,-0.0277378756104905,0.261104610349474
6.4,-0.0207667469696173,0.261860202522808
6.41,-0.0136558482236239,0.262545903568602
6.42,-0.00635656319772512,0.263121119354351
6.43,0.00116724292593139,0.26353020831475
6.44,0.0089353230310284,0.263706296544121
6.45,0.016948300707819,0.263576066537475
6.46,0.0251863135168782,0.263065174273861
6.47,0.0336091816592335,0.262103892726213
6.48,0.0421581213046185,0.260632554984816
6.49,0.0507589024335643,0.258606375919375
6.5,0.0593262384431916,0.25599927294466
6.51,0.067769094145812,0.252806376125601
6.52,0.0759965248105068,0.249045014064663
6.53,0.0839236096791076,0.244754076377914
6.54,0.0914770312139638,0.239991776898572
6.55,0.0985998717755752,0.234831965452163
6.56,0.105255253831286,0.22935924909263
6.57,0.11142853453465,0.223663279024142
6.58,0.117127873233918,0.217832626517319
6.59,0.122383113101156,0.211948707844863
6.6,0.127243046718966,0.206080218047223
6.61,0.1317712598127,0.200278498847324
6.62,0.136040857801918,0.194574197508042
6.63,0.140128465971682,0.18897547743006
6.64,0.144107953558459,0.183467924680933
6.65,0.148044353751033,0.178016165576598
6.66,0.151988439944026,0.172567081459718
6.67,0.155972369522209,0.167054383786433
6.68,0.160006727546157,0.161404209894698
6.69,0.16407919620159,0.155541320961235
6.7,0.168154954722352,0.149395438257898
6.71,0.172178782464152,0.142907242441952
6.72,0.176078710771183,0.136033586719328
6.73,0.179770951876104,0.128751533024716
6.74,0.183165738631863,0.121060910993439
6.75,0.186173640333768,0.112985208704875
6.76,0.188711886563211,0.104570731220029
6.77,0.19071023122499,0.095884090832789
6.78,0.192115925352564,0.0870082177948455
6.79,0.192897435339348,0.0780371887764861
6.8,0.1930466379937,0.0690702560566921
6.81,0.192579337986925,0.060205517926788
6.82,0.191534077363168,0.0515336934727509
6.83,0.189969333357578,0.043132455283552
6.84,0.187959317057006,0.0350617280576133
6.85,0.185588687014994,0.0273602882620552
6.86,0.182946567961566,0.0200439023567471
6.87,0.180120311888946,0.0131051263521301
6.88,0.17718945433624,0.0065147689332068
6.89,0.174220299183544,0.00022489943502082
6.9,0.171261517093131,-0.00582682862936074
6.91,0.16834106549707,-0.0117118595391583
6.92,0.165464640079077,-0.0175048128857146
6.93,0.162615756436282,-0.0232773860518521
6.94,0.159757442948214,-0.0290925190784437
6.95,0.156835411158357,-0.0349992366521334
6.96,0.153782466494614,-0.04102853044495
6.97,0.150523836220198,-0.0471905662643889
6.98,0.146983029496463,-0.0534734061105311
6.99,0.143087810803617,-0.0598433251031553
7,0.138775862779038,-0.0662466907141193
7.01,0.133999741051117,-0.0726132623365681
7.02,0.128730775160808,-0.0788606701517922
7.03,0.122961647659947,-0.0848997521570236
7.04,0.116707476301248,-0.0906403697960469
7.05,0.110005331894427,-0.0959972924936514
7.06,0.102912231845333,-0.100895738326557
7.07,0.0955017574488463,-0.105276185621959
7.08,0.0878595371047986,-0.109098122291778
7.09,0.0800779150967835,-0.112342475508449
7.1,0.0722501819653742,-0.115012558130044
7.11,0.064464770399643,-0.117133471476828
7.12,0.056799821946611,-0.11875001204298
7.13,0.0493185030763947,-0.119923234422439
7.14,0.0420653946905759,-0.12072591520105
7.15,0.0350642047401516,-0.121237239602318
7.16,0.0283169594551825,-0.121537085774019
7.17,0.0218047255519437,-0.121700309428198
7.18,0.0154898078379038,-0.121791431198997
7.19,0.0093192637253883,-0.12186010001062
7.2,0.00322948242170303,-0.121937650760744
7.21,-0.00284849737356154,-0.122034998045511
7.22,-0.0089833099366631,-0.122142012169007
7.23,-0.015237629561716,-0.122228419338541
7.24,-0.0216629828903991,-0.122246159269471
7.25,-0.0282953760832475,-0.122133030238251
7.26,-0.0351520477564865,-0.12181735933525
7.27,-0.0422295787753199,-0.121223362831637
7.28,-0.0495034928155305,-0.120276811959298
7.29,-0.056929373585145,-0.118910597546168
7.3,-0.0644454175454021,-0.117069794530998
7.31,-0.0719762355953269,-0.114715863874442
7.32,-0.0794376290904434,-0.111829691096462
7.33,-0.0867419940790895,-0.108413246365984
7.34,-0.0938039637119849,-0.104489750005597
7.35,-0.100545882275804,-0.100102336670448
7.36,-0.106902717124396,-0.0953113199265664
7.37,-0.112826057630145,-0.0901902604747487
7.38,-0.118286917263023,-0.0848211278685068
7.39,-0.123277144263343,-0.0792889093006459
7.4,-0.127809347742211,-0.0736760587241204
7.41,-0.131915356016743,-0.0680571882405885
7.42,-0.135643330289038,-0.0624943831514812
7.43,-0.139053754102103,-0.0570334744152253
7.44,-0.142214600281705,-0.0517015291644778
7.45,-0.145196033365168,-0.0465057281958159
7.46,-0.148065037228218,-0.0414336971768659
7.47,-0.150880358140904,-0.0364552501813728
7.48,-0.153688126500077,-0.0315254020266793
7.49,-0.15651846670981,-0.0265884145992895
7.5,-0.159383327581545,-0.0215825691420178
7.51,-0.16227567418494,-0.0164453086545762
7.52,-0.165170080068026,-0.0111183715545442
7.53,-0.168024655859748,-0.00555254476312368
7.54,-0.170784154132046,0.00028830198578487
7.55,-0.173384006953539,0.0064241811676112
7.56,-0.175754989577887,0.0128571540941906
7.57,-0.177828163000356,0.0195708108803447
7.58,-0.17953973534676,0.0265310779840046
7.59,-0.18083549480594,0.0336882708744475
7.6,-0.181674504583123,0.0409802214765267
7.61,-0.182031810989552,0.048336235887236
7.62,-0.181899991786573,0.0556815841400934
7.63,-0.181289458941328,0.0629421912337875
7.64,-0.180227521822671,0.0700491938461477
7.65,-0.178756304489487,0.0769430432445533
7.66,-0.176929690294065,0.0835768763732372
