"Freq [GHz]","re(S(Antenna1_1_1,Antenna1_1_1)) []","im(S(Antenna1_1_1,Antenna1_1_1)) []"
3,-0.240137426738263,-0.180527596639029
3.01,-0.244879947328218,-0.170674315709217
3.02,-0.249385419903938,-0.160813361751962
3.03,-0.253683147371336,-0.150902290055612
3.04,-0.25778875689131,-0.140892136163212
3.05,-0.26170293273489,-0.130730358620598
3.06,-0.265410644864641,-0.120364073990638
3.07,-0.26888097252298,-0.109743543118015
3.08,-0.272067637309056,-0.0988258215145896
3.09,-0.274910354572586,-0.0875784331625494
3.1,-0.277337078812546,-0.0759828702794
3.11,-0.279267163517972,-0.0640376754200422
3.12,-0.280615379481687,-0.0517608359721656
3.13,-0.281296642121593,-0.0391912231648041
3.14,-0.281231211425693,-0.0263888397094813
3.15,-0.280350039929871,-0.0134337095981581
3.16,-0.2785998885221,-0.000423337695701074
3.17,-0.275947797628453,0.0125312144049244
3.18,-0.272384514115458,0.0253104636053755
3.19,-0.26792652480811,0.0377925551307189
3.2,-0.262616439478711,0.0498598263332933
3.21,-0.25652158888707,0.0614054091667837
3.22,-0.249730849040655,0.0723393616821799
3.23,-0.242349853723152,0.0825938323106501
3.24,-0.234494901310833,0.0921268195516301
3.25,-0.226285983828673,0.100924190872912
3.26,-0.217839449034598,0.108999761203208
3.27,-0.209260851086354,0.116393384851631
3.28,-0.200638533970964,0.123167178993755
3.29,-0.192038439874921,0.129400145238209
3.3,-0.183500535567788,0.135181586156078
3.31,-0.175037120981996,0.14060380450659
3.32,-0.166633135906278,0.145754623219352
3.33,-0.158248426009,0.150710268448947
3.34,-0.149821784940034,0.155529118068426
3.35,-0.141276464534888,0.160246740893219
3.36,-0.132526749700098,0.164872546376373
3.37,-0.123485138243302,0.169388240275097
3.38,-0.114069640033621,0.173748152537335
3.39,-0.104210727311697,0.177881379614556
3.4,-0.093857507915948,0.181695570910673
3.41,-0.0829827611397757,0.185082098669292
3.42,-0.071586558257111,0.187922282884488
3.43,-0.0596982788843211,0.190094297137156
3.44,-0.0473769262565597,0.191480361686224
3.45,-0.0347097342771391,0.191973826902358
3.46,-0.0218091416364894,0.191485765698748
3.47,-0.00880828373803483,0.189950721108807
3.48,0.00414477843017029,0.187331295158581
3.49,0.0168938124781763,0.183621313840095
3.5,0.0292818193171349,0.178847362745166
3.51,0.0411587131864697,0.173068556780218
3.52,0.0523888670691147,0.166374488072543
3.53,0.0628580975652621,0.158881384986326
3.54,0.0724796638069224,0.150726615581556
3.55,0.0811988765999341,0.142061769839955
3.56,0.0889959670445123,0.133044659201917
3.57,0.0958869384399363,0.123830664486951
3.58,0.101922234328015,0.114563940920823
3.59,0.107183182614427,0.105369039431796
3.6,0.111776323459997,0.09634352025361
3.61,0.115825883976808,0.0875521109907083
3.62,0.119464812362262,0.0790228945710882
3.63,0.122824917054992,0.0707458999570439
3.64,0.126026760499233,0.0626743224867577
3.65,0.129170015622284,0.0547284180542261
3.66,0.132325005088743,0.0468019235725001
3.67,0.135526095146477,0.0387706538086951
3.68,0.13876751416869,0.0305027451964222
3.69,0.14200201262061,0.0218698614952624
3.7,0.14514258491151,0.0127585713789404
3.71,0.148067250519901,0.00308105656759839
3.72,0.150626658363972,-0.0072156746038425
3.73,0.152654052521602,-0.0181428154524908
3.74,0.153976938973368,-0.0296656327202874
3.75,0.154429639539025,-0.0417025901360835
3.76,0.153865823516954,-0.0541278960954477
3.77,0.152170081031407,-0.0667773924627725
3.78,0.149267646502415,-0.0794574442420425
3.79,0.145131499286478,-0.091956251731991
3.8,0.139786244926579,-0.104056810004719
3.81,0.133308412776752,-0.115550594832983
3.82,0.125823068171153,-0.126250981718757
3.83,0.117496911546707,-0.136005403350097
3.84,0.108528307428202,-0.144705328199991
3.85,0.099134920455595,-0.152293290858527
3.86,0.0895398282589218,-0.158766413210339
3.87,0.079957104990526,-0.164176110937497
3.88,0.070577922068361,-0.168623958567344
3.89,0.0615581853066352,-0.172253973702157
3.9,0.0530086256612531,-0.175241847008637
3.91,0.0449880851503675,-0.177781877515345
3.92,0.0375005116402149,-0.180072547489886
3.93,0.0304959049906048,-0.182301778627242
3.94,0.0238751667913979,-0.184632940369507
3.95,0.0174985219809441,-0.187192633883875
3.96,0.011196911568602,-0.19006114752605
3.97,0.0047855397842768,-0.193266288903469
3.98,-0.0019214044042986,-0.196781053085624
3.99,-0.0090959196020737,-0.200525307858413
4,-0.0168823380075912,-0.204371382407424
4.01,-0.0253854537652862,-0.208153160550135
4.02,-0.0346615022848333,-0.211678023876089
4.03,-0.0447126493651441,-0.214740779295706
4.04,-0.0554853947517381,-0.217138561185843
4.05,-0.0668730083091447,-0.218685626090141
4.06,-0.0787218227051205,-0.219226965605704
4.07,-0.0908409247322453,-0.21864975095099
4.08,-0.10301453966179,-0.216891780684306
4.09,-0.115016207485384,-0.213946324952338
4.1,-0.126623720461942,-0.209863022491563
4.11,-0.137633738814031,-0.204744778778497
4.12,-0.147875029434232,-0.198740904271856
4.13,-0.157219376430821,-0.192037006250475
4.14,-0.165589390170256,-0.184842385017451
4.15,-0.17296266999763,-0.177375860075459
4.16,-0.179372051348856,-0.169851063012728
4.17,-0.184901952801166,-0.162462262996299
4.18,-0.189681128294341,-0.155371742950165
4.19,-0.193872387526497,-0.148699619514953
4.2,-0.197660065466532,-0.142516809491941
4.21,-0.201236174969943,-0.136841607231096
4.22,-0.2047862627476,-0.131640063847195
4.23,-0.208475990485753,-0.126830079258256
4.24,-0.212439396807778,-0.122288846179945
4.25,-0.216769651551616,-0.117863045703283
4.26,-0.221512916120649,-0.113381007144911
4.27,-0.2266656843369,-0.108665915540817
4.28,-0.232175713658717,-0.103549097137107
4.29,-0.237946392570289,-0.0978824302138088
4.3,-0.243844145763851,-0.0915490187172786
4.31,-0.249708266370493,-0.0844714160782507
4.32,-0.255362410017166,-0.0766168855016464
4.33,-0.260626888860009,-0.0679994136778066
4.34,-0.265330873801135,-0.0586784384059282
4.35,-0.269323654757298,-0.0487544856233622
4.36,-0.272484204219318,-0.0383621280639099
4.37,-0.274728442492442,-0.0276608485098501
4.38,-0.276013788777107,-0.0168245176049457
4.39,-0.276340792578086,-0.00603026072531004
4.4,-0.275751851523221,0.00455250293641559
4.41,-0.274327225674967,0.0147721139843174
4.42,-0.272178733698696,0.0245031850000639
4.43,-0.269441654950197,0.0336530734112049
4.44,-0.266265455884324,0.0421659820919714
4.45,-0.262804003597947,0.0500245331662453
4.46,-0.259205926190492,0.0572488386752999
4.47,-0.255605730551823,0.0638932504696061
4.48,-0.252116201802783,0.0700411185012374
4.49,-0.248822494581598,0.0757979863128936
4.5,-0.245778191997074,0.0812837300799654
4.51,-0.243003467923838,0.0866241758102946
4.52,-0.240485352612442,0.0919427287401513
4.53,-0.238179971643603,0.097352509331972
4.54,-0.236016525567685,0.102949430012196
4.55,-0.233902690102974,0.108806560537246
4.56,-0.231731060220684,0.114970035893721
4.57,-0.229386229698807,0.121456658644299
4.58,-0.226752089064487,0.128253247936638
4.59,-0.223718941170235,0.135317693417739
4.6,-0.220190064876013,0.142581589553082
4.61,-0.216087405636138,0.149954255044184
4.62,-0.211356128016347,0.157327884782132
4.63,-0.205967830753347,0.164583541724294
4.64,-0.199922291220775,0.171597665728891
4.65,-0.19324767837425,0.178248763307072
4.66,-0.185999240739391,0.184423939852993
4.67,-0.178256545595481,0.190024945669516
4.68,-0.170119411569146,0.194973429746356
4.69,-0.161702735925494,0.199215128524502
4.7,-0.153130476932879,0.202722762425928
4.71,-0.144529094722215,0.205497469864703
4.72,-0.136020794619316,0.20756867675139
4.73,-0.127716935786489,0.208992374503581
4.74,-0.119711977378971,0.209847865683826
4.75,-0.112078318804112,0.210233121244896
4.76,-0.104862357264161,0.210258979257616
4.77,-0.098082030328165,0.210042493713667
4.78,-0.0917260346872743,0.209699806852502
4.79,-0.0857548183188541,0.209338966625433
4.8,-0.0801033373317806,0.209053131578791
4.81,-0.0746854537357258,0.208914603430313
4.82,-0.0693997410375961,0.208970090066673
4.83,-0.0641363585038912,0.209237537947446
4.84,-0.058784573076502,0.209704780731734
4.85,-0.0532404475815128,0.210330134679262
4.86,-0.0474141870699467,0.211044944992519
4.87,-0.0412366444167313,0.211757948314198
4.88,-0.0346645309862678,0.21236118996436
4.89,-0.0276839596549673,0.212737116137948
4.9,-0.0203120587995187,0.212766373822094
4.91,-0.0125965266321137,0.212335790130477
4.92,-0.00461314222008918,0.211345987495202
4.93,0.00353860407883404,0.209718108193092
4.94,0.0117414653621999,0.207399186894179
4.95,0.0198675650930338,0.20436580300296
4.96,0.0277862040963504,0.200625770630523
4.97,0.0353718078537111,0.1962177641073
4.98,0.0425114701151774,0.191208927341023
4.99,0.0491115869186111,0.185690655075745
5,0.0551031463430763,0.179772862206564
5.01,0.0604453456611256,0.173577155871488
5.02,0.0651273314702492,0.167229390146732
5.03,0.0691679950275615,0.160852112563516
5.04,0.0726138919665868,0.154557400804456
5.05,0.0755354781778041,0.148440542904766
5.06,0.0780219605891973,0.142574938718813
5.07,0.0801751377523255,0.137008500969588
5.08,0.0821026524575812,0.131761726319548
5.09,0.0839110954001608,0.126827486869164
5.1,0.0856993799393369,0.122172487223253
5.11,0.0875527705858376,0.117740230186681
5.12,0.0895378828640984,0.113455258289396
5.13,0.0916988982392128,0.109228377121578
5.14,0.094055155557747,0.104962533785659
5.15,0.096600196265798,0.100559006816177
5.16,0.099302263762945,0.0959235723375646
5.17,0.102106185532497,0.0909723280885126
5.18,0.104936508788489,0.0856368927743646
5.19,0.107701708403571,0.0798687345695036
5.2,0.110299248669152,0.073642430766349
5.21,0.112621250136026,0.0669577056577731
5.22,0.11456048886158,0.059840146952747
5.23,0.116016442067296,0.0523405504227923
5.24,0.116901085128821,0.0445328996357224
5.25,0.11714414379915,0.0365110440618214
5.26,0.116697515160025,0.0283842014699767
5.27,0.115538593234125,0.0202714707675171
5.28,0.113672268160664,0.0122956070008637
5.29,0.111131421573765,0.00457636534505482
5.3,0.107975809234442,-0.00277622651269521
5.31,0.104289305309084,-0.00966827642299515
5.32,0.100175582536184,-0.016027709180659
5.33,0.0957524047643516,-0.0218088257579196
5.34,0.0911448169060139,-0.0269953844651209
5.35,0.0864776126579207,-0.031601920903281
5.36,0.0818675413158939,-0.0356731200139083
5.37,0.0774157666418632,-0.039281179493292
5.38,0.0732011095120073,-0.0425212431143453
5.39,0.0692745850643533,-0.0455051287972201
5.4,0.0656556779805779,-0.0483537158806126
5.41,0.0623306989220776,-0.0511884790602833
5.42,0.0592534224805835,-0.0541227453975041
5.43,0.0563480445794669,-0.0572533008195216
5.44,0.0535143204657287,-0.060652973745004
5.45,0.0506345701298058,-0.0643647726511007
5.46,0.0475820813759495,-0.0683980535361382
5.47,0.0442303176559862,-0.0727270520870378
5.48,0.0404622597607013,-0.0772919360564153
5.49,0.0361791819187923,-0.082002342394194
5.5,0.0313081979187285,-0.0867431662003634
5.51,0.0258079979786361,-0.0913821874092024
5.52,0.0196723341394169,-0.0957789755253353
5.53,0.0129309870824514,-0.0997944050224206
5.54,0.0056481449977919,-0.103300068468188
5.55,-0.0020816730685336,-0.106186882273504
5.56,-0.0101398230297659,-0.108372249802704
5.57,-0.0183913832640719,-0.109805264883687
5.58,-0.0266940358810567,-0.110469601382794
5.59,-0.034907304412783,-0.110383920240393
5.6,-0.0429014609185189,-0.109599822201155
5.61,-0.050565460105678,-0.108197561763511
5.62,-0.057813353805989,-0.106279903823673
5.63,-0.0645887757956921,-0.103964629389017
5.64,-0.0708672502139325,-0.101376278946851
5.65,-0.0766562517570255,-0.098637750282904
5.66,-0.0819931154207086,-0.095862347073726
5.67,-0.0869410474696741,-0.0931468058747732
5.68,-0.0915836098082056,-0.0905657283164889
5.69,-0.096018135472605,-0.0881677126817452
5.7,-0.100348573794916,-0.0859733413315884
5.71,-0.104678265559163,-0.0839750386379715
5.72,-0.109103111214156,-0.0821386866428949
5.73,-0.113705528974424,-0.0804067812415627
5.74,-0.118549513351483,-0.0787028309039816
5.75,-0.123677004360747,-0.0769366558267236
5.76,-0.129105682028192,-0.0750102222988252
5.77,-0.134828206161247,-0.0728236594798851
5.78,-0.140812843371731,-0.0702811299650727
5.79,-0.147005360642159,-0.0672962683758013
5.8,-0.153332018727182,-0.0637969534233035
5.81,-0.159703468183991,-0.0597292266609727
5.82,-0.166019335482489,-0.0550602229444111
5.83,-0.172173275892084,-0.0497800192384533
5.84,-0.178058268865807,-0.0439023497208894
5.85,-0.183571930532971,-0.0374641694648569
5.86,-0.188621618795432,-0.0305240829928214
5.87,-0.193129107249233,-0.0231596909137035
5.88,-0.19703460947552,-0.0154639450138645
5.89,-0.200299944147626,-0.00754064559166444
5.9,-0.20291064945151,0.00050073794673422
5.91,-0.20487688836377,0.00855069476615668
5.92,-0.206233028252071,0.0165054741693048
5.93,-0.207035843635859,0.0242727502863465
5.94,-0.207361362008704,0.0317768153395696
5.95,-0.207300461049943,0.038962963524126
5.96,-0.206953415521368,0.0458007478298524
5.97,-0.206423677360009,0.052285840296597
5.98,-0.205811252797549,0.058440297865404
5.99,-0.205206091479528,0.0643111349352466
6,-0.204681934458719,0.0699672151486195
6.01,-0.204291061769168,0.0754946004212525
6.02,-0.204060340213492,0.0809906140796547
6.03,-0.20398889609638,0.0865569848478766
6.04,-0.204047632189766,0.0922925232559205
6.05,-0.204180678131812,0.098285836073463
6.06,-0.20430872137284,0.104608597908464
6.07,-0.204334021880413,0.111309872878521
6.08,-0.204146783276135,0.118411912844021
6.09,-0.203632442967486,0.125907752397429
6.1,-0.202679369491998,0.133760793266762
6.11,-0.201186420006203,0.141906419805428
6.12,-0.199069819062141,0.150255536564832
6.13,-0.196268871351014,0.158699775394442
6.14,-0.192750109334256,0.167117995970263
6.15,-0.188509598118546,0.175383612314962
6.16,-0.183573258212837,0.183372223928287
6.17,-0.177995213226645,0.190969017467359
6.18,-0.171854314466064,0.198075433874308
6.19,-0.165249117944872,0.204614662280063
6.2,-0.158291693720129,0.210535618372737
6.21,-0.151100711840904,0.215815184216359
6.22,-0.143794286570396,0.220458613158809
6.23,-0.136483052665061,0.224498135086999
6.24,-0.129263912913579,0.227989915065045
6.25,-0.122214829276957,0.231009618555029
6.26,-0.115390943121134,0.233646916356093
6.27,-0.108822212541034,0.235999307849826
6.28,-0.102512646940882,0.238165665565033
6.29,-0.096441121774155,0.240239895867394
6.3,-0.0905636618126971,0.242305081230978
6.31,-0.0848170051984476,0.244428421893387
6.32,-0.0791232005475171,0.246657230504458
6.33,-0.0733949464747287,0.249016165585578
6.34,-0.0675413604119845,0.251505812525216
6.35,-0.0614738569812922,0.254102650312275
6.36,-0.0551118236166771,0.256760371584381
6.37,-0.0483878026998351,0.259412459753536
6.38,-0.0412519212145802,0.261975873340383
6.39,-0.0336753472824905,0.264355635610574
6.4,-0.0256526020606173,0.266450093679808
6.41,-0.0172026062066239,0.268156575923602
6.42,-0.00836840025772512,0.269377160171351
6.43,0.00078446270793139,0.27002425357385
6.44,0.0101707875610284,0.270025687663421
6.45,0.019689742891419,0.269329047891475
6.46,0.0292298114327782,0.267904985955861
6.47,0.0386744375372335,0.265749306087213
6.48,0.0479080765846185,0.262883675723816
6.49,0.0568223136125643,0.259354878978375
6.5,0.0653217031861916,0.25523261115966
6.51,0.073328978498812,0.250605899439601
6.52,0.0807893037075068,0.245578316541863
6.53,0.0876732834081076,0.240262239434914
6.54,0.0939785099609638,0.234772471043572
6.55,0.0997295112575752,0.229219597063363
6.56,0.104976055369286,0.22370348118373
6.57,0.10978987399665,0.218307308176142
6.58,0.114259968352718,0.213092561555319
6.59,0.118486758593156,0.208095277237863
6.6,0.122575419523966,0.203323839885223
6.61,0.1266288088875,0.198758497330324
6.62,0.130740430503518,0.194352659983042
6.63,0.134987881704682,0.19003593884506
6.64,0.139427215001459,0.185718761499933
6.65,0.144088590064033,0.181298298425398
6.66,0.148973518409026,0.176665345091718
6.67,0.154053902607209,0.171711734701333
6.68,0.159272962113157,0.166337817317698
6.69,0.16454801536459,0.160459529336235
6.7,0.169774971602352,0.154014596612898
6.71,0.174834272163752,0.146967463436952
6.72,0.179597927630183,0.139312615426328
6.73,0.183937220599664,0.131076059510716
6.74,0.187730599067863,0.122314840415439
6.75,0.190871262343768,0.113114591342875
6.76,0.193273957076211,0.103585242705029
6.77,0.19488053994699,0.093855129039759
6.78,0.195663935243564,0.0840638390623455
6.79,0.195630208207348,0.0743542396924861
6.8,0.1948185892197,0.0648641637456921
6.81,0.193299409605925,0.055718283590788
6.82,0.191170039705168,0.0470206916367509
6.83,0.188549051558178,0.038848675960552
6.84,0.185568943947006,0.0312481141936133
6.85,0.182367870331194,0.0242308156030552
6.86,0.179080885557566,0.0177740243647471
6.87,0.175831270694946,0.0118221610001301
6.88,0.17272250748924,0.0062907350812068
6.89,0.169831443757544,0.00107221768432082
6.9,0.167203128923131,-0.00395647545406074
6.91,0.16484769887807,-0.0089253546248583
6.92,0.162739560808077,-0.0139621360547146
6.93,0.160818980414282,-0.0191830416838521
6.94,0.158996010371214,-0.0246842424154437
6.95,0.157156537307357,-0.0305345401621334
6.96,0.155170071596814,-0.03676981405295
6.97,0.152898774962398,-0.0433896404373889
6.98,0.150207121725463,-0.0503563583995311
6.99,0.146971535472617,-0.0575966806291553
7,0.143089330095038,-0.0650057735161193
7.01,0.138486324798117,-0.0724535529465681
7.02,0.133122586638808,-0.0797927804425922
7.03,0.126995882694947,-0.0868684106660236
7.04,0.120142582209248,-0.0935275457430469
7.05,0.112635932526427,-0.0996293035466514
7.06,0.104581818013333,-0.105053907748557
7.07,0.0961122949658463,-0.109710363648959
7.08,0.0873773554203986,-0.113542182661778
7.09,0.0785354976005835,-0.116530759496449
7.1,0.0697437669493742,-0.118696178044044
7.11,0.061147963381643,-0.120095405443828
7.12,0.052873692383611,-0.12081802165998
7.13,0.0450188717273947,-0.120979806908439
7.14,0.0376481904045759,-0.12071465481475
7.15,0.0307898732721516,-0.120165391537818
7.16,0.0244349343651825,-0.119474145940019
7.17,0.0185389245689437,-0.118772933766198
7.18,0.0130260057209038,-0.118175088984997
7.19,0.0077950290523883,-0.11776809908462
7.2,0.00272716501467303,-0.117608290254744
7.21,-0.00230545692656154,-0.117717671576511
7.22,-0.0074306910126631,-0.118083089511007
7.23,-0.012767501897716,-0.118657689509541
7.24,-0.0184178414273991,-0.119364527828471
7.25,-0.0244597753872475,-0.120102046596251
7.26,-0.0309422590344865,-0.12075101413052
7.27,-0.0378818449343199,-0.121182458427637
7.28,-0.0452614755315305,-0.121266076677298
7.29,-0.053031378939145,-0.120878593473168
7.3,-0.0611119641594021,-0.119911563751998
7.31,-0.0693984932853269,-0.118278166649442
7.32,-0.0777672173842434,-0.115918608182462
7.33,-0.0860825842631895,-0.112803842916984
7.34,-0.0942050802419849,-0.108937427130597
7.35,-0.101999241018804,-0.104355423340448
7.36,-0.109341367198396,-0.0991243862195664
7.37,-0.116126502835145,-0.0933375633944487
7.38,-0.122274279524023,-0.0871095426373068
7.39,-0.127733294823343,-0.0805696581489059
7.4,-0.132483771213211,-0.0738545394911204
7.41,-0.136538338881743,-0.0671002339985885
7.42,-0.139940888158038,-0.0604343616454812
7.43,-0.142763544946603,-0.0539687653882253
7.44,-0.145101933928405,-0.0477930997364778
7.45,-0.147068995621268,-0.0419697517358159
7.46,-0.148787716024218,-0.0365304210188659
7.47,-0.150383201999904,-0.0314745892383728
7.48,-0.151974585810077,-0.0267700005406793
7.49,-0.15366726564481,-0.0223551523843895
7.5,-0.155545979631545,-0.0181436639124178
7.51,-0.15766916906694,-0.0140302705595762
7.52,-0.160065013720026,-0.00989807612254424
7.53,-0.162729418060748,-0.00562660431212368
7.54,-0.165626103275046,-0.00110012939321513
7.55,-0.168688819694439,0.0037842648526112
7.56,-0.171825549903887,0.0091094361291906
7.57,-0.174924433386356,0.0149322364603447
7.58,-0.17786102295816,0.0212792727100046
7.59,-0.18050638712394,0.0281446649404475
7.6,-0.182735510243123,0.0354899554215267
7.61,-0.184435423022552,0.043246170371536
7.62,-0.185512514488573,0.0513178860997934
7.63,-0.185898535482328,0.0595890114837875
7.64,-0.185554902888671,0.0679298817262477
7.65,-0.184475033187487,0.0762051709575533
7.66,-0.182684577806065,0.0842820827932372
