"Freq [GHz]","re(S(Antenna1_1_1,Antenna1_1_1)) []","im(S(Antenna1_1_1,Antenna1_1_1)) []"
3,-0.242914249675963,-0.185520468864729
3.01,-0.248768362344718,-0.174877902170417
3.02,-0.254179628646438,-0.163988511978262
3.03,-0.259127095766986,-0.152857940494912
3.04,-0.26358542277601,-0.141496152698912
3.05,-0.26752634546049,-0.129919367520298
3.06,-0.270920905504241,-0.118151352774038
3.07,-0.27374213496388,-0.106223791001715
3.08,-0.275967781461056,-0.0941755778113896
3.09,-0.277582630978586,-0.0820511020873394
3.1,-0.278580039995246,-0.0698977424138
3.11,-0.278962419677972,-0.0577629586847422
3.12,-0.278740595755687,-0.0456914334359656
3.13,-0.277932165534793,-0.0337227081311041
3.14,-0.276559147053893,-0.0218896657154813
3.15,-0.274645332799051,-0.0102180522331581
3.16,-0.2722137963773,0.00127296333989893
3.17,-0.269284949906153,0.0125693797444244
3.18,-0.265875422852258,0.0236604394930755
3.19,-0.26199785699131,0.0345365990402189
3.2,-0.257661523375411,0.0451877902714933
3.21,-0.25287350607877,0.0556022765092037
3.22,-0.247640097085355,0.0657662518059799
3.23,-0.241968027946852,0.0756641503694501
3.24,-0.235865230104733,0.0852794643781301
3.25,-0.229340952077573,0.0945957501073123
3.26,-0.222405237215398,0.103597459852208
3.27,-0.215067941940054,0.112270282869631
3.28,-0.207337610268854,0.120600800412755
3.29,-0.199220585733221,0.128575435328809
3.3,-0.190720717614588,0.136178864549978
3.31,-0.181839909173696,0.14339222327939
3.32,-0.172579579977278,0.150191524788552
3.33,-0.162942910295,0.156546725782747
3.34,-0.152937544151034,0.162421779133026
3.35,-0.142578292075588,0.167775847643819
3.36,-0.131889324986098,0.172565635978973
3.37,-0.120905401298902,0.176748576939597
3.38,-0.109671813918921,0.180286426018335
3.39,-0.0982429559593972,0.183148714576556
3.4,-0.086679644192448,0.185315508233673
3.41,-0.0750455605631757,0.186779017063192
3.42,-0.063403331444311,0.187543789976988
3.43,-0.0518108309913211,0.187625462168156
3.44,-0.0403182551765597,0.187048266985924
3.45,-0.0289663760081391,0.185841726375778
3.46,-0.0177861770064894,0.184037058467248
3.47,-0.00679983269813483,0.181663866406407
3.48,0.00397722822007029,0.178747595434881
3.49,0.0145336028568763,0.175308084889095
3.5,0.0248590443074349,0.171359330562166
3.51,0.0349419320989477,0.166910353584218
3.52,0.0447674671838147,0.161966887555243
3.53,0.0543168061665621,0.156533478028026
3.54,0.0635671530818224,0.150615557835356
3.55,0.0724926443874341,0.144221117832055
3.56,0.0810657288303123,0.137361717691017
3.57,0.0892586820929363,0.130052746665951
3.58,0.0970449138379154,0.122313011587053
3.59,0.104399812406727,0.114163865479996
3.6,0.111301006360597,0.10562816800601
3.61,0.117728070376508,0.0967293768411083
3.62,0.123661833544062,0.0874910101975882
3.63,0.129083532900692,0.0779366129305439
3.64,0.133974080154533,0.0680902280600577
3.65,0.138313672051204,0.0579772532687261
3.66,0.142081888555143,0.0476254731580101
3.67,0.145258308796677,0.0370660214669951
3.68,0.14782356105979,0.0263340463873222
3.69,0.14976063373481,0.0154689196660624
3.7,0.15105622873151,0.00451392726324044
3.71,0.151701942901901,-0.00648451761246161
3.72,0.151695113088402,-0.0174780134568425
3.73,0.151039239892702,-0.0284174867744908
3.74,0.149743994067268,-0.0392545067622874
3.75,0.147824883975925,-0.0499424565114835
3.76,0.145302706290854,-0.0604374843054477
3.77,0.142202905255207,-0.0706992331077725
3.78,0.138554930625715,-0.0806914075734125
3.79,0.134391623128478,-0.090382269767991
3.8,0.129748587607679,-0.0997451458207187
3.81,0.124663460450752,-0.108758979686783
3.82,0.119174957235153,-0.117408896818757
3.83,0.113321609946707,-0.125686661516197
3.84,0.107140169818862,-0.133590849775991
3.85,0.100663750480595,-0.141126535691027
3.86,0.0939198944799218,-0.148304318191039
3.87,0.086928838748326,-0.155138597468497
3.88,0.079702305167961,-0.161645137240344
3.89,0.0722431321453352,-0.167838096891157
3.9,0.0645459850716531,-0.173726858905837
3.91,0.0565992436806675,-0.179313078620345
3.92,0.0483879834402149,-0.184588421824886
3.93,0.0398977762606048,-0.189533413837942
3.94,0.0311188690593979,-0.194117701776207
3.95,0.0220501891879441,-0.198301845251384
3.96,0.012702599531602,-0.20204052587905
3.97,0.0031008925632768,-0.205286842915069
3.98,-0.0067158331142986,-0.207997177277624
3.99,-0.0166955508931737,-0.210135994270413
4,-0.0267763250827912,-0.211679938006424
4.01,-0.0368906160961862,-0.212620654266135
4.02,-0.0469703263027333,-0.212965950081689
4.03,-0.0569519313031441,-0.212739133603706
4.04,-0.0667810321467381,-0.211976635642843
4.05,-0.0764157554451447,-0.210724255680541
4.06,-0.0858286047481205,-0.209032559702938
4.07,-0.0950065986512453,-0.20695205699059
4.08,-0.10394977846569,-0.204528785311106
4.09,-0.112668393046384,-0.201800840223338
4.1,-0.121179233528542,-0.198796215401563
4.11,-0.129501674387331,-0.195532106631497
4.12,-0.137653969681812,-0.192015609971856
4.13,-0.145650262329121,-0.188245551200475
4.14,-0.153498610374356,-0.184215047326951
4.15,-0.16120014731823,-0.179914341239159
4.16,-0.168749307587856,-0.175333468638228
4.17,-0.176134893911166,-0.170464404708799
4.18,-0.183341663568341,-0.165302472682693
4.19,-0.190352077063497,-0.159846952103953
4.2,-0.197147884315932,-0.154100970262341
4.21,-0.203711308114943,-0.148070873260096
4.22,-0.2100257009293,-0.141765335316295
4.23,-0.216075675475653,-0.135194472247356
4.24,-0.221846817637378,-0.128369180534945
4.25,-0.227325164601086,-0.121300842438283
4.26,-0.232496661368249,-0.114001437916211
4.27,-0.2373467933897,-0.106484007038617
4.28,-0.241860540656917,-0.0987633296842069
4.29,-0.246022721590389,-0.0908566451744088
4.3,-0.249818711070851,-0.0827842274924786
4.31,-0.253235441766493,-0.0745696602865507
4.32,-0.256262544020666,-0.0662397102632464
4.33,-0.258893454682009,-0.0578237659134066
4.34,-0.261126330281735,-0.0493528777646282
4.35,-0.262964629744398,-0.0408584934281622
4.36,-0.264417279692318,-0.0323710198409099
4.37,-0.265498389083442,-0.0239183608818501
4.38,-0.266226532047417,-0.0155245741384457
4.39,-0.266623659681686,-0.00720876955431004
4.4,-0.266713730726721,0.00101565718841559
4.41,-0.266521166807267,0.00914139710621741
4.42,-0.266069242501696,0.0171671776050639
4.43,-0.265378518882197,0.0250972871798049
4.44,-0.264465423983524,0.0329406949332914
4.45,-0.263341078118947,0.0407098042417453
4.46,-0.262010455426492,0.0484188997076999
4.47,-0.260471965102523,0.0560823687756061
4.48,-0.258717520472883,0.0637128043772374
4.49,-0.256733141078398,0.0713191204818936
4.5,-0.254500096835914,0.0789048338023654
4.51,-0.251996557037338,0.0864666764262946
4.52,-0.249199651197342,0.0939936995341513
4.53,-0.246087793308603,0.101467002684972
4.54,-0.242643070858685,0.108860175855796
4.55,-0.238853468386974,0.116140473661746
4.56,-0.234714687689684,0.123270661298321
4.57,-0.230231350032207,0.130211388566499
4.58,-0.225417419633487,0.136923875502638
4.59,-0.220295768053235,0.143372641477739
4.6,-0.214896896313013,0.149527990270082
4.61,-0.209256932142638,0.155367980830184
4.62,-0.203415109924947,0.160879667569132
4.63,-0.197411005464247,0.166059478823394
4.64,-0.191281827868375,0.170912705653891
4.65,-0.18506006006625,0.175452181784672
4.66,-0.178771689770391,0.179696331278893
4.67,-0.172435191159481,0.183666831882216
4.68,-0.166061316557146,0.187386176331556
4.69,-0.159653652827994,0.190875408118602
4.7,-0.153209804193879,0.194152264693028
4.71,-0.146722996609915,0.197229886613703
4.72,-0.140183865878116,0.20011616049439
4.73,-0.133582198028289,0.202813670305581
4.74,-0.126908429603981,0.205320152061826
4.75,-0.120154781851712,0.207629291753896
4.76,-0.113315980795861,0.209731684518116
4.77,-0.106389591876765,0.211615784260167
4.78,-0.0993760594122743,0.213268713799802
4.79,-0.0922785774218541,0.214676865392233
4.8,-0.0851029244947806,0.215826288792361
4.81,-0.0778573720427258,0.216702923795913
4.82,-0.0705527284006261,0.217292776674473
4.83,-0.0632025219455912,0.217582155372846
4.84,-0.055823266175702,0.217558065464734
4.85,-0.0484347022753128,0.217208829934262
4.86,-0.0410598886937467,0.216524938214519
4.87,-0.0337250103100313,0.215500065903198
4.88,-0.0264588102940678,0.21413214742746
4.89,-0.0192916035852673,0.212424342759948
4.9,-0.0122539000515187,0.210385723883194
4.91,-0.00537473911511369,0.208031521782077
4.92,0.00132010045491082,0.205382819331302
4.93,0.00780980961883404,0.202465643692372
4.94,0.0140799593611999,0.199309492333979
4.95,0.0201234145567338,0.19594540926836
4.96,0.0259406047501504,0.192403796874523
4.97,0.0315390796865111,0.1887121952043
4.98,0.0369323652055774,0.184893275592023
4.99,0.0421382222597111,0.180963277086745
5,0.0471764874956763,0.176931064746564
5.01,0.0520667252222256,0.172797914987588
5.02,0.0568259419162492,0.168558046604532
5.03,0.0614666026995615,0.164199828095616
5.04,0.0659951470665868,0.159707515522656
5.05,0.0704111356038041,0.155063320563966
5.06,0.0747070804431973,0.150249581688913
5.07,0.0788689315908255,0.145250815367088
5.08,0.0828771207213812,0.140055455772548
5.09,0.0867080111330608,0.134657144284164
5.1,0.0903355759690369,0.129055495223253
5.11,0.0937331242067976,0.123256330616681
5.12,0.0968749164186984,0.117271434967396
5.13,0.0997375505887128,0.111117923522278
5.14,0.102301046333647,0.104817339664859
5.15,0.104549603307798,0.0983945993239767
5.16,0.106472049457945,0.0918768844295646
5.17,0.108062020827497,0.0852925613815426
5.18,0.109317925424489,0.0786701692736646
5.19,0.110242739648571,0.0720374962225036
5.2,0.110843671868152,0.065420743262049
5.21,0.111131708985626,0.0588437694527731
5.22,0.11112104624268,0.052327417356747
5.23,0.110828391683206,0.0458889323077923
5.24,0.110272139805721,0.0395415061907224
5.25,0.10947142292295,0.0332939911668214
5.26,0.108445071704425,0.0271508343809767
5.27,0.107210542053125,0.0211122777234171
5.28,0.105782888881664,0.0151748470109637
5.29,0.104173880017765,0.00933212360235482
5.3,0.102391342710442,0.00357575478670479
5.31,0.100438817651084,-0.00210337580019515
5.32,0.0983155632504842,-0.00771392315445895
5.33,0.0960169117301516,-0.0132629179858196
5.34,0.0935349343251139,-0.0187547761821209
5.35,0.0908593350777207,-0.024190565935281
5.36,0.0879784687958619,-0.0295675800089083
5.37,0.0848803727038632,-0.034879215352292
5.38,0.0815537155587073,-0.0401151203653453
5.39,0.0779885984431533,-0.0452615390437201
5.4,0.0741771825005779,-0.0503017677864126
5.41,0.0701141592300776,-0.0552166482179833
5.42,0.0657971112835835,-0.0599850451377041
5.43,0.0612268258314669,-0.0645842973192216
5.44,0.0564076150087287,-0.068990669741004
5.45,0.0513476691403058,-0.0731798687024007
5.46,0.0460594243866495,-0.0771276955381382
5.47,0.0405598762406862,-0.0808109039870378
5.48,0.0348707284977013,-0.0842082900264153
5.49,0.0290182445014923,-0.087301984487194
5.5,0.0230326741319285,-0.0900788506833634
5.51,0.0169471703524361,-0.0925318240971024
5.52,0.0107961791934169,-0.0946609849998353
5.53,0.00461337870745144,-0.0964741423186206
5.54,-0.0015706617422081,-0.0979867341460883
5.55,-0.0077308472175336,-0.0992209202774035
5.56,-0.0138496422117659,-0.100203846083704
5.57,-0.0199185625161719,-0.100965180872187
5.58,-0.0259388076285567,-0.101534156237794
5.59,-0.031920861724683,-0.101936430562393
5.6,-0.0378830238096189,-0.102191162610155
5.61,-0.043848976644078,-0.102308679270511
5.62,-0.049844647912389,-0.102289063497673
5.63,-0.0558947281296921,-0.102121876353517
5.64,-0.0620192714269325,-0.101787076579351
5.65,-0.0682308023790255,-0.101257036967704
5.66,-0.0745322860397086,-0.100499404523326
5.67,-0.0809161965876741,-0.0994804370103732
5.68,-0.0873647648932056,-0.0981683900123889
5.69,-0.093851319360605,-0.0965365364617452
5.7,-0.100342488018616,-0.0945654712385884
5.71,-0.106800924436563,-0.0922444746269715
5.72,-0.113188172929796,-0.0895718578618949
5.73,-0.119467304797024,-0.0865543650235627
5.74,-0.125605030384683,-0.0832058333879816
5.75,-0.131573106803547,-0.0795453968607236
5.76,-0.137348992816192,-0.0755955449244252
5.77,-0.142915828444247,-0.0713803194141851
5.78,-0.148261912224731,-0.0669238566044727
5.79,-0.153379899846159,-0.0622493779193013
5.8,-0.158265947914182,-0.0573786240093035
5.81,-0.162918980353991,-0.0523316355725727
5.82,-0.167340176610989,-0.0471267270687111
5.83,-0.171532689991384,-0.0417804872864533
5.84,-0.175501522510607,-0.0363076706368894
5.85,-0.179253427449321,-0.0307209075468569
5.86,-0.182796694295732,-0.0250302427378214
5.87,-0.186140695640933,-0.0192425875717035
5.88,-0.18929513412962,-0.0133612283236645
5.89,-0.192269006661626,-0.00738555303486444
5.9,-0.19506938356651,-0.00131114022446578
5.91,-0.19770016338977,0.00486970271231668
5.92,-0.200160995909071,0.0111669429883048
5.93,-0.202446557506859,0.0175914460481465
5.94,-0.204546317474804,0.0241533725004696
5.95,-0.206444858654823,0.030860548876126
5.96,-0.208122727432968,0.0377170229738524
5.97,-0.209557705076309,0.044721984850597
5.98,-0.210726329858949,0.051869173545404
5.99,-0.211605471562128,0.0591468077272466
6,-0.212173769140819,0.0665379963066195
6.01,-0.212412785670268,0.0740215159423525
6.02,-0.212307801580492,0.0815728027708547
6.03,-0.21184824140738,0.0891649998177766
6.04,-0.211027794318766,0.0967699296320405
6.05,-0.209844330801812,0.104358914127463
6.06,-0.20829972902584,0.111903426976964
6.07,-0.206399703322713,0.119375621929621
6.08,-0.204153680836435,0.126748818339021
6.09,-0.201574714313586,0.133998034639429
6.1,-0.198679363372098,0.141100637246762
6.11,-0.195487439783503,0.148037123817428
6.12,-0.192021504345841,0.154791995698832
6.13,-0.188306028529714,0.161354611448442
6.14,-0.184366189903256,0.167719867244863
6.15,-0.180226345230546,0.173888533388062
6.16,-0.175908304554837,0.179867096045887
6.17,-0.171429596185645,0.185667008691659
6.18,-0.166801950443064,0.191303340217508
6.19,-0.162030231029872,0.196792901377163
6.2,-0.157112002463929,0.202152021580737
6.21,-0.152037847396604,0.207394215280359
6.22,-0.146792449079296,0.212528010811809
6.23,-0.141356350420861,0.217555204652999
6.24,-0.135708207969179,0.222469755044045
6.25,-0.129827293764357,0.227257447049029
6.26,-0.123695969700134,0.231896361236993
6.27,-0.117301871149034,0.236358078184926
6.28,-0.110639585722882,0.240609464775833
6.29,-0.103711687869155,0.244614831346194
6.3,-0.0965290768806971,0.248338225415378
6.31,-0.0891106494804476,0.251745639493587
6.32,-0.0814824054909171,0.254806950407458
6.33,-0.0736761274886287,0.257497465069578
6.34,-0.0657277900432845,0.259799010346216
6.35,-0.0576758440768922,0.261700559814275
6.36,-0.0495594947328771,0.263198430320381
6.37,-0.0414170571066351,0.264296101525536
6.38,-0.0332844423755802,0.265003713759383
6.39,-0.0251938066644905,0.265337289194374
6.4,-0.0171723875696173,0.265317706681408
6.41,-0.0092415602016239,0.264969449981902
6.42,-0.00141615822372512,0.264319149695051
6.43,0.00629587976793139,0.26339395354995
6.44,0.0138934726350284,0.262219786296421
6.45,0.021381910551819,0.260819594667475
6.46,0.0287718906059782,0.259211704603861
6.47,0.0360780879153335,0.257408439961213
6.48,0.0433173317088185,0.255415153928816
6.49,0.0505065130754643,0.253229803640375
6.5,0.0576603990761916,0.25084315376466
6.51,0.064789558280812,0.248239630573401
6.52,0.0718986054375068,0.245398775207063
6.53,0.0789849484641076,0.242297171588814
6.54,0.0860381684599638,0.238910666460872
6.55,0.0930400923215752,0.235216663102163
6.56,0.099965538451286,0.23119626389673
6.57,0.10678363978305,0.226836060947142
6.58,0.113459588641818,0.222129423699319
6.59,0.119956611883586,0.217077199314863
6.6,0.126237977356266,0.211687814557223
6.61,0.132268852557,0.205976834812324
6.62,0.138017878150518,0.199966086972042
6.63,0.143458373503682,0.19368248111876
6.64,0.148569147533459,0.187156670086833
6.65,0.153334936429033,0.180421668807358
6.66,0.157746522052026,0.173511522234818
6.67,0.161800598111209,0.166460073331833
6.68,0.165499445095157,0.159299847269698
6.69,0.16885045631469,0.152061044816235
6.7,0.171865530749152,0.144770630046898
6.71,0.174560326079652,0.137451505741952
6.72,0.176953350901783,0.130121790485328
6.73,0.179064877288164,0.122794238540716
6.74,0.180915672120863,0.115475867135439
6.75,0.182525577192768,0.108167870179475
6.76,0.183912006648211,0.100865894578829
6.77,0.18508846818699,0.093560734101289
6.78,0.186063242642564,0.0862394567847455
6.79,0.186838367745348,0.0788869310990861
6.8,0.1874090615697,0.0714876608576921
6.81,0.187763688766925,0.064027789149788
6.82,0.187884321928168,0.0564970960517509
6.83,0.187747887331078,0.048890800076552
6.84,0.187327819584606,0.0412109830386133
6.85,0.186596091053794,0.0334674907090552
6.86,0.185525439387566,0.0256782138247471
6.87,0.184091595387946,0.0178687170181301
6.88,0.18227531520924,0.0100712494491068
6.89,0.180064046199544,0.00232322962752082
6.9,0.177453097028131,-0.00533465706826074
6.91,0.17444623552407,-0.0128605831262583
6.92,0.171055692714077,-0.0202137533197146
6.93,0.167301602047282,-0.0273564667868521
6.94,0.163210943555014,-0.0342559292434437
6.95,0.158816090360857,-0.0408857100511334
6.96,0.154153070055114,-0.04722677272395
6.97,0.149259657112298,-0.0532680409003889
6.98,0.144173409469463,-0.0590064874015311
6.99,0.138929754953617,-0.0644467563221553
7,0.133560225878038,-0.0696003444315193
7.01,0.128090933309117,-0.0744843828365681
7.02,0.122541366767808,-0.0791200751987922
7.03,0.116923597810947,-0.0835308662422236
7.04,0.111241954982248,-0.0877404346881469
7.05,0.105493218870427,-0.0917706261646514
7.06,0.099667359273333,-0.0956394609515567
7.07,0.0937487992032463,-0.099359363463959
7.08,0.0877181468493986,-0.102935761909778
7.09,0.0815542902895835,-0.106366192159449
7.1,0.0752367059246742,-0.109640009019044
7.11,0.068747798662643,-0.112738761370828
7.12,0.062075074869611,-0.11563722946688
7.13,0.0552129524873947,-0.118305057883139
7.14,0.0481640392125759,-0.12070885703125
7.15,0.0409397559201516,-0.122814594928318
7.16,0.0335602451611825,-0.124590068799519
7.17,0.0260535750539437,-0.126007236916198
7.18,0.0184543188820038,-0.127044206318997
7.19,0.0108016502943883,-0.12768671068162
7.2,0.00313713718617303,-0.127928968663744
7.21,-0.00449756276866154,-0.127773878383511
7.22,-0.0120629054016631,-0.127232571005007
7.23,-0.019523387998716,-0.126323405318541
7.24,-0.0268490699913991,-0.125070529539371
7.25,-0.0340166064202475,-0.123502162102551
7.26,-0.0410097676214865,-0.12164874872712
7.27,-0.0478194665183199,-0.119541140338337
7.28,-0.0544433513555305,-0.117208910829598
7.29,-0.060885044504145,-0.114678900845168
7.3,-0.0671531153734021,-0.111974040172998
7.31,-0.0732598723979269,-0.109112472328442
7.32,-0.0792200470593334,-0.106106984976462
7.33,-0.0850494296413895,-0.102964738217984
7.34,-0.0907635044861849,-0.099687279961597
7.35,-0.096376126211804,-0.0962708397814476
7.36,-0.101898279099396,-0.0927068948403664
7.37,-0.107336967580145,-0.0889830014064487
7.38,-0.112694294876023,-0.0850838775982868
7.39,-0.117966793694343,-0.0809927091095459
7.4,-0.123145074879211,-0.0766926272669204
7.41,-0.128213851601743,-0.0721682845145885
7.42,-0.133152377873438,-0.0674074278464812
7.43,-0.137935310366303,-0.0624023530722253
7.44,-0.142533964307325,-0.0571511153994778
7.45,-0.146917893269168,-0.0516583796168159
7.46,-0.151056683608018,-0.0459358147118659
7.47,-0.154921824140904,-0.0400019752053728
7.48,-0.158488495207077,-0.0338816570351793
7.49,-0.16173712117281,-0.0276047674441895
7.5,-0.164654549150545,-0.0212047969478178
7.51,-0.16723475057094,-0.0147170216546762
7.52,-0.169478988191026,-0.00817659055384424
7.53,-0.171395443470748,-0.00161666169772368
7.54,-0.172998350416046,0.00493325806978487
7.55,-0.174306726501439,0.0114486400946112
7.56,-0.175342823878387,0.0179108357321906
7.57,-0.176130441346456,0.0243075057833447
7.58,-0.17669323877346,0.0306325760310046
7.59,-0.17705318261854,0.0368857588694475
7.6,-0.177229226622123,0.0430717133366267
7.61,-0.177236300273552,0.049198936965436
7.62,-0.177084644222573,0.0552784915747934
7.63,-0.176779500715328,0.0613226633141875
7.64,-0.176321140913671,0.0673436459544477
7.65,-0.175705192810487,0.0733523212741533
7.66,-0.174923222185365,0.0793571919402372
