"Freq [GHz]","re(S(Antenna1_1_1,Antenna1_1_1)) []","im(S(Antenna1_1_1,Antenna1_1_1)) []"
3,-0.191327881431393,-0.164679460902326
3.0175,-0.198863412033113,-0.152612559341694
3.035,-0.207431079334577,-0.139396308201135
3.0525,-0.214302936483528,-0.119695575281154
3.07,-0.213576460607973,-0.108694265570774
3.0875,-0.224358322289216,-0.0969010041143111
3.105,-0.231338263859493,-0.0737301257536729
3.1225,-0.225324690742642,-0.0530554026799398
3.14,-0.220340998906517,-0.0409495906668418
3.1575,-0.222148300445542,-0.0340452454833299
3.175,-0.227677018786947,-0.0102558052943757
3.1925,-0.215278678606867,0.008320428963697
3.21,-0.206174071954643,0.0168057803068935
3.2275,-0.208879600978898,0.025554600514907
3.245,-0.202887751561488,0.0491935265125647
3.2625,-0.189166227641122,0.0613631758034738
3.28,-0.180188698902695,0.0711487123384707
3.2975,-0.169752558354446,0.0843623277290073
3.315,-0.156086022981238,0.0937607354447836
3.3325,-0.141862277004174,0.0997991459323471
3.35,-0.13524436937653,0.104528083286248
3.3675,-0.121366740202088,0.117500912423012
3.385,-0.104196258225526,0.121301421634613
3.4025,-0.0926095199006052,0.122369724325757
3.42,-0.0791605851271445,0.130881495688361
3.4375,-0.0596424251920872,0.131569380052451
3.455,-0.0430253705820284,0.129441139283013
3.4725,-0.030039251949579,0.124552106399226
3.49,-0.0175640308397215,0.122309960643546
3.5075,-0.0052139611764513,0.120263897509848
3.525,0.00971429870207387,0.116062812188772
3.5425,0.0259442543731429,0.110354052084134
3.56,0.0360923284082276,0.0977491176916442
3.5775,0.0467708118479105,0.0945695608322556
3.595,0.0622328776369724,0.0821222606065434
3.6125,0.071324123218613,0.0676222171505833
3.63,0.0756663804332797,0.054983657740455
3.6475,0.0820723785934567,0.0447768380721825
3.665,0.0902641600115196,0.0328375638972499
3.6825,0.0931405376278762,0.0177916977002759
3.7,0.102069154468931,0.00810744926495428
3.7175,0.106608482936053,-0.0164684399923002
3.735,0.0989982980457256,-0.0311944421591986
3.7525,0.100170149323902,-0.0391574026874919
3.77,0.10380572281263,-0.0588420399109587
3.7875,0.0957915489781248,-0.0774814191125199
3.805,0.0848879477160687,-0.0894725101632459
3.8225,0.0815367187410634,-0.094765895482711
3.84,0.0818046399103762,-0.109419986596784
3.8575,0.0755217479381956,-0.129541241374882
3.875,0.0599516671053063,-0.14417286388063
3.8925,0.0447616820570333,-0.1534229650003
3.91,0.0342362874662703,-0.157910973192277
3.9275,0.0238064427507426,-0.171707673033269
3.945,0.0050810651623108,-0.180150579148373
3.9625,-0.0134262986980443,-0.180677236188447
3.98,-0.019063886736502,-0.18079101123605
3.9975,-0.0316167139845682,-0.193818073172147
4.015,-0.0539527881761807,-0.197318574719408
4.0325,-0.067081099798359,-0.195080923312456
4.05,-0.0851882941745466,-0.200958983887086
4.0675,-0.106626102003123,-0.194350841967049
4.085,-0.118048458462618,-0.185624120990608
4.1025,-0.127346607868241,-0.187438912375202
4.12,-0.150087519533759,-0.184139634459821
4.1375,-0.164369892913726,-0.170992774950431
4.155,-0.169129001968065,-0.162473578845412
4.1725,-0.184201269952562,-0.166433932200485
4.19,-0.207173260144005,-0.15280642631446
4.2075,-0.216704842893315,-0.134566980154789
4.225,-0.221548143133167,-0.124478363105547
4.2425,-0.23243461334638,-0.115937841392886
4.26,-0.24508999627887,-0.10336615312655
4.2775,-0.251385953425481,-0.085140766127892
4.295,-0.257130283679024,-0.0736616931157934
4.3125,-0.261151794346881,-0.0600394886749176
4.33,-0.270197798028705,-0.0471236701663655
4.3475,-0.271751370625056,-0.028003146788722
4.365,-0.272596474723581,-0.0138487248100522
4.3825,-0.27433583495843,0.000909993712008193
4.4,-0.271766599130727,0.0197715252506782
4.4175,-0.266200035205044,0.0293580596776563
4.435,-0.268436809998116,0.0391719741883901
4.4525,-0.271205087390435,0.0587472633899779
4.47,-0.261138171130239,0.0772949035036535
4.4875,-0.251281410264616,0.0862209207058658
4.505,-0.252326529534207,0.0937713857321633
4.5225,-0.246729333084515,0.116718743293054
4.54,-0.230717022317458,0.126914512217831
4.5575,-0.220662573065841,0.131980604222871
4.575,-0.217514733978566,0.13848581184168
4.5925,-0.211053886733067,0.151856835826228
4.61,-0.200241306234411,0.162545781317137
4.6275,-0.190245144607317,0.172775561484902
4.645,-0.173854199929872,0.181511175836599
4.6625,-0.162858497681147,0.183965880863165
4.68,-0.151506243907064,0.188119978114152
4.6975,-0.142110696172744,0.195125810651509
4.715,-0.126153007735839,0.198073672217153
4.7325,-0.114107427816118,0.197835448704732
4.75,-0.109339875451468,0.195802355090609
4.7675,-0.100730370986456,0.208887719138773
4.785,-0.081999593244277,0.211140742334492
4.8025,-0.0662941793611192,0.207716730513443
4.82,-0.0580628242922895,0.202293658448483
4.8375,-0.0507718800805009,0.20252474912525
4.855,-0.0383671772370797,0.204252857042508
4.8725,-0.0254039123751133,0.198699303191945
4.89,-0.0177282722281593,0.193108563865687
4.9075,-0.0126810915217405,0.19255803917014
4.925,0.000519113822093402,0.193019874971167
4.9425,0.0135982289566301,0.188274517687452
4.96,0.0246842247582632,0.177747746003209
4.9775,0.0288982834120577,0.172298893155144
4.995,0.0387944724868626,0.166712791953487
5.0125,0.0456670064261308,0.158440600899735
5.03,0.0507583306232055,0.152534769875859
5.0475,0.0587167492623529,0.147062702369656
5.065,0.0667954204665996,0.138676367452011
5.0825,0.0712566184467459,0.129576902912224
5.1,0.0784203344956856,0.123439485855745
5.1175,0.0849250243131929,0.111252656225713
5.135,0.0874221821011779,0.0996941648890376
5.1525,0.0864087950253382,0.0914030954318158
5.17,0.0908347699023881,0.0858858970089518
5.1875,0.0956601075704432,0.0757098850778456
5.205,0.0971948006295545,0.063697179911402
5.2225,0.0964850524354245,0.0549476944281342
5.24,0.0985912794494786,0.0461964889711276
5.2575,0.0998434519782319,0.034335305533098
5.275,0.0972324955115632,0.0224427230269234
5.2925,0.0923491155205072,0.0131885192062887
5.31,0.0907445959568538,0.00771132094786511
5.3275,0.0899919725045827,-0.00240584820337303
5.345,0.0874064372534454,-0.0114696734974889
5.3625,0.0841464185384344,-0.0214701934880674
5.38,0.0801042067470566,-0.0325896021323153
5.3975,0.070896706604197,-0.04161447027498
5.415,0.0644725532767697,-0.0460215333467799
5.4325,0.0628739662043566,-0.0529023851671256
5.45,0.0540304988932112,-0.0667209875964465
5.4675,0.0401589705248184,-0.0682398776901215
5.485,0.0384732253059024,-0.0681284396926569
5.5025,0.0367013429881373,-0.0794303789950727
5.52,0.0252111141342837,-0.0902793992752703
5.5375,0.0100798283216005,-0.0947558980203017
5.555,0.00246242252045612,-0.0934773163518556
5.5725,-0.00678214031249108,-0.0997821055979362
5.59,-0.0168092176053677,-0.100437770153778
5.6075,-0.0268608138426019,-0.103148844390661
5.625,-0.036727184190742,-0.104246812257896
5.6425,-0.0477640076456086,-0.103481889844251
5.66,-0.0545677541828226,-0.104365049075048
5.6775,-0.0648264829247964,-0.108401030423808
5.695,-0.0801057336156867,-0.110363940834483
5.7125,-0.0957649936958132,-0.106109862204782
5.73,-0.106472749828,-0.0974169079390912
5.7475,-0.112129996421565,-0.0938061195905344
5.765,-0.121027118004691,-0.0930827237162316
5.7825,-0.136901520682146,-0.0908499390173394
5.8,-0.147064449522322,-0.0781840201683716
5.8175,-0.152028895235006,-0.0732245210008683
5.835,-0.161441419328793,-0.0704475350156766
5.8525,-0.176751988735472,-0.0631578528872676
5.87,-0.185818066255807,-0.0483198310249935
5.8875,-0.189097811636814,-0.0379928023188878
5.905,-0.196122369327953,-0.0306872422257854
5.9225,-0.202812233077443,-0.0203438693903432
5.94,-0.209818665680436,-0.0101186829151264
5.9575,-0.21610428943822,0.00147521672532704
5.975,-0.221349224955146,0.0160702458654481
5.9925,-0.222914645598806,0.0277536011279522
6.01,-0.226765591992265,0.04066421780953
6.0275,-0.229194383484147,0.0543248196957622
6.045,-0.228529871785859,0.0699750342630283
6.0625,-0.225755179845567,0.0816902220801774
6.08,-0.224585890074794,0.0920153964777963
6.0975,-0.226628563996116,0.103993054558055
6.115,-0.227525279184495,0.120939615473457
6.1325,-0.221120424557825,0.139378639138443
6.15,-0.212487899433508,0.151846027662846
6.1675,-0.20662575831848,0.161995861825836
6.185,-0.202113317452381,0.176686971374177
6.2025,-0.190791179932651,0.190201235322513
6.22,-0.1799286321234,0.199494735107835
6.2375,-0.172151669400203,0.206166067463341
6.255,-0.166167484306575,0.218304270707906
6.2725,-0.155251270904957,0.230775292762342
6.29,-0.142329694965736,0.242019660293913
6.3075,-0.126816418682128,0.251374419225655
6.325,-0.111422636476799,0.256176826493327
6.3425,-0.0979145662158673,0.260892626711787
6.36,-0.0857108714853586,0.265199441297556
6.3775,-0.070080834867211,0.271937107596889
6.395,-0.0534749278863478,0.272266570551489
6.4125,-0.0413649019499966,0.272294294392555
6.43,-0.0300925430048665,0.276940696593866
6.4475,-0.0106704305077178,0.282450273292856
6.465,0.0109866521263582,0.278382494465836
6.4825,0.0248029208396386,0.270346224310461
6.5,0.0358268478717054,0.267470693605988
6.5175,0.0514440830320139,0.265865463890494
6.535,0.0691192117331921,0.257287193524715
6.5525,0.0803472493778551,0.247856626475096
6.57,0.0913312921665904,0.241370420414472
6.5875,0.106018024536648,0.235840020597847
6.605,0.121628494741225,0.223850607733186
6.6225,0.133116080203068,0.20981750362792
6.64,0.141546236250412,0.19591767949165
6.6575,0.147730836722874,0.183091843876194
6.675,0.154813351953175,0.173601413081489
6.6925,0.164708187196379,0.160843299369402
6.71,0.172518134033827,0.145416123046003
6.7275,0.176085426246092,0.128767310794239
6.745,0.178338075139845,0.1160219856877
6.7625,0.184373655219058,0.103194609966197
6.78,0.189336249062852,0.0830536416763089
6.7975,0.184619309411342,0.0633062548495611
6.815,0.177545569555619,0.0518640527698632
6.8325,0.178238014176557,0.0441793265295727
6.85,0.181176027048892,0.0281683226509874
6.8675,0.177062502943962,0.00938631870924663
6.885,0.168931284856863,-0.00438462788423048
6.9025,0.163016018118284,-0.0162497544913602
6.92,0.157950905617251,-0.0290104088258151
6.9375,0.149780245252896,-0.0443435188218646
6.955,0.138566810021566,-0.0560091038874855
6.9725,0.1249751997704,-0.0645967244765988
6.99,0.114634581860978,-0.068047506526422
7.0075,0.109385936452724,-0.0732908799282591
7.025,0.10325194566086,-0.0849249735934677
7.0425,0.0898009475052222,-0.0970547709200991
7.06,0.0721473293640219,-0.102465577958183
7.0775,0.0596217659572321,-0.102612610986256
7.095,0.0503012605760477,-0.104947244061119
7.1125,0.0391568867241339,-0.111120441489934
7.13,0.0226463122562505,-0.112046448193607
7.1475,0.0119627405471373,-0.108999449179721
7.165,0.0043798471358928,-0.108853899145977
7.1825,-0.00553850981307885,-0.113203881191091
7.2,-0.0211672988023512,-0.115004880184834
7.2175,-0.0364176387543441,-0.110673231638105
7.235,-0.0481091824444096,-0.105008637307165
7.2525,-0.0569912911788132,-0.0982919978895898
7.27,-0.0652239307566158,-0.09535720187751
7.2875,-0.074794154054152,-0.0903550879914793
7.305,-0.0844103172931235,-0.085201812337451
7.3225,-0.0909741147262059,-0.0785702795086166
7.34,-0.0989637301529853,-0.076069800592509
7.3575,-0.111045659304224,-0.0708237392782372
7.375,-0.121882159458135,-0.0597547233141326
7.3925,-0.127439580705409,-0.0481901700696223
7.41,-0.12860397242889,-0.0395878977077168
7.4275,-0.132504594861028,-0.0357600016378337
7.445,-0.139954001218904,-0.0302129463553081
7.4625,-0.146506995477268,-0.0190060822967478
7.48,-0.146610514204991,-0.010818082133114
7.4975,-0.150354954206468,-0.00683781196880649
7.515,-0.159963421175697,-9.71650373812107E-05
7.5325,-0.165366460278218,0.0165197856328245
7.55,-0.16108072883984,0.0286351466226137
7.5675,-0.158819908326679,0.0333167126056073
7.585,-0.161853357156726,0.0390005350340763
7.6025,-0.165253988179736,0.0479161143040889
7.62,-0.165042919350827,0.058716155060796
7.6375,-0.165039563955596,0.0672992690789339
7.655,-0.162686826862672,0.0764030600016468
7.6725,-0.163119303615761,0.0833284213698262
7.69,-0.163181496163832,0.0938832446001602
7.7075,-0.159009958227688,0.106601853179582
7.725,-0.150420445116449,0.112208571293303
7.7425,-0.148373554621015,0.11426787229044
7.76,-0.151680791183011,0.120807081102573
7.7775,-0.149925801063475,0.134765075871005
7.795,-0.141293932114067,0.145518805504515
7.8125,-0.132849442082972,0.149064221248179
7.83,-0.130385796644124,0.154569393950131
7.8475,-0.126287082605767,0.162781002862705
7.865,-0.117967034466722,0.171751389528318
7.8825,-0.109749535132619,0.174459224590682
7.9,-0.105737362260017,0.177673169539729
7.9175,-0.102855662071516,0.185458698785263
7.935,-0.0947215993497891,0.19350165695096
7.9525,-0.0854531041434035,0.200776898698395
7.97,-0.0742418669656506,0.204406509201411
7.9875,-0.0634957453996356,0.206210514860742
8.005,-0.0566653658530984,0.204834849148593
8.0225,-0.0522749573919963,0.208696020703101
8.04,-0.0414621910238569,0.214561783841456
8.0575,-0.030673361584325,0.212035579642127
8.075,-0.0255899457630794,0.213521115023281
8.0925,-0.0179096462981349,0.218069394250187
8.11,-0.00193892746038889,0.221947696542258
8.1275,0.0111471496474547,0.214760076107494
8.145,0.0174825518219109,0.209438806406409
8.1625,0.0233688094038925,0.208650543591173
8.18,0.033056008903997,0.206505621443539
8.1975,0.0411315324081831,0.203152415612219
8.215,0.0490457001517723,0.200446841864569
8.2325,0.0596191742695329,0.195651885616672
8.25,0.0654110217865975,0.190375853050957
8.2675,0.075758372258122,0.185519264515193
8.285,0.084752976464836,0.177224657366677
8.3025,0.0908263638348252,0.16449024483133
8.32,0.0905471987582101,0.1574736869227
8.3375,0.0951293885540186,0.153865206463882
8.355,0.103268671497335,0.146874328196257
8.3725,0.10882118885692,0.136493881542812
8.39,0.111331089102987,0.124266680830229
8.4075,0.111284674843831,0.117165992632694
8.425,0.11505551999563,0.10808385572056
8.4425,0.117849920957399,0.0966638791377089
8.46,0.11392701843431,0.082838827665438
8.4775,0.108443316690534,0.0773512394082222
8.495,0.109101798669076,0.0739557550660666
8.5125,0.112807300753389,0.0629916062540646
8.53,0.109405828492922,0.0504435732277402
8.5475,0.103328850687163,0.0400209508022136
8.565,0.0977429723903961,0.0327890219920779
8.5825,0.0912127975584908,0.0253819754341863
8.6,0.0868221547691182,0.0187913204100525
8.6175,0.0795471213568371,0.0102861158540484
8.635,0.0691135967232602,0.00399642645394631
8.6525,0.0613761017478316,0.00471764703542771
8.67,0.0595196821844071,0.00019499272030303
8.6875,0.0548117475596478,-0.00988443273132415
8.705,0.0387476391610111,-0.0177123907757742
8.7225,0.0261278107599694,-0.0157789813926067
8.74,0.0171148473879035,-0.0143392851074644
8.7575,0.00869986453865332,-0.014809691325287
8.775,-0.000157563698541178,-0.0139617760252467
8.7925,-0.0109753490234701,-0.0138464000912832
8.81,-0.020410028177514,-0.00937176697359727
8.8275,-0.0273211008807873,-0.00549110255456142
8.845,-0.0345581694504032,-0.0060426916631655
8.8625,-0.0477131180301449,-0.00186087659180947
8.88,-0.0571015794509567,0.00498034981611938
8.8975,-0.064677770843229,0.013851207494442
8.915,-0.0709936141741093,0.020763421511068
8.9325,-0.0760420744706565,0.0290290213462138
8.95,-0.0812338971942445,0.0352549478486354
8.9675,-0.0888781660012438,0.0425951227528563
8.985,-0.0934360494809091,0.0554989136434962
9.0025,-0.0944249430340628,0.0623780066300538
9.02,-0.10016245981556,0.0706993553696579
9.0375,-0.10583549455613,0.0833091122436258
9.055,-0.103993513200875,0.0981439504056286
9.0725,-0.100785503008447,0.106918820529882
9.09,-0.101052829662105,0.113714573933121
9.1075,-0.102186445127284,0.125387383208692
9.125,-0.100903445185482,0.136295652363632
9.1425,-0.0967063587473455,0.148770585726345
9.16,-0.0913912143248088,0.157823488670844
9.1775,-0.0868246971919476,0.166148943889752
9.195,-0.0827564580216929,0.177423115141963
9.2125,-0.074093488300597,0.187326705545453
9.23,-0.0641180864738098,0.195011662251595
9.2475,-0.0570830462761708,0.198237598194431
9.265,-0.0518911813226523,0.205270296321119
9.2825,-0.0459422423657482,0.214488702723372
9.3,-0.0336491748186911,0.223789380611817
9.3175,-0.0207788289206704,0.228090740413499
9.335,-0.010148779853404,0.228688602815522
9.3525,-0.00321560170959628,0.232482815173461
9.37,0.00767380623390107,0.239113467040573
9.3875,0.0243445039395427,0.240150510642342
9.405,0.0330444480127782,0.235647351646011
9.4225,0.0393428790577726,0.237096521355597
9.44,0.0499477711445613,0.242032853251697
9.4575,0.065092080224874,0.241851296719729
9.475,0.0789946821301599,0.238488920913014
9.4925,0.0892067397654206,0.231719558160171
9.51,0.0973046201475132,0.228105294203766
9.5275,0.106817569145099,0.225921603743259
9.545,0.119175091813481,0.220663399215008
9.5625,0.128784217544016,0.213235913968611
9.58,0.135049692078188,0.205117648147994
9.5975,0.141050433079003,0.20147487268014
9.615,0.151079622442562,0.197198492971498
9.6325,0.163104444206873,0.186933484552844
9.65,0.167645415510937,0.174515743856966
9.6675,0.170967388976214,0.165212706881389
9.685,0.174897292502082,0.158561766903686
9.7025,0.180973564027211,0.149130615144316
9.72,0.18525813879977,0.138818085277475
9.7375,0.186935144869401,0.127763713775267
9.755,0.188563858021508,0.119328238734863
9.7725,0.192061221423076,0.11059687893135
9.79,0.194822687111484,0.0973393216302009
9.8075,0.193181838619181,0.0855857690211244
9.825,0.190360099624853,0.0749711138319727
9.8425,0.189184945041953,0.0662311699082821
9.86,0.185742032732278,0.0557728725329164
9.8775,0.183944531999753,0.0472893700369625
9.895,0.180396371571397,0.0358834671360346
9.9125,0.173733086435748,0.0260168441316217
9.93,0.168540342007159,0.0193891913617966
9.9475,0.163984520428583,0.00935688052791163
9.965,0.155815031597842,-0.00180131166670457
9.9825,0.142212281348553,-0.0079272973242786
10,0.134760802750836,-0.0098917510988527
