"Freq [GHz]","re(S(Antenna1_1_1,Antenna1_1_1)) []","im(S(Antenna1_1_1,Antenna1_1_1)) []"
2.25,-0.179738592052099,-0.782198256505315
2.2502,-0.180483571702147,-0.781677279418051
2.2504,-0.18122837913457,-0.781154337332368
2.2506,-0.181973009937822,-0.780629424954268
2.2508,-0.182717459667155,-0.780102536978904
2.251,-0.183461723844513,-0.779573668090643
2.2512,-0.18420579795811,-0.779042812963057
2.2514,-0.184949677462426,-0.778509966259064
2.2516,-0.185693357777779,-0.77797512263096
2.2518,-0.186436834290319,-0.777438276720444
2.252,-0.1871801023515,-0.776899423158746
2.2522,-0.187923157278369,-0.77635855656663
2.2524,-0.188665994352742,-0.775815671554513
2.2526,-0.18940860882148,-0.775270762722491
2.2528,-0.190150995895872,-0.774723824660424
2.253,-0.190893150751705,-0.774174851948028
2.2532,-0.191635068528844,-0.773623839154897
2.2534,-0.192376744331202,-0.773070780840617
2.2536,-0.193118173226216,-0.772515671554818
2.2538,-0.193859350245013,-0.771958505837293
2.254,-0.194600270381586,-0.771399278217986
2.2542,-0.195340928593362,-0.770837983217177
2.2544,-0.196081319800166,-0.770274615345479
2.2546,-0.196821438884494,-0.769709169103963
2.2548,-0.197561280691269,-0.769141638984229
2.255,-0.198300840027219,-0.768572019468493
2.2552,-0.199040111661025,-0.768000305029673
2.2554,-0.199779090322895,-0.767426490131469
2.2556,-0.200517770704421,-0.766850569228476
2.2558,-0.201256147458134,-0.766272536766238
2.256,-0.201994215197572,-0.765692387181367
2.2562,-0.202731968496823,-0.76511011490165
2.2564,-0.203469401890301,-0.764525714346114
2.2566,-0.20420650987238,-0.763939179925137
2.2568,-0.204943286897564,-0.763350506040544
2.257,-0.205679727379829,-0.762759687085719
2.2572,-0.206415825692478,-0.762166717445714
2.2574,-0.207151576167896,-0.761571591497301
2.2576,-0.207886973097388,-0.760974303609167
2.2578,-0.208622010730739,-0.760374848141945
2.258,-0.209356683276251,-0.759773219448355
2.2582,-0.210090984900094,-0.759169411873332
2.2584,-0.210824909726347,-0.758563419754093
2.2586,-0.211558451836742,-0.757955237420318
2.2588,-0.212291605270109,-0.757344859194203
2.259,-0.21302436402251,-0.756732279390628
2.2592,-0.213756722046687,-0.756117492317244
2.2594,-0.214488673251891,-0.755500492274625
2.2596,-0.215220211503527,-0.754881273556367
2.2598,-0.215951330623183,-0.754259830449249
2.26,-0.216682024388072,-0.753636157233329
2.2602,-0.217412286530761,-0.753010248182091
2.2604,-0.218142110739002,-0.752382097562583
2.2606,-0.218871490655569,-0.751751699635543
2.2608,-0.219600419877882,-0.751119048655544
2.261,-0.220328891957339,-0.750484138871132
2.2612,-0.221056900400044,-0.749846964524968
2.2614,-0.221784438665232,-0.749207519853972
2.2616,-0.222511500166194,-0.74856579908947
2.2618,-0.223238078269203,-0.74792179645735
2.262,-0.223964166293538,-0.747275506178196
2.2622,-0.224689757511299,-0.746626922467466
2.2624,-0.22541484514674,-0.745976039535621
2.2626,-0.226139418324874,-0.745322900157857
2.2628,-0.226863471083407,-0.744667498752093
2.263,-0.227587000859839,-0.744009781008367
2.2632,-0.228310000689293,-0.743349741107714
2.2634,-0.229032463557526,-0.74268737322697
2.2636,-0.229754382401038,-0.742022671538953
2.2638,-0.230475750106695,-0.741355630212592
2.264,-0.23119655951103,-0.740686243413144
2.2642,-0.23191680340086,-0.740014505302364
2.2644,-0.232636474511894,-0.739340410038656
2.2646,-0.233355565529539,-0.738663951777329
2.2648,-0.234074069087514,-0.737985124670676
2.265,-0.234791977768345,-0.73730392286827
2.2652,-0.235509284102983,-0.736620340517082
2.2654,-0.236225980569996,-0.735934371761712
2.2656,-0.236942059595783,-0.735246010744564
2.2658,-0.237657513554163,-0.73455525160607
2.266,-0.238372334765791,-0.733862088484867
2.2662,-0.239086515498443,-0.733166515518017
2.2664,-0.239800047965826,-0.732468526841228
2.2666,-0.240512924328269,-0.731768116589023
2.2668,-0.241225136691721,-0.731065278895002
2.267,-0.24193667710765,-0.730360007892024
2.2672,-0.242647537572832,-0.729652297712446
2.2674,-0.24335771002885,-0.728942142488328
2.2676,-0.244067186361982,-0.728229536351683
2.2678,-0.244775958402795,-0.727514473434687
2.268,-0.245484017925737,-0.726796947869928
2.2682,-0.246191356649122,-0.726076953790599
2.2684,-0.246897966234426,-0.725354485330804
2.2686,-0.247603838286363,-0.724629536625726
2.2688,-0.248308964351989,-0.723902101811923
2.269,-0.249013335921369,-0.72317217502757
2.2692,-0.249716944426077,-0.72243975041269
2.2694,-0.250419781239772,-0.72170482210939
2.2696,-0.251121837677583,-0.720967384262193
2.2698,-0.251823104995692,-0.720227431018223
2.27,-0.252523574391015,-0.719484956527481
2.2702,-0.253223237001184,-0.718739954943171
2.2704,-0.253922083903724,-0.717992420421891
2.2706,-0.254620106116333,-0.717242347123957
2.2708,-0.255317294595963,-0.716489729213673
2.271,-0.256013640238891,-0.71573456085961
2.2712,-0.256709133880203,-0.714976836234858
2.2714,-0.257403766293663,-0.714216549517387
2.2716,-0.258097528191095,-0.713453694890267
2.2718,-0.258790410222248,-0.712688266541999
2.272,-0.259482402974582,-0.711920258666836
2.2722,-0.260173496972728,-0.711149665465002
2.2724,-0.260863682678067,-0.710376481143122
2.2726,-0.261552950488704,-0.709600699914411
2.2728,-0.26224129073903,-0.708822315999089
2.273,-0.262928693699204,-0.708041323624605
2.2732,-0.263615149575209,-0.707257717026062
2.2734,-0.264300648507934,-0.706471490446458
2.2736,-0.264985180573434,-0.705682638137051
2.2738,-0.2656687357823,-0.704891154357699
2.274,-0.266351304079328,-0.704097033377182
2.2742,-0.267032875343283,-0.703300269473552
2.2744,-0.26771343938647,-0.702500856934527
2.2746,-0.268392985954392,-0.701698790057587
2.2748,-0.269071504725525,-0.700894063150911
2.275,-0.269748985311072,-0.700086670533084
2.2752,-0.27042547195204,-0.69927671432759
2.2754,-0.271100900932293,-0.698464080594992
2.2756,-0.27177526165532,-0.697648763673389
2.2758,-0.272448543455804,-0.696830757912993
2.276,-0.273120735599274,-0.696010057676407
2.2762,-0.273791827281677,-0.6951866573396
2.2764,-0.274461807628736,-0.694360551291304
2.2766,-0.275130665696315,-0.693531733934589
2.2768,-0.275798390469379,-0.692700199686175
2.277,-0.276464970862254,-0.691865942977517
2.2772,-0.277130395717596,-0.691028958255016
2.2774,-0.277794653806845,-0.690189239980428
2.2776,-0.278457733829192,-0.689346782631271
2.2778,-0.279119624411635,-0.688501580701054
2.278,-0.279780314108647,-0.687653628700386
2.2782,-0.280439791401429,-0.686802921156318
2.2784,-0.281098044698283,-0.685949452613961
2.2786,-0.281755062333462,-0.685093217636037
2.2788,-0.282410832567337,-0.684234210803714
2.279,-0.28306534358616,-0.683372426717048
2.2792,-0.283718583501323,-0.68250785999525
2.2794,-0.28437054034902,-0.681640505277326
2.2796,-0.285021202090613,-0.680770357222755
2.2798,-0.285670556611188,-0.679897410511345
2.28,-0.286318591720226,-0.679021659844209
2.2802,-0.286965295150657,-0.678143099944248
2.2804,-0.287610654558733,-0.677261725556224
2.2806,-0.288254657523683,-0.676377531447859
2.2808,-0.288897291547383,-0.675490512409718
2.281,-0.28953854405392,-0.674600663256219
2.2812,-0.290178402389455,-0.673707978825626
2.2814,-0.290816853821692,-0.67281245398127
2.2816,-0.291453885539541,-0.671914083611354
2.2818,-0.292089484653089,-0.671012862629782
2.282,-0.292723638192763,-0.67010878597698
2.2822,-0.293356333109504,-0.669201848619831
2.2824,-0.293987556274032,-0.668292045552612
2.2826,-0.29461729447682,-0.667379371797633
2.2828,-0.29524553442766,-0.666463822405394
2.283,-0.295872262755238,-0.665545392455534
2.2832,-0.296497466006807,-0.664624077057193
2.2834,-0.297121130647959,-0.66369987134948
2.2836,-0.297743243062505,-0.662772770502341
2.2838,-0.298363789551642,-0.661842769717042
2.284,-0.298982756334038,-0.66090986422655
2.2842,-0.299600129545207,-0.659974049296527
2.2844,-0.30021589523779,-0.65903532022532
2.2846,-0.300830039380233,-0.65809367234537
2.2848,-0.301442547857471,-0.657149101023118
2.285,-0.302053406470015,-0.656201601659916
2.2852,-0.30266260093383,-0.655251169692855
2.2854,-0.30327011688003,-0.654297800594784
2.2856,-0.303875939854457,-0.653341489875852
2.2858,-0.304480055317579,-0.652382233083241
2.286,-0.305082448643776,-0.651420025802514
2.2862,-0.305683105121638,-0.65045486365767
2.2864,-0.306282009953154,-0.6494867423124
2.2866,-0.306879148253613,-0.648515657470356
2.2868,-0.307474505051307,-0.647541604875914
2.287,-0.308068065287121,-0.646564580315068
2.2872,-0.308659813814446,-0.6455845796158
2.2874,-0.309249735398478,-0.644601598648783
2.2876,-0.309837885803729,-0.64361567426767
2.2878,-0.310424250656435,-0.642626801148608
2.288,-0.311008743702564,-0.641634933915948
2.2882,-0.31159134933774,-0.640640068603956
2.2884,-0.312172051867849,-0.639642201293253
2.2886,-0.312750835509267,-0.638641328112132
2.2888,-0.313327684388072,-0.637637445236411
2.289,-0.31390258254018,-0.636630548891071
2.2892,-0.314475513910963,-0.635620635350514
2.2894,-0.315046462354581,-0.634607700939221
2.2896,-0.315615411634622,-0.63359174203302
2.2898,-0.316182345422726,-0.632572755059564
2.29,-0.316747247299236,-0.631550736499007
2.2902,-0.317310100752428,-0.630525682885
2.2904,-0.317870889178569,-0.62949759080548
2.2906,-0.318429595881253,-0.628466456903382
2.2908,-0.318986204071766,-0.62743227787744
2.291,-0.319540696868128,-0.626395050483315
2.2912,-0.320093057295583,-0.625354771533917
2.2914,-0.320643268285704,-0.624311437900731
2.2916,-0.321191312676604,-0.623265046514171
2.2918,-0.321737173212525,-0.622215594365114
2.292,-0.322280832543668,-0.621163078504969
2.2922,-0.322822273225948,-0.620107496047127
2.2924,-0.32336147772077,-0.619048844167639
2.2926,-0.323898428394867,-0.617987120105995
2.2928,-0.324433107520041,-0.616922321166403
2.293,-0.324965497272966,-0.615854444718093
2.2932,-0.325495579735011,-0.614783488196803
2.2934,-0.326023336892058,-0.613709449105106
2.2936,-0.326548750634255,-0.612632325014009
2.2938,-0.327071802755896,-0.611552113563391
2.294,-0.327592474955201,-0.610468812463125
2.2942,-0.328110748834146,-0.609382419493826
2.2944,-0.328626605898303,-0.608292932508196
2.2946,-0.329140027556683,-0.607200349431574
2.2948,-0.329650995121572,-0.60610466826321
2.295,-0.330159489808337,-0.605005887077026
2.2952,-0.330665492735352,-0.603904004022706
2.2954,-0.331168984923797,-0.602799017326773
2.2956,-0.331669947297531,-0.601690925293292
2.2958,-0.332168360682973,-0.600579726305374
2.296,-0.332664205808996,-0.599465418825577
2.2962,-0.333157463306746,-0.59834800139744
2.2964,-0.333648113709587,-0.597227472646299
2.2966,-0.334136137452979,-0.596103831280432
2.2968,-0.334621514874367,-0.594977076091794
2.297,-0.335104226213082,-0.593847205957676
2.2972,-0.335584251610268,-0.592714219841065
2.2974,-0.336061571108817,-0.591578116792303
2.2976,-0.33653616465324,-0.590438895949878
2.2978,-0.337008012089657,-0.589296556541394
2.298,-0.337477093165716,-0.588151097885079
2.2982,-0.337943387530526,-0.587002519390572
2.2984,-0.338406874734646,-0.585850820560043
2.2986,-0.33886753423001,-0.584696000989499
2.2988,-0.339325345369916,-0.583538060369725
2.299,-0.339780287409006,-0.582376998487709
2.2992,-0.340232339503237,-0.581212815227277
2.2994,-0.340681480709906,-0.580045510570763
2.2996,-0.341127689987616,-0.578875084599947
2.2998,-0.341570946196285,-0.57770153749724
2.3,-0.342011228097198,-0.576524869546943
2.3002,-0.342448857210872,-0.575345010029144
2.3004,-0.34288346895124,-0.5741620256648
2.3006,-0.343315041735081,-0.572975917049552
2.3008,-0.343743553880667,-0.571786684885703
2.301,-0.34416898360779,-0.570594329984171
2.3012,-0.344591309037852,-0.569398853264992
2.3014,-0.345010508193951,-0.568200255759358
2.3016,-0.345426559000968,-0.566998538610054
2.3018,-0.345839439285677,-0.565793703073313
2.302,-0.346249126776857,-0.564585750519976
2.3022,-0.346655599105408,-0.563374682436251
2.3024,-0.347058833804487,-0.56216050042589
2.3026,-0.347458808309688,-0.560943206210664
2.3028,-0.347855499959118,-0.559722801632068
2.303,-0.348248885993645,-0.558499288652508
2.3032,-0.348638943557018,-0.557272669356705
2.3034,-0.349025649696093,-0.556042945952823
2.3036,-0.34940898136098,-0.554810120774071
2.3038,-0.349788915405315,-0.55357419627985
2.304,-0.350165428586444,-0.552335175057087
2.3042,-0.350538497565655,-0.551093059821577
2.3044,-0.35090809890842,-0.549847853419636
2.3046,-0.351274209084669,-0.548599558828969
2.3048,-0.351636804469057,-0.547348179160338
2.305,-0.351995861341225,-0.546093717659235
2.3052,-0.352351355886097,-0.544836177706472
2.3054,-0.352703264194213,-0.543575562820365
2.3056,-0.353051562262008,-0.542311876657746
2.3058,-0.353396225992161,-0.541045123015563
2.306,-0.353737231193945,-0.539775305832001
2.3062,-0.35407455358359,-0.53850242918819
2.3064,-0.354408168784625,-0.537226497309757
2.3066,-0.354738052328296,-0.535947514567648
2.3068,-0.355064179653929,-0.534665485480379
2.307,-0.355386526109378,-0.533380414714984
2.3072,-0.355705066951443,-0.532092307088475
2.3074,-0.356019777346289,-0.53080116756961
2.3076,-0.356330632369918,-0.529507001280066
2.3078,-0.35663760700865,-0.52820981349622
2.308,-0.356940676159585,-0.526909609650434
2.3082,-0.357239814631135,-0.525606395332438
2.3084,-0.35753499714349,-0.524300176291153
2.3086,-0.357826198329187,-0.522990958435982
2.3088,-0.358113392733716,-0.521678747838432
2.309,-0.35839655481585,-0.520363550733614
2.3092,-0.358675658948483,-0.519045373521598
2.3094,-0.358950679419347,-0.517724222769228
2.3096,-0.359221590431,-0.516400105211562
2.3098,-0.359488366102148,-0.515073027753322
2.31,-0.359750980467877,-0.513742997470631
2.3102,-0.360009407480411,-0.512410021612387
2.3104,-0.360263621010076,-0.511074107601818
2.3106,-0.360513594845492,-0.509735263038346
2.3108,-0.360759302694581,-0.508393495698855
2.311,-0.361000718185181,-0.507048813539284
2.3112,-0.361237814866093,-0.505701224696403
2.3114,-0.361470566207442,-0.504350737489396
2.3116,-0.361698945601745,-0.50299736042127
2.3118,-0.361922926364418,-0.501641102180428
2.312,-0.362142481735185,-0.500281971642695
2.3122,-0.362357584878108,-0.498919977872521
2.3124,-0.362568208883146,-0.497555130124483
2.3126,-0.362774326766726,-0.496187437845415
2.3128,-0.36297591147253,-0.494816910675708
2.313,-0.363172935872711,-0.49344355845096
2.3132,-0.363365372768722,-0.492067391203485
2.3134,-0.363553194892167,-0.490688419164254
2.3136,-0.363736374905875,-0.489306652764316
2.3138,-0.363914885404789,-0.48792210263646
2.314,-0.36408869891728,-0.486534779616934
2.3142,-0.364257787905783,-0.485144694747004
2.3144,-0.364422124768348,-0.483751859274698
2.3146,-0.364581681839221,-0.482356284656235
2.3148,-0.364736431390236,-0.480957982558216
2.315,-0.364886345631942,-0.479556964858444
2.3152,-0.365031396714636,-0.478153243648502
2.3154,-0.365171556729634,-0.476746831234591
2.3156,-0.365306797710451,-0.475337740139705
2.3158,-0.365437091633916,-0.473925983105289
2.316,-0.365562410421595,-0.472511573092494
2.3162,-0.365682725941051,-0.471094523284354
2.3164,-0.365798010006722,-0.469674847087017
2.3166,-0.365908234381816,-0.468252558131756
2.3168,-0.366013370779438,-0.466827670276493
2.317,-0.366113390863538,-0.46540019760729
2.3172,-0.366208266250984,-0.463970154440184
2.3174,-0.366297968512451,-0.462537555323083
2.3176,-0.36638246917395,-0.461102415037005
2.3178,-0.366461739718664,-0.459664748597852
2.318,-0.366535751587822,-0.458224571258265
2.3182,-0.366604476182491,-0.456781898509273
2.3184,-0.366667884865394,-0.455336746081673
2.3186,-0.366725948961856,-0.453889129947767
2.3188,-0.36677863976197,-0.452439066323421
2.319,-0.366825928521693,-0.450986571669112
2.3192,-0.366867786464869,-0.449531662691967
2.3194,-0.366904184784673,-0.448074356347433
2.3196,-0.36693509464558,-0.446614669840486
2.3198,-0.366960487184473,-0.445152620627893
2.32,-0.366980333513056,-0.443688226419213
2.3202,-0.366994604719117,-0.442221505179066
2.3204,-0.367003271868697,-0.440752475128022
2.3206,-0.367006306007603,-0.439281154745132
2.3208,-0.367003678163434,-0.437807562768546
2.321,-0.366995359347343,-0.436331718197902
2.3212,-0.366981320555925,-0.434853640295546
2.3214,-0.36696153277343,-0.43337334858812
2.3216,-0.366935966973106,-0.431890862868344
2.3218,-0.366904594119867,-0.430406203196599
2.322,-0.366867385171792,-0.428919389902007
2.3222,-0.366824311082551,-0.427430443584784
2.3224,-0.366775342803162,-0.425939385117312
2.3226,-0.366720451284066,-0.424446235645574
2.3228,-0.366659607477645,-0.422951016591097
2.323,-0.366592782339861,-0.421453749652184
2.3232,-0.36651994683272,-0.419954456805442
2.3234,-0.366441071926673,-0.418453160307573
2.3236,-0.366356128602342,-0.416949882696601
2.3238,-0.366265087853076,-0.415444646793228
2.324,-0.366167920687431,-0.413937475702839
2.3242,-0.366064598131092,-0.41242839281636
2.3244,-0.365955091229507,-0.410917421812309
2.3246,-0.365839371050169,-0.409404586657531
2.3248,-0.365717408685111,-0.407889911609344
2.325,-0.365589175253242,-0.406373421216439
2.3252,-0.365454662594609,-0.404854389710689
2.3254,-0.365313810357789,-0.403333591217135
2.3256,-0.365166589732706,-0.401811051277346
2.3258,-0.36501297194729,-0.400286795730393
2.326,-0.364852928270052,-0.398760850713887
2.3262,-0.364686430012503,-0.397233242665599
2.3264,-0.364513448532086,-0.395703998324363
2.3266,-0.36433395523466,-0.39417314473178
2.3268,-0.364147921577492,-0.392640709233193
2.327,-0.363955319071397,-0.391106719479129
2.3272,-0.363756119284396,-0.389571203426355
2.3274,-0.363550293843613,-0.388034189339073
2.3276,-0.363337814438896,-0.386495705790344
2.3278,-0.363118652825072,-0.384955781663055
2.328,-0.362892780825131,-0.383414446151179
2.3282,-0.362660170333343,-0.381871728760716
2.3284,-0.362420793317798,-0.380327659311103
2.3286,-0.362174621823487,-0.378782267936014
2.3288,-0.361921627975702,-0.377235585084535
2.329,-0.361661783982579,-0.37568764152221
2.3292,-0.361395062138453,-0.374138468332156
2.3294,-0.361121434827069,-0.372588096915886
2.3296,-0.360840874524293,-0.371036558994166
2.3298,-0.360553353801781,-0.36948388660838
2.33,-0.36025884532986,-0.367930112121155
2.3302,-0.359957321880739,-0.36637526821704
2.3304,-0.359648756332067,-0.364819387904011
2.3306,-0.359333121669898,-0.363262504513648
2.3308,-0.359010390992104,-0.361704651702177
2.331,-0.358680537511905,-0.360145863451412
2.3312,-0.358343534560836,-0.358586174069307
2.3314,-0.357999355592639,-0.357025618190742
2.3316,-0.357647974186489,-0.355464230778213
2.3318,-0.357289364050141,-0.353902047122469
2.332,-0.356923499024014,-0.352339102843161
2.3322,-0.3565503530842,-0.350775433889427
2.3324,-0.356169900346302,-0.349211076540476
2.3326,-0.355782115068996,-0.347646067406062
2.3328,-0.355386971657533,-0.34608044342704
2.333,-0.354984444667252,-0.344514241875806
2.3332,-0.354574508807638,-0.342947500356695
2.3334,-0.354157138945593,-0.34138025680642
2.3336,-0.353732310109348,-0.339812549494391
2.3338,-0.353299997492284,-0.338244417023054
2.334,-0.352860176456499,-0.336675898328148
2.3342,-0.352412822536792,-0.335107032678971
2.3344,-0.351957911444168,-0.333537859678588
2.3346,-0.351495419070286,-0.331968419263961
2.3348,-0.351025321490605,-0.33039875170611
2.335,-0.35054759496879,-0.328828897610178
2.3352,-0.350062215960513,-0.327258897915498
2.3354,-0.349569161117295,-0.325688793895576
2.3356,-0.349068407290468,-0.324118627158039
2.3358,-0.348559931535557,-0.322548439644585
2.336,-0.348043711115499,-0.320978273630843
2.3362,-0.347519723505665,-0.319408171726207
2.3364,-0.346987946397124,-0.317838176873612
2.3366,-0.346448357701213,-0.316268332349282
2.3368,-0.345900935553246,-0.314698681762432
2.337,-0.345345658317231,-0.313129269054894
2.3372,-0.344782504589415,-0.311560138500768
2.3374,-0.344211453202647,-0.309991334705923
2.3376,-0.343632483230859,-0.308422902607514
2.3378,-0.343045573992975,-0.306854887473464
2.338,-0.342450705057035,-0.30528733490188
2.3382,-0.341847856244834,-0.303720290820356
2.3384,-0.34123700763588,-0.302153801485322
2.3386,-0.340618139571876,-0.300587913481306
2.3388,-0.339991232660921,-0.299022673720143
2.339,-0.339356267781609,-0.297458129440074
2.3392,-0.338713226088073,-0.29589432820492
