"Freq [GHz]","re(S(Antenna1_1_1,Antenna1_1_1)) []","im(S(Antenna1_1_1,Antenna1_1_1)) []"
2.25,-0.179940182096209,-0.778242639323705
2.2502,-0.180658297083087,-0.777711859708621
2.2504,-0.181376133419953,-0.777179280013998
2.2506,-0.182093687651712,-0.776644895820488
2.2508,-0.182810956296405,-0.776108702691284
2.251,-0.183527935844903,-0.775570696173183
2.2512,-0.18424462276071,-0.775030871797637
2.2514,-0.184961013479726,-0.774489225079814
2.2516,-0.185677104409779,-0.77394575151666
2.2518,-0.186392891930919,-0.773400446591954
2.252,-0.1871083723946,-0.772853305771377
2.2522,-0.187823542123469,-0.77230432450657
2.2524,-0.188538397411642,-0.771753498229203
2.2526,-0.18925293452388,-0.771200822360041
2.2528,-0.189967149695472,-0.770646292299004
2.253,-0.190681039132305,-0.770089903434249
2.2532,-0.191394599010044,-0.769531651135227
2.2534,-0.192107825474302,-0.768971530755767
2.2536,-0.192820714640316,-0.768409537635138
2.2538,-0.193533262592613,-0.767845667095133
2.254,-0.194245465384486,-0.767279914443136
2.2542,-0.194957319038362,-0.766712274971207
2.2544,-0.195668819544866,-0.766142743953159
2.2546,-0.196379962862894,-0.765571316648633
2.2548,-0.197090744919469,-0.764997988302189
2.255,-0.197801161609019,-0.764422754143383
2.2552,-0.198511208793625,-0.763845609383853
2.2554,-0.199220882302295,-0.763266549220409
2.2556,-0.199930177930921,-0.762685568836116
2.2558,-0.200639091442034,-0.762102663398388
2.256,-0.201347618564472,-0.761517828056077
2.2562,-0.202055754992923,-0.76093105794757
2.2564,-0.202763496388001,-0.760342348191874
2.2566,-0.20347083837558,-0.759751693896728
2.2568,-0.204177776546764,-0.759159090149684
2.257,-0.204884306457529,-0.758564532029219
2.2572,-0.205590423628478,-0.757968014594834
2.2574,-0.206296123544096,-0.757369532891151
2.2576,-0.207001401653988,-0.756769081951027
2.2578,-0.207706253370239,-0.756166656788655
2.258,-0.208410674069251,-0.755562252406675
2.2582,-0.209114659088794,-0.754955863791282
2.2584,-0.209818203731747,-0.754347485915343
2.2586,-0.210521303262842,-0.753737113736508
2.2588,-0.211223952907409,-0.753124742199323
2.259,-0.21192614785511,-0.752510366231358
2.2592,-0.212627883256687,-0.751893980749314
2.2594,-0.213329154221691,-0.751275580652155
2.2596,-0.214029955823227,-0.750655160829228
2.2598,-0.214730283095683,-0.75003271615239
2.26,-0.215430131031472,-0.749408241482135
2.2602,-0.216129494584761,-0.748781731662721
2.2604,-0.216828368669202,-0.748153181526311
2.2606,-0.217526748156669,-0.747522585892097
2.2608,-0.218224627879982,-0.746889939564441
2.261,-0.218922002629639,-0.746255237336016
2.2612,-0.219618867155544,-0.74561847398494
2.2614,-0.220315216164732,-0.744979644276924
2.2616,-0.221011044323094,-0.744338742965414
2.2618,-0.221706346253103,-0.743695764788742
2.262,-0.222401116535538,-0.743050704475267
2.2622,-0.223095349707199,-0.742403556737541
2.2624,-0.22378904026164,-0.741754316280443
2.2626,-0.224481053172874,-0.741103277557357
2.2628,-0.225171384455107,-0.740450455843313
2.263,-0.225861158677439,-0.739795552912157
2.2632,-0.226550370396593,-0.739138563425714
2.2634,-0.227239014121626,-0.73847948203195
2.2636,-0.227927084318638,-0.737818303363143
2.2638,-0.228614575407495,-0.737155022043052
2.264,-0.22930148176053,-0.736489632677094
2.2642,-0.22998779770626,-0.735822129861514
2.2644,-0.230673517525094,-0.735152508178566
2.2646,-0.231358635451039,-0.734480762196699
2.2648,-0.232043145670414,-0.733806886473726
2.265,-0.232727042321545,-0.73313087555203
2.2652,-0.233410319497483,-0.732452723965732
2.2654,-0.234092971238696,-0.731772426233901
2.2656,-0.234774991540783,-0.731089976865734
2.2658,-0.235456374347163,-0.73040537035676
2.266,-0.236137113552791,-0.729718601193037
2.2662,-0.236817203004843,-0.729029663846357
2.2664,-0.237496636498426,-0.728338552780448
2.2666,-0.238175407777269,-0.727645262446183
2.2668,-0.238853510536421,-0.726949787284792
2.267,-0.23953093841795,-0.726252121726074
2.2672,-0.240207685013632,-0.725552260189616
2.2674,-0.24088374386165,-0.724850197084008
2.2676,-0.241559108450282,-0.724145926810073
2.2678,-0.242233772211595,-0.723439443755087
2.268,-0.242907728528137,-0.722730742301008
2.2682,-0.243580970726622,-0.722019816817709
2.2684,-0.244253492080626,-0.721306661665214
2.2686,-0.244925285810263,-0.720591271196936
2.2688,-0.245596345078889,-0.719873639756913
2.269,-0.246266662997769,-0.71915376167906
2.2692,-0.246936232619777,-0.71843163129141
2.2694,-0.247605046946072,-0.71770724291137
2.2696,-0.248273098916783,-0.716980590849973
2.2698,-0.248940381418692,-0.716251669411133
2.27,-0.249606887280915,-0.715520472889911
2.2702,-0.250272609276584,-0.714786995574771
2.2704,-0.250937540118524,-0.714051231749861
2.2706,-0.251601672463933,-0.713313175688267
2.2708,-0.252264998910063,-0.712572821659303
2.271,-0.252927511996891,-0.71183016392778
2.2712,-0.253589204202803,-0.711085196748288
2.2714,-0.254250067948263,-0.710337914374487
2.2716,-0.254910095594495,-0.709588311051387
2.2718,-0.255569279441148,-0.708836381020649
2.272,-0.256227611726982,-0.708082118519876
2.2722,-0.256885084630528,-0.707325517779912
2.2724,-0.257541690267767,-0.706566573030152
2.2726,-0.258197420693804,-0.705805278493841
2.2728,-0.25885226789953,-0.705041628392389
2.273,-0.259506223815304,-0.704275616943686
2.2732,-0.260159280307609,-0.703507238361422
2.2734,-0.260811429178734,-0.702736486858408
2.2736,-0.261462662168434,-0.701963356643901
2.2738,-0.2621129709506,-0.701187841925939
2.274,-0.262762347134928,-0.700409936910672
2.2742,-0.263410782266583,-0.699629635801702
2.2744,-0.26405826782487,-0.698846932805427
2.2746,-0.264704795222892,-0.698061822123387
2.2748,-0.265350355807225,-0.697274297957611
2.275,-0.265994940858572,-0.696484354512984
2.2752,-0.26663635581344,-0.69569410865759
2.2754,-0.267276797894793,-0.694901462403092
2.2756,-0.26791625846672,-0.694106409807089
2.2758,-0.268554728821104,-0.693308944929493
2.276,-0.269192200183274,-0.692509061826907
2.2762,-0.269828663707677,-0.691706754558
2.2764,-0.270464110477536,-0.690902017180904
2.2766,-0.271098531503515,-0.69009484375359
2.2768,-0.271731917729379,-0.689285228337275
2.277,-0.272364260022654,-0.688473164992818
2.2772,-0.272995549180296,-0.687658647785116
2.2774,-0.273625775928345,-0.686841670778528
2.2776,-0.274254930917592,-0.686022228044271
2.2778,-0.274883004725235,-0.685200313653854
2.278,-0.275509987855547,-0.684375921681486
2.2782,-0.276135870737529,-0.683549046209518
2.2784,-0.276760643728583,-0.682719681321861
2.2786,-0.277384297105162,-0.681887821106437
2.2788,-0.278006821074437,-0.681053459660614
2.279,-0.27862820576296,-0.680216591083648
2.2792,-0.279248441223323,-0.67937720948315
2.2794,-0.27986751742882,-0.678535308973526
2.2796,-0.280485424279113,-0.677690883676455
2.2798,-0.281102151592888,-0.676843927720345
2.28,-0.281717689112526,-0.675994435242809
2.2802,-0.282332026500757,-0.675142400390148
2.2804,-0.282945153342333,-0.674287817316824
2.2806,-0.283557059142683,-0.673430680188959
2.2808,-0.284167733325583,-0.672570983181818
2.281,-0.28477716523782,-0.671708720481319
2.2812,-0.285385344141855,-0.670843886284526
2.2814,-0.285992259222492,-0.66997647480117
2.2816,-0.286597899581541,-0.669106480253154
2.2818,-0.287202254238489,-0.668233896873082
2.282,-0.287805312130163,-0.66735871891078
2.2822,-0.288407062113404,-0.666480940625831
2.2824,-0.289007492958732,-0.665600556297112
2.2826,-0.28960659335602,-0.664717560213333
2.2828,-0.29020435190716,-0.663831946682594
2.283,-0.290800757134738,-0.662943710027934
2.2832,-0.291395797473707,-0.662052844589893
2.2834,-0.291989461273059,-0.66115934472408
2.2836,-0.292581736797505,-0.660263204807741
2.2838,-0.293172612227142,-0.659364419233342
2.284,-0.293762075653138,-0.65846298241415
2.2842,-0.294350115081407,-0.657558888782827
2.2844,-0.29493671842929,-0.65665213279302
2.2846,-0.295521873528233,-0.65574270891897
2.2848,-0.296105568121471,-0.654830611655118
2.285,-0.296687789862715,-0.653915835520716
2.2852,-0.29726852631783,-0.652998375056455
2.2854,-0.29784776496353,-0.652078224828084
2.2856,-0.298425493185057,-0.651155379422053
2.2858,-0.299001698280879,-0.65022983345414
2.286,-0.299576367457376,-0.649301581563114
2.2862,-0.300149487830538,-0.64837061841337
2.2864,-0.300721046423654,-0.6474369386996
2.2866,-0.301291030172013,-0.646500537140456
2.2868,-0.301859425914608,-0.645561408485214
2.287,-0.302426220402821,-0.644619547510468
2.2872,-0.302991400291146,-0.6436749490238
2.2874,-0.303554952144878,-0.642727607863483
2.2876,-0.304116344941829,-0.64177952021117
2.2878,-0.304675599629035,-0.640830697077608
2.288,-0.305233231696464,-0.639879137132348
2.2882,-0.30578922756374,-0.638924834954456
2.2884,-0.306343573553849,-0.637967785155253
2.2886,-0.306896255888867,-0.637007982380032
2.2888,-0.307447260696672,-0.636045421305811
2.289,-0.30799657400168,-0.635080096647071
2.2892,-0.308544181732563,-0.634112003150514
2.2894,-0.309090069716981,-0.633141135602821
2.2896,-0.309634223683322,-0.63216748882442
2.2898,-0.310176629259426,-0.631191057674265
2.29,-0.310717271972336,-0.630211837050607
2.2902,-0.311256137249028,-0.6292298218928
2.2904,-0.311793210413169,-0.62824500717608
2.2906,-0.312328476689853,-0.627257387922582
2.2908,-0.312861921200366,-0.62626695919224
2.291,-0.313393528963928,-0.625273716089815
2.2912,-0.313923284896462,-0.624277653763617
2.2914,-0.314451173812354,-0.623278767406831
2.2916,-0.314977180422214,-0.622277052258271
2.2918,-0.315501289331655,-0.621272503603314
2.292,-0.316023485045058,-0.620265116774769
2.2922,-0.316543751961358,-0.619254887153927
2.2924,-0.31706207437382,-0.618241810171638
2.2926,-0.317578436471827,-0.617225881308595
2.2928,-0.318092822340671,-0.616207096097203
2.293,-0.318605215958346,-0.615185450121792
2.2932,-0.319115601198351,-0.614160939020003
2.2934,-0.319623961828488,-0.613133558483406
2.2936,-0.320130281508675,-0.612103304259109
2.2938,-0.320634543794756,-0.611070172149791
2.294,-0.321136732133321,-0.610034158015825
2.2942,-0.321636829865526,-0.608995257775126
2.2944,-0.322134820224923,-0.607953467405256
2.2946,-0.322630686337293,-0.606908782943584
2.2948,-0.323124411219482,-0.60586120048884
2.295,-0.323615977783247,-0.604810716201926
2.2952,-0.324105368830102,-0.603757326307106
2.2954,-0.324592567051177,-0.602701027092773
2.2956,-0.325077555034071,-0.601641814912992
2.2958,-0.325560315251723,-0.600579686188174
2.296,-0.326040830072286,-0.599514637406377
2.2962,-0.326519081751996,-0.59844666512404
2.2964,-0.326995052439067,-0.597375765967799
2.2966,-0.327468724170569,-0.596301936634732
2.2968,-0.327940078874337,-0.595225173894194
2.297,-0.328409098368862,-0.594145474588576
2.2972,-0.328875764362208,-0.593062835634365
2.2974,-0.329340058449927,-0.591977254023603
2.2976,-0.32980196211998,-0.590888726824778
2.2978,-0.330261456747667,-0.589797251184194
2.298,-0.330718523597566,-0.588702824326879
2.2982,-0.331173143825476,-0.587605443558072
2.2984,-0.331625298472366,-0.586505106264043
2.2986,-0.33207496847134,-0.585401809913599
2.2988,-0.332522134641596,-0.584295552059625
2.299,-0.332966777692406,-0.583186330338709
2.2992,-0.333408878222097,-0.582074142474477
2.2994,-0.333848416716036,-0.580958986277763
2.2996,-0.334285373547636,-0.579840859647247
2.2998,-0.334719728980355,-0.57871976057364
2.3,-0.335151463163718,-0.577595687134843
2.3002,-0.335584352878332,-0.576476640345144
2.3004,-0.336014690564926,-0.5753545848724
2.3006,-0.336442455852382,-0.574229518066252
2.3008,-0.3368676282518,-0.573101437371303
2.301,-0.337290187154538,-0.571970340333371
2.3012,-0.337710111832293,-0.570836224596692
2.3014,-0.338127381434174,-0.569699087906158
2.3016,-0.33854197499279,-0.568558928110554
2.3018,-0.338953871420346,-0.567415743162813
2.302,-0.339363049507747,-0.566269531119276
2.3022,-0.339769487928718,-0.565120290145951
2.3024,-0.340173165234927,-0.56396801851579
2.3026,-0.340574059860128,-0.562812714609964
2.3028,-0.340972150118298,-0.561654376922168
2.303,-0.341367414203805,-0.560493004057908
2.3032,-0.341759830192568,-0.559328594738805
2.3034,-0.342149376040243,-0.558161147799923
2.3036,-0.34253602958541,-0.556990662192071
2.3038,-0.342919768545775,-0.55581713698815
2.304,-0.343300570521384,-0.554640571376486
2.3042,-0.343678412994845,-0.553460964670177
2.3044,-0.34405327332857,-0.552278316304436
2.3046,-0.344425128768019,-0.551092625836969
2.3048,-0.344793956441957,-0.549903892954338
2.305,-0.345159733358735,-0.548712117468335
2.3052,-0.345522436411567,-0.547517299319372
2.3054,-0.345882042375833,-0.546319438579865
2.3056,-0.346238527910388,-0.545118535454646
2.3058,-0.346591869555881,-0.543914590279363
2.306,-0.346942043740095,-0.542707603527901
2.3062,-0.3472890267713,-0.54149757580879
2.3064,-0.347632794844605,-0.540284507870657
2.3066,-0.347973324038346,-0.539068400598648
2.3068,-0.348310590315469,-0.537849255023879
2.307,-0.348644569526938,-0.536627072316884
2.3072,-0.348975237406153,-0.535401853795075
2.3074,-0.349302569575379,-0.53417360092121
2.3076,-0.349626541543198,-0.532942315306866
2.3078,-0.34994712870297,-0.53170799871092
2.308,-0.350264306337305,-0.530470653046034
2.3082,-0.350578049616565,-0.529230280376138
2.3084,-0.35088833360036,-0.527986882919953
2.3086,-0.351195133235077,-0.526740463053482
2.3088,-0.351498423359416,-0.525491023309532
2.309,-0.35179817869795,-0.524238566380214
2.3092,-0.352094373869683,-0.522983095118498
2.3094,-0.352386983382647,-0.521724612540728
2.3096,-0.3526759816365,-0.520463121829162
2.3098,-0.352961342925148,-0.519198626330522
2.31,-0.353243041432377,-0.517931129559531
2.3102,-0.353521051236511,-0.516660635200487
2.3104,-0.353795346311076,-0.515387147110818
2.3106,-0.354065900522492,-0.514110669318646
2.3108,-0.354332687635781,-0.512831206029355
2.311,-0.354595681307281,-0.511548761622184
2.3112,-0.354854855095393,-0.510263340655803
2.3114,-0.355110182452342,-0.508974947870896
2.3116,-0.355361636729945,-0.50768358818677
2.3118,-0.355609191180419,-0.506389266708928
2.312,-0.355852818953185,-0.505091988724695
2.3122,-0.356092493102708,-0.503791759713821
2.3124,-0.356328186580346,-0.502488585338083
2.3126,-0.356559872243226,-0.501182471456915
2.3128,-0.35678752285013,-0.499873424117008
2.313,-0.357011111064411,-0.49856144955996
2.3132,-0.357230609456922,-0.497246554226885
2.3134,-0.357445990500967,-0.495928744751054
2.3136,-0.357657226578275,-0.494608027970516
2.3138,-0.357864289980989,-0.49328441092076
2.314,-0.35806715290668,-0.491957900842334
2.3142,-0.358265787465383,-0.490628505180504
2.3144,-0.358460165678648,-0.489296231586898
2.3146,-0.358650259477621,-0.487961087922135
2.3148,-0.358836040710136,-0.486623082255515
2.315,-0.359017481136842,-0.485282222870644
2.3152,-0.359194552433336,-0.483938518264103
2.3154,-0.359367226193334,-0.482591977148091
2.3156,-0.359535473926851,-0.481242608453105
2.3158,-0.359699267066416,-0.479890421327589
2.316,-0.359858576961295,-0.478535425141594
2.3162,-0.360013374883751,-0.477177629490454
2.3164,-0.360163632030322,-0.475817044192417
2.3166,-0.360309319520116,-0.474453679290356
2.3168,-0.360450408398138,-0.473087545060393
2.317,-0.360586869637638,-0.47171865200459
2.3172,-0.360718674138484,-0.470347010860584
2.3174,-0.360845792730551,-0.468972632597283
2.3176,-0.36096819617715,-0.467595528420506
2.3178,-0.361085855171464,-0.466215709773652
2.318,-0.361198740342022,-0.464833188339365
2.3182,-0.361306822252191,-0.463447976041173
2.3184,-0.361410071404694,-0.462060085047173
2.3186,-0.361508458239156,-0.460669527768667
2.3188,-0.36160195313567,-0.459276316863821
2.319,-0.361690526415393,-0.457880465239312
2.3192,-0.361774148346169,-0.456481986052967
2.3194,-0.361852789137173,-0.455080892714433
2.3196,-0.36192641894858,-0.453677198884786
2.3198,-0.361995007885273,-0.452270918485193
2.32,-0.362058526005556,-0.450862065689513
2.3202,-0.362116943318917,-0.449450654934966
2.3204,-0.362170229787797,-0.448036700917722
2.3206,-0.362218355332403,-0.446620218595532
2.3208,-0.362261289828534,-0.445201223193347
2.321,-0.362299003113443,-0.443779730200902
2.3212,-0.362331464985725,-0.442355755375346
2.3214,-0.36235864520623,-0.44092931474582
2.3216,-0.362380513502006,-0.439500424610044
2.3218,-0.362397039567267,-0.438069101542899
2.322,-0.362408193066392,-0.436635362390007
2.3222,-0.362413943633951,-0.435199224277284
2.3224,-0.362414260878762,-0.433760704606512
2.3226,-0.362409114386966,-0.432319821059874
2.3228,-0.362398473719145,-0.430876591604497
2.323,-0.362382308420461,-0.429431034486984
2.3232,-0.36236058801382,-0.427983168240942
2.3234,-0.362333282009073,-0.426533011686473
2.3236,-0.362300359903242,-0.425080583933701
2.3238,-0.362261791180776,-0.423625904381228
2.324,-0.362217545318831,-0.422168992718639
2.3242,-0.362167591787592,-0.42070986893096
2.3244,-0.362111900054607,-0.419248553297109
2.3246,-0.362050439583169,-0.417785066392331
2.3248,-0.361983179841711,-0.416319429091644
2.325,-0.361910090299242,-0.414851662569239
2.3252,-0.361850207998809,-0.41337917990089
2.3254,-0.361784436143989,-0.411904354644335
2.3256,-0.361712741869406,-0.410427208696646
2.3258,-0.36163509232529,-0.408947764278593
2.326,-0.361551454671052,-0.407466043937987
2.3262,-0.361461796086903,-0.405982070548999
2.3264,-0.361366083771486,-0.404495867314463
2.3266,-0.36126428494756,-0.40300745776618
2.3268,-0.361156366860692,-0.401516865769193
2.327,-0.361042296787997,-0.400024115521029
2.3272,-0.360922042036896,-0.398529231552955
2.3274,-0.360795569949913,-0.397032238732173
2.3276,-0.360662847905496,-0.395533162264044
2.3278,-0.360523843324872,-0.394032027691255
2.328,-0.360378523670931,-0.392528860895979
2.3282,-0.360226856455143,-0.391023688101017
2.3284,-0.360068809236498,-0.389516535873903
2.3286,-0.359904349630487,-0.388007431124014
2.3288,-0.359733445305102,-0.386496401103635
2.329,-0.359556063990879,-0.38498347341501
2.3292,-0.359372173478953,-0.383468676004356
2.3294,-0.359181741629169,-0.381952037168886
2.3296,-0.358984736367193,-0.380433585551766
2.3298,-0.358781125694682,-0.37891335014908
2.33,-0.35857087768746,-0.377391360307755
2.3302,-0.358353960500739,-0.37586764572844
2.3304,-0.358130342375367,-0.374342236464411
2.3306,-0.357899991636098,-0.372815162922398
2.3308,-0.357662876698004,-0.371286455868407
2.331,-0.357418966070605,-0.369756146420502
2.3312,-0.357168228360036,-0.368224266056577
2.3314,-0.356910632273239,-0.366690846613082
2.3316,-0.356646146621389,-0.365155920284723
2.3318,-0.356374740323941,-0.363619519627129
2.332,-0.356096382411814,-0.362081677554491
2.3322,-0.355811042031401,-0.360542427344177
2.3324,-0.355518688448302,-0.359001802635296
2.3326,-0.355219291051296,-0.357459837430242
2.3328,-0.354912819355443,-0.35591656609421
2.333,-0.354599243006855,-0.354372023355646
2.3332,-0.354278531785918,-0.352826244309715
2.3334,-0.353950655611393,-0.35127926441568
2.3336,-0.353615584544448,-0.349731119496291
2.3338,-0.353273288792284,-0.348181845744084
2.334,-0.352923738712499,-0.346631479715708
2.3342,-0.352566904816792,-0.345080058333161
2.3344,-0.352202757775169,-0.343527618897008
2.3346,-0.351831268420086,-0.341974199046571
2.3348,-0.351452407750105,-0.34041983683204
2.335,-0.35106614693449,-0.338864570626608
2.3352,-0.350672457317413,-0.337308439206498
2.3354,-0.350271310420595,-0.335751481690996
2.3356,-0.349862677950568,-0.334193737592414
2.3358,-0.349446531800457,-0.332635246766026
2.336,-0.349022844054399,-0.33107604945996
2.3362,-0.348591586991565,-0.329516186265038
2.3364,-0.348152733093224,-0.327955698164573
2.3366,-0.347706255042813,-0.326394626484122
2.3368,-0.347252125733046,-0.324833012941202
2.337,-0.346790318271031,-0.323270899614954
2.3372,-0.346320805978415,-0.321708328945748
2.3374,-0.345843562401547,-0.320145343734763
2.3376,-0.345358561311659,-0.318581987163494
2.3378,-0.344865776709075,-0.317018302783234
2.338,-0.344365182832435,-0.3154543344845
2.3382,-0.343856754155934,-0.313890126556396
2.3384,-0.34334046540258,-0.312325723635932
2.3386,-0.342816291539476,-0.310761170717306
2.3388,-0.342284207789121,-0.309196513161123
2.339,-0.341744189630709,-0.307631796703554
2.3392,-0.341196212806473,-0.30606706743546
