"Freq [GHz]","re(S(Antenna1_1_1,Antenna1_1_1)) []","im(S(Antenna1_1_1,Antenna1_1_1)) []"
2.25,-0.178376903293399,-0.783038202280505
2.2502,-0.179125044886647,-0.782528438040021
2.2504,-0.17987309522407,-0.782016702935398
2.2506,-0.180621049935522,-0.781502991126588
2.2508,-0.181368904615855,-0.780987296761884
2.251,-0.182116654819713,-0.780469613978383
2.2512,-0.18286429606631,-0.779949936901437
2.2514,-0.183611823839226,-0.779428259645514
2.2516,-0.184359233580179,-0.77890457631356
2.2518,-0.185106520697819,-0.778378880997554
2.252,-0.1858536805585,-0.777851167778277
2.2522,-0.186600708492069,-0.77732143072587
2.2524,-0.187347599791642,-0.776789663899203
2.2526,-0.18809434970838,-0.776255861346741
2.2528,-0.188840953455272,-0.775720017106104
2.253,-0.189587406208905,-0.775182125204348
2.2532,-0.190333703102244,-0.774642179658127
2.2534,-0.191079839230402,-0.774100174473367
2.2536,-0.191825809650416,-0.773556103646138
2.2538,-0.192571609376013,-0.773009961162133
2.254,-0.193317233382386,-0.772461740997136
2.2542,-0.194062676603962,-0.771911437115207
2.2544,-0.194807933933166,-0.771359043474159
2.2546,-0.195553000222194,-0.770804554019633
2.2548,-0.196297870282769,-0.770247962686189
2.255,-0.197042538882919,-0.769689263402383
2.2552,-0.197787000750725,-0.769128450083853
2.2554,-0.198531250570095,-0.768565516639409
2.2556,-0.199275282985521,-0.768000456967116
2.2558,-0.200019092596834,-0.767433264957388
2.256,-0.200762673960972,-0.766863934490077
2.2562,-0.201506021593723,-0.76629245943557
2.2564,-0.202249129964501,-0.765718833658874
2.2566,-0.20299199350208,-0.765143051012728
2.2568,-0.203734606589364,-0.764565105342684
2.257,-0.204476963566129,-0.763984990487219
2.2572,-0.205219058727778,-0.763402700273834
2.2574,-0.205960886326096,-0.762818228524151
2.2576,-0.206702440564988,-0.762231569051027
2.2578,-0.207443715607239,-0.761642715659655
2.258,-0.208184705567251,-0.761051662146675
2.2582,-0.208925404514794,-0.760458402301282
2.2584,-0.209665806473747,-0.759862929906343
2.2586,-0.210405905423842,-0.759265238736508
2.2588,-0.211145695294409,-0.758665322559324
2.259,-0.21188516997011,-0.758063175135358
2.2592,-0.212624323290687,-0.757458790218314
2.2594,-0.213363149046691,-0.756852161554155
2.2596,-0.214101640980227,-0.756243282884228
2.2598,-0.214839792786683,-0.75563214794239
2.26,-0.215577598115472,-0.755018750455135
2.2602,-0.216315050564761,-0.754403084144721
2.2604,-0.217052143685202,-0.753785142726311
2.2606,-0.217788870979669,-0.753164919909097
2.2608,-0.218525225900982,-0.752542409397441
2.261,-0.219261201851639,-0.751917604890016
2.2612,-0.219996792188544,-0.75129050007994
2.2614,-0.220731990212732,-0.750661088653924
2.2616,-0.221466789181094,-0.750029364295414
2.2618,-0.222201182295103,-0.749395320682742
2.262,-0.222935162708537,-0.748758951490267
2.2622,-0.223668723524199,-0.748120250385541
2.2624,-0.22440185779164,-0.747479211033443
2.2626,-0.225134875521875,-0.746836186392357
2.2628,-0.225867776990107,-0.746191165555313
2.263,-0.226600240481439,-0.745543781278157
2.2632,-0.227332258793593,-0.744894027120714
2.2634,-0.228063824671626,-0.74424189663595
2.2636,-0.228794930805638,-0.743587383377143
2.2638,-0.229525569831495,-0.742930480893052
2.264,-0.23025573433253,-0.742271182730094
2.2642,-0.23098541683626,-0.741609482433514
2.2644,-0.231714609815094,-0.740945373546567
2.2646,-0.232443305687039,-0.740278849609699
2.2648,-0.233171496813414,-0.739609904160726
2.265,-0.233899175502545,-0.73893853074003
2.2652,-0.234626334004483,-0.738264722881732
2.2654,-0.235352964512696,-0.737588474123901
2.2656,-0.236079059166783,-0.736909777999734
2.2658,-0.236804610046163,-0.73622862804376
2.266,-0.237529609174791,-0.735545017792037
2.2662,-0.238254048519843,-0.734858940777357
2.2664,-0.238977919988426,-0.734170390533448
2.2666,-0.239701215432969,-0.733479360597183
2.2668,-0.240423926644521,-0.732785844503792
2.267,-0.24114604535695,-0.732089835788074
2.2672,-0.241867563244832,-0.731391327989616
2.2674,-0.24258847192355,-0.730690314647008
2.2676,-0.243308762948882,-0.729986789301073
2.2678,-0.244028427816895,-0.729280745494088
2.268,-0.244747457963537,-0.728572176772008
2.2682,-0.245465844764122,-0.727861076680709
2.2684,-0.246183579533326,-0.727147438773214
2.2686,-0.246900653524763,-0.726431256599936
2.2688,-0.247617057930789,-0.725712523718913
2.269,-0.248332783881869,-0.72499123368906
2.2692,-0.249047822446677,-0.72426738007541
2.2694,-0.249762164631572,-0.72354095644537
2.2696,-0.250475801380383,-0.722811956371973
2.2698,-0.251188723573892,-0.722080373431133
2.27,-0.251900922029715,-0.721346201205911
2.2702,-0.252612387502184,-0.720609433282771
2.2704,-0.253323110681424,-0.719870063255861
2.2706,-0.254033082193733,-0.719128084722267
2.2708,-0.254742292600863,-0.718383491288303
2.271,-0.255450732399791,-0.71763627656478
2.2712,-0.256158392022403,-0.716886434169288
2.2714,-0.256865261835363,-0.716133957728487
2.2716,-0.257571332139295,-0.715378840874387
2.2718,-0.258276593169148,-0.714621077246649
2.272,-0.258981035093482,-0.713860660495876
2.2722,-0.259684648013928,-0.713097584276912
2.2724,-0.260387421965667,-0.712331842257152
2.2726,-0.261089346916004,-0.711563428109841
2.2728,-0.26179041276513,-0.710792335521389
2.273,-0.262490609345204,-0.710018558182686
2.2732,-0.263189926419909,-0.709242089800422
2.2734,-0.263888353684734,-0.708462924088408
2.2736,-0.264585880766034,-0.707681054771901
2.2738,-0.2652824972213,-0.706896475586939
2.274,-0.265978192538028,-0.706109180282672
2.2742,-0.266672956134283,-0.705319162617702
2.2744,-0.26736677735797,-0.704526416365427
2.2746,-0.268059645486292,-0.703730935310387
2.2748,-0.268751549725825,-0.702932713250611
2.275,-0.269442479212172,-0.702131743997984
2.2752,-0.27013366160234,-0.70132838237859
2.2754,-0.270823854165493,-0.700522246997092
2.2756,-0.27151304570042,-0.699713331634089
2.2758,-0.272201224933404,-0.698901630084493
2.276,-0.272888380517074,-0.698087136161907
2.2762,-0.273574501030377,-0.697269843695
2.2764,-0.274259574978536,-0.696449746528904
2.2766,-0.274943590792415,-0.69562683852859
2.2768,-0.275626536827979,-0.694801113575275
2.277,-0.276308401366654,-0.693972565568817
2.2772,-0.276989172614596,-0.693141188428116
2.2774,-0.277668838702045,-0.692306976092528
2.2776,-0.278347387683892,-0.691469922518272
2.2778,-0.279024807538435,-0.690630021685854
2.278,-0.279701086167647,-0.689787267593486
2.2782,-0.280376211396829,-0.688941654260518
2.2784,-0.281050170973883,-0.688093175729861
2.2786,-0.281722952569463,-0.687241826064437
2.2788,-0.282394543776437,-0.686387599350614
2.279,-0.28306493210966,-0.685530489698648
2.2792,-0.283734105005523,-0.684670491240149
2.2794,-0.28440204982172,-0.683807598131526
2.2796,-0.285068753837013,-0.682941804556455
2.2798,-0.285734204250888,-0.682073104718345
2.28,-0.286398388183046,-0.681201492850809
2.2802,-0.287061292673457,-0.680326963211148
2.2804,-0.287722904681713,-0.679449510082824
2.2806,-0.288383211086913,-0.678569127777959
2.2808,-0.289042198687263,-0.677685810634818
2.281,-0.289699854199825,-0.676799553020319
2.2812,-0.290356164260165,-0.675910349329526
2.2814,-0.291011115422082,-0.67501819398817
2.2816,-0.291664694157281,-0.674123081450154
2.2818,-0.292316886855069,-0.673225006199082
2.282,-0.292967679822053,-0.67232396275078
2.2822,-0.293617059281804,-0.671419945651831
2.2824,-0.294265011374732,-0.670512949481112
2.2826,-0.29491152215752,-0.669602968849332
2.2828,-0.29555657760286,-0.668689998400594
2.283,-0.296200163599338,-0.667774032813934
2.2832,-0.296842265951207,-0.666855066798893
2.2834,-0.297482870377659,-0.66593309510408
2.2836,-0.298121962512905,-0.665008112510741
2.2838,-0.298759527905642,-0.664080113838342
2.284,-0.299395552019238,-0.66314909394115
2.2842,-0.300030020230607,-0.662215047710827
2.2844,-0.30066291783079,-0.66127797007802
2.2846,-0.301294230024033,-0.66033785601197
2.2848,-0.301923941927971,-0.659394700520118
2.285,-0.302552038572815,-0.658448498648716
2.2852,-0.30317850490163,-0.657499245487455
2.2854,-0.30380332576963,-0.656546936165084
2.2856,-0.304426485944157,-0.655591565851052
2.2858,-0.305047970104279,-0.65463312976014
2.286,-0.305667762840576,-0.653671623148114
2.2862,-0.306285848654638,-0.65270704131537
2.2864,-0.306902211959254,-0.6517393796056
2.2866,-0.307516837077613,-0.650768633409456
2.2868,-0.308129708243507,-0.649794798161214
2.287,-0.308740809600821,-0.648817869344468
2.2872,-0.309350125203046,-0.6478378424878
2.2874,-0.309957639013478,-0.646854713167483
2.2876,-0.310564171880229,-0.645868256107169
2.2878,-0.311169706075735,-0.644878450783608
2.288,-0.311773387647964,-0.643885508429348
2.2882,-0.31237519999844,-0.642889424821456
2.2884,-0.312975126437149,-0.641890195791253
2.2886,-0.313573150181967,-0.640887817224032
2.2888,-0.314169254358772,-0.639882285057811
2.289,-0.31476342200068,-0.638873595289071
2.2892,-0.315355636048363,-0.637861743969514
2.2894,-0.315945879349481,-0.636846727205821
2.2896,-0.316534134658522,-0.63582854116442
2.2898,-0.317120384636926,-0.634807182071265
2.29,-0.317704611852236,-0.633782646209607
2.2902,-0.318286798778328,-0.6327549299238
2.2904,-0.318866927795169,-0.63172402962008
2.2906,-0.319444981188553,-0.630689941765382
2.2908,-0.320020941149866,-0.62965266288914
2.291,-0.320594789775828,-0.628612189586115
2.2912,-0.321166509068563,-0.627568518513217
2.2914,-0.321736080935054,-0.626521646393331
2.2916,-0.322303487187214,-0.625471570017171
2.2918,-0.322868709541655,-0.624418286240114
2.292,-0.323431729619058,-0.623361791987069
2.2922,-0.323992528946358,-0.622302084249327
2.2924,-0.32455108895082,-0.621239160090438
2.2926,-0.325107390967827,-0.620173016642095
2.2928,-0.325661416233671,-0.619103651111003
2.293,-0.326213145889346,-0.618031060770793
2.2932,-0.326762560980351,-0.616955242973903
2.2934,-0.327309642453488,-0.615876195142506
2.2936,-0.327854371159675,-0.614793914777409
2.2938,-0.328396727854756,-0.613708399451991
2.294,-0.328936693194321,-0.612619646819125
2.2942,-0.329474247738526,-0.611527654608126
2.2944,-0.330009371949923,-0.610432420629696
2.2946,-0.330542046193293,-0.609333942770874
2.2948,-0.331072250738482,-0.60823221900101
2.295,-0.331599965753247,-0.607127247373726
2.2952,-0.332125171310102,-0.606019026020906
2.2954,-0.332647847384177,-0.604907553161673
2.2956,-0.333167973852071,-0.603792827098392
2.2958,-0.333685530491723,-0.602674846220674
2.296,-0.334200496984286,-0.601553609002377
2.2962,-0.334712852910996,-0.60042911400864
2.2964,-0.335222577756067,-0.599301359891899
2.2966,-0.335729650905569,-0.598170345392932
2.2968,-0.336234051646337,-0.597036069345894
2.297,-0.336735759167862,-0.595898530676377
2.2972,-0.337234752561208,-0.594757728402465
2.2974,-0.337731010816927,-0.593613661638803
2.2976,-0.33822451282898,-0.592466329590678
2.2978,-0.338715237393667,-0.591315731565094
2.298,-0.339203163205566,-0.59016186696288
2.2982,-0.339688268864476,-0.589004735285772
2.2984,-0.340170532868366,-0.587844336133543
2.2986,-0.34064993361934,-0.586680669207099
2.2988,-0.341126449418596,-0.585513734311625
2.299,-0.341600058471406,-0.584343531351709
2.2992,-0.342070738882097,-0.583170060338477
2.2994,-0.342538468659036,-0.581993321388763
2.2996,-0.343003225709636,-0.580813314725247
2.2998,-0.343464987845355,-0.57963004067864
2.3,-0.343923732777718,-0.578443499688843
2.3002,-0.344381532262332,-0.577250706214144
2.3004,-0.344836235257926,-0.5760546141354
2.3006,-0.345287818853382,-0.574855224523252
2.3008,-0.3457362600438,-0.573652538561303
2.301,-0.346181535725538,-0.572446557554371
2.3012,-0.346623622701293,-0.571237282923692
2.3014,-0.347062497680174,-0.570024716213158
2.3016,-0.34749813727379,-0.568808859085554
2.3018,-0.347930517999346,-0.567589713327813
2.302,-0.348359616279747,-0.566367280848276
2.3022,-0.348785408444718,-0.565141563683951
2.3024,-0.349207870726927,-0.56391256399579
2.3026,-0.349626979266128,-0.562680284072964
2.3028,-0.350042710108298,-0.561444726332168
2.303,-0.350455039207805,-0.560205893322907
2.3032,-0.350863942421568,-0.558963787724805
2.3034,-0.351269395515243,-0.557718412348923
2.3036,-0.35167137416241,-0.556469770141071
2.3038,-0.352069853942775,-0.555217864185151
2.304,-0.352464810345384,-0.553962697696487
2.3042,-0.352856218764845,-0.552704274033177
2.3044,-0.35324405450457,-0.551442596690436
2.3046,-0.353628292778019,-0.550177669303969
2.3048,-0.354008908705957,-0.548909495651338
2.305,-0.354385877319735,-0.547638079655335
2.3052,-0.354759173558567,-0.546363425380372
2.3054,-0.355128772273833,-0.545085537040865
2.3056,-0.355494648224388,-0.543804418994646
2.3058,-0.355856776082881,-0.542520075752363
2.306,-0.356215130431095,-0.541232511969901
2.3062,-0.3565696857623,-0.53994173246079
2.3064,-0.356920416481605,-0.538647742186657
2.3066,-0.357267296909346,-0.537350546265648
2.3068,-0.357610301274469,-0.536050149971879
2.307,-0.357949403722938,-0.534746558735884
2.3072,-0.358284578312153,-0.533439778148075
2.3074,-0.358615799014379,-0.53212981395821
2.3076,-0.358943039716198,-0.530816672077866
2.3078,-0.35926627422197,-0.52950035858192
2.308,-0.359585476250305,-0.528180879710034
2.3082,-0.359900619434565,-0.526858241866138
2.3084,-0.36021167732836,-0.525532451622953
2.3086,-0.360518623401077,-0.524203515722482
2.3088,-0.360821431040416,-0.522871441076532
2.309,-0.36112007355295,-0.521536234769214
2.3092,-0.361414524165683,-0.520197904058498
2.3094,-0.361704756024647,-0.518856456373728
2.3096,-0.3619907421975,-0.517511899326162
2.3098,-0.362272455672148,-0.516164240701522
2.31,-0.362549869360377,-0.514813488465531
2.3102,-0.362822956095511,-0.513459650764487
2.3104,-0.363091688634076,-0.512102735928818
2.3106,-0.363356039660492,-0.510742752470646
2.3108,-0.363615981779781,-0.509379709089354
2.311,-0.363871487525281,-0.508013614671184
2.3112,-0.364122529356393,-0.506644478290803
2.3114,-0.364369079661342,-0.505272309212896
2.3116,-0.364611110754945,-0.50389711689277
2.3118,-0.364848594882418,-0.502518910981928
2.312,-0.365081504219185,-0.501137701324695
2.3122,-0.365309810871708,-0.499753497961821
2.3124,-0.365533486876346,-0.498366311133083
2.3126,-0.365752504206226,-0.496976151276915
2.3128,-0.36596683476513,-0.495583029033008
2.313,-0.366176450393411,-0.49418695524496
2.3132,-0.366381322864922,-0.492787940959785
2.3134,-0.366581423893967,-0.491385997429754
2.3136,-0.366776725129275,-0.489981136115816
2.3138,-0.366967198160989,-0.48857336868786
2.314,-0.36715281451668,-0.487162707026134
2.3142,-0.367333545667383,-0.485749163223604
2.3144,-0.367509363024648,-0.484332749586998
2.3146,-0.367680237945621,-0.482913478638435
2.3148,-0.367846141728137,-0.481491363117616
2.315,-0.368007045619842,-0.480066415982544
2.3152,-0.368162920812336,-0.478638650411903
2.3154,-0.368313738445334,-0.477208079806291
2.3156,-0.368459469610851,-0.475774717789905
2.3158,-0.368600085347416,-0.474338578212089
2.316,-0.368735556649295,-0.472899675149294
2.3162,-0.368865854459751,-0.471458022906054
2.3164,-0.368990949680322,-0.470013636017317
2.3166,-0.369110813167116,-0.468566529249456
2.3168,-0.369225415732138,-0.467116717602393
2.317,-0.369334728148638,-0.46566421631089
2.3172,-0.369438721147484,-0.464209040846084
2.3174,-0.369537365421551,-0.462751206917483
2.3176,-0.36963063162915,-0.461290730474306
2.3178,-0.369718490389464,-0.459827627707252
2.318,-0.369800912290022,-0.458361915049765
2.3182,-0.369877867885191,-0.456893609180073
2.3184,-0.369949327697694,-0.455422727022673
2.3186,-0.370015262224156,-0.453949285749767
2.3188,-0.37007564192967,-0.452473302783021
2.319,-0.370130437255393,-0.450994795795112
2.3192,-0.370179618617169,-0.449513782711367
2.3194,-0.370223156409173,-0.448030281711233
2.3196,-0.37026102100358,-0.446544311230086
2.3198,-0.370293182755273,-0.445055889960593
2.32,-0.370319612000556,-0.443565036854413
2.3202,-0.370340279058917,-0.442071771123746
2.3204,-0.370355154238797,-0.440576112242842
2.3206,-0.370364207833403,-0.439078079949692
2.3208,-0.370367410129534,-0.437577694247498
2.321,-0.370364731403443,-0.436074975406232
2.3212,-0.370356141926725,-0.434569943964206
2.3214,-0.37034161196523,-0.43306262072961
2.3216,-0.370321111783006,-0.431553026782044
2.3218,-0.370294611644267,-0.430041183473899
2.322,-0.370262081815392,-0.428527112432307
2.3222,-0.370223492566951,-0.427010835560084
2.3224,-0.370178814173762,-0.425492375037612
2.3226,-0.370128016919966,-0.423971753324174
2.3228,-0.370071071100145,-0.422448993159597
2.323,-0.370007947021461,-0.420924117565384
2.3232,-0.36993861500582,-0.419397149846742
2.3234,-0.369863045391073,-0.417868113593273
2.3236,-0.369781208535242,-0.416337032681201
2.3238,-0.369693074816776,-0.414803931274328
2.324,-0.369598614638831,-0.413268833825539
2.3242,-0.369497798431592,-0.41173176507826
2.3244,-0.369390596652607,-0.410192750067709
2.3246,-0.369276979790169,-0.408651814122631
2.3248,-0.369156918366711,-0.407108982866344
2.325,-0.369030382940242,-0.405564282217939
2.3252,-0.368892474801809,-0.404011555925689
2.3254,-0.368747942572989,-0.402457068125535
2.3256,-0.368596757408406,-0.400900846521246
2.3258,-0.36843889051529,-0.399342919113693
2.326,-0.368274313158052,-0.397783314203087
2.3262,-0.368102996657903,-0.396222060389299
2.3264,-0.367924912398486,-0.394659186573663
2.3266,-0.36774003182656,-0.39309472196008
2.3268,-0.367548326455692,-0.391528696055793
2.327,-0.367349767867997,-0.389961138672929
2.3272,-0.367144327718896,-0.388392079928955
2.3274,-0.366931977737913,-0.386821550250173
2.3276,-0.366712689731496,-0.385249580369044
2.3278,-0.366486435588872,-0.383676201327255
2.328,-0.366253187279931,-0.382101444476979
2.3282,-0.366012916863143,-0.380525341482016
2.3284,-0.365765596485498,-0.378947924318903
2.3286,-0.365511198385487,-0.377369225275014
2.3288,-0.365249694898102,-0.375789276954635
2.329,-0.364981058455879,-0.37420811227601
2.3292,-0.364705261591953,-0.372625764472356
2.3294,-0.364422276946169,-0.371042267095886
2.3296,-0.364132077264193,-0.369457654013766
2.3298,-0.363834635402682,-0.36787195941408
2.33,-0.36352992433346,-0.366285217803755
2.3302,-0.363217917142739,-0.36469746401044
2.3304,-0.362898587040367,-0.363108733180411
2.3306,-0.362571907358098,-0.361519060783398
2.3308,-0.362237851554904,-0.359928482611407
2.331,-0.361896393219305,-0.358337034780502
2.3312,-0.361547506074736,-0.356744753728577
2.3314,-0.361191163980939,-0.355151676218082
2.3316,-0.360827340939389,-0.353557839336723
2.3318,-0.360456011092741,-0.351963280498129
2.332,-0.360077148733314,-0.350368037442491
2.3322,-0.3596907283036,-0.348772148234177
2.3324,-0.359296724399802,-0.347175651267296
2.3326,-0.358895111778396,-0.345578585260242
2.3328,-0.358485865353733,-0.34398098926221
2.333,-0.358068960207652,-0.342382902648646
2.3332,-0.357644371591138,-0.340784365123715
2.3334,-0.357212074925993,-0.33918541672068
2.3336,-0.356772045811548,-0.337586097802291
2.3338,-0.356324260025384,-0.335986449059084
2.334,-0.355868693530099,-0.334386511511708
2.3342,-0.355405322475092,-0.332786326512161
2.3344,-0.354934123200368,-0.331185935738008
2.3346,-0.354455072242386,-0.329585381200571
2.3348,-0.353968146333905,-0.32798470523904
2.335,-0.35347332241289,-0.326383950521608
2.3352,-0.352970577622413,-0.324783160047498
2.3354,-0.352459889315595,-0.323182377145996
2.3356,-0.351941235061568,-0.321581645473414
2.3358,-0.351414592646457,-0.319981009019026
2.336,-0.350879940079399,-0.31838051209596
2.3362,-0.350337255595565,-0.316780199351038
2.3364,-0.349786517659224,-0.315180115757573
2.3366,-0.349227704972813,-0.313580306617122
2.3368,-0.348660796473046,-0.311980817558202
2.337,-0.348085771342031,-0.310381694537954
2.3372,-0.347502609006415,-0.308782983837748
2.3374,-0.346911289145547,-0.307184732069763
2.3376,-0.346311791692659,-0.305586986167494
2.3378,-0.345704096841075,-0.303989793391234
2.338,-0.345088185046435,-0.3023932013255
2.3382,-0.344464037031934,-0.300797257878396
2.3384,-0.34383163379458,-0.299202011280932
2.3386,-0.343190956604476,-0.297607510085306
2.3388,-0.342541987014121,-0.296013803165123
2.339,-0.341884706858709,-0.294420939714554
2.3392,-0.341219098265473,-0.29282896924846
