"Freq [GHz]","re(S(Tx_p1,Tx_p1)) []","im(S(Tx_p1,Tx_p1)) []"
1,-0.0437373016,-0.2016931538
1.01,-0.05123213172,-0.1999334974
1.02,-0.05868682176,-0.197878444
1.03,-0.06608782453,-0.1955278629
1.04,-0.07342157366,-0.1928823208
1.05,-0.08067451761,-0.1899430782
1.06,-0.08783315337,-0.1867120847
1.07,-0.09488405964,-0.1831919722
1.08,-0.1018139297,-0.1793860478
1.09,-0.1086096034,-0.1752982845
1.1,-0.1152580994,-0.1709333107
1.11,-0.1217466455,-0.1662963989
1.12,-0.1280627097,-0.1613934527
1.13,-0.1341940291,-0.1562309928
1.14,-0.1401286397,-0.150816141
1.15,-0.1458549034,-0.1451566045
1.16,-0.1513615362,-0.1392606575
1.17,-0.1566376336,-0.1331371228
1.18,-0.1616726963,-0.1267953513
1.19,-0.1664566543,-0.1202452019
1.2,-0.1709798901,-0.1134970185
1.21,-0.1752332609,-0.1065616079
1.22,-0.1792081194,-0.09945021547
1.23,-0.1828963339,-0.09217450083
1.24,-0.1862903064,-0.08474651212
1.25,-0.1893829902,-0.07717865987
1.26,-0.1921679061,-0.06948369009
1.27,-0.194639157,-0.06167465676
1.28,-0.1967914413,-0.05376489363
1.29,-0.1986200651,-0.04576798571
1.3,-0.2001209532,-0.03769774006
1.31,-0.2012906578,-0.02956815642
1.32,-0.2021263672,-0.02139339735
1.33,-0.2026259121,-0.01318775817
1.34,-0.2027877707,-0.004965636695
1.35,-0.2026110724,0.003258497197
1.36,-0.2020956004,0.01147013203
1.37,-0.2012417925,0.01965474525
1.38,-0.2000507404,0.02779783366
1.39,-0.1985241882,0.03588494377
1.4,-0.1966645288,0.04390170193
1.41,-0.1944747994,0.05183384428
1.42,-0.1919586752,0.0596672463
1.43,-0.1891204624,0.0673879521
1.44,-0.1859650892,0.07498220325
1.45,-0.1824980957,0.08243646704
1.46,-0.178725623,0.08973746437
1.47,-0.1746544001,0.09687219687
1.48,-0.1702917304,0.1038279735
1.49,-0.1656454769,0.1105924362
1.5,-0.1607240457,0.1171535853
1.51,-0.155536369,0.1234998036
1.52,-0.1500918868,0.1296198794
1.53,-0.1444005275,0.1355030298
1.54,-0.1384726875,0.1411389215
1.55,-0.13231921,0.1465176917
1.56,-0.1259513632,0.1516299676
1.57,-0.1193808167,0.1564668849
1.58,-0.1126196181,0.1610201049
1.59,-0.1056801685,0.1652818309
1.6,-0.09857519724,0.1692448233
1.61,-0.091317736,0.1729024133
1.62,-0.08392109257,0.1762485157
1.63,-0.07639882391,0.17927764
1.64,-0.06876470878,0.1819849008
1.65,-0.06103272007,0.1843660265
1.66,-0.05321699665,0.1864173671
1.67,-0.04533181514,0.1881358998
1.68,-0.03739156128,0.1895192347
1.69,-0.02941070129,0.1905656182
1.7,-0.02140375308,0.1912739349
1.71,-0.0133852574,0.1916437089
1.72,-0.005369749134,0.1916751038
1.73,0.002628271439,0.1913689202
1.74,0.01059436715,0.1907265935
1.75,0.01851419224,0.1897501893
1.76,0.02637352046,0.1884423979
1.77,0.03415827271,0.1868065279
1.78,0.04185454442,0.1848464973
1.79,0.04944863242,0.1825668253
1.8,0.05692706135,0.1799726211
1.81,0.06427660944,0.1770695724
1.82,0.07148433382,0.1738639332
1.83,0.07853759508,0.170362509
1.84,0.08542408114,0.1665726429
1.85,0.09213183039,0.1625021988
1.86,0.09864925408,0.1581595446
1.87,0.1049651578,0.1535535347
1.88,0.111068762,0.1486934906
1.89,0.116949722,0.1435891814
1.9,0.1225981464,0.1382508032
1.91,0.1280046151,0.1326889578
1.92,0.133160196,0.1269146302
1.93,0.1380564605,0.1209391666
1.94,0.1426854986,0.1147742502
1.95,0.1470399318,0.1084318776
1.96,0.1511129259,0.1019243341
1.97,0.1548982022,0.09526416855
1.98,0.1583900476,0.08846416836
1.99,0.161583323,0.08153733314
2,0.1644734719,0.07449684882
2.01,0.167056526,0.06735606118
2.02,0.169329111,0.06012844924
2.03,0.1712884507,0.0528275985
2.04,0.1729323694,0.04546717409
2.05,0.174259294,0.03806089386
2.06,0.1752682541,0.03062250153
2.07,0.1759588813,0.02316573984
2.08,0.1763314072,0.01570432394
2.09,0.1763866603,0.008251914867
2.1,0.1761260612,0.0008220933045
2.11,0.1755516178,-0.006571666385
2.12,0.1746659177,-0.01391602177
2.13,0.1734721212,-0.02119778759
2.14,0.1719739519,-0.0284039605
2.15,0.1701756866,-0.03552174342
2.16,0.1680821448,-0.04253856923
2.17,0.165698676,-0.04944212397
2.18,0.1630311469,-0.05622036938
2.19,0.1600859275,-0.06286156472
2.2,0.1568698757,-0.069354288
2.21,0.1533903219,-0.07568745632
2.22,0.1496550519,-0.0818503455
2.23,0.1456722896,-0.08783260885
2.24,0.1414506788,-0.09362429516
2.25,0.1369992636,-0.09921586562
2.26,0.1323274695,-0.1045982101
2.27,0.1274450822,-0.109762662
2.28,0.1223622273,-0.1147010131
2.29,0.1170893483,-0.1194055258
2.3,0.111637185,-0.1238689461
2.31,0.1060167505,-0.1280845145
2.32,0.1002393089,-0.1320459761
2.33,0.09431635155,-0.1357475893
2.34,0.08825957384,-0.1391841343
2.35,0.08208085122,-0.1423509198
2.36,0.07579221527,-0.1452437883
2.37,0.06940582949,-0.1478591215
2.38,0.06293396502,-0.1501938433
2.39,0.05638897635,-0.1522454228
2.4,0.04978327694,-0.154011875
2.41,0.04312931498,-0.1554917616
2.42,0.03643954914,-0.1566841903
2.43,0.02972642456,-0.1575888122
2.44,0.02300234896,-0.1582058197
2.45,0.01627966904,-0.158535942
2.46,0.009570647125,-0.1585804403
2.47,0.002887438147,-0.1583411013
2.48,-0.003757932968,-0.1578202309
2.49,-0.01035359353,-0.1570206456
2.5,-0.01688784482,-0.1559456635
2.51,-0.02334918339,-0.1545990949
2.52,-0.02972632173,-0.152985231
2.53,-0.03600820841,-0.1511088323
2.54,-0.04218404762,-0.1489751162
2.55,-0.04824331802,-0.1465897436
2.56,-0.05417579093,-0.1439588049
2.57,-0.05997154778,-0.1410888049
2.58,-0.06562099687,-0.1379866474
2.59,-0.07111488928,-0.1346596191
2.6,-0.07644433401,-0.1311153725
2.61,-0.08160081236,-0.1273619084
2.62,-0.08657619133,-0.1234075583
2.63,-0.09136273627,-0.1192609655
2.64,-0.0959531226,-0.1149310663
2.65,-0.1003404466,-0.1104270704
2.66,-0.1045182354,-0.1057584414
2.67,-0.1084804557,-0.1009348766
2.68,-0.1122215222,-0.09596628647
2.69,-0.1157363042,-0.09086277387
2.7,-0.1190201323,-0.0856346135
2.71,-0.1220688028,-0.08029223061
2.72,-0.1248785829,-0.07484617994
2.73,-0.1274462128,-0.06930712443
2.74,-0.129768909,-0.06368581399
2.75,-0.131844365,-0.0579930642
2.76,-0.133670752,-0.05223973519
2.77,-0.1352467179,-0.04643671043
2.78,-0.1365713863,-0.04059487587
2.79,-0.1376443541,-0.03472509908
2.8,-0.1384656874,-0.02883820874
2.81,-0.1390359183,-0.02294497431
2.82,-0.1393560389,-0.01705608607
2.83,-0.1394274962,-0.01118213539
2.84,-0.1392521845,-0.005333595538
2.85,-0.1388324382,0.0004791972899
2.86,-0.1381710234,0.006246062339
2.87,-0.1372711286,0.01195699228
2.88,-0.1361363549,0.01760217063
2.89,-0.1347707053,0.0231719887
2.9,-0.1331785732,0.02865706188
2.91,-0.1313647309,0.03404824542
2.92,-0.1293343164,0.03933664952
2.93,-0.1270928207,0.04451365384
2.94,-0.1246460738,0.04957092124
2.95,-0.1220002304,0.05450041096
2.96,-0.1191617552,0.05929439096
2.97,-0.1161374076,0.06394544965
2.98,-0.1129342261,0.06844650676
2.99,-0.1095595122,0.07279082355
3,-0.1060208139,0.0769720122
3.01,-0.1023259091,0.08098404441
3.02,-0.0984827888,0.08482125925
3.03,-0.09449963938,0.08847837014
3.04,-0.09038482555,0.09195047112
3.05,-0.0861468726,0.09523304223
3.06,-0.08179444869,0.09832195411
3.07,-0.07733634705,0.1012134718
3.08,-0.07278146807,0.1039042577
3.09,-0.06813880141,0.1063913739
3.1,-0.06341740818,0.108672283
3.11,-0.05862640306,0.1107448496
3.12,-0.05377493661,0.1126073392
3.13,-0.04887217766,0.1142584176
3.14,-0.04392729587,0.1156971493
3.15,-0.03894944451,0.1169229946
3.16,-0.03394774338,0.1179358065
3.17,-0.02893126211,0.1187358268
3.18,-0.02390900368,0.1193236812
3.19,-0.0188898882,0.1197003742
3.2,-0.01388273719,0.1198672826
3.21,-0.008896258091,0.1198261491
3.22,-0.003939029258,0.1195790751
3.23,0.0009805146536,0.1191285121
3.24,0.005854096835,0.1184772538
3.25,0.010673612,0.1176284265
3.26,0.01543113956,0.11658548
3.27,0.0201189563,0.1153521768
3.28,0.0247295485,0.1139325818
3.29,0.02925562348,0.1123310512
3.3,0.03369012067,0.1105522211
3.31,0.03802622193,0.108600995
3.32,0.04225736147,0.1064825322
3.33,0.04637723498,0.1042022347
3.34,0.05037980823,0.1017657345
3.35,0.05425932507,0.09917888008
3.36,0.05801031469,0.09644772326
3.37,0.0616275983,0.09357850523
3.38,0.06510629518,0.09057764277
3.39,0.068441828,0.08745171419
3.4,0.07162992757,0.08420744514
3.41,0.07466663687,0.0808516943
3.42,0.07754831445,0.07739143908
3.43,0.08027163719,0.07383376122
3.44,0.08283360237,0.07018583239
3.45,0.08523152913,0.0664548998
3.46,0.08746305928,0.06264827192
3.47,0.08952615747,0.0587733042
3.48,0.09141911076,0.05483738494
3.49,0.09314052753,0.05084792128
3.5,0.09468933586,0.04681232534
3.51,0.09606478123,0.04273800057
3.52,0.09726642371,0.03863232829
3.53,0.09829413458,0.03450265447
3.54,0.09914809235,0.03035627673
3.55,0.0998287783,0.02620043169
3.56,0.1003369715,0.02204228258
3.57,0.1006737434,0.01788890713
3.58,0.1008404515,0.0137472859
3.59,0.1008387336,0.009624290852
3.6,0.1006705002,0.005526674411
3.61,0.1003379276,0.001461058824
3.62,0.09984345033,-0.002566074017
3.63,0.09918975266,-0.006548392346
3.64,0.0983797606,-0.01047972387
3.65,0.09741663292,-0.01435406464
3.66,0.09630375219,-0.0181655875
3.67,0.09504471537,-0.02190865005
3.68,0.09364332426,-0.02557780213
3.69,0.09210357563,-0.02916779282
3.7,0.09042965117,-0.03267357697
3.71,0.08862590721,-0.03609032121
3.72,0.08669686436,-0.03941340948
3.73,0.08464719692,-0.04263844806
3.74,0.08248172216,-0.04576127005
3.75,0.08020538962,-0.04877793945
3.76,0.07782327021,-0.05168475462
3.77,0.07534054531,-0.0544782513
3.78,0.07276249588,-0.05715520513
3.79,0.07009449149,-0.05971263369
3.8,0.06734197942,-0.06214779799
3.81,0.06451047381,-0.06445820351
3.82,0.06160554481,-0.06664160079
3.83,0.05863280786,-0.06869598552
3.84,0.0555979131,-0.07061959814
3.85,0.05250653478,-0.07241092304
3.86,0.04936436097,-0.07406868731
3.87,0.04617708332,-0.07559185897
3.88,0.04295038699,-0.07697964495
3.89,0.03968994087,-0.07823148846
3.9,0.03640138791,-0.07934706614
3.91,0.03309033572,-0.08032628469
3.92,0.02976234739,-0.08116927726
3.93,0.02642293259,-0.08187639934
3.94,0.02307753891,-0.08244822446
3.95,0.01973154351,-0.08288553945
3.96,0.016390245,-0.08318933945
3.97,0.01305885568,-0.08336082264
3.98,0.00974249407,-0.08340138462
3.99,0.006446177758,-0.08331261265
4,0.003174816555,-0.08309627953
4.01,-6.67939792E-05,-0.08275433732
4.02,-0.003273978701,-0.08228891088
4.03,-0.006442188689,-0.08170229113
4.04,-0.0095670067,-0.08099692825
4.05,-0.01264415228,-0.08017542461
4.06,-0.01566948653,-0.07924052767
4.07,-0.01863901645,-0.07819512271
4.08,-0.02154889905,-0.07704222542
4.09,-0.02439544496,-0.07578497453
4.1,-0.02717512178,-0.0744266242
4.11,-0.02988455705,-0.07297053651
4.12,-0.03252054082,-0.07142017384
4.13,-0.03508002794,-0.06977909127
4.14,-0.03756013999,-0.06805092891
4.15,-0.03995816675,-0.06623940433
4.16,-0.04227156755,-0.06434830496
4.17,-0.04449797206,-0.06238148058
4.18,-0.04663518092,-0.0603428358
4.19,-0.04868116594,-0.05823632267
4.2,-0.05063407007,-0.05606593336
4.21,-0.052492207,-0.05383569294
4.22,-0.05425406052,-0.05154965223
4.23,-0.05591828353,-0.04921188083
4.24,-0.05748369683,-0.04682646026
4.25,-0.05894928762,-0.04439747722
4.26,-0.06031420772,-0.04192901702
4.27,-0.06157777156,-0.0394251572
4.28,-0.06273945398,-0.03688996128
4.29,-0.06379888771,-0.03432747269
4.3,-0.06475586068,-0.03174170891
4.31,-0.06561031317,-0.02913665581
4.32,-0.06636233471,-0.02651626215
4.33,-0.0670121608,-0.0238844343
4.34,-0.06756016949,-0.02124503123
4.35,-0.06800687782,-0.01860185958
4.36,-0.06835293805,-0.01595866911
4.37,-0.06859913382,-0.01331914823
4.38,-0.06874637615,-0.01068691986
4.39,-0.06879569938,-0.008065537418
4.4,-0.06874825694,-0.005458481138
4.41,-0.06860531708,-0.002869154523
4.42,-0.06836825856,-0.0003008810846
4.43,-0.0680385662,0.002243098724
4.44,-0.06761782643,0.004759630332
4.45,-0.0671077228,0.007245647655
4.46,-0.06651003141,0.009698175486
4.47,-0.06582661642,0.01211433165
4.48,-0.06505942542,0.01449132897
4.49,-0.06421048493,0.01682647699
4.5,-0.06328189581,0.01911718349
4.51,-0.06227582875,0.02136095585
4.52,-0.06119451975,0.02355540213
4.53,-0.06004026567,0.02569823202
4.54,-0.05881541982,0.02778725759
4.55,-0.05752238755,0.02982039382
4.56,-0.05616362198,0.031795659
4.57,-0.05474161972,0.03371117493
4.58,-0.05325891673,0.03556516695
4.59,-0.05171808421,0.03735596386
4.6,-0.05012172459,0.03908199762
4.61,-0.04847246761,0.04074180294
4.62,-0.04677296648,0.04233401674
4.63,-0.04502589419,0.0438573775
4.64,-0.04323393981,0.04531072438
4.65,-0.04139980503,0.04669299641
4.66,-0.0395262007,0.04800323136
4.67,-0.03761584354,0.04924056471
4.68,-0.03567145291,0.05040422834
4.69,-0.03369574779,0.05149354931
4.7,-0.03169144372,0.05250794842
4.71,-0.02966125002,0.05344693879
4.72,-0.02760786698,0.05431012432
4.73,-0.02553398328,0.05509719811
4.74,-0.02344227345,0.05580794088
4.75,-0.02133539548,0.05644221924
4.76,-0.01921598851,0.05699998403
4.77,-0.01708667067,0.05748126854
4.78,-0.01495003698,0.05788618678
4.79,-0.01280865743,0.05821493169
4.8,-0.01066507508,0.05846777334
4.81,-0.008521804282,0.05864505711
4.82,-0.006381329081,0.05874720189
4.83,-0.004246101587,0.05877469831
4.84,-0.002118540523,0.05872810686
4.85,-1.029834393E-06,0.05860805617
4.86,0.00210408262,0.05841524119
4.87,0.004194486291,0.05815042146
4.88,0.006267909083,0.05781441932
4.89,0.00832211844,0.05740811824
4.9,0.01035492234,0.0569324611
4.91,0.01236417026,0.05638844856
4.92,0.01434775404,0.05577713735
4.93,0.01630360872,0.05509963878
4.94,0.01822971332,0.05435711705
4.95,0.02012409161,0.05355078781
4.96,0.02198481271,0.0526819166
4.97,0.02380999186,0.05175181742
4.98,0.02559779095,0.05076185125
4.99,0.02734641916,0.04971342472
5,0.02905413351,0.04860798868
5.01,0.03071923939,0.04744703692
5.02,0.03234009115,0.04623210482
5.03,0.03391509252,0.04496476816
5.04,0.03544269719,0.04364664179
5.05,0.03692140927,0.04227937849
5.06,0.03834978381,0.04086466774
5.07,0.03972642724,0.0394042346
5.08,0.04104999792,0.0378998385
5.09,0.04231920661,0.03635327222
5.1,0.04353281694,0.03476636066
5.11,0.044689646,0.03314095986
5.12,0.04578856477,0.03147895582
5.13,0.04682849873,0.02978226347
5.14,0.04780842832,0.02805282558
5.15,0.04872738959,0.02629261171
5.16,0.04958447469,0.02450361706
5.17,0.05037883251,0.02268786146
5.18,0.05110966923,0.02084738821
5.19,0.05177624899,0.01898426303
5.2,0.05237789446,0.01710057286
5.21,0.05291398751,0.01519842478
5.22,0.05338396988,0.01327994477
5.23,0.0537873438,0.01134727657
5.24,0.05412367268,0.009402580401
5.25,0.05439258179,0.007448031739
5.26,0.05459375898,0.005485819985
5.27,0.05472695528,0.003518147138
5.28,0.05479198569,0.001547226414
5.29,0.05478872979,-0.0004247191847
5.3,0.05471713247,-0.002395458338
5.31,0.05457720456,-0.004362752932
5.32,0.05436902354,-0.006324359633
5.33,0.05409273416,-0.008278031508
5.34,0.05374854906,-0.01022151971
5.35,0.0533367494,-0.0121525752
5.36,0.05285768541,-0.01406895057
5.37,0.05231177697,-0.01596840184
5.38,0.05169951412,-0.0178486904
5.39,0.05102145751,-0.01970758499
5.4,0.05027823886,-0.02154286365
5.41,0.04947056131,-0.02335231591
5.42,0.04859919981,-0.0251337448
5.43,0.04766500133,-0.02688496915
5.44,0.04666888513,-0.02860382577
5.45,0.04561184287,-0.03028817179
5.46,0.04449493869,-0.03193588698
5.47,0.04331930925,-0.03354487619
5.48,0.04208616361,-0.03511307176
5.49,0.04079678312,-0.03663843605
5.5,0.03945252112,-0.03811896394
5.51,0.03805480264,-0.03955268544
5.52,0.03660512397,-0.04093766827
5.53,0.03510505209,-0.04227202052
5.54,0.0335562241,-0.04355389332
5.55,0.03196034641,-0.0447814835
5.56,0.03031919394,-0.04595303634
5.57,0.02863460914,-0.04706684825
5.58,0.02690850092,-0.04812126954
5.59,0.02514284344,-0.04911470715
5.6,0.0233396748,-0.05004562733
5.61,0.02150109564,-0.05091255843
5.62,0.0196292675,-0.05171409358
5.63,0.01772641122,-0.05244889339
5.64,0.01579480508,-0.05311568858
5.65,0.01383678285,-0.05371328267
5.66,0.01185473176,-0.05424055454
5.67,0.009851090286,-0.05469646097
5.68,0.007828345813,-0.05508003918
5.69,0.005789032204,-0.05539040923
5.7,0.003735727212,-0.05562677641
5.71,0.00167104978,-0.05578843355
5.72,-0.0004023427883,-0.05587476323
5.73,-0.002481757777,-0.05588523995
5.74,-0.004564470126,-0.05581943213
5.75,-0.00664772562,-0.05567700414
5.76,-0.008728744186,-0.05545771807
5.77,-0.01080472331,-0.0551614355
5.78,-0.01287284154,-0.05478811912
5.79,-0.01493026213,-0.05433783422
5.8,-0.01697413675,-0.05381075005
5.81,-0.0190016093,-0.05320714107
5.82,-0.0210098198,-0.052527388
5.83,-0.02299590841,-0.0517719788
5.84,-0.02495701946,-0.05094150942
5.85,-0.02689030562,-0.05003668447
5.86,-0.02879293205,-0.04905831766
5.87,-0.03066208073,-0.04800733211
5.88,-0.03249495471,-0.04688476046
5.89,-0.03428878253,-0.04569174487
5.9,-0.03604082253,-0.04442953675
5.91,-0.03774836735,-0.04309949636
5.92,-0.03940874836,-0.04170309225
5.93,-0.04101934008,-0.04024190042
5.94,-0.0425775647,-0.03871760341
5.95,-0.04408089649,-0.03713198911
5.96,-0.0455268663,-0.03548694937
5.97,-0.04691306593,-0.0337844785
5.98,-0.04823715261,-0.0320266715
5.99,-0.04949685327,-0.0302157221
6,-0.05068996893,-0.02835392064
