"Freq [GHz]","re(S(Tx_p1,Tx_p1)) []","im(S(Tx_p1,Tx_p1)) []"
1,0.007710758458,-0.09559506389
1.01,0.004837835296,-0.09555755563
1.02,0.001962909096,-0.09543579158
1.03,-0.0009108569478,-0.09522936617
1.04,-0.003780317133,-0.09493803858
1.05,-0.006642350879,-0.09456172667
1.06,-0.00949386981,-0.09410050081
1.07,-0.01233182429,-0.09355457746
1.08,-0.01515320943,-0.09292431276
1.09,-0.01795507053,-0.09221019599
1.1,-0.02073450803,-0.0914128429
1.11,-0.02348868195,-0.09053298913
1.12,-0.02621481573,-0.08957148358
1.13,-0.02891019972,-0.08852928175
1.14,-0.03157219403,-0.08740743925
1.15,-0.03419823105,-0.08620710523
1.16,-0.03678581738,-0.08492951611
1.17,-0.03933253542,-0.0835759892
1.18,-0.04183604449,-0.0821479167
1.19,-0.04429408157,-0.08064675967
1.2,-0.0467044616,-0.07907404235
1.21,-0.0490650775,-0.07743134656
1.22,-0.05137389977,-0.07572030643
1.23,-0.05362897581,-0.07394260331
1.24,-0.05582842895,-0.07209996094
1.25,-0.05797045716,-0.07019414095
1.26,-0.06005333158,-0.06822693855
1.27,-0.06207539476,-0.06620017864
1.28,-0.06403505878,-0.06411571208
1.29,-0.06593080308,-0.06197541237
1.3,-0.06776117228,-0.05978117264
1.31,-0.0695247738,-0.05753490289
1.32,-0.07122027541,-0.05523852767
1.33,-0.07284640269,-0.05289398391
1.34,-0.07440193647,-0.05050321927
1.35,-0.07588571029,-0.04806819064
1.36,-0.07729660778,-0.04559086304
1.37,-0.07863356018,-0.04307320882
1.38,-0.07989554381,-0.04051720711
1.39,-0.08108157771,-0.03792484361
1.4,-0.08219072135,-0.03529811064
1.41,-0.08322207244,-0.03263900742
1.42,-0.08417476492,-0.02994954066
1.43,-0.08504796711,-0.02723172536
1.44,-0.08584088003,-0.02448758577
1.45,-0.0865527359,-0.02171915667
1.46,-0.08718279691,-0.01892848471
1.47,-0.08773035416,-0.01611763
1.48,-0.08819472688,-0.0132886678
1.49,-0.08857526185,-0.01044369034
1.5,-0.08887133317,-0.007584808714
1.51,-0.08908234219,-0.004714154918
1.52,-0.0892077178,-0.001833883857
1.53,-0.08924691695,0.001053824561
1.54,-0.08919942548,0.003946763347
1.55,-0.08906475921,0.006842696374
1.56,-0.08884246531,0.009739356345
1.57,-0.08853212398,0.01263444285
1.58,-0.08813335039,0.01552562048
1.59,-0.08764579687,0.0184105171
1.6,-0.08706915537,0.0212867222
1.61,-0.0864031602,0.02415178545
1.62,-0.08564759101,0.02700321542
1.63,-0.08480227593,0.02983847846
1.64,-0.08386709505,0.03265499789
1.65,-0.08284198396,0.03545015334
1.66,-0.08172693763,0.03822128037
1.67,-0.08052201431,0.04096567042
1.68,-0.0792273397,0.04368057093
1.69,-0.07784311115,0.04636318593
1.7,-0.07636960206,0.04901067678
1.71,-0.07480716629,0.05162016336
1.72,-0.07315624269,0.05418872552
1.73,-0.0714173596,0.05671340493
1.74,-0.06959113948,0.05919120728
1.75,-0.06767830338,0.0616191048
1.76,-0.06567967554,0.06399403917
1.77,-0.06359618777,0.06631292484
1.78,-0.06142888384,0.06857265261
1.79,-0.05917892377,0.07077009371
1.8,-0.05684758789,0.07290210412
1.81,-0.05443628082,0.0749655293
1.82,-0.05194653524,0.07695720933
1.83,-0.04938001539,0.07887398426
1.84,-0.0467385204,0.08071269991
1.85,-0.04402398731,0.08247021393
1.86,-0.04123849381,0.08414340221
1.87,-0.03838426069,0.0857291655
1.88,-0.03546365388,0.08722443642
1.89,-0.03247918624,0.08862618666
1.9,-0.02943351886,0.08993143439
1.91,-0.02632946205,0.09113725195
1.92,-0.02316997589,0.09224077372
1.93,-0.0199581703,0.09323920413
1.94,-0.01669730472,0.09412982583
1.95,-0.0133907873,0.094910008
1.96,-0.01004217366,0.09557721474
1.97,-0.006655165065,0.09612901349
1.98,-0.003233606239,0.09656308357
1.99,0.0002185174335,0.09687722464
2,0.00369708315,0.09706936516
2.01,0.007197834463,0.09713757086
2.02,0.01071638556,0.09708005303
2.03,0.01424822606,0.09689517678
2.04,0.01778872632,0.09658146907
2.05,0.02133314321,0.09613762664
2.06,0.02487662648,0.09556252368
2.07,0.02841422551,0.09485521929
2.08,0.03194089662,0.09401496467
2.09,0.03545151079,0.09304120995
2.1,0.03894086193,0.09193361079
2.11,0.04240367548,0.09069203451
2.12,0.04583461749,0.08931656594
2.13,0.04922830416,0.0878075128
2.14,0.05257931165,0.08616541058
2.15,0.05588218634,0.08439102709
2.16,0.05913145542,0.08248536639
2.17,0.06232163777,0.0804496723
2.18,0.06544725513,0.07828543129
2.19,0.06850284356,0.0759943749
2.2,0.07148296508,0.0735784815
2.21,0.07438221958,0.07103997755
2.22,0.07719525685,0.06838133816
2.23,0.07991678873,0.06560528713
2.24,0.08254160143,0.06271479626
2.25,0.08506456785,0.05971308408
2.26,0.08748065998,0.05660361394
2.27,0.08978496126,0.05339009142
2.28,0.09197267896,0.05007646105
2.29,0.0940391564,0.04666690246
2.3,0.09597988515,0.04316582579
2.31,0.097790517,0.0395778665
2.32,0.09946687584,0.03590787947
2.33,0.1010049692,0.03216093251
2.34,0.1024009997,0.02834229924
2.35,0.103651376,0.02445745125
2.36,0.1047527235,0.02051204978
2.37,0.105701895,0.0165119367
2.38,0.1064959802,0.01246312499
2.39,0.1071323158,0.008371788571
2.4,0.1076084939,0.004244251664
2.41,0.1079223713,8.697761522E-05
2.42,0.1080720772,-0.004093442787
2.43,0.1080560206,-0.008290303455
2.44,0.1078728976,-0.01249679558
2.45,0.1075216976,-0.01670602063
2.46,0.1070017086,-0.02091100372
2.47,0.1063125231,-0.02510470733
2.48,0.1054540418,-0.02928004535
2.49,0.1044264775,-0.03342989737
2.5,0.1032303583,-0.03754712328
2.51,0.1018665297,-0.04162457799
2.52,0.1003361561,-0.04565512641
2.53,0.09864072179,-0.04963165848
2.54,0.09678203083,-0.05354710435
2.55,0.09476220651,-0.0573944496
2.56,0.09258368976,-0.06116675044
2.57,0.09024923696,-0.06485714895
2.58,0.08776191698,-0.06845888817
2.59,0.08512510735,-0.07196532714
2.6,0.08234248979,-0.0753699558
2.61,0.0794180449,-0.07866640964
2.62,0.07635604619,-0.08184848421
2.63,0.07316105326,-0.08491014925
2.64,0.06983790441,-0.08784556264
2.65,0.06639170839,-0.09064908391
2.66,0.06282783557,-0.09331528742
2.67,0.05915190839,-0.09583897509
2.68,0.05536979119,-0.09821518874
2.69,0.0514875794,-0.1004392218
2.7,0.04751158813,-0.1025066308
2.71,0.04344834016,-0.1044132458
2.72,0.03930455348,-0.1061551809
2.73,0.03508712817,-0.1077288434
2.74,0.03080313292,-0.1091309431
2.75,0.02645979105,-0.1103585004
2.76,0.0220644661,-0.1114088537
2.77,0.01762464707,-0.1122796666
2.78,0.01314793328,-0.1129689337
2.79,0.008642018955,-0.113474986
2.8,0.004114677539,-0.1137964961
2.81,-0.0004262542551,-0.1139324813
2.82,-0.004972892545,-0.1138823071
2.83,-0.009517322553,-0.1136456893
2.84,-0.01405161497,-0.1132226959
2.85,-0.01856784242,-0.1126137471
2.86,-0.02305809589,-0.1118196158
2.87,-0.02751450121,-0.1108414263
2.88,-0.03192923545,-0.1096806527
2.89,-0.03629454318,-0.1083391163
2.9,-0.04060275267,-0.1068189822
2.91,-0.04484629184,-0.1051227555
2.92,-0.04901770403,-0.1032532761
2.93,-0.05310966348,-0.1012137128
2.94,-0.05711499054,-0.09900755756
2.95,-0.06102666654,-0.09663861779
2.96,-0.06483784826,-0.09411100869
2.97,-0.06854188206,-0.09142914465
2.98,-0.07213231744,-0.08859773007
2.99,-0.07560292028,-0.08562174942
3,-0.07894768546,-0.08250645678
3.01,-0.08216084899,-0.07925736474
3.02,-0.08523689954,-0.07588023273
3.03,-0.08817058943,-0.07238105484
3.04,-0.09095694494,-0.06876604712
3.05,-0.09359127603,-0.06504163441
3.06,-0.09606918534,-0.06121443672
3.07,-0.09838657654,-0.05729125528
3.08,-0.100539662,-0.05327905812
3.09,-0.1025249696,-0.04918496538
3.1,-0.1043393492,-0.04501623435
3.11,-0.1059799776,-0.04078024424
3.12,-0.1074443638,-0.03648448067
3.13,-0.1087303523,-0.03213652011
3.14,-0.1098361269,-0.02774401409
3.15,-0.1107602125,-0.02331467337
3.16,-0.111501477,-0.018856252
3.17,-0.1120591322,-0.01437653142
3.18,-0.1124327336,-0.009883304536
3.19,-0.1126221799,-0.005384359918
3.2,-0.1126277113,-0.0008874660316
3.21,-0.1124499076,0.003599644351
3.22,-0.1120896848,0.008069289569
3.23,-0.111548292,0.01251385429
3.24,-0.1108273062,0.01692580446
3.25,-0.109928628,0.02129770198
3.26,-0.1088544751,0.02562221909
3.27,-0.1076073765,0.02989215234
3.28,-0.1061901647,0.03410043623
3.29,-0.1046059688,0.03824015644
3.3,-0.1028582053,0.0423045626
3.31,-0.10095057,0.04628708057
3.32,-0.09888702821,0.05018132429
3.33,-0.09667180485,0.05398110705
3.34,-0.0943093741,0.05768045224
3.35,-0.09180444853,0.06127360356
3.36,-0.08916196781,0.06475503462
3.37,-0.08638708704,0.06811945795
3.38,-0.08348516472,0.07136183339
3.39,-0.08046175043,0.07447737588
3.4,-0.07732257213,0.07746156257
3.41,-0.07407352333,0.08031013928
3.42,-0.07072064991,0.08301912639
3.43,-0.06727013687,0.08558482389
3.44,-0.06372829485,0.08800381598
3.45,-0.06010154657,0.09027297476
3.46,-0.05639641316,0.09238946348
3.47,-0.05261950047,0.09435073894
3.48,-0.04877748539,0.09615455332
3.49,-0.04487710212,0.09779895527
3.5,-0.04092512852,0.09928229046
3.51,-0.03692837263,0.1006032013
3.52,-0.03289365916,0.1017606263
3.53,-0.02882781626,0.1027537985
3.54,-0.02473766239,0.1035822433
3.55,-0.02062999348,0.104245776
3.56,-0.01651157019,0.1047444985
3.57,-0.01238910561,0.1050787956
3.58,-0.008269253115,0.1052493304
3.59,-0.004158594603,0.1052570394
3.6,-6.36290532E-05,0.1051031275
3.61,0.004009238552,0.1047890617
3.62,0.008053707918,0.1043165649
3.63,0.01206359373,0.1036876092
3.64,0.0160328355,0.1029044084
3.65,0.01995550706,0.1019694109
3.66,0.02382582546,0.1008852912
3.67,0.02763815954,0.09965494225
3.68,0.03138703793,0.09828146612
3.69,0.03506715664,0.09676816568
3.7,0.03867338607,0.09511853523
3.71,0.04220077756,0.09333625122
3.72,0.04564456945,0.09142516265
3.73,0.04900019259,0.08938928136
3.74,0.05226327535,0.08723277218
3.75,0.05542964812,0.08495994295
3.76,0.05849534725,0.08257523444
3.77,0.06145661855,0.08008321022
3.78,0.06430992025,0.07748854654
3.79,0.06705192539,0.07479602215
3.8,0.06967952383,0.07201050815
3.81,0.07218982364,0.06913695791
3.82,0.07458015214,0.06618039703
3.83,0.07684805636,0.06314591344
3.84,0.0789913031,0.06003864754
3.85,0.08100787849,0.05686378253
3.86,0.08289598722,0.05362653492
3.87,0.08465405118,0.05033214516
3.88,0.08628070788,0.04698586849
3.89,0.08777480836,0.04359296602
3.9,0.08913541476,0.04015869605
3.91,0.09036179755,0.03668830556
3.92,0.09145343244,0.03318702206
3.93,0.09240999689,0.02966004567
3.94,0.09323136646,0.02611254146
3.95,0.09391761075,0.02254963213
3.96,0.09446898918,0.01897639095
3.97,0.09488594646,0.01539783507
3.98,0.0951691079,0.01181891909
3.99,0.09531927451,0.00824452898
4,0.09533741789,0.004679476348
4.01,0.09522467502,0.001128492995
4.02,0.09498234288,-0.002403774165
4.03,0.09461187297,-0.005912767856
4.04,0.09411486571,-0.009394024872
4.05,0.09349306483,-0.01284318017
4.06,0.09274835161,-0.01625597063
4.07,0.09188273917,-0.01962823851
4.08,0.09089836668,-0.02295593456
4.09,0.08979749361,-0.02623512084
4.1,0.08858249395,-0.02946197326
4.11,0.08725585054,-0.03263278373
4.12,0.08582014931,-0.03574396215
4.13,0.08427807374,-0.03879203802
4.14,0.08263239928,-0.04177366185
4.15,0.08088598789,-0.04468560625
4.16,0.0790417827,-0.04752476684
4.17,0.07710280273,-0.05028816288
4.18,0.0750721378,-0.0529729377
4.19,0.0729529435,-0.05557635892
4.2,0.07074843631,-0.05809581846
4.21,0.06846188893,-0.06052883241
4.22,0.06609662564,-0.0628730407
4.23,0.06365601791,-0.0651262066
4.24,0.06114348016,-0.06728621615
4.25,0.0585624656,-0.06935107738
4.26,0.05591646234,-0.07131891947
4.27,0.05320898959,-0.07318799182
4.28,0.05044359402,-0.07495666301
4.29,0.04762384637,-0.07662341971
4.3,0.0447533381,-0.07818686549
4.31,0.0418356783,-0.07964571965
4.32,0.03887449067,-0.080998816
4.33,0.0358734107,-0.08224510154
4.34,0.03283608302,-0.08338363529
4.35,0.02976615881,-0.08441358694
4.36,0.0266672934,-0.08533423567
4.37,0.02354314398,-0.08614496888
4.38,0.02039736743,-0.08684528101
4.39,0.01723361823,-0.08743477236
4.4,0.01405554655,-0.08791314801
4.41,0.01086679631,-0.08828021672
4.42,0.00767100343,-0.08853588995
4.43,0.004471794099,-0.0886801809
4.44,0.001272783095,-0.08871320362
4.45,-0.001922427809,-0.08863517223
4.46,-0.005110251423,-0.08844640018
4.47,-0.008287116684,-0.08814729955
4.48,-0.01144947018,-0.08773838047
4.49,-0.01459377765,-0.08722025065
4.5,-0.01771652555,-0.08659361484
4.51,-0.02081422251,-0.08585927454
4.52,-0.02388340095,-0.08501812763
4.53,-0.02692061865,-0.08407116816
4.54,-0.02992246035,-0.08301948611
4.55,-0.03288553945,-0.08186426731
4.56,-0.03580649977,-0.08060679332
4.57,-0.03868201729,-0.07924844138
4.58,-0.0415088021,-0.07779068439
4.59,-0.0442836003,-0.07623509095
4.6,-0.0470031961,-0.07458332535
4.61,-0.04966441392,-0.07283714763
4.62,-0.05226412067,-0.0709984136
4.63,-0.05479922804,-0.06906907487
4.64,-0.05726669501,-0.06705117884
4.65,-0.05966353037,-0.06494686868
4.66,-0.0619867954,-0.06275838325
4.67,-0.06423360665,-0.06048805696
4.68,-0.06640113883,-0.0581383196
4.69,-0.06848662782,-0.05571169602
4.7,-0.07048737376,-0.05321080583
4.71,-0.07240074432,-0.05063836287
4.72,-0.07422417796,-0.04799717469
4.73,-0.0759551874,-0.04529014184
4.74,-0.0775913631,-0.042520257
4.75,-0.07913037692,-0.03969060407
4.76,-0.08056998574,-0.036804357
4.77,-0.08190803525,-0.03386477848
4.78,-0.08314246379,-0.0308752185
4.79,-0.08427130622,-0.0278391127
4.8,-0.08529269785,-0.02475998047
4.81,-0.08620487839,-0.02164142298
4.82,-0.08700619595,-0.01848712085
4.83,-0.08769511105,-0.01530083171
4.84,-0.08827020063,-0.01208638752
4.85,-0.08873016199,-0.008847691596
4.86,-0.08907381681,-0.005588715532
4.87,-0.08930011504,-0.002313495755
4.88,-0.08940813878,0.0009738700782
4.89,-0.08939710605,0.004269226945
4.9,-0.08926637455,0.007568366565
4.91,-0.08901544521,0.01086703174
4.92,-0.08864396577,0.01416092096
4.93,-0.08815173404,0.0174456932
4.94,-0.08753870122,0.02071697297
4.95,-0.08680497489,0.02397035565
4.96,-0.08595082191,0.02720141298
4.97,-0.0849766711,0.03040569877
4.98,-0.08388311575,0.03357875489
4.99,-0.08267091582,0.03671611742
5,-0.08134099998,0.03981332296
5.01,-0.07989446738,0.04286591521
5.02,-0.07833258917,0.0458694517
5.03,-0.07665680964,0.0488195106
5.04,-0.07486874724,0.05171169782
5.05,-0.07297019515,0.05454165415
5.06,-0.07096312159,0.05730506255
5.07,-0.06884966983,0.05999765555
5.08,-0.06663215781,0.06261522279
5.09,-0.06431307744,0.06515361852
5.1,-0.06189509358,0.0676087693
5.11,-0.05938104258,0.06997668162
5.12,-0.05677393055,0.07225344965
5.13,-0.05407693119,0.07443526291
5.14,-0.05129338325,0.07651841396
5.15,-0.04842678766,0.07849930607
5.16,-0.04548080421,0.0803744608
5.17,-0.04245924789,0.08214052556
5.18,-0.03936608487,0.08379428101
5.19,-0.03620542802,0.08533264838
5.2,-0.03298153215,0.08675269666
5.21,-0.02969878879,0.08805164963
5.22,-0.02636172063,0.08922689268
5.23,-0.02297497567,0.09027597949
5.24,-0.01954332085,0.09119663843
5.25,-0.01607163549,0.09198677879
5.26,-0.01256490432,0.09264449667
5.27,-0.009028210159,0.09316808069
5.28,-0.00546672635,0.09355601729
5.29,-0.001885708813,0.09380699586
5.3,0.001709512145,0.09391991338
5.31,0.005313540304,0.09389387885
5.32,0.008920922276,0.09372821724
5.33,0.01252615648,0.0934224732
5.34,0.01612370236,0.09297641418
5.35,0.01970798978,0.09239003336
5.36,0.02327342864,0.09166355199
5.37,0.02681441862,0.09079742138
5.38,0.03032535915,0.08979232442
5.39,0.03380065937,0.08864917667
5.4,0.03723474833,0.08736912695
5.41,0.04062208519,0.0859535575
5.42,0.0439571695,0.08440408365
5.43,0.04723455152,0.08272255299
5.44,0.05044884254,0.0809110441
5.45,0.05359472516,0.07897186475
5.46,0.0566669636,0.07690754962
5.47,0.05966041388,0.07472085758
5.48,0.06257003394,0.0724147684
5.49,0.06539089366,0.06999247906
5.5,0.06811818468,0.06745739952
5.51,0.07074723018,0.06481314805
5.52,0.07327349434,0.06206354607
5.53,0.07569259166,0.05921261255
5.54,0.07800029609,0.05626455794
5.55,0.08019254977,0.05322377769
5.56,0.08226547165,0.05009484528
5.57,0.08421536571,0.0468825049
5.58,0.08603872885,0.0435916637
5.59,0.08773225853,0.04022738365
5.6,0.08929285996,0.03679487301
5.61,0.09071765295,0.03329947751
5.62,0.09200397833,0.0297466711
5.63,0.09314940401,0.02614204647
5.64,0.09415173056,0.02249130522
5.65,0.09500899633,0.01880024779
5.66,0.09571948219,0.01507476308
5.67,0.09628171568,0.01132081791
5.68,0.09669447478,0.007544446209
5.69,0.09695679114,0.003751738071
5.7,0.09706795273,-5.117139872E-05
5.71,0.09702750615,-0.003858113341
5.72,0.09683525825,-0.00766289652
5.73,0.09649127728,-0.01145931879
5.74,0.09599589358,-0.01524117861
5.75,0.0953496996,-0.01900228662
5.76,0.0945535495,-0.02273647719
5.77,0.09360855818,-0.02643761995
5.78,0.09251609972,-0.03009963133
5.79,0.09127780539,-0.03371648598
5.8,0.08989556102,-0.03728222807
5.81,0.08837150394,-0.04079098254
5.82,0.08670801937,-0.04423696616
5.83,0.08490773625,-0.04761449839
5.84,0.08297352266,-0.05091801211
5.85,0.08090848067,-0.05414206409
5.86,0.07871594076,-0.05728134517
5.87,0.07639945575,-0.0603306903
5.88,0.07396279431,-0.06328508811
5.89,0.07140993397,-0.06613969037
5.9,0.06874505375,-0.06888982094
5.91,0.06597252639,-0.07153098446
5.92,0.0630969102,-0.07405887469
5.93,0.06012294047,-0.07646938237
5.94,0.05705552063,-0.07875860275
5.95,0.05389971301,-0.08092284268
5.96,0.05066072932,-0.08295862726
5.97,0.04734392086,-0.08486270601
5.98,0.0439547684,-0.08663205865
5.99,0.04049887192,-0.0882639003
6,0.03698194005,-0.08975568633
