"Freq [GHz]","re(S(Tx_p1,Tx_p1)) []","im(S(Tx_p1,Tx_p1)) []"
1,-0.003299921301,-0.04935007587
1.01,-0.004847810321,-0.04911141943
1.02,-0.006388982813,-0.0488258379
1.03,-0.007921793147,-0.04849347621
1.04,-0.009444623628,-0.04811454925
1.05,-0.01095588662,-0.04768933765
1.06,-0.01245402632,-0.04721818372
1.07,-0.01393752017,-0.04670148731
1.08,-0.01540487995,-0.04613970194
1.09,-0.01685465262,-0.04553333097
1.1,-0.01828542073,-0.04488292393
1.11,-0.01969580274,-0.04418907302
1.12,-0.02108445292,-0.04345240977
1.13,-0.02245006109,-0.04267360187
1.14,-0.02379135216,-0.04185335026
1.15,-0.02510708541,-0.04099238634
1.16,-0.02639605364,-0.04009146949
1.17,-0.02765708217,-0.03915138473
1.18,-0.02888902767,-0.03817294071
1.19,-0.0300907769,-0.0371569678
1.2,-0.03126124538,-0.03610431657
1.21,-0.03239937595,-0.03501585641
1.22,-0.03350413735,-0.03389247443
1.23,-0.03457452267,-0.0327350746
1.24,-0.03560954794,-0.03154457711
1.25,-0.03660825059,-0.03032191797
1.26,-0.03756968809,-0.02906804886
1.27,-0.03849293654,-0.02778393717
1.28,-0.0393770894,-0.02647056625
1.29,-0.04022125629,-0.02512893589
1.3,-0.0410245619,-0.02376006294
1.31,-0.04178614507,-0.02236498218
1.32,-0.04250515797,-0.02094474726
1.33,-0.04318076547,-0.01950043188
1.34,-0.04381214465,-0.018033131
1.35,-0.04439848452,-0.01654396231
1.36,-0.04493898597,-0.0150340676
1.37,-0.04543286183,-0.01350461441
1.38,-0.04587933723,-0.01195679762
1.39,-0.04627765011,-0.01039184108
1.4,-0.04662705203,-0.008810999324
1.41,-0.04692680912,-0.007215559251
1.42,-0.04717620332,-0.005606841774
1.43,-0.0473745338,-0.003986203453
1.44,-0.04752111863,-0.002355038053
1.45,-0.04761529669,-0.0007147780319
1.46,-0.04765642973,0.0009331040751
1.47,-0.04764390473,0.002587094393
1.48,-0.04757713636,0.004245636578
1.49,-0.04745556974,0.005907130849
1.5,-0.04727868329,0.00756993319
1.51,-0.04704599181,0.009232354745
1.52,-0.04675704966,0.01089266143
1.53,-0.04641145418,0.01254907373
1.54,-0.04600884911,0.01419976682
1.55,-0.04554892822,0.0158428708
1.56,-0.04503143897,0.01747647133
1.57,-0.0444561863,0.01909861046
1.58,-0.04382303641,0.02070728773
1.59,-0.0431319206,0.02230046163
1.6,-0.04238283915,0.02387605128
1.61,-0.04157586515,0.02543193843
1.62,-0.04071114831,0.02696596983
1.63,-0.03978891871,0.02847595976
1.64,-0.03880949051,0.02995969306
1.65,-0.03777326552,0.03141492825
1.66,-0.03668073664,0.03283940114
1.67,-0.0355324912,0.03423082862
1.68,-0.0343292141,0.03558691276
1.69,-0.03307169077,0.03690534521
1.7,-0.03176080991,0.03818381188
1.71,-0.03039756602,0.03941999787
1.72,-0.02898306167,0.04061159259
1.73,-0.02751850949,0.04175629523
1.74,-0.02600523383,0.04285182036
1.75,-0.02444467225,0.04389590373
1.76,-0.02283837648,0.04488630835
1.77,-0.02118801326,0.04582083058
1.78,-0.01949536461,0.04669730651
1.79,-0.01776232793,0.04751361836
1.8,-0.01599091556,0.04826770106
1.81,-0.01418325405,0.04895754882
1.82,-0.01234158302,0.04958122183
1.83,-0.01046825355,0.05013685295
1.84,-0.008565726234,0.05062265437
1.85,-0.006636568775,0.05103692434
1.86,-0.004683453192,0.05137805375
1.87,-0.00270915258,0.05164453266
1.88,-0.000716537477,0.05183495676
1.89,0.001291428199,0.0519480337
1.9,0.003311691607,0.05198258917
1.91,0.005341115856,0.05193757291
1.92,0.007376485258,0.05181206446
1.93,0.009414510981,0.05160527865
1.94,0.01145183706,0.05131657087
1.95,0.01348504676,0.05094544202
1.96,0.01551066934,0.05049154319
1.97,0.01752518703,0.04995467993
1.98,0.01952504246,0.04933481628
1.99,0.02150664626,0.04863207827
2,0.02346638498,0.04784675719
2.01,0.02540062928,0.04697931231
2.02,0.02730574229,0.04603037322
2.03,0.0291780882,0.04500074177
2.04,0.03101404101,0.0438913934
2.05,0.03280999347,0.04270347819
2.06,0.03456236606,0.04143832124
2.07,0.03626761612,0.04009742267
2.08,0.03792224703,0.03868245708
2.09,0.03952281739,0.03719527248
2.1,0.04106595028,0.0356378887
2.11,0.04254834239,0.03401249535
2.12,0.04396677314,0.03232144916
2.13,0.04531811376,0.03056727088
2.14,0.04659933615,0.02875264164
2.15,0.04780752163,0.02688039877
2.16,0.04893986958,0.02495353118
2.17,0.04999370572,0.02297517419
2.18,0.0509664903,0.0209486039
2.19,0.05185582592,0.0188772311
2.2,0.05265946509,0.01676459468
2.21,0.05337531747,0.01461435466
2.22,0.05400145672,0.01243028475
2.23,0.05453612702,0.01021626452
2.24,0.05497774917,0.007976271186
2.25,0.05532492624,0.005714371045
2.26,0.05557644882,0.003434710552
2.27,0.05573129976,0.0011415071
2.28,0.05578865844,-0.001160960492
2.29,0.05574790457,-0.003468361753
2.3,0.0556086214,-0.005776324558
2.31,0.05537059843,-0.008080445333
2.32,0.05503383364,-0.01037629943
2.33,0.05459853502,-0.01265945165
2.34,0.0540651217,-0.01492546686
2.35,0.05343422438,-0.01716992067
2.36,0.05270668522,-0.01938841025
2.37,0.05188355721,-0.021576565
2.38,0.05096610287,-0.02373005735
2.39,0.04995579243,-0.02584461343
2.4,0.04885430142,-0.02791602364
2.41,0.04766350764,-0.02994015314
2.42,0.04638548768,-0.03191295219
2.43,0.04502251274,-0.03383046628
2.44,0.04357704402,-0.03568884604
2.45,0.0420517275,-0.03748435693
2.46,0.04044938828,-0.03921338867
2.47,0.03877302428,-0.04087246426
2.48,0.03702579964,-0.04245824884
2.49,0.03521103748,-0.04396755802
2.5,0.03333221232,-0.04539736592
2.51,0.03139294202,-0.0467448128
2.52,0.02939697938,-0.04800721218
2.53,0.02734820327,-0.0491820576
2.54,0.02525060952,-0.05026702883
2.55,0.0231083014,-0.05125999762
2.56,0.02092547984,-0.05215903293
2.57,0.01870643341,-0.05296240561
2.58,0.016455528,-0.05366859259
2.59,0.01417719637,-0.05427628048
2.6,0.01187592748,-0.05478436856
2.61,0.009556255689,-0.05519197131
2.62,0.007222749864,-0.05549842024
2.63,0.00488000238,-0.05570326525
2.64,0.002532618108,-0.05580627529
2.65,0.0001852033789,-0.05580743853
2.66,-0.002157645027,-0.05570696186
2.67,-0.004491350833,-0.05550526992
2.68,-0.00681136914,-0.05520300341
2.69,-0.009113197165,-0.05480101692
2.7,-0.01139238485,-0.05430037622
2.71,-0.01364454525,-0.05370235492
2.72,-0.01586536479,-0.0530084306
2.73,-0.01805061316,-0.05222028052
2.74,-0.02019615305,-0.05133977667
2.75,-0.02229794955,-0.05036898043
2.76,-0.0243520792,-0.04931013672
2.77,-0.02635473871,-0.04816566768
2.78,-0.02830225336,-0.04693816597
2.79,-0.0301910849,-0.0456303876
2.8,-0.03201783916,-0.04424524439
2.81,-0.03377927308,-0.04278579611
2.82,-0.03547230145,-0.0412552422
2.83,-0.03709400307,-0.03965691329
2.84,-0.03864162644,-0.03799426234
2.85,-0.04011259498,-0.03627085557
2.86,-0.04150451176,-0.03449036317
2.87,-0.04281516366,-0.03265654983
2.88,-0.04404252504,-0.03077326503
2.89,-0.04518476089,-0.0288444333
2.9,-0.04624022938,-0.02687404431
2.91,-0.04720748398,-0.02486614289
2.92,-0.04808527495,-0.02282481903
2.93,-0.04887255031,-0.02075419783
2.94,-0.04956845634,-0.01865842953
2.95,-0.05017233745,-0.01654167953
2.96,-0.0506837356,-0.01440811847
2.97,-0.05110238919,-0.01226191251
2.98,-0.05142823145,-0.01010721361
2.99,-0.05166138826,-0.007948150089
3,-0.05180217563,-0.005788817281
3.01,-0.05185109658,-0.003633268457
3.02,-0.05180883764,-0.001485505957
3.03,-0.0516762649,0.0006505274168
3.04,-0.05145441959,0.002770956722
3.05,-0.05114451339,0.004871982897
3.06,-0.05074792319,0.006949890467
3.07,-0.05026618564,0.009001054898
3.08,-0.04970099127,0.01102194961
3.09,-0.04905417835,0.0130091526
3.1,-0.04832772644,0.0149593527
3.11,-0.04752374968,0.0168693554
3.12,-0.04664448984,0.01873608834
3.13,-0.04569230913,0.02055660626
3.14,-0.04466968289,0.02232809564
3.15,-0.04357919204,0.02404787882
3.16,-0.04242351541,0.02571341775
3.17,-0.04120542204,0.02732231727
3.18,-0.03992776323,0.02887232791
3.19,-0.03859346473,0.0303613483
3.2,-0.03720551874,0.03178742712
3.21,-0.03576697594,0.03314876461
3.22,-0.03428093762,0.03444371364
3.23,-0.03275054772,0.03567078034
3.24,-0.03117898503,0.03682862437
3.25,-0.02956945546,0.03791605868
3.26,-0.02792518437,0.03893204894
3.27,-0.02624940911,0.03987571257
3.28,-0.02454537164,0.04074631735
3.29,-0.02281631137,0.04154327971
3.3,-0.02106545817,0.04226616265
3.31,-0.01929602561,0.04291467331
3.32,-0.01751120437,0.04348866024
3.33,-0.01571415598,0.04398811036
3.34,-0.01390800671,0.04441314564
3.35,-0.01209584182,0.04476401951
3.36,-0.01028070005,0.04504111301
3.37,-0.008465568347,0.04524493075
3.38,-0.006653377018,0.04537609662
3.39,-0.004846995053,0.04543534932
3.4,-0.00304922585,0.04542353776
3.41,-0.001262803213,0.04534161629
3.42,0.0005096123059,0.04519063976
3.43,0.002265436755,0.04497175859
3.44,0.004002165801,0.04468621363
3.45,0.005717377429,0.04433533103
3.46,0.007408734311,0.04392051708
3.47,0.009073985865,0.04344325294
3.48,0.01071096999,0.04290508948
3.49,0.01231761451,0.04230764205
3.5,0.01389193827,0.04165258533
3.51,0.015432052,0.0409416482
3.52,0.01693615883,0.0401766087
3.53,0.01840255458,0.03935928907
3.54,0.01982962771,0.03849155091
3.55,0.02121585912,0.03757529039
3.56,0.02255982161,0.03661243364
3.57,0.02386017912,0.03560493233
3.58,0.02511568583,0.03455475926
3.59,0.02632518495,0.03346390426
3.6,0.02748760738,0.03233437018
3.61,0.02860197022,0.03116816908
3.62,0.02966737502,0.02996731861
3.63,0.030683006,0.02873383859
3.64,0.03164812807,0.02746974779
3.65,0.03256208476,0.0261770609
3.66,0.03342429604,0.02485778574
3.67,0.03423425611,0.0235139206
3.68,0.03499153102,0.02214745192
3.69,0.03569575637,0.02076035203
3.7,0.03634663484,0.01935457725
3.71,0.03694393386,0.01793206603
3.72,0.03748748311,0.01649473743
3.73,0.03797717213,0.01504448975
3.74,0.03841294795,0.01358319931
3.75,0.03879481273,0.01211271947
3.76,0.03912282143,0.01063487981
3.77,0.03939707961,0.00915148545
3.78,0.03961774122,0.007664316603
3.79,0.03978500654,0.006175128196
3.8,0.03989912017,0.004685649686
3.81,0.03996036916,0.003197584987
3.82,0.03996908118,0.001712612521
3.83,0.03992562289,0.0002323853754
3.84,0.03983039839,-0.001241468442
3.85,0.03968384776,-0.002707345669
3.86,0.03948644583,-0.004163667375
3.87,0.03923870097,-0.005608878503
3.88,0.03894115409,-0.00704144735
3.89,0.03859437774,-0.008459865027
3.9,0.03819897541,-0.009862644893
3.91,0.03775558087,-0.01124832198
3.92,0.03726485768,-0.01261545245
3.93,0.03672749892,-0.01396261299
3.94,0.0361442269,-0.01528840037
3.95,0.03551579309,-0.0165914309
3.96,0.03484297815,-0.01787034004
3.97,0.03412659206,-0.01912378203
3.98,0.03336747436,-0.02035042959
3.99,0.03256649449,-0.02154897373
4,0.03172455221,-0.02271812363
4.01,0.03084257811,-0.02385660659
4.02,0.02992153417,-0.0249631682
4.03,0.02896241443,-0.02603657246
4.04,0.02796624562,-0.02707560215
4.05,0.02693408793,-0.02807905928
4.06,0.02586703572,-0.02904576565
4.07,0.02476621828,-0.02997456357
4.08,0.02363280063,-0.0308643167
4.09,0.02246798424,-0.03171391104
4.1,0.02127300775,-0.03252225604
4.11,0.02004914768,-0.03328828583
4.12,0.01879771909,-0.03401096065
4.13,0.01752007615,-0.03468926833
4.14,0.01621761266,-0.03532222594
4.15,0.01489176246,-0.03590888158
4.16,0.01354399982,-0.03644831627
4.17,0.01217583963,-0.03693964593
4.18,0.01078883753,-0.03738202348
4.19,0.009384589891,-0.03777464111
4.2,0.007964733673,-0.03811673251
4.21,0.006530946127,-0.03840757527
4.22,0.005084944343,-0.03864649337
4.23,0.00362848464,-0.03883285963
4.24,0.002163361784,-0.0389660983
4.25,0.0006914080255,-0.03904568767
4.26,-0.0007855080333,-0.03907116268
4.27,-0.002265482771,-0.03904211754
4.28,-0.003746579059,-0.03895820841
4.29,-0.005226827975,-0.03881915596
4.3,-0.006704230702,-0.03862474804
4.31,-0.008176760632,-0.03837484216
4.32,-0.00964236566,-0.03806936804
4.33,-0.01109897068,-0.03770833002
4.34,-0.01254448025,-0.03729180938
4.35,-0.01397678151,-0.03681996663
4.36,-0.01539374718,-0.03629304361
4.37,-0.01679323886,-0.03571136551
4.38,-0.01817311042,-0.03507534275
4.39,-0.01953121158,-0.03438547266
4.4,-0.02086539167,-0.03364234107
4.41,-0.02217350354,-0.03284662366
4.42,-0.02345340757,-0.03199908716
4.43,-0.02470297588,-0.0311005903
4.44,-0.02592009661,-0.03015208462
4.45,-0.02710267833,-0.02915461499
4.46,-0.02824865453,-0.02810931994
4.47,-0.02935598825,-0.02701743171
4.48,-0.03042267666,-0.02588027613
4.49,-0.03144675586,-0.02469927216
4.5,-0.03242630558,-0.0234759312
4.51,-0.03335945394,-0.02221185617
4.52,-0.0342443823,-0.02090874026
4.53,-0.03507932998,-0.01956836546
4.54,-0.03586259904,-0.01819260079
4.55,-0.03659255898,-0.01678340027
4.56,-0.03726765143,-0.01534280055
4.57,-0.03788639466,-0.01387291842
4.58,-0.03844738816,-0.01237594785
4.59,-0.03894931697,-0.01085415693
4.6,-0.03939095594,-0.009309884424
4.61,-0.03977117384,-0.007745536168
4.62,-0.04008893737,-0.006163581129
4.63,-0.04034331489,-0.004566547272
4.64,-0.04053348003,-0.002957017172
4.65,-0.04065871511,-0.0013376234
4.66,-0.04071841428,0.0002889563001
4.67,-0.0407120865,0.001920004049
4.68,-0.0406393582,0.003552767055
4.69,-0.04049997577,0.005184463019
4.7,-0.04029380766,0.006812285708
4.71,-0.04002084634,0.00843341067
4.72,-0.03968120988,0.0100450011
4.73,-0.03927514322,0.01164421381
4.74,-0.03880301921,0.01322820532
4.75,-0.03826533925,0.014794138
4.76,-0.03766273367,0.01633918632
4.77,-0.03699596175,0.01786054315
4.78,-0.03626591143,0.01935542606
4.79,-0.03547359865,0.02082108362
4.8,-0.03462016643,0.02225480178
4.81,-0.0337068835,0.02365391015
4.82,-0.03273514273,0.02501578822
4.83,-0.03170645911,0.0263378716
4.84,-0.03062246743,0.02761765811
4.85,-0.02948491969,0.0288527138
4.86,-0.02829568213,0.03004067883
4.87,-0.02705673192,0.03117927324
4.88,-0.02577015363,0.03226630252
4.89,-0.02443813531,0.03329966307
4.9,-0.0230629643,0.03427734743
4.91,-0.0216470228,0.03519744929
4.92,-0.02019278315,0.03605816829
4.93,-0.01870280276,0.03685781463
4.94,-0.01717971899,0.03759481334
4.95,-0.01562624357,0.03826770835
4.96,-0.01404515698,0.03887516624
4.97,-0.01243930255,0.03941597975
4.98,-0.01081158037,0.03988907093
4.99,-0.009164941047,0.04029349397
5,-0.007502379339,0.0406284378
5.01,-0.005826927585,0.04089322824
5.02,-0.004141649087,0.0410873299
5.03,-0.002449631357,0.04121034768
5.04,-0.000753979301,0.04126202797
5.05,0.0009421916585,0.04124225941
5.06,0.002635762501,0.04115107342
5.07,0.004323617544,0.04098864427
5.08,0.006002651377,0.04075528883
5.09,0.00766977578,0.04045146592
5.1,0.009321926593,0.04007777542
5.11,0.01095607054,0.03963495686
5.12,0.01256921196,0.0391238878
5.13,0.01415839946,0.03854558177
5.14,0.0157207324,0.03790118596
5.15,0.01725336735,0.03719197848
5.16,0.01875352425,0.03641936538
5.17,0.02021849255,0.03558487732
5.18,0.02164563703,0.0346901659
5.19,0.02303240351,0.0337369998
5.2,0.02437632431,0.0327272605
5.21,0.02567502348,0.03166293788
5.22,0.02692622178,0.03054612544
5.23,0.02812774139,0.02937901534
5.24,0.02927751039,0.02816389322
5.25,0.03037356691,0.0269031328
5.26,0.03141406302,0.02559919024
5.27,0.03239726832,0.02425459842
5.28,0.03332157317,0.02287196098
5.29,0.03418549166,0.02145394625
5.3,0.03498766427,0.02000328102
5.31,0.0357268601,0.01852274429
5.32,0.0364019789,0.01701516082
5.33,0.03701205265,0.01548339472
5.34,0.0375562469,0.01393034288
5.35,0.03803386167,0.01235892847
5.36,0.03844433213,0.01077209434
5.37,0.0387872288,0.009172796514
5.38,0.03906225756,0.007563997599
5.39,0.03926925925,0.005948660343
5.4,0.03940820891,0.004329741175
5.41,0.0394792148,0.002710183856
5.42,0.03948251701,0.00109291321
5.43,0.03941848582,-0.0005191710254
5.44,0.03928761971,-0.002123200236
5.45,0.03909054314,-0.003716342817
5.46,0.03882800399,-0.005295809913
5.47,0.03850087078,-0.006858860979
5.48,0.03811012954,-0.00840280917
5.49,0.03765688059,-0.009925026526
5.5,0.03714233488,-0.01142294896
5.51,0.03656781031,-0.01289408101
5.52,0.03593472767,-0.01433600039
5.53,0.03524460652,-0.01574636228
5.54,0.0344990608,-0.0171229034
5.55,0.03369979427,-0.01846344577
5.56,0.03284859591,-0.01976590027
5.57,0.03194733503,-0.02102826995
5.58,0.03099795638,-0.02224865297
5.59,0.0300024751,-0.02342524536
5.6,0.0289629716,-0.0245563435
5.61,0.02788158634,-0.02564034624
5.62,0.02676051459,-0.02667575683
5.63,0.02560200112,-0.02766118451
5.64,0.02440833492,-0.02859534586
5.65,0.02318184378,-0.02947706585
5.66,0.02192488906,-0.03030527859
5.67,0.02063986028,-0.03107902789
5.68,0.01932916993,-0.03179746746
5.69,0.01799524819,-0.03245986087
5.7,0.01664053778,-0.03306558132
5.71,0.01526748884,-0.03361411104
5.72,0.01387855398,-0.03410504057
5.73,0.01247618331,-0.0345380677
5.74,0.01106281968,-0.03491299627
5.75,0.009640894004,-0.03522973467
5.76,0.008212820683,-0.03548829416
5.77,0.006780993243,-0.03568878705
5.78,0.005347780058,-0.03583142458
5.79,0.00391552026,-0.03591651472
5.8,0.002486519811,-0.03594445973
5.81,0.00106304774,-0.03591575362
5.82,-0.0003526674298,-0.03583097943
5.83,-0.001758441085,-0.03569080637
5.84,-0.003152135726,-0.03549598687
5.85,-0.00453166399,-0.03524735353
5.86,-0.005894991469,-0.03494581588
5.87,-0.007240139344,-0.03459235721
5.88,-0.008565186813,-0.03418803115
5.89,-0.009868273321,-0.03373395835
5.9,-0.0111476006,-0.03323132301
5.91,-0.0124014345,-0.03268136938
5.92,-0.01362810663,-0.03208539831
5.93,-0.01482601582,-0.03144476366
5.94,-0.01599362935,-0.03076086883
5.95,-0.01712948403,-0.03003516322
5.96,-0.0182321871,-0.02926913869
5.97,-0.01930041692,-0.02846432616
5.98,-0.02033292349,-0.02762229208
5.99,-0.02132852884,-0.02674463511
6,-0.02228612719,-0.0258329827
