"Freq [GHz]","re(S(Tx_p1,Tx_p1)) []","im(S(Tx_p1,Tx_p1)) []"
1,0.004284314422,-0.1759808753
1.01,-0.001302970354,-0.1755733589
1.02,-0.006883128544,-0.1749836963
1.03,-0.01244851756,-0.1742113458
1.04,-0.01799151266,-0.17325618
1.05,-0.0235045278,-0.1721184773
1.06,-0.0289800356,-0.1707989127
1.07,-0.03441058666,-0.1692985472
1.08,-0.03978882795,-0.1676188174
1.09,-0.04510752037,-0.1657615242
1.1,-0.05035955554,-0.1637288207
1.11,-0.05553797164,-0.1615231997
1.12,-0.06063596838,-0.1591474809
1.13,-0.06564692113,-0.156604797
1.14,-0.07056439408,-0.1538985802
1.15,-0.07538215253,-0.151032548
1.16,-0.08009417426,-0.1480106881
1.17,-0.08469465994,-0.1448372441
1.18,-0.0891780427,-0.1415167
1.19,-0.09353899665,-0.138053765
1.2,-0.09777244463,-0.1344533581
1.21,-0.1018735649,-0.1307205923
1.22,-0.1058377972,-0.1268607593
1.23,-0.1096608472,-0.1228793138
1.24,-0.1133386912,-0.1187818577
1.25,-0.116867579,-0.1145741246
1.26,-0.1202440362,-0.1102619646
1.27,-0.1234648659,-0.1058513291
1.28,-0.1265271492,-0.1013482554
1.29,-0.1294282453,-0.09675885212
1.3,-0.1321657904,-0.09208928485
1.31,-0.1347376963,-0.08734576166
1.32,-0.1371421481,-0.08253451941
1.33,-0.139377601,-0.07766181021
1.34,-0.1414427766,-0.07273388844
1.35,-0.143336659,-0.06775699807
1.36,-0.1450584894,-0.06273736057
1.37,-0.1466077613,-0.05768116322
1.38,-0.1479842139,-0.05259454804
1.39,-0.1491878262,-0.04748360114
1.4,-0.1502188099,-0.04235434275
1.41,-0.1510776022,-0.03721271769
1.42,-0.1517648581,-0.03206458659
1.43,-0.1522814427,-0.02691571753
1.44,-0.1526284226,-0.02177177844
1.45,-0.1528070577,-0.01663833
1.46,-0.1528187926,-0.01152081925
1.47,-0.1526652475,-0.006424573718
1.48,-0.1523482092,-0.001354796294
1.49,-0.1518696225,0.003683439402
1.5,-0.1512315806,0.008685192962
1.51,-0.1504363163,0.01364566056
1.52,-0.1494861927,0.01856017772
1.53,-0.1483836944,0.02342422149
1.54,-0.1471314185,0.02823341208
1.55,-0.1457320657,0.03298351388
1.56,-0.1441884319,0.03767043512
1.57,-0.1425033997,0.04229023151
1.58,-0.1406799298,0.04683910024
1.59,-0.1387210539,0.05131338271
1.6,-0.1366298661,0.05570956219
1.61,-0.1344095163,0.06002426195
1.62,-0.1320632027,0.06425424307
1.63,-0.1295941652,0.06839640181
1.64,-0.1270056793,0.07244776664
1.65,-0.1243010499,0.07640549504
1.66,-0.1214836059,0.08026686989
1.67,-0.1185566949,0.08402929575
1.68,-0.1155236788,0.0876902948
1.69,-0.1123879294,0.09124750268
1.7,-0.1091528244,0.09469866417
1.71,-0.1058217443,0.09804162868
1.72,-0.102398069,0.1012743457
1.73,-0.09888517602,0.1043948604
1.74,-0.09528643764,0.1074013086
1.75,-0.09160521982,0.1102919127
1.76,-0.08784488083,0.1130649764
1.77,-0.08400877045,0.1157188812
1.78,-0.0801002297,0.1182520809
1.79,-0.07612259079,0.1206630983
1.8,-0.07207917763,0.1229505206
1.81,-0.06797330658,0.1251129954
1.82,-0.06380828765,0.1271492275
1.83,-0.05958742594,0.1290579751
1.84,-0.05531402347,0.1308380466
1.85,-0.05099138127,0.1324882979
1.86,-0.04662280173,0.1340076298
1.87,-0.04221159122,0.1353949854
1.88,-0.03776106285,0.1366493486
1.89,-0.03327453955,0.1377697424
1.9,-0.0287553572,0.1387552276
1.91,-0.0242068679,0.139604902
1.92,-0.01963244341,0.1403179001
1.93,-0.01503547863,0.1408933931
1.94,-0.01041939504,0.141330589
1.95,-0.005787644313,0.1416287337
1.96,-0.001143711764,0.141787112
1.97,0.003508880185,0.1418050494
1.98,0.008166568641,0.1416819139
1.99,0.01282574698,0.1414171184
2,0.01748276173,0.1410101239
2.01,0.02213390967,0.140460442
2.02,0.02677543504,0.1397676391
2.03,0.03140352711,0.1389313402
2.04,0.03601431787,0.1379512326
2.05,0.04060388016,0.1368270715
2.06,0.04516822594,0.1355586838
2.07,0.04970330509,0.1341459743
2.08,0.05420500441,0.1325889305
2.09,0.05866914709,0.1308876285
2.1,0.06309149257,0.1290422392
2.11,0.06746773681,0.1270530338
2.12,0.07179351302,0.1249203909
2.13,0.07606439285,0.1226448022
2.14,0.08027588803,0.1202268797
2.15,0.08442345249,0.1176673615
2.16,0.08850248506,0.1149671194
2.17,0.09250833251,0.1121271649
2.18,0.09643629328,0.109148656
2.19,0.1002816216,0.1060329038
2.2,0.1040395321,0.1027813794
2.21,0.1077052052,0.0993957196
2.22,0.1112737925,0.09587773351
2.23,0.1147404233,0.09222940861
2.24,0.1181002112,0.08845291641
2.25,0.1213482611,0.08455061808
2.26,0.1244796772,0.08052506962
2.27,0.127489571,0.07637902683
2.28,0.1303730699,0.07211544984
2.29,0.1331253263,0.06773750725
2.3,0.135741527,0.06324857989
2.31,0.1382169033,0.05865226406
2.32,0.1405467406,0.05395237435
2.33,0.1427263897,0.04915294591
2.34,0.1447512775,0.04425823617
2.35,0.1466169177,0.03927272606
2.36,0.148318923,0.03420112053
2.37,0.1498530163,0.02904834859
2.38,0.1512150427,0.02381956265
2.39,0.1524009814,0.0185201372
2.4,0.1534069583,0.01315566687
2.41,0.1542292576,0.007731963809
2.42,0.1548643347,0.002255054336
2.43,0.1553088283,-0.003268825056
2.44,0.1555595725,-0.008833232436
2.45,0.1556136094,-0.01443152587
2.46,0.1554682007,-0.02005686957
2.47,0.1551208403,-0.02570224076
2.48,0.1545692655,-0.03136043726
2.49,0.1538114689,-0.03702408575
2.5,0.1528457095,-0.04268565079
2.51,0.1516705237,-0.04833744447
2.52,0.1502847358,-0.05397163681
2.53,0.1486874683,-0.05958026677
2.54,0.1468781516,-0.06515525391
2.55,0.1448565335,-0.07068841078
2.56,0.1426226873,-0.07617145578
2.57,0.1401770209,-0.08159602671
2.58,0.1375202837,-0.08695369487
2.59,0.1346535739,-0.09223597965
2.6,0.1315783448,-0.0974343637
2.61,0.1282964104,-0.1025403085
2.62,0.1248099504,-0.1075452705
2.63,0.1211215141,-0.1124407173
2.64,0.1172340241,-0.117218145
2.65,0.1131507787,-0.1218690947
2.66,0.1088754536,-0.1263851707
2.67,0.104412103,-0.1307580573
2.68,0.09976515938,-0.1349795377
2.69,0.09493943275,-0.1390415111
2.7,0.08994010892,-0.1429360118
2.71,0.08477274681,-0.1466552266
2.72,0.07944327478,-0.1501915138
2.73,0.07395798622,-0.1535374209
2.74,0.06832353397,-0.1566857031
2.75,0.06254692401,-0.1596293411
2.76,0.05663550811,-0.1623615595
2.77,0.05059697552,-0.1648758435
2.78,0.04443934387,-0.1671659575
2.79,0.03817094898,-0.1692259609
2.8,0.03180043389,-0.1710502258
2.81,0.02533673699,-0.1726334528
2.82,0.01878907917,-0.1739706868
2.83,0.01216695027,-0.1750573322
2.84,0.005480094549,-0.175889168
2.85,-0.001261504523,-0.1764623617
2.86,-0.008047640362,-0.1767734826
2.87,-0.01486790005,-0.1768195147
2.88,-0.02171168187,-0.1765978689
2.89,-0.0285682135,-0.1761063938
2.9,-0.0354265709,-0.1753433868
2.91,-0.04227569774,-0.1743076031
2.92,-0.04910442546,-0.1729982646
2.93,-0.05590149385,-0.1714150676
2.94,-0.0626555721,-0.1695581901
2.95,-0.06935528025,-0.1674282969
2.96,-0.0759892111,-0.1650265449
2.97,-0.08254595244,-0.1623545868
2.98,-0.08901410954,-0.1594145741
2.99,-0.09538232788,-0.1562091584
3,-0.1016393161,-0.1527414922
3.01,-0.1077738692,-0.1490152287
3.02,-0.1137748913,-0.1450345195
3.03,-0.1196314193,-0.1408040128
3.04,-0.1253326456,-0.1363288487
3.05,-0.1308679415,-0.1316146551
3.06,-0.1362268797,-0.126667541
3.07,-0.1413992573,-0.1214940893
3.08,-0.1463751183,-0.1161013493
3.09,-0.1511447753,-0.1104968262
3.1,-0.1556988317,-0.1046884714
3.11,-0.1600282027,-0.09868467077
3.12,-0.1641241366,-0.09249423192
3.13,-0.1679782344,-0.08612637062
3.14,-0.1715824702,-0.07959069618
3.15,-0.1749292101,-0.0728971958
3.16,-0.1780112304,-0.066056218
3.17,-0.1808217353,-0.05907845508
3.18,-0.1833543743,-0.05197492479
3.19,-0.1856032575,-0.04475695104
3.2,-0.1875629713,-0.03743614384
3.21,-0.1892285926,-0.03002437855
3.22,-0.1905957021,-0.02253377424
3.23,-0.1916603964,-0.01497667153
3.24,-0.1924192998,-0.007365609713
3.25,-0.192869574,0.0002866967152
3.26,-0.1930089278,0.00796738199
3.27,-0.1928356248,0.01566345356
3.28,-0.1923484904,0.02336181695
3.29,-0.1915469175,0.03104930104
3.3,-0.1904308713,0.03871268359
3.31,-0.1890008925,0.0463387171
3.32,-0.1872580993,0.05391415479
3.33,-0.1852041888,0.06142577681
3.34,-0.182841436,0.0688604164
3.35,-0.1801726932,0.07620498625
3.36,-0.1772013864,0.08344650461
3.37,-0.1739315117,0.09057212148
3.38,-0.17036763,0.09756914454
3.39,-0.1665148605,0.1044250649
3.4,-0.1623788732,0.1111275824
3.41,-0.1579658798,0.1176646311
3.42,-0.1532826237,0.1240244035
3.43,-0.148336369,0.1301953751
3.44,-0.1431348878,0.1361663283
3.45,-0.137686447,0.1419263751
3.46,-0.1319997933,0.1474649799
3.47,-0.1260841384,0.1527719816
3.48,-0.1199491413,0.1578376145
3.49,-0.1136048914,0.1626525286
3.5,-0.1070618896,0.1672078092
3.51,-0.100331029,0.171494996
3.52,-0.09342357391,0.1755061001
3.53,-0.08635113945,0.1792336216
3.54,-0.07912566894,0.1826705647
3.55,-0.07175941144,0.1858104532
3.56,-0.06426489823,0.1886473436
3.57,-0.05665491883,0.1911758381
3.58,-0.04894249632,0.1933910959
3.59,-0.04114086223,0.1952888438
3.6,-0.03326343095,0.196865385
3.61,-0.02532377367,0.1981176074
3.62,-0.01733559202,0.1990429901
3.63,-0.009312691438,0.1996396091
3.64,-0.001268954268,0.1999061415
3.65,0.006781687308,0.1998418684
3.66,0.01482527844,0.1994466771
3.67,0.02284786882,0.1987210608
3.68,0.0308355399,0.1976661187
3.69,0.03877443207,0.1962835533
3.7,0.04665077158,0.1945756676
3.71,0.05445089744,0.1925453602
3.72,0.06216128797,0.1901961196
3.73,0.06976858702,0.1875320174
3.74,0.0772596299,0.1845577
3.75,0.08462146882,0.1812783791
3.76,0.09184139792,0.1776998213
3.77,0.09890697765,0.1738283362
3.78,0.1058060587,0.1696707641
3.79,0.1125268052,0.1652344616
3.8,0.1190577173,0.1605272868
3.81,0.1253876529,0.1555575837
3.82,0.1315058486,0.1503341649
3.83,0.1374019402,0.144866294
3.84,0.1430659816,0.139163667
3.85,0.1484884635,0.1332363925
3.86,0.1536603309,0.1270949712
3.87,0.1585729993,0.1207502754
3.88,0.1632183703,0.1142135266
3.89,0.1675888464,0.1074962733
3.9,0.1716773435,0.1006103678
3.91,0.1754773039,0.09356794266
3.92,0.1789827073,0.08638138676
3.93,0.1821880805,0.0790633204
3.94,0.1850885064,0.07162657059
3.95,0.1876796316,0.06408414575
3.96,0.1899576729,0.05644921018
3.97,0.1919194229,0.04873505827
3.98,0.1935622533,0.04095508867
3.99,0.1948841186,0.03312277823
4,0.1958835573,0.02525165596
4.01,0.1965596925,0.01735527706
4.02,0.1969122314,0.009447196887
4.03,0.1969414629,0.001540945183
4.04,0.196648255,-0.006349999594
4.05,0.1960340505,-0.01421223567
4.06,0.1951008615,-0.02203246306
4.07,0.1938512627,-0.02979750836
4.08,0.1922883843,-0.03749434908
4.09,0.1904159029,-0.04511013762
4.1,0.1882380321,-0.05263222465
4.11,0.1857595113,-0.06004818202
4.12,0.1829855944,-0.06734582505
4.13,0.1799220367,-0.07451323419
4.14,0.1765750815,-0.08153877603
4.15,0.1729514454,-0.08841112352
4.16,0.1690583032,-0.09511927555
4.17,0.1649032711,-0.1016525756
4.18,0.1604943903,-0.1080007297
4.19,0.155840109,-0.1141538235
4.2,0.1509492642,-0.1201023384
4.21,0.1458310624,-0.1258371665
4.22,0.1404950599,-0.1313496255
4.23,0.1349511432,-0.1366314715
4.24,0.1292095077,-0.1416749117
4.25,0.1232806367,-0.1464726156
4.26,0.1171752803,-0.1510177251
4.27,0.1109044329,-0.1553038645
4.28,0.1044793114,-0.1593251479
4.29,0.09791133286,-0.1630761872
4.3,0.09121209148,-0.1665520976
4.31,0.08439333624,-0.1697485035
4.32,0.0774669478,-0.1726615417
4.33,0.07044491565,-0.175287865
4.34,0.06333931522,-0.1776246439
4.35,0.05616228498,-0.1796695677
4.36,0.04892600371,-0.1814208443
4.37,0.04164266787,-0.182877199
4.38,0.03432446919,-0.1840378724
4.39,0.02698357249,-0.1849026174
4.4,0.01963209378,-0.1854716949
4.41,0.01228207871,-0.1857458689
4.42,0.004945481357,-0.1857264003
4.43,-0.002365856566,-0.1854150405
4.44,-0.009640226024,-0.1848140229
4.45,-0.01686607052,-0.1839260549
4.46,-0.02403200543,-0.1827543082
4.47,-0.03112683676,-0.1813024086
4.48,-0.03813957931,-0.1795744249
4.49,-0.04505947425,-0.1775748572
4.5,-0.05187600602,-0.1753086248
4.51,-0.05857891856,-0.1727810525
4.52,-0.06515823081,-0.1699978576
4.53,-0.07160425154,-0.1669651349
4.54,-0.0779075934,-0.1636893426
4.55,-0.08405918619,-0.1601772864
4.56,-0.09005028938,-0.156436104
4.57,-0.09587250382,-0.1524732488
4.58,-0.1015177826,-0.1482964732
4.59,-0.1069784413,-0.143913812
4.6,-0.1122471668,-0.1393335645
4.61,-0.1173170264,-0.1345642778
4.62,-0.1221814746,-0.1296147285
4.63,-0.1268343606,-0.124493905
4.64,-0.1312699335,-0.1192109892
4.65,-0.1354828479,-0.1137753389
4.66,-0.1394681676,-0.1081964691
4.67,-0.1432213697,-0.102484034
4.68,-0.1467383464,-0.0966478087
4.69,-0.150015407,-0.09069767111
4.7,-0.1530492792,-0.08464358394
4.71,-0.1558371088,-0.07849557674
4.72,-0.1583764593,-0.07226372812
4.73,-0.1606653102,-0.06595814824
4.74,-0.1627020554,-0.05958896149
4.75,-0.1644855,-0.0531662894
4.76,-0.1660148566,-0.04670023388
4.77,-0.1672897416,-0.04020086085
4.78,-0.1683101695,-0.03367818403
4.79,-0.1690765482,-0.02714214937
4.8,-0.1695896722,-0.02060261961
4.81,-0.1698507161,-0.01406935949
4.82,-0.1698612275,-0.007552021282
4.83,-0.1696231188,-0.001060130819
4.84,-0.1691386591,0.005396925984
4.85,-0.1684104652,0.01180991611
4.86,-0.1674414926,0.01816977189
4.87,-0.1662350255,0.02446760294
4.88,-0.1647946671,0.03069470755
4.89,-0.1631243288,0.0368425835
4.9,-0.1612282197,0.04290293833
4.91,-0.1591108354,0.04886769904
4.92,-0.1567769467,0.05472902119
4.93,-0.1542315881,0.06047929744
4.94,-0.1514800461,0.06611116554
4.95,-0.148527847,0.07161751563
4.96,-0.1453807449,0.07699149708
4.97,-0.1420447096,0.08222652465
4.98,-0.1385259142,0.08731628414
4.99,-0.1348307227,0.09225473744
5,-0.1309656776,0.09703612697
5.01,-0.1269374874,0.1016549796
5.02,-0.1227530143,0.1061061101
5.03,-0.1184192616,0.1103846239
5.04,-0.1139433617,0.1144859192
5.05,-0.1093325636,0.1184056891
5.06,-0.1045942207,0.1221399226
5.07,-0.09973577908,0.1256849053
5.08,-0.09476476547,0.12903722
5.09,-0.08968877548,0.1321937462
5.1,-0.08451546222,0.1351516594
5.11,-0.07925252489,0.1379084306
5.12,-0.07390769772,0.140461824
5.13,-0.06848873907,0.1428098959
5.14,-0.06300342082,0.1449509917
5.15,-0.05745951798,0.146883744
5.16,-0.05186479858,0.1486070689
5.17,-0.04622701381,0.1501201632
5.18,-0.0405538885,0.1514225007
5.19,-0.03485311181,0.1525138283
5.2,-0.02913232829,0.1533941614
5.21,-0.02339912919,0.1540637804
5.22,-0.01766104413,0.154523225
5.23,-0.01192553298,0.1547732903
5.24,-0.006199978167,0.1548150209
5.25,-0.0004916772239,0.1546497063
5.26,0.005192164353,0.1542788752
5.27,0.01084443991,0.1537042899
5.28,0.01645814814,0.152927941
5.29,0.02202639932,0.1519520412
5.3,0.02754242118,0.1507790197
5.31,0.03299956454,0.1494115162
5.32,0.03839130861,0.1478523748
5.33,0.04371126607,0.146104638
5.34,0.04895318777,0.1441715408
5.35,0.05411096727,0.1420565041
5.36,0.05917864504,0.1397631292
5.37,0.06415041243,0.1372951909
5.38,0.0690206154,0.1346566323
5.39,0.07378375803,0.1318515576
5.4,0.07843450574,0.1288842271
5.41,0.08296768835,0.1257590504
5.42,0.08737830294,0.1224805804
5.43,0.09166151641,0.1190535078
5.44,0.09581266803,0.1154826549
5.45,0.09982727161,0.1117729696
5.46,0.1037010176,0.1079295198
5.47,0.1074297752,0.1039574874
5.48,0.1110095938,0.09986216309
5.49,0.1144367049,0.09564894008
5.5,0.1177075237,0.09132330904
5.51,0.1208186502,0.08689085238
5.52,0.1237668706,0.08235723888
5.53,0.1265491585,0.07772821825
5.54,0.129162676,0.07300961591
5.55,0.1316047746,0.06820732764
5.56,0.1338729963,0.06332731444
5.57,0.135965074,0.05837559732
5.58,0.1378789326,0.05335825226
5.59,0.1396126897,0.04828140508
5.6,0.1411646559,0.04315122644
5.61,0.1425333358,0.03797392681
5.62,0.1437174282,0.03275575154
5.63,0.1447158264,0.02750297586
5.64,0.1455276191,0.02222189998
5.65,0.1461520905,0.01691884412
5.66,0.1465887203,0.01160014359
5.67,0.1468371846,0.006272143893
5.68,0.1468973557,0.0009411957117
5.69,0.1467693021,-0.004386349992
5.7,0.1464532892,-0.009704146985
5.71,0.1459497788,-0.01500585876
5.72,0.1452594294,-0.0202851636
5.73,0.1443830961,-0.02553575961
5.74,0.1433218302,-0.03075136988
5.75,0.1420768797,-0.03592574765
5.76,0.1406496883,-0.04105268148
5.77,0.1390418954,-0.04612600059
5.78,0.1372553356,-0.05113958013
5.79,0.1352920383,-0.05608734662
5.8,0.1331542269,-0.06096328336
5.81,0.1308443182,-0.06576143596
5.82,0.1283649215,-0.07047591792
5.83,0.1257188375,-0.07510091629
5.84,0.1229090576,-0.07963069733
5.85,0.1199387621,-0.08405961235
5.86,0.1168113191,-0.08838210347
5.87,0.1135302831,-0.09259270958
5.88,0.110099393,-0.09668607223
5.89,0.1065225703,-0.1006569417
5.9,0.102803917,-0.1045001828
5.91,0.0989477134,-0.1082107815
5.92,0.09495841552,-0.1117838505
5.93,0.09084065245,-0.1152146355
5.94,0.08659922346,-0.1184985217
5.95,0.08223909481,-0.1216310395
5.96,0.07776539644,-0.1246078712
5.97,0.0731834183,-0.1274248568
5.98,0.06849860654,-0.1300780002
5.99,0.06371655933,-0.1325634757
6,0.05884302255,-0.1348776335
