"Freq [GHz]","re(S(Tx_p1,Tx_p1)) []","im(S(Tx_p1,Tx_p1)) []"
1,-0.02504717243,-0.07054898537
1.01,-0.02781666292,-0.06955839439
1.02,-0.03055651501,-0.06845211829
1.03,-0.0332612472,-0.0672307988
1.04,-0.03592540126,-0.06589536034
1.05,-0.03854355601,-0.06444700758
1.06,-0.04111034107,-0.06288722238
1.07,-0.04362045032,-0.06121776014
1.08,-0.0460686551,-0.05944064565
1.09,-0.04844981731,-0.05755816827
1.1,-0.05075890204,-0.05557287667
1.11,-0.05299099012,-0.05348757297
1.12,-0.05514129016,-0.0513053063
1.13,-0.0572051504,-0.04902936597
1.14,-0.05917807011,-0.046663274
1.15,-0.06105571062,-0.04421077726
1.16,-0.06283390602,-0.04167583907
1.17,-0.06450867335,-0.03906263037
1.18,-0.06607622236,-0.0363755205
1.19,-0.06753296491,-0.03361906744
1.2,-0.0688755237,-0.0307980078
1.21,-0.07010074074,-0.0279172463
1.22,-0.07120568508,-0.02498184501
1.23,-0.07218766023,-0.02199701219
1.24,-0.07304421082,-0.01896809082
1.25,-0.07377312894,-0.01590054688
1.26,-0.07437245968,-0.01279995739
1.27,-0.07484050633,-0.009671998139
1.28,-0.07517583479,-0.006522431287
1.29,-0.07537727751,-0.003357092755
1.3,-0.07544393681,-0.0001818794645
1.31,-0.07537518759,0.002997263545
1.32,-0.07517067938,0.006174356097
1.33,-0.07483033787,0.009343395921
1.34,-0.07435436577,0.01249837175
1.35,-0.07374324305,0.01563327641
1.36,-0.07299772658,0.01874211994
1.37,-0.0721188492,0.02181894257
1.38,-0.07110791806,0.02485782778
1.39,-0.06996651253,0.02785291511
1.4,-0.06869648133,0.03079841293
1.41,-0.06729993921,0.03368861102
1.42,-0.06577926298,0.03651789303
1.43,-0.06413708696,0.03928074862
1.44,-0.06237629791,0.04197178547
1.45,-0.06050002938,0.04458574101
1.46,-0.0585116555,0.04711749383
1.47,-0.05641478429,0.04956207478
1.48,-0.05421325047,0.05191467782
1.49,-0.05191110771,0.05417067042
1.5,-0.04951262046,0.05632560363
1.51,-0.04702225532,0.05837522174
1.52,-0.04444467195,0.06031547155
1.53,-0.04178471359,0.06214251116
1.54,-0.03904739716,0.06385271833
1.55,-0.03623790299,0.06544269837
1.56,-0.03336156422,0.06690929153
1.57,-0.03042385584,0.06824957989
1.58,-0.02743038346,0.06946089372
1.59,-0.02438687178,0.07054081734
1.6,-0.02129915278,0.07148719439
1.61,-0.01817315375,0.07229813261
1.62,-0.01501488504,0.07297200797
1.63,-0.01183042772,0.07350746831
1.64,-0.00862592098,0.07390343634
1.65,-0.005407549516,0.0741591121
1.66,-0.002181530762,0.07427397482
1.67,0.001045897938,0.07424778415
1.68,0.004268492186,0.07408058084
1.69,0.007480013404,0.07377268682
1.7,0.0106742417,0.07332470463
1.71,0.01384498866,0.07273751637
1.72,0.01698611015,0.07201228192
1.73,0.02009151888,0.07115043671
1.74,0.023155197,0.07015368879
1.75,0.02617120845,0.06902401541
1.76,0.02913371114,0.06776365902
1.77,0.03203696895,0.06637512265
1.78,0.03487536352,0.06486116488
1.79,0.03764340573,0.0632247941
1.8,0.04033574695,0.06146926242
1.81,0.04294718996,0.05959805895
1.82,0.0454726996,0.05761490263
1.83,0.04790741299,0.05552373462
1.84,0.05024664944,0.05332871017
1.85,0.05248591999,0.05103419008
1.86,0.05462093649,0.04864473172
1.87,0.05664762027,0.04616507968
1.88,0.05856211039,0.043600156
1.89,0.06036077142,0.04095505005
1.9,0.06204020073,0.03823500808
1.91,0.06359723531,0.03544542245
1.92,0.06502895806,0.03259182053
1.93,0.06633270356,0.0296798534
1.94,0.06750606339,0.02671528422
1.95,0.06854689078,0.02370397648
1.96,0.06945330482,0.02065188193
1.97,0.07022369408,0.01756502845
1.98,0.07085671964,0.01444950771
1.99,0.0713513176,0.01131146275
2,0.07170670096,0.008157075409
2.01,0.07192236099,0.004992553784
2.02,0.07199806799,0.001824119549
2.03,0.07193387145,-0.001342004673
2.04,0.07173009965,-0.00449960795
2.05,0.07138735872,-0.007642503636
2.06,0.07090653108,-0.0107645419
2.07,0.07028877333,-0.01385962214
2.08,0.06953551356,-0.01692170536
2.09,0.06864844814,-0.01994482627
2.1,0.06762953792,-0.02292310531
2.11,0.06648100393,-0.0258507605
2.12,0.06520532251,-0.02872211899
2.13,0.06380521997,-0.03153162839
2.14,0.06228366665,-0.03427386791
2.15,0.06064387066,-0.03694355911
2.16,0.05888927091,-0.0395355764
2.17,0.05702352989,-0.04204495717
2.18,0.05505052587,-0.04446691163
2.19,0.05297434472,-0.0467968322
2.2,0.05079927129,-0.04903030258
2.21,0.04852978044,-0.05116310634
2.22,0.04617052766,-0.05319123517
2.23,0.04372633934,-0.0551108966
2.24,0.0412022027,-0.05691852132
2.25,0.03860325545,-0.05861077002
2.26,0.03593477509,-0.06018453972
2.27,0.03320216803,-0.06163696964
2.28,0.03041095837,-0.06296544653
2.29,0.02756677656,-0.06416760949
2.3,0.02467534778,-0.06524135429
2.31,0.02174248018,-0.0661848371
2.32,0.01877405302,-0.06699647775
2.33,0.01577600461,-0.06767496236
2.34,0.01275432018,-0.06821924553
2.35,0.009715019735,-0.06862855183
2.36,0.006664145774,-0.06890237688
2.37,0.003607751062,-0.06904048776
2.38,0.000551886367,-0.06904292296
2.39,-0.002497411752,-0.06890999167
2.4,-0.005534133113,-0.06864227263
2.41,-0.00855230599,-0.06824061232
2.42,-0.01154600909,-0.06770612271
2.43,-0.01450938339,-0.06704017838
2.44,-0.01743664385,-0.06624441319
2.45,-0.0203220909,-0.06532071638
2.46,-0.02316012176,-0.06427122816
2.47,-0.02594524152,-0.06309833481
2.48,-0.028672074,-0.0618046633
2.49,-0.03133537229,-0.0603930754
2.5,-0.03393002906,-0.05886666135
2.51,-0.0364510865,-0.05722873307
2.52,-0.03889374598,-0.05548281697
2.53,-0.04125337732,-0.05363264622
2.54,-0.04352552776,-0.05168215281
2.55,-0.04570593043,-0.04963545905
2.56,-0.04779051254,-0.04749686879
2.57,-0.04977540309,-0.0452708583
2.58,-0.05165694015,-0.04296206675
2.59,-0.05343167768,-0.04057528648
2.6,-0.05509639198,-0.0381154529
2.61,-0.05664808753,-0.03558763421
2.62,-0.05808400249,-0.03299702074
2.63,-0.05940161357,-0.03034891426
2.64,-0.06059864055,-0.02764871691
2.65,-0.06167305015,-0.02490192009
2.66,-0.0626230595,-0.02211409312
2.67,-0.06344713901,-0.0192908718
2.68,-0.06414401476,-0.01643794689
2.69,-0.06471267036,-0.01356105244
2.7,-0.06515234824,-0.01066595417
2.71,-0.06546255047,-0.007758437724
2.72,-0.06564303902,-0.004844296976
2.73,-0.06569383548,-0.001929322317
2.74,-0.06561522024,0.0009807109858
2.75,-0.06540773122,0.003880054385
2.76,-0.065072162,0.00676299755
2.77,-0.06460955944,0.009623879755
2.78,-0.06402122088,0.01245710113
2.79,-0.0633086907,0.01525713376
2.8,-0.06247375652,0.0180185326
2.81,-0.06151844487,0.02073594616
2.82,-0.0604450163,0.02340412703
2.83,-0.05925596022,0.02601794211
2.84,-0.05795398908,0.02857238256
2.85,-0.05654203229,0.03106257356
2.86,-0.0550232296,0.03348378363
2.87,-0.05340092415,0.03583143374
2.88,-0.05167865505,0.03810110604
2.89,-0.04986014971,0.04028855221
2.9,-0.04794931566,0.0423897015
2.91,-0.04595023216,0.04440066831
2.92,-0.04386714141,0.04631775946
2.93,-0.04170443951,0.0481374809
2.94,-0.03946666707,0.0498565442
2.95,-0.03715849967,0.05147187239
2.96,-0.03478473794,0.05298060549
2.97,-0.03235029755,0.05438010554
2.98,-0.02986019889,0.05566796114
2.99,-0.02731955668,0.05684199155
3,-0.0247335693,0.0579002503
3.01,-0.02210750813,0.05884102829
3.02,-0.01944670665,0.05966285641
3.03,-0.01675654954,0.06036450768
3.04,-0.01404246167,0.0609449989
3.05,-0.01130989707,0.06140359173
3.06,-0.008564327858,0.06173979335
3.07,-0.005811233183,0.0619533566
3.08,-0.003056088213,0.06204427959
3.09,-0.0003043531357,0.06201280483
3.1,0.002438537747,0.06185941791
3.11,0.005167186842,0.06158484562
3.12,0.00787624397,0.06119005365
3.13,0.01056041693,0.06067624376
3.14,0.01321448194,0.06004485057
3.15,0.01583329382,0.05929753776
3.16,0.01841179608,0.05843619394
3.17,0.02094503075,0.05746292803
3.18,0.02342814789,0.05638006421
3.19,0.02585641502,0.05519013645
3.2,0.0282252261,0.05389588267
3.21,0.03053011033,0.05250023845
3.22,0.03276674063,0.05100633044
3.23,0.03493094173,0.04941746935
3.24,0.03701869798,0.04773714259
3.25,0.03902616083,0.04596900667
3.26,0.04094965588,0.04411687917
3.27,0.04278568957,0.04218473046
3.28,0.0445309555,0.04017667522
3.29,0.04618234032,0.03809696358
3.3,0.04773692926,0.03594997207
3.31,0.04919201114,0.03374019443
3.32,0.05054508303,0.03147223206
3.33,0.05179385446,0.02915078445
3.34,0.05293625115,0.02678063933
3.35,0.05397041831,0.02436666276
3.36,0.05489472349,0.02191378909
3.37,0.05570775896,0.01942701077
3.38,0.05640834362,0.01691136815
3.39,0.05699552444,0.01437193919
3.4,0.05746857749,0.01181382916
3.41,0.05782700843,0.009242160285
3.42,0.05807055254,0.006662061458
3.43,0.05819917438,0.004078657937
3.44,0.05821306686,0.001497061112
3.45,0.05811264993,-0.001077641656
3.46,0.05789856882,-0.003640397115
3.47,0.05757169182,-0.006186196077
3.48,0.05713310758,-0.00871008325
3.49,0.05658412205,-0.01120716692
3.5,0.05592625495,-0.01367262845
3.51,0.05516123582,-0.01610173161
3.52,0.0542909997,-0.0184898317
3.53,0.05331768238,-0.02083238441
3.54,0.05224361532,-0.0231249545
3.55,0.05107132009,-0.02536322416
3.56,0.04980350257,-0.02754300118
3.57,0.04844304678,-0.02966022672
3.58,0.04699300829,-0.03171098285
3.59,0.04545660743,-0.0336914998
3.6,0.04383722215,-0.0355981628
3.61,0.04213838058,-0.0374275186
3.62,0.04036375331,-0.03917628171
3.63,0.03851714553,-0.04084134017
3.64,0.03660248876,-0.04241976101
3.65,0.03462383252,-0.0439087953
3.66,0.03258533569,-0.04530588281
3.67,0.03049125779,-0.0466086563
3.68,0.02834594998,-0.04781494534
3.69,0.02615384606,-0.04892277979
3.7,0.02391945319,-0.04993039281
3.71,0.02164734265,-0.05083622344
3.72,0.01934214041,-0.05163891884
3.73,0.0170085177,-0.05233733599
3.74,0.01465118147,-0.05293054301
3.75,0.01227486494,-0.05341782009
3.76,0.009884317956,-0.05379865995
3.77,0.007484297564,-0.05407276783
3.78,0.00507955846,-0.05424006114
3.79,0.002674843567,-0.05430066867
3.8,0.0002748746614,-0.05425492927
3.81,-0.002115656916,-0.0541033903
3.82,-0.00449209944,-0.05384680553
3.83,-0.006849849853,-0.05348613267
3.84,-0.009184362687,-0.05302253052
3.85,-0.01149115881,-0.05245735576
3.86,-0.01376583402,-0.05179215927
3.87,-0.01600406742,-0.0510286822
3.88,-0.0182016296,-0.05016885155
3.89,-0.02035439061,-0.04921477551
3.9,-0.02245832765,-0.0481687384
3.91,-0.02450953258,-0.04703319531
3.92,-0.02650421906,-0.04581076641
3.93,-0.02843872955,-0.04450423095
3.94,-0.03030954186,-0.04311652102
3.95,-0.03211327553,-0.04165071497
3.96,-0.03384669782,-0.04011003062
3.97,-0.03550672939,-0.03849781824
3.98,-0.03709044968,-0.03681755321
3.99,-0.03859510188,-0.03507282858
4,-0.04001809762,-0.03326734737
4.01,-0.04135702126,-0.0314049147
4.02,-0.04260963378,-0.02948942977
4.03,-0.0437738764,-0.0275248777
4.04,-0.04484787373,-0.02551532117
4.05,-0.04582993656,-0.02346489207
4.06,-0.04671856429,-0.02137778298
4.07,-0.04751244696,-0.01925823854
4.08,-0.04821046688,-0.01711054686
4.09,-0.04881169987,-0.01493903079
4.1,-0.04931541612,-0.01274803927
4.11,-0.04972108069,-0.01054193855
4.12,-0.05002835351,-0.008325103525
4.13,-0.05023708914,-0.006101909059
4.14,-0.05034733603,-0.003876721347
4.15,-0.05035933545,-0.001653889358
4.16,-0.05027352007,0.0005622636556
4.17,-0.05009051206,0.002767448542
4.18,-0.04981112097,0.00495741853
4.19,-0.04943634114,0.007127977372
4.2,-0.04896734881,0.009274987352
4.21,-0.04840549885,0.01139437713
4.22,-0.04775232118,0.0134821494
4.23,-0.0470095169,0.01553438841
4.24,-0.04617895398,0.01754726718
4.25,-0.04526266279,0.01951705462
4.26,-0.04426283122,0.02144012236
4.27,-0.04318179961,0.02331295131
4.28,-0.0420220553,0.02513213806
4.29,-0.04078622701,0.0268944009
4.3,-0.03947707895,0.02859658567
4.31,-0.03809750463,0.03023567126
4.32,-0.03665052056,0.03180877487
4.33,-0.03513925966,0.03331315689
4.34,-0.0335669645,0.03474622554
4.35,-0.03193698035,0.03610554119
4.36,-0.03025274811,0.03738882031
4.37,-0.02851779702,0.03859393912
4.38,-0.02673573731,0.0397189369
4.39,-0.02491025269,0.04076201897
4.4,-0.02304509274,0.04172155932
4.41,-0.0211440652,0.04259610286
4.42,-0.01921102825,0.04338436738
4.43,-0.01724988266,0.04408524514
4.44,-0.01526456395,0.04469780405
4.45,-0.01325903448,0.04522128859
4.46,-0.01123727561,0.04565512032
4.47,-0.009203279783,0.04599889804
4.48,-0.007161042675,0.04625239764
4.49,-0.00511455538,0.04641557155
4.5,-0.003067796645,0.04648854787
4.51,-0.001024725172,0.04647162918
4.52,0.001010727995,0.04636529103
4.53,0.003034666981,0.04617017998
4.54,0.005043238488,0.04588711148
4.55,0.007032639062,0.04551706734
4.56,0.008999122237,0.04506119287
4.57,0.01093900551,0.0445207938
4.58,0.01284867718,0.04389733281
4.59,0.01472460293,0.04319242584
4.6,0.01656333236,0.0424078381
4.61,0.01836150516,0.04154547981
4.62,0.02011585718,0.04060740168
4.63,0.02182322623,0.03959579012
4.64,0.02348055766,0.03851296229
4.65,0.02508490972,0.03736136082
4.66,0.02663345857,0.03614354842
4.67,0.0281235032,0.03486220217
4.68,0.02955246991,0.03352010773
4.69,0.03091791661,0.03212015334
4.7,0.03221753684,0.03066532361
4.71,0.03344916347,0.02915869319
4.72,0.03461077208,0.02760342036
4.73,0.03570048414,0.02600274036
4.74,0.03671656978,0.02435995879
4.75,0.03765745031,0.0226784447
4.76,0.03852170044,0.02096162381
4.77,0.03930805014,0.01921297152
4.78,0.04001538625,0.01743600589
4.79,0.0406427537,0.01563428064
4.8,0.04118935651,0.01381137805
4.81,0.04165455837,0.01197090187
4.82,0.04203788301,0.01011647026
4.83,0.04233901417,0.008251708743
4.84,0.04255779532,0.006380243099
4.85,0.04269422904,0.004505692426
4.86,0.04274847609,0.002631662182
4.87,0.04272085424,0.0007617373063
4.88,0.04261183673,-0.001100524565
4.89,0.04242205043,-0.002951599801
4.9,0.04215227384,-0.00478800536
4.91,0.04180343462,-0.00660630527
4.92,0.04137660704,-0.008403116964
4.93,0.04087300898,-0.01017511748
4.94,0.04029399883,-0.01191904953
4.95,0.03964107205,-0.01363172732
4.96,0.03891585747,-0.01531004235
4.97,0.03812011342,-0.01695096887
4.98,0.03725572363,-0.01855156922
4.99,0.03632469283,-0.020108999
5,0.03532914224,-0.02162051194
5.01,0.0342713048,-0.02308346464
5.02,0.03315352027,-0.024495321
5.03,0.0319782301,-0.0258536565
5.04,0.03074797218,-0.02715616214
5.05,0.02946537538,-0.02840064828
5.06,0.02813315404,-0.02958504805
5.07,0.02675410223,-0.03070742062
5.08,0.02533108795,-0.03176595422
5.09,0.02386704722,-0.03275896877
5.1,0.02236497808,-0.0336849184
5.11,0.02082793447,-0.03454239359
5.12,0.01925902007,-0.03533012303
5.13,0.01766138212,-0.03604697532
5.14,0.01603820509,-0.03669196023
5.15,0.01439270444,-0.0372642298
5.16,0.01272812029,-0.03776307912
5.17,0.01104771106,-0.03818794683
5.18,0.009354747209,-0.03853841537
5.19,0.00765250487,-0.03881421087
5.2,0.005944259623,-0.03901520289
5.21,0.004233280238,-0.0391414038
5.22,0.002522822493,-0.03919296791
5.23,0.000816123059,-0.03917019033
5.24,-0.0008836065483,-0.03907350561
5.25,-0.002573185926,-0.03890348606
5.26,-0.004249471644,-0.03866083987
5.27,-0.005909363007,-0.03834640894
5.28,-0.007549807682,-0.03796116652
5.29,-0.009167807218,-0.03750621455
5.3,-0.01076042241,-0.03698278083
5.31,-0.01232477854,-0.03639221593
5.32,-0.01385807042,-0.03573598994
5.33,-0.01535756734,-0.0350156889
5.34,-0.01682061776,-0.03423301117
5.35,-0.0182446539,-0.03338976354
5.36,-0.01962719606,-0.03248785714
5.37,-0.02096585686,-0.03152930319
5.38,-0.02225834515,-0.03051620865
5.39,-0.0235024698,-0.02945077163
5.4,-0.02469614323,-0.02833527668
5.41,-0.02583738478,-0.02717208999
5.42,-0.02692432378,-0.02596365442
5.43,-0.02795520243,-0.0247124844
5.44,-0.02892837848,-0.0234211608
5.45,-0.0298423276,-0.02209232564
5.46,-0.03069564558,-0.02072867674
5.47,-0.03148705027,-0.01933296231
5.48,-0.03221538324,-0.01790797543
5.49,-0.03287961126,-0.01645654858
5.5,-0.03347882745,-0.01498154801
5.51,-0.03401225231,-0.01348586818
5.52,-0.03447923436,-0.01197242611
5.53,-0.03487925061,-0.01044415578
5.54,-0.03521190682,-0.008904002493
5.55,-0.03547693744,-0.007354917278
5.56,-0.03567420533,-0.005799851302
5.57,-0.03580370127,-0.004241750326
5.58,-0.03586554321,-0.002683549199
5.59,-0.03585997528,-0.001128166418
5.6,-0.0357873666,0.0004215012594
5.61,-0.03564820978,0.001962584114
5.62,-0.03544311934,0.003492244693
5.63,-0.03517282977,0.005007682931
5.64,-0.03483819345,0.006506141178
5.65,-0.03444017834,0.007984909114
5.66,-0.03397986549,0.009441328538
5.67,-0.03345844634,0.01087279803
5.68,-0.03287721982,0.0122767775
5.69,-0.03223758925,0.01365079254
5.7,-0.03154105915,0.01499243868
5.71,-0.03078923176,0.01629938545
5.72,-0.02998380351,0.01756938033
5.73,-0.02912656124,0.01880025242
5.74,-0.02821937837,0.01998991607
5.75,-0.02726421084,0.02113637423
5.76,-0.02626309298,0.02223772166
5.77,-0.02521813327,0.02329214791
5.78,-0.02413150993,0.02429794014
5.79,-0.02300546646,0.02525348575
5.8,-0.02184230707,0.02615727475
5.81,-0.020644392,0.02700790196
5.82,-0.01941413284,0.02780406901
5.83,-0.01815398767,0.02854458612
5.84,-0.01686645628,0.02922837364
5.85,-0.01555407519,0.02985446342
5.86,-0.01421941281,0.03042199991
5.87,-0.01286506438,0.03093024113
5.88,-0.01149364705,0.03137855929
5.89,-0.0101077949,0.03176644134
5.9,-0.008710153881,0.03209348919
5.91,-0.007303376912,0.03235941978
5.92,-0.005890118871,0.03256406491
5.93,-0.004473031681,0.03270737086
5.94,-0.003054759407,0.0327893978
5.95,-0.00163793341,0.03281031901
5.96,-0.0002251675502,0.03277041986
5.97,0.001180946546,0.03267009664
5.98,0.002577844149,0.03250985511
5.99,0.003962992002,0.03229030898
6,0.005333892821,0.03201217806
