"Freq [GHz]","re(S(Tx_p1,Tx_p1)) []","im(S(Tx_p1,Tx_p1)) []"
1,-0.01388899695,-0.06489229624
1.01,-0.01621766087,-0.06421849491
1.02,-0.01852418849,-0.06345558196
1.03,-0.02080448954,-0.06260413835
1.04,-0.02305450884,-0.06166496122
1.05,-0.0252702371,-0.06063906
1.06,-0.02744772135,-0.05952765212
1.07,-0.02958307521,-0.05833215825
1.08,-0.03167248867,-0.05705419713
1.09,-0.0337122377,-0.0556955801
1.1,-0.03569869338,-0.05425830508
1.11,-0.03762833075,-0.05274455035
1.12,-0.03949773722,-0.05115666787
1.13,-0.04130362065,-0.04949717634
1.14,-0.04304281697,-0.04776875388
1.15,-0.04471229741,-0.04597423047
1.16,-0.04630917533,-0.0441165801
1.17,-0.04783071254,-0.04219891264
1.18,-0.04927432524,-0.04022446554
1.19,-0.0506375895,-0.03819659523
1.2,-0.05191824627,-0.03611876842
1.21,-0.05311420587,-0.03399455318
1.22,-0.05422355214,-0.03182760987
1.23,-0.05524454596,-0.02962168198
1.24,-0.05617562845,-0.02738058685
1.25,-0.05701542355,-0.02510820632
1.26,-0.0577627402,-0.02280847732
1.27,-0.05841657406,-0.02048538246
1.28,-0.0589761087,-0.01814294052
1.29,-0.05944071633,-0.0157851971
1.3,-0.05980995809,-0.01341621519
1.31,-0.06008358387,-0.01104006581
1.32,-0.06026153163,-0.008660818819
1.33,-0.06034392635,-0.006282533716
1.34,-0.06033107844,-0.003909250636
1.35,-0.06022348182,-0.001544981463
1.36,-0.06002181149,0.0008062988893
1.37,-0.05972692077,0.00314066101
1.38,-0.05933983806,0.005454229327
1.39,-0.05886176327,0.007743190222
1.4,-0.05829406388,0.0100037999
1.41,-0.05763827058,0.01223239204
1.42,-0.05689607268,0.01442538509
1.43,-0.05606931307,0.01657928942
1.44,-0.05515998294,0.01869071404
1.45,-0.0541702162,0.02075637306
1.46,-0.05310228364,0.02277309186
1.47,-0.05195858676,0.02473781291
1.48,-0.05074165147,0.02664760116
1.49,-0.04945412146,0.02849964925
1.5,-0.04809875146,0.03029128218
1.51,-0.04667840027,0.03201996172
1.52,-0.04519602364,0.03368329044
1.53,-0.04365466701,0.03527901529
1.54,-0.04205745814,0.03680503089
1.55,-0.0404075996,0.03825938237
1.56,-0.03870836123,0.03964026783
1.57,-0.0369630725,0.04094604045
1.58,-0.03517511486,0.04217521015
1.59,-0.03334791405,0.04332644493
1.6,-0.0314849324,0.04439857177
1.61,-0.02958966115,0.04539057716
1.62,-0.02766561284,0.04630160729
1.63,-0.02571631374,0.04713096779
1.64,-0.02374529628,0.04787812321
1.65,-0.02175609171,0.04854269602
1.66,-0.01975222276,0.04912446534
1.67,-0.01773719643,0.04962336533
1.68,-0.01571449701,0.05003948314
1.69,-0.01368757916,0.05037305671
1.7,-0.0116598612,0.05062447206
1.71,-0.0096347186,0.05079426043
1.72,-0.00761547764,0.05088309508
1.73,-0.005605409314,0.05089178774
1.74,-0.003607723435,0.05082128495
1.75,-0.001625562991,0.05067266398
1.76,0.0003380012639,0.05044712861
1.77,0.002279975951,0.05014600472
1.78,0.004197449949,0.04977073553
1.79,0.006087599,0.04932287682
1.8,0.007947690039,0.04880409184
1.81,0.00977508523,0.04821614615
1.82,0.01156724571,0.04756090224
1.83,0.01332173506,0.04684031408
1.84,0.0150362224,0.04605642153
1.85,0.01670848532,0.04521134467
1.86,0.01833641235,0.04430727804
1.87,0.0199180052,0.0433464848
1.88,0.02145138075,0.04233129087
1.89,0.02293477259,0.04126407905
1.9,0.0243665324,0.04014728309
1.91,0.02574513094,0.03898338177
1.92,0.02706915875,0.03777489301
1.93,0.02833732664,0.03652436801
1.94,0.02954846573,0.03523438543
1.95,0.03070152736,0.03390754561
1.96,0.03179558267,0.03254646491
1.97,0.03282982182,0.03115377011
1.98,0.03380355312,0.0297320929
1.99,0.03471620174,0.0282840645
2,0.03556730825,0.02681231042
2.01,0.03635652694,0.02531944532
2.02,0.03708362385,0.02380806805
2.03,0.03774847462,0.02228075682
2.04,0.03835106215,0.02074006457
2.05,0.03889147398,0.0191885145
2.06,0.03936989961,0.01762859575
2.07,0.03978662754,0.01606275935
2.08,0.0401420422,0.01449341431
2.09,0.04043662071,0.01292292389
2.1,0.04067092952,0.01135360217
2.11,0.04084562091,0.009787710779
2.12,0.0409614294,0.008227455806
2.13,0.04101916802,0.006674985014
2.14,0.04101972454,0.005132385225
2.15,0.04096405763,0.003601679948
2.16,0.04085319289,0.002084827226
2.17,0.04068821893,0.0005837177224
2.18,0.04047028333,-0.0008998269751
2.19,0.04020058864,-0.002364055822
2.2,0.03988038836,-0.003807289558
2.21,0.03951098286,-0.005227921729
2.22,0.03909371543,-0.00662441949
2.23,0.03862996822,-0.007995324191
2.24,0.03812115836,-0.009339251752
2.25,0.03756873402,-0.01065489284
2.26,0.03697417055,-0.01194101282
2.27,0.03633896674,-0.01319645157
2.28,0.03566464113,-0.01442012301
2.29,0.03495272834,-0.01561101457
2.3,0.03420477566,-0.01676818638
2.31,0.03342233955,-0.01789077036
2.32,0.0326069824,-0.0189779691
2.33,0.03176026934,-0.02002905466
2.34,0.03088376522,-0.02104336717
2.35,0.02997903167,-0.0220203133
2.36,0.02904762433,-0.02295936466
2.37,0.02809109022,-0.02386005604
2.38,0.02711096528,-0.02472198355
2.39,0.02610877201,-0.0255448027
2.4,0.02508601729,-0.02632822638
2.41,0.02404419039,-0.02707202274
2.42,0.02298476106,-0.02777601305
2.43,0.02190917789,-0.02844006949
2.44,0.02081886671,-0.02906411291
2.45,0.01971522923,-0.02964811053
2.46,0.01859964181,-0.03019207365
2.47,0.01747345442,-0.03069605533
2.48,0.0163379897,-0.03116014805
2.49,0.01519454225,-0.03158448145
2.5,0.01404437798,-0.03196921999
2.51,0.01288873371,-0.03231456072
2.52,0.0117288168,-0.03262073101
2.53,0.01056580507,-0.03288798638
2.54,0.0094008467,-0.03311660836
2.55,0.008235060354,-0.03330690241
2.56,0.007069535418,-0.03345919589
2.57,0.005905332329,-0.03357383613
2.58,0.004743483044,-0.03365118858
2.59,0.003584991596,-0.03369163502
2.6,0.002430834762,-0.03369557185
2.61,0.001281962813,-0.03366340854
2.62,0.0001393003582,-0.03359556613
2.63,-0.0009962527474,-0.03349247584
2.64,-0.002123820415,-0.03335457779
2.65,-0.003242549281,-0.03318231984
2.66,-0.004351607615,-0.03297615656
2.67,-0.005450184175,-0.03273654829
2.68,-0.006537487043,-0.03246396029
2.69,-0.007612742419,-0.03215886209
2.7,-0.008675193407,-0.03182172692
2.71,-0.009724098786,-0.0314530312
2.72,-0.01075873178,-0.03105325426
2.73,-0.01177837886,-0.03062287809
2.74,-0.01278233848,-0.03016238725
2.75,-0.01376991997,-0.02967226885
2.76,-0.01474044232,-0.02915301272
2.77,-0.01569323313,-0.02860511162
2.78,-0.01662762747,-0.02802906156
2.79,-0.01754296695,-0.02742536223
2.8,-0.01843859868,-0.02679451758
2.81,-0.01931387448,-0.02613703639
2.82,-0.02016814999,-0.02545343299
2.83,-0.02100078397,-0.02474422809
2.84,-0.02181113766,-0.02400994958
2.85,-0.0225985742,-0.02325113349
2.86,-0.02336245818,-0.022468325
2.87,-0.02410215526,-0.02166207947
2.88,-0.02481703194,-0.02083296351
2.89,-0.02550645535,-0.01998155617
2.9,-0.02616979325,-0.01910845006
2.91,-0.02680641407,-0.01821425256
2.92,-0.02741568705,-0.017299587
2.93,-0.02799698261,-0.01636509394
2.94,-0.02854967268,-0.01541143231
2.95,-0.02907313124,-0.01443928069
2.96,-0.02956673497,-0.01344933844
2.97,-0.03002986398,-0.01244232692
2.98,-0.03046190268,-0.0114189906
2.99,-0.03086224076,-0.01038009818
3,-0.03123027426,-0.009326443612
3.01,-0.03156540676,-0.00825884713
3.02,-0.03186705069,-0.007178156158
3.03,-0.0321346287,-0.006085246179
3.04,-0.0323675752,-0.00498102152
3.05,-0.03256533786,-0.003866416053
3.06,-0.03272737936,-0.002742393801
3.07,-0.0328531791,-0.001609949447
3.08,-0.03294223502,-0.0004701087446
3.09,-0.03299406553,0.000676071189
3.1,-0.03300821141,0.00182750169
3.11,-0.03298423789,0.002983062487
3.12,-0.03292173666,0.00414160176
3.13,-0.03282032799,0.005301936341
3.14,-0.03267966288,0.006462852026
3.15,-0.0324994252,0.007623104046
3.16,-0.03227933388,0.008781417658
3.17,-0.0320191451,0.009936488889
3.18,-0.03171865446,0.01108698542
3.19,-0.03137769919,0.01223154759
3.2,-0.03099616026,0.0133687896
3.21,-0.03057396458,0.01449730083
3.22,-0.03011108704,0.01561564723
3.23,-0.02960755259,0.01672237303
3.24,-0.02906343826,0.01781600241
3.25,-0.02847887504,0.01889504141
3.26,-0.02785404983,0.01995797994
3.27,-0.02718920715,0.021003294
3.28,-0.02648465087,0.0220294479
3.29,-0.02574074583,0.02303489671
3.3,-0.02495791929,0.02401808882
3.31,-0.02413666238,0.02497746859
3.32,-0.02327753128,0.02591147912
3.33,-0.02238114841,0.02681856515
3.34,-0.02144820342,0.02769717601
3.35,-0.02047945402,0.02854576878
3.36,-0.01947572669,0.02936281134
3.37,-0.01843791727,0.03014678572
3.38,-0.01736699127,0.03089619135
3.39,-0.01626398417,0.03160954848
3.4,-0.01513000141,0.0322854016
3.41,-0.01396621832,0.03292232289
3.42,-0.01277387974,0.0335189158
3.43,-0.0115542996,0.03407381853
3.44,-0.0103088602,0.03458570762
3.45,-0.009039011386,0.03505330151
3.46,-0.007746269443,0.0354753641
3.47,-0.006432215891,0.0358507083
3.48,-0.005098496031,0.03617819955
3.49,-0.003746817312,0.03645675931
3.5,-0.002378947513,0.03668536852
3.51,-0.0009967127221,0.03686307096
3.52,0.0003980048612,0.03698897658
3.53,0.001803269322,0.03706226477
3.54,0.003217093604,0.03708218748
3.55,0.004637442271,0.03704807231
3.56,0.006062234435,0.03695932545
3.57,0.007489346871,0.03681543451
3.58,0.008916617292,0.03661597121
3.59,0.01034184778,0.03636059401
3.6,0.0117628084,0.03604905044
3.61,0.01317724093,0.03568117945
3.62,0.01458286272,0.03525691347
3.63,0.0159773708,0.03477628031
3.64,0.01735844592,0.03423940499
3.65,0.0187237569,0.0336465112
3.66,0.02007096497,0.03299792274
3.67,0.02139772827,0.03229406463
3.68,0.02270170637,0.03153546408
3.69,0.02398056496,0.03072275122
3.7,0.02523198057,0.02985665961
3.71,0.02645364529,0.02893802655
3.72,0.02764327166,0.0279677931
3.73,0.02879859748,0.02694700397
3.74,0.0299173907,0.02587680704
3.75,0.03099745434,0.02475845276
3.76,0.03203663133,0.02359329324
3.77,0.03303280947,0.02238278115
3.78,0.03398392623,0.02112846832
3.79,0.03488797356,0.01983200415
3.8,0.03574300275,0.01849513372
3.81,0.03654712903,0.01711969575
3.82,0.03729853632,0.01570762022
3.83,0.0379954817,0.01426092584
3.84,0.03863629991,0.0127817172
3.85,0.0392194077,0.0112721818
3.86,0.03974330802,0.009734586777
3.87,0.04020659417,0.0081712754
3.88,0.0406079537,0.006584663429
3.89,0.04094617223,0.004977235206
3.9,0.04122013705,0.003351539561
3.91,0.04142884061,0.001710185535
3.92,0.04157138375,5.583790406E-05
3.93,0.04164697877,-0.001608787459
3.94,0.0416549523,-0.0032809284
3.95,0.04159474792,-0.004957781449
3.96,0.04146592861,-0.006636506939
3.97,0.0412681789,-0.008314234256
3.98,0.04100130686,-0.00998806722
3.99,0.04066524575,-0.01165508957
4,0.0402600555,-0.01331237058
4.01,0.03978592389,-0.01495697071
4.02,0.03924316746,-0.01658594739
4.03,0.0386322322,-0.01819636087
4.04,0.03795369388,-0.01978528006
4.05,0.0372082582,-0.02134978847
4.06,0.03639676059,-0.02288699018
4.07,0.03552016578,-0.02439401574
4.08,0.03457956702,-0.02586802819
4.09,0.03357618512,-0.02730622897
4.1,0.0325113671,-0.02870586384
4.11,0.03138658461,-0.03006422876
4.12,0.0302034321,-0.03137867568
4.13,0.02896362462,-0.03264661832
4.14,0.02766899545,-0.03386553778
4.15,0.02632149338,-0.03503298817
4.16,0.02492317974,-0.036146602
4.17,0.0234762252,-0.03720409555
4.18,0.02198290626,-0.03820327403
4.19,0.02044560155,-0.03914203663
4.2,0.01886678778,-0.04001838142
4.21,0.0172490356,-0.04083041
4.22,0.01559500511,-0.0415763321
4.23,0.01390744117,-0.0422544698
4.24,0.01218916857,-0.04286326171
4.25,0.01044308687,-0.04340126684
4.26,0.008672165215,-0.04386716826
4.27,0.006879436779,-0.04425977652
4.28,0.005067993199,-0.04457803281
4.29,0.003240978762,-0.04482101191
4.3,0.001401584471,-0.04498792482
4.31,-0.000446958026,-0.04507812114
4.32,-0.002301382624,-0.04509109116
4.33,-0.004158395062,-0.04502646772
4.34,-0.00601467932,-0.04488402767
4.35,-0.007866904089,-0.04466369315
4.36,-0.009711729314,-0.04436553252
4.37,-0.01154581279,-0.04398976094
4.38,-0.01336581679,-0.04353674075
4.39,-0.01516841471,-0.04300698145
4.4,-0.01695029778,-0.0424011394
4.41,-0.01870818164,-0.04172001723
4.42,-0.02043881306,-0.04096456294
4.43,-0.02213897649,-0.04013586863
4.44,-0.02380550061,-0.03923516901
4.45,-0.02543526486,-0.03826383954
4.46,-0.0270252058,-0.03722339431
4.47,-0.02857232345,-0.03611548358
4.48,-0.03007368748,-0.03494189105
4.49,-0.0315264433,-0.03370453086
4.5,-0.032927818,-0.03240544426
4.51,-0.03427512615,-0.03104679606
4.52,-0.03556577546,-0.02963087071
4.53,-0.03679727217,-0.02816006828
4.54,-0.03796722641,-0.0266369
4.55,-0.03907335719,-0.02506398372
4.56,-0.04011349731,-0.023444039
4.57,-0.041085598,-0.02177988206
4.58,-0.04198773327,-0.0200744205
4.59,-0.04281810414,-0.01833064778
4.6,-0.04357504249,-0.01655163756
4.61,-0.04425701474,-0.01474053779
4.62,-0.04486262521,-0.01290056471
4.63,-0.0453906192,-0.01103499665
4.64,-0.04583988585,-0.00914716767
4.65,-0.0462094606,-0.007240461136
4.66,-0.04649852745,-0.005318303111
4.67,-0.04670642086,-0.003384155689
4.68,-0.04683262736,-0.001441510229
4.69,-0.04687678684,0.0005061194852
4.7,-0.04683869356,0.002455204136
4.71,-0.04671829679,0.00440220581
4.72,-0.04651570116,0.006343584961
4.73,-0.04623116667,0.008275807388
4.74,-0.04586510843,0.0101953512
4.75,-0.04541809604,0.0120987138
4.76,-0.04489085263,0.01398241875
4.77,-0.04428425361,0.0158430227
4.78,-0.04359932515,0.0176771222
4.79,-0.04283724225,0.01948136038
4.8,-0.04199932659,0.02125243367
4.81,-0.04108704403,0.02298709826
4.82,-0.04010200184,0.02468217658
4.83,-0.03904594561,0.02633456354
4.84,-0.0379207559,0.02794123272
4.85,-0.03672844462,0.02949924227
4.86,-0.03547115109,0.03100574079
4.87,-0.03415113792,0.03245797288
4.88,-0.03277078654,0.03385328463
4.89,-0.03133259258,0.03518912877
4.9,-0.02983916098,0.0364630697
4.91,-0.02829320084,0.03767278825
4.92,-0.02669752013,0.03881608617
4.93,-0.02505502018,0.03989089046
4.94,-0.02336868991,0.04089525733
4.95,-0.02164160002,0.04182737596
4.96,-0.0198768969,0.04268557203
4.97,-0.01807779643,0.04346831082
4.98,-0.01624757771,0.04417420019
4.99,-0.01438957652,0.04480199317
5,-0.01250717885,0.04535059025
5.01,-0.01060381418,0.04581904145
5.02,-0.008682948791,0.04620654796
5.03,-0.006748078953,0.04651246357
5.04,-0.004802724071,0.04673629576
5.05,-0.002850419815,0.04687770647
5.06,-0.0008947112063,0.04693651252
5.07,0.001060854288,0.04691268582
5.08,0.003012733664,0.04680635314
5.09,0.004957395256,0.04661779564
5.1,0.006891325587,0.0463474481
5.11,0.008811036158,0.04599589779
5.12,0.01071307018,0.04556388306
5.13,0.01259400921,0.04505229165
5.14,0.01445047974,0.04446215865
5.15,0.0162791596,0.04379466424
5.16,0.01807678432,0.04305113106
5.17,0.01984015333,0.04223302136
5.18,0.02156613598,0.04134193389
5.19,0.02325167748,0.04037960044
5.2,0.02489380459,0.0393478822
5.21,0.02648963119,0.03824876587
5.22,0.0280363636,0.03708435945
5.23,0.02953130578,0.03585688792
5.24,0.03097186423,0.0345686886
5.25,0.03235555273,0.03322220632
5.26,0.03367999683,0.03181998845
5.27,0.03494293809,0.03036467967
5.28,0.03614223807,0.02885901658
5.29,0.03727588212,0.02730582217
5.3,0.03834198282,0.02570800015
5.31,0.03933878324,0.02406852905
5.32,0.04026465988,0.02239045633
5.33,0.04111812532,0.02067689225
5.34,0.04189783064,0.01893100371
5.35,0.0426025675,0.01715600799
5.36,0.04323126998,0.01535516637
5.37,0.04378301607,0.01353177781
5.38,0.04425702896,0.0116891724
5.39,0.04465267793,0.00983070494
5.4,0.04496947902,0.007959748435
5.41,0.04520709536,0.006079687551
5.42,0.04536533727,0.004193912131
5.43,0.04544416199,0.002305810709
5.44,0.04544367317,0.0004187640559
5.45,0.04536412008,-0.001463861227
5.46,0.04520589647,-0.003338719053
5.47,0.04496953926,-0.005202490124
5.48,0.04465572685,-0.007051888123
5.49,0.0442652772,-0.008883665804
5.5,0.04379914567,-0.01069462098
5.51,0.04325842257,-0.01248160239
5.52,0.04264433046,-0.01424151543
5.53,0.04195822121,-0.01597132775
5.54,0.04120157283,-0.01766807466
5.55,0.04037598605,-0.01932886448
5.56,0.03948318071,-0.02095088355
5.57,0.0385249919,-0.02253140123
5.58,0.03750336591,-0.02406777458
5.59,0.03642035604,-0.02555745292
5.6,0.03527811809,-0.02699798214
5.61,0.03407890585,-0.02838700879
5.62,0.0328250663,-0.02972228402
5.63,0.03151903468,-0.03100166718
5.64,0.03016332948,-0.0322231293
5.65,0.02876054722,-0.03338475625
5.66,0.02731335717,-0.03448475166
5.67,0.02582449593,-0.03552143966
5.68,0.02429676192,-0.03649326732
5.69,0.02273300981,-0.03739880681
5.7,0.02113614484,-0.03823675734
5.71,0.0195091171,-0.03900594686
5.72,0.0178549158,-0.03970533345
5.73,0.0161765634,-0.04033400648
5.74,0.01447710984,-0.04089118748
5.75,0.01275962668,-0.04137623082
5.76,0.01102720126,-0.04178862401
5.77,0.009282930872,-0.04212798788
5.78,0.007529916953,-0.04239407636
5.79,0.005771259326,-0.04258677614
5.8,0.004010050469,-0.04270610598
5.81,0.00224936985,-0.04275221582
5.82,0.0004922783276,-0.04272538563
5.83,-0.00125818737,-0.04262602402
5.84,-0.002999020074,-0.04245466661
5.85,-0.00472724751,-0.04221197421
5.86,-0.006439937521,-0.04189873069
5.87,-0.008134203174,-0.04151584072
5.88,-0.009807207738,-0.04106432727
5.89,-0.01145616953,-0.04054532887
5.9,-0.0130783666,-0.03996009672
5.91,-0.01467114131,-0.03930999157
5.92,-0.01623190469,-0.03859648047
5.93,-0.01775814065,-0.03782113329
5.94,-0.01924741008,-0.03698561911
5.95,-0.02069735466,-0.03609170244
5.96,-0.02210570056,-0.0351412393
5.97,-0.02347026193,-0.03413617312
5.98,-0.0247889442,-0.03307853064
5.99,-0.02605974717,-0.03197041747
6,-0.02728076787,-0.03081401379
