"Freq [GHz]","re(S(Rx_p1,Tx_p1)) []","im(S(Rx_p1,Tx_p1)) []"
1,-0.005463269226,-0.01282538291
1.01,-0.009989123334,-0.009327794299
1.02,-0.01265374889,-0.004406115721
1.03,-0.01309449381,0.001052281339
1.04,-0.01133743487,0.00611461849
1.05,-0.007771444263,0.009960031948
1.06,-0.003063977825,0.01200853869
1.07,0.001963412623,0.01200249371
1.08,0.006476741107,0.01003072673
1.09,0.009764472931,0.006495592212
1.1,0.011344745,0.002032199982
1.11,0.01103006994,-0.002604205349
1.12,0.008942403483,-0.006663149055
1.13,0.005479513952,-0.009516232049
1.14,0.001240762705,-0.01074958742
1.15,-0.003074231036,-0.01021911151
1.16,-0.006777547699,-0.008062295636
1.17,-0.009298540058,-0.00466705673
1.18,-0.01026783928,-0.000604026716
1.19,-0.009568357819,0.003466406376
1.2,-0.00734692839,0.006897918357
1.21,-0.003985937618,0.009157473433
1.22,-3.995774896E-05,0.009905509905
1.23,0.003852742806,0.009045573772
1.24,0.00707042738,0.006736358936
1.25,0.009104812106,0.003364565237
1.26,0.00964007057,-0.0005172843638
1.27,0.008601849943,-0.00427869441
1.28,0.006168585116,-0.007311366194
1.29,0.002743020236,-0.009126245836
1.3,-0.001112047368,-0.009432203402
1.31,-0.00476410678,-0.008183647609
1.32,-0.007613315074,-0.005589008803
1.33,-0.009190616909,-0.002078092185
1.34,-0.009235584356,0.001767095433
1.35,-0.007740866216,0.005307362179
1.36,-0.004955303397,0.007951978032
1.37,-0.001344431645,0.009257585492
1.38,0.002485804362,0.0090036959
1.39,0.005889951087,0.007231626229
1.4,0.008291907824,0.004239617969
1.41,0.009283339026,0.0005341956395
1.42,0.008694596802,-0.003254651577
1.43,0.006625486509,-0.006480456272
1.44,0.003429919021,-0.00859126478
1.45,-0.0003435703982,-0.009225402615
1.46,-0.004045670418,-0.008275084915
1.47,-0.007038506895,-0.005906309213
1.48,-0.00880670009,-0.002531016467
1.49,-0.009047652629,0.001264070318
1.5,-0.007724890245,0.004819731578
1.51,-0.005074692921,0.007519743668
1.52,-0.001564535983,0.008899102156
1.53,0.002189479042,0.008725628305
1.54,0.005531575288,0.007040277905
1.55,0.007882160459,0.004148862195
1.56,0.008839809453,0.0005666664233
1.57,0.00825107426,-0.003074004006
1.58,0.006235681249,-0.006136595989
1.59,0.003162818147,-0.008093000194
1.6,-0.0004168723872,-0.008615875627
1.61,-0.00387095117,-0.007634166484
1.62,-0.006598208209,-0.005342213998
1.63,-0.008134543743,-0.002161411338
1.64,-0.008232762554,0.001338011106
1.65,-0.006902367465,0.00454035838
1.66,-0.004402937316,0.006893982135
1.67,-0.001193209603,0.008007169601
1.68,0.002154044315,0.007713540244
1.69,0.005055324287,0.006095984927
1.7,0.00701899378,0.003465935347
1.71,0.007728916926,0.0003028732042
1.72,0.007094837997,-0.002834024165
1.73,0.005261602518,-0.005405595122
1.74,0.002576926241,-0.006985781791
1.75,-0.0004751993617,-0.007331928162
1.76,-0.003362549085,-0.006420762711
1.77,-0.00559795348,-0.004445050926
1.78,-0.00682137407,-0.001773028284
1.79,-0.006856969119,0.001120843065
1.8,-0.005736330445,0.00374062569
1.81,-0.003685353802,0.00565391075
1.82,-0.00107861227,0.006562503126
1.83,0.001629501075,0.006347397676
1.84,0.003984094724,0.005081632698
1.85,0.005605689226,0.003010403211
1.86,0.006250165904,0.0005033794768
1.87,0.005843574901,-0.002011435303
1.88,0.004487329503,-0.004120428933
1.89,0.002434464173,-0.005491405996
1.9,4.233355153E-05,-0.00592429122
1.91,-0.002289367126,-0.005378169195
1.92,-0.00418455521,-0.003971565017
1.93,-0.005349998254,-0.001957314656
1.94,-0.005618849932,0.0003227096062
1.95,-0.004972479408,0.00249493594
1.96,-0.003538279445,0.004214032474
1.97,-0.001564917868,0.00521613831
1.98,0.0006202020106,0.005357594677
1.99,0.002664120279,0.004633939402
2,0.00424377571,0.003177071236
2.01,0.005115411363,0.001231745115
2.02,0.005150792641,-0.0008845170902
2.03,0.00435521022,-0.002831781508
2.04,0.002864954209,-0.004300704744
2.05,0.0009249000457,-0.005060324493
2.06,-0.001150330586,-0.004993597072
2.07,-0.003025826656,-0.004115406352
2.08,-0.004399087057,-0.00257026724
2.09,-0.005048012913,-0.0006098761383
2.1,-0.004866778497,0.001446348869
2.11,-0.00388379478,0.003261949449
2.12,-0.002258539231,0.004537637183
2.13,-0.000257205013,0.005060510586
2.14,0.001789516581,0.004740212405
2.15,0.003540181543,0.003625730824
2.16,0.004699358045,0.001899451755
2.17,0.005068020847,-0.0001512876512
2.18,0.004578844667,-0.002181076485
2.19,0.003309870315,-0.00384433156
2.2,0.001473489347,-0.004854583864
2.21,-0.0006181038648,-0.005034866531
2.22,-0.002605628223,-0.004350087691
2.23,-0.004144785163,-0.002915147437
2.24,-0.004966867879,-0.0009767071429
2.25,-0.004927005367,0.001128768781
2.26,-0.004031062528,0.003033666772
2.27,-0.002435888002,0.004404282283
2.28,-0.0004223863335,0.005000554262
2.29,0.001654086192,0.004719477291
2.3,0.003427201425,0.00361401888
2.31,0.004585485829,0.001883807106
2.32,0.004928376045,-0.0001609157893
2.33,0.004402096539,-0.002155553058
2.34,0.00310866874,-0.003747265218
2.35,0.001286387159,-0.004658679967
2.36,-0.0007345323375,-0.004737387981
2.37,-0.002592757655,-0.003982116105
2.38,-0.003961667208,-0.002540913231
2.39,-0.004607914611,-0.0006819993049
2.4,-0.004431956246,0.001256926028
2.41,-0.003483321289,0.002931142797
2.42,-0.001948287417,0.004051320424
2.43,-0.0001128665121,0.004434312918
2.44,0.001691422867,0.004033232368
2.45,0.003148488841,0.002941828186
2.46,0.004013856538,0.001373164687
2.47,0.004155934109,-0.0003826020684
2.48,0.00357533014,-0.002012820628
2.49,0.002399564229,-0.003238820812
2.5,0.0008551963096,-0.003863880224
2.51,-0.0007765134721,-0.00380434768
2.52,-0.002211568848,-0.003099113104
2.53,-0.00321305061,-0.001896849057
2.54,-0.003629953558,-0.0004245491005
2.55,-0.003418754666,0.001055919172
2.56,-0.002644952036,0.002294788897
2.57,-0.001465608612,0.003096378673
2.58,-9.725852957E-05,0.003349074113
2.59,0.001224196889,0.003038956198
2.6,0.002284094333,0.002245954013
2.61,0.002923148166,0.001124543661
2.62,0.003059887885,-0.0001264932239
2.63,0.002698637618,-0.001299285907
2.64,0.001922984032,-0.002210836748
2.65,0.0008770940327,-0.002730334002
2.66,-0.0002610191156,-0.002796069191
2.67,-0.001309336406,-0.002420283382
2.68,-0.002109900435,-0.001682345424
2.69,-0.002551058854,-0.0007124027301
2.7,-0.002581170294,0.0003311881614
2.71,-0.002212606208,0.00128683648
2.72,-0.001516365826,0.002013393259
2.73,-0.0006088390607,0.002409418811
2.74,0.000366907981,0.002425833209
2.75,0.001262513846,0.00207077353
2.76,0.001945488173,0.001406503748
2.77,0.002317511984,0.0005391415804
2.78,0.002327677342,-0.0003972694593
2.79,0.001979100618,-0.001260230375
2.8,0.00132810276,-0.001919301992
2.81,0.0004760031492,-0.002275009529
2.82,-0.0004455277125,-0.002273585918
2.83,-0.001293742693,-0.001915406892
2.84,-0.001936172922,-0.001255684438
2.85,-0.00227104566,-0.0003969746461
2.86,-0.002243660687,0.000525773823
2.87,-0.001856000871,0.001365709865
2.88,-0.001167712877,0.001987167785
2.89,-0.0002878555531,0.002287772391
2.9,0.0006416965372,0.002215889057
2.91,0.001468834602,0.001780286798
2.92,0.002056243688,0.001050024026
2.93,0.00230470497,0.0001441544226
2.94,0.00217057919,-0.0007873770406
2.95,0.001674212058,-0.001588643557
2.96,0.000897484627,-0.002124273324
2.97,-2.93815709E-05,-0.002302976459
2.98,-0.000949703903,-0.002093807548
2.99,-0.001707198903,-0.001532101094
3,-0.002173114091,-0.0007138218705
3.01,-0.002268769706,0.0002208358443
3.02,-0.001979404405,0.00111178129
3.03,-0.00135675922,0.001806980258
3.04,-0.0005098774693,0.002189010543
3.05,0.0004142405974,0.002195431177
3.06,0.001256624277,0.001829304615
3.07,0.001874244842,0.001158025564
3.08,0.002164813272,0.0003007641804
3.09,0.002084040659,-0.0005930875087
3.1,0.001652373888,-0.001370464583
3.11,0.0009501880513,-0.001901328122
3.12,0.0001025372255,-0.002100739183
3.13,-0.0007435670115,-0.00194248504
3.14,-0.001445109631,-0.001462065978
3.15,-0.001887566408,-0.0007488346919
3.16,-0.002003667429,7.096622744E-05
3.17,-0.001783342249,0.0008569624626
3.18,-0.001273452455,0.001478999785
3.19,-0.0005677846747,0.001838790711
3.2,0.0002105331531,0.001885236082
3.21,0.0009308152965,0.001621089436
3.22,0.001476877556,0.001100258924
3.23,0.001765624025,0.0004166931995
3.24,0.001759230161,-0.0003128223924
3.25,0.001469258412,-0.0009687490678
3.26,0.0009525030162,-0.001448275501
3.27,0.0002997448501,-0.001681052159
3.28,-0.0003803252929,-0.001638870788
3.29,-0.0009791401284,-0.001338128134
3.3,-0.001405274147,-0.0008351505664
3.31,-0.001597861144,-0.0002155722155
3.32,-0.001534582213,0.0004202133383
3.33,-0.001233363221,0.0009730678977
3.34,-0.0007479270317,0.001360101786
3.35,-0.0001582354439,0.001526497234
3.36,0.0004424864991,0.001452629937
3.37,0.0009620902837,0.001155729565
3.38,0.001323103915,0.0006861271119
3.39,0.001473719553,0.0001188701722
3.4,0.00139475003,-0.000457936093
3.41,0.001101736172,-0.0009563367734
3.42,0.0006420540233,-0.001301423041
3.43,8.752732863E-05,-0.00144215113
3.44,-0.0004763732539,-0.001358625185
3.45,-0.0009632258347,-0.001064862137
3.46,-0.001298478326,-0.0006066544102
3.47,-0.001430591556,-5.480017654E-05
3.48,-0.001338897566,0.0005053923691
3.49,-0.001036981782,0.0009868793849
3.5,-0.0005709944541,0.001314118143
3.51,-1.30081682E-05,0.001434816123
3.52,0.0005497263183,0.001328382179
3.53,0.00102811989,0.001009685978
3.54,0.001345208475,0.0005273858191
3.55,0.001448578371,-4.310512451E-05
3.56,0.001319231977,-0.0006110944135
3.57,0.0009753461526,-0.001084853656
3.58,0.0004701302653,-0.00138642844
3.59,-0.000116078946,-0.001464619731
3.6,-0.0006883889087,-0.00130393675
3.61,-0.001152665818,-0.0009278984253
3.62,-0.001431127077,-0.0003959436497
3.63,-0.001475600662,0.0002057359122
3.64,-0.001276138813,0.0007780782384
3.65,-0.0008633866593,0.001225528335
3.66,-0.0003041282972,0.001472184391
3.67,0.0003094041926,0.001474939074
3.68,0.0008747713965,0.001231281617
3.69,0.001296588688,0.0007802929479
3.7,0.001502862891,0.0001965197687
3.71,0.001457549727,-0.0004223441406
3.72,0.001167082264,-0.0009719319452
3.73,0.0006796403303,-0.001359024274
3.74,7.719176101E-05,-0.001517622171
3.75,-0.0005383851512,-0.001420441987
3.76,-0.00106272465,-0.001083776786
3.77,-0.001406916223,-0.0005648229492
3.78,-0.001512824967,4.810102169E-05
3.79,-0.001363094353,0.0006507538538
3.8,-0.0009840694492,0.001140932739
3.81,-0.0004411312461,0.001436047223
3.82,0.0001727222574,0.001487228126
3.83,0.0007530197249,0.001287517115
3.84,0.001201831877,0.000872742722
3.85,0.001444496917,0.0003149910185
3.86,0.001442153136,-0.0002901140596
3.87,0.001197949146,-0.000840030907
3.88,0.0007559433027,-0.001242878999
3.89,0.0001930012291,-0.001432915146
3.9,-0.0003947819768,-0.001381271197
3.91,-0.0009086866047,-0.00110019796
3.92,-0.001264083271,-0.0006402281509
3.93,-0.001404395813,-8.091067168E-05
3.94,-0.001310002534,0.0004831421784
3.95,-0.001000702137,0.0009584007674
3.96,-0.0005315117727,0.001267968093
3.97,1.72962397E-05,0.001363938665
3.98,0.0005540726382,0.001234601126
3.99,0.0009911501593,0.0009054563529
4,0.001259096385,0.0004340919373
4.01,0.001317559948,-0.0001000324741
4.02,0.001161062917,-0.0006090436262
4.03,0.0008189833984,-0.001011061991
4.04,0.0003499412099,-0.001243208663
4.05,-0.0001683159758,-0.00127118784
4.06,-0.0006517644023,-0.001094050235
4.07,-0.00102357902,-0.0007435574686
4.08,-0.001226108633,-0.000278429256
4.09,-0.001229545335,0.0002254702229
4.1,-0.001036055024,0.0006873734074
4.11,-0.0006788649292,0.00103433753
4.12,-0.0002165752223,0.001212510863
4.13,0.0002763364489,0.001195262632
4.14,0.0007213105109,0.0009870080063
4.15,0.001047986552,0.0006222176537
4.16,0.001205112495,0.0001598172179
4.17,0.00116844568,-0.0003261420541
4.18,0.0009444617365,-0.0007581151176
4.19,0.0005693081383,-0.001067229886
4.2,0.0001031455086,-0.001204132831
4.21,-0.0003792855638,-0.001146837948
4.22,-0.0008004500542,-0.0009043350273
4.23,-0.001092348582,-0.0005153414969
4.24,-0.001207462523,-4.232217343E-05
4.25,-0.001126557172,0.0004383541569
4.26,-0.0008620402085,0.0008486184859
4.27,-0.0004562507795,0.001121345463
4.28,2.51416692E-05,0.001211394655
4.29,0.0005036457422,0.001103213556
4.3,0.0009007104341,0.0008136849781
4.31,0.001150671302,0.0003896579812
4.32,0.001211728831,-9.952248117E-05
4.33,0.001073089178,-0.0005733224821
4.34,0.0007570073333,-0.0009533234369
4.35,0.0003153152955,-0.001176309168
4.36,-0.0001790479149,-0.001204919678
4.37,-0.0006441239135,-0.001034038557
4.38,-0.001002621172,-0.000691789305
4.39,-0.001194884524,-0.0002349304498
4.4,-0.001188936797,0.0002605990592
4.41,-0.0009858719672,0.0007123938618
4.42,-0.0006196724333,0.001045399014
4.43,-0.0001514797802,0.001204480657
4.44,0.0003407000118,0.001163617389
4.45,0.0007750970856,0.0009301643306
4.46,0.001079853708,0.0005434914275
4.47,0.001204963085,6.826088844E-05
4.48,0.001130473743,-0.0004164833327
4.49,0.0008696151819,-0.0008305447363
4.5,0.0004663728108,-0.0011058846
4.51,-1.202169861E-05,-0.001197792368
4.52,-0.0004863756663,-0.001092085266
4.53,-0.0008786798465,-0.0008071955766
4.54,-0.001124919678,-0.0003908691093
4.55,-0.001185453576,8.790937422E-05
4.56,-0.001051294159,0.0005503768977
4.57,-0.0007453257057,0.0009209251683
4.58,-0.0003183293055,0.001139387038
4.59,0.0001594732158,0.001170699282
4.6,0.0006099385379,0.001010418949
4.61,0.0009597000346,0.0006852571546
4.62,0.0011520017,0.0002485985728
4.63,0.001155789347,-0.0002282312785
4.64,0.0009706355706,-0.0006675278484
4.65,0.0006267439176,-0.0009977454459
4.66,0.0001800546123,-0.001165020191
4.67,-0.0002967601288,-0.001141856967
4.68,-0.0007259838124,-0.0009316077763
4.69,-0.001037380765,-0.0005680262785
4.7,-0.001179577541,-0.0001099504184
4.71,-0.001128487584,0.0003680727123
4.72,-0.0008914142434,0.0007877625395
4.73,-0.0005061314492,0.001079798147
4.74,-3.502471496E-05,0.001195205376
4.75,0.0004448390445,0.001113586975
4.76,0.0008541768804,0.0008468124245
4.77,0.001124512637,0.0004374832511
4.78,0.001209641005,-4.76812461E-05
4.79,0.001093615197,-0.0005285606556
4.8,0.0007938586205,-0.0009247738944
4.81,0.0003587678615,-0.001169114592
4.82,-0.0001399250861,-0.001219039587
4.83,-0.0006188736408,-0.001064227839
4.84,-0.0009970351705,-0.000728832195
4.85,-0.001209469001,-0.0002679103933
4.86,-0.001218646389,0.0002414931339
4.87,-0.001021265744,0.0007132034967
4.88,-0.0006492918245,0.001066572639
4.89,-0.000164914098,0.001240427138
4.9,0.0003498181111,0.001203856189
4.91,0.0008069666141,0.0009618892335
4.92,0.001127886015,0.0005549767592
4.93,0.001256956615,5.227020379E-05
4.94,0.001171420387,-0.0004601948678
4.95,0.0008855319641,-0.0008943775737
4.96,0.0004482337666,-0.001175561191
4.97,-6.527950142E-05,-0.001255413147
4.98,-0.0005666389552,-0.001120442011
4.99,-0.0009697103133,-0.0007943343363
5,-0.001205595641,-0.0003337521604
5.01,-0.001234563832,0.0001816511596
5.02,-0.001052805291,0.00066320197
5.03,-0.0006928470326,0.001028663894
5.04,-0.0002176095572,0.001216436322
5.05,0.0002907770935,0.001196003514
5.06,0.00074536277,0.0009728459973
5.07,0.001069401308,0.0005870378697
5.08,0.001209374926,0.0001058841662
5.09,0.001143792621,-0.0003880066571
5.1,0.0008863286718,-0.0008110541388
5.11,0.000482889645,-0.001092917656
5.12,3.260252468E-06,-0.001188156379
5.13,-0.0004711090427,-0.001083416129
5.14,-0.0008610002206,-0.0007990459442
5.15,-0.001102624867,-0.0003850272347
5.16,-0.001157932493,8.794103488E-05
5.17,-0.00102040044,0.0005405788548
5.18,-0.0007154812331,0.0008982852608
5.19,-0.0002957893969,0.001103314082
5.2,0.0001680369306,0.001123911982
5.21,0.0005991986141,0.0009590236688
5.22,0.0009273392394,0.0006379260686
5.23,0.001099853187,0.0002149796123
5.24,0.001090127816,-0.0002395506211
5.25,0.0009014800366,-0.0006510620719
5.26,0.0005662503745,-0.0009526955536
5.27,0.0001402810593,-0.001096017849
5.28,-0.0003062859902,-0.001058647211
5.29,-0.0007004024184,-0.0008476607674
5.3,-0.0009778892726,-0.0004982870235
5.31,-0.001093742755,-6.811790014E-05
5.32,-0.001029352591,0.0003722341467
5.33,-0.000795495251,0.0007505582123
5.34,-0.0004306183019,0.001004742732
5.35,5.334575083E-06,0.001092890916
5.36,0.0004406045524,0.001000226943
5.37,0.0008032843401,0.0007416538934
5.38,0.001033110872,0.0003595005426
5.39,0.001091471893,-8.324119116E-05
5.4,0.0009679665997,-0.0005131508565
5.41,0.0006823877838,-0.0008584611832
5.42,0.0002817199994,-0.001061022626
5.43,-0.0001674362832,-0.001086160559
5.44,-0.0005898324471,-0.0009287389677
5.45,-0.0009141514944,-0.0006143404833
5.46,-0.001085104264,-0.0001952712964
5.47,-0.001072978043,0.0002580275892
5.48,-0.0008789599424,0.0006687815149
5.49,-0.0005352450864,0.0009669294012
5.5,-9.981926031E-05,0.001101190371
5.51,0.0003532708164,0.001048044709
5.52,0.0007465411046,0.0008160190095
5.53,0.001012429385,0.00044445738
5.54,0.00110506186,-3.083199757E-06
5.55,0.001008340756,-0.0004497221676
5.56,0.0007388865066,-0.0008185606651
5.57,0.0003432633872,-0.001046077711
5.58,-0.0001100692114,-0.001093247071
5.59,-0.0005426890775,-0.0009523873187
5.6,-0.000879927616,-0.0006485054451
5.61,-0.001063936167,-0.0002348752496
5.62,-0.001063773319,0.0002163720024
5.63,-0.0008807148141,0.0006269665324
5.64,-0.0005478481373,0.0009262528124
5.65,-0.0001240466322,0.001063517666
5.66,0.000316568187,0.001016702004
5.67,0.0006977602772,0.000795970662
5.68,0.0009545410467,0.0004415551832
5.69,0.001044376747,1.632281818E-05
5.7,0.0009542778145,-0.000405531774
5.71,0.0007025775629,-0.0007516006469
5.72,0.0003351818521,-0.0009638244649
5.73,-8.293451067E-05,-0.001008291125
5.74,-0.0004793778826,-0.0008806037698
5.75,-0.0007870058675,-0.0006059814747
5.76,-0.0009553681326,-0.0002342134469
5.77,-0.0009589527788,0.0001695061315
5.78,-0.0008008982104,0.0005361428513
5.79,-0.0005116710041,0.0008047044166
5.8,-0.0001431067001,0.0009323782152
5.81,0.0002409995986,0.0009012430671
5.82,0.000576017496,0.0007205326645
5.83,0.0008073629141,0.0004242344415
5.84,0.0008993055095,6.461289518E-05
5.85,0.0008403038418,-0.0002970889509
5.86,0.000644119252,-0.0006010986499
5.87,0.0003467006188,-0.0007989289897
5.88,-4.653225069E-07,-0.000860964214
5.89,-0.0003392948176,-0.0007806687045
5.9,-0.0006147823086,-0.0005748779147
5.91,-0.0007838110914,-0.0002802937858
5.92,-0.000821718765,5.308811771E-05
5.93,-0.0007256633786,0.0003704382179
5.94,-0.0005143896279,0.0006210162525
5.95,-0.0002245797112,0.0007661304833
5.96,9.550218468E-05,0.0007849221625
5.97,0.0003939756832,0.000677156464
5.98,0.000623624373,0.0004626973824
5.99,0.000749200399,0.000177864371
6,0.0007526626949,-0.0001306656
