"Freq [GHz]","re(S(Rx_p1,Tx_p1)) []","im(S(Rx_p1,Tx_p1)) []"
1,0.05879667691,0.03507588575
1.01,0.067546354,0.008248491782
1.02,0.06467849519,-0.01961789304
1.03,0.0508708396,-0.04373559723
1.04,0.02867236482,-0.06005236103
1.05,0.002021154858,-0.06593740445
1.06,-0.02446789901,-0.06060275412
1.07,-0.04631419861,-0.04519335948
1.08,-0.05993666402,-0.02254006873
1.09,-0.06324125847,0.003370983682
1.1,-0.05593470007,0.02811119802
1.11,-0.03951953871,0.04757503762
1.12,-0.01698289225,0.05866451424
1.13,0.007756278756,0.05977821403
1.14,0.03053747935,0.05102888821
1.15,0.04766348535,0.03416353752
1.16,0.05649953292,0.01221200429
1.17,0.05587029638,-0.01106482417
1.18,0.04619696615,-0.03182545453
1.19,0.02936348887,-0.0467834365
1.2,0.008347150027,-0.05372301018
1.21,-0.01331369137,-0.05181511331
1.22,-0.03211867201,-0.04169164806
1.23,-0.04516947247,-0.02527831055
1.24,-0.05060856559,-0.005426092936
1.25,-0.04786819362,0.01458773809
1.26,-0.03769990677,0.03160131772
1.27,-0.02199239379,0.04306310553
1.28,-0.003418966681,0.04740378339
1.29,0.01501932047,0.04423344582
1.3,0.03047667302,0.03434356713
1.31,0.04069455294,0.01952541705
1.32,0.0443188093,0.002244546543
1.33,0.04106037536,-0.014769439
1.34,0.0316850049,-0.02894975908
1.35,0.01784465196,-0.03827029929
1.36,0.001786097917,-0.04152094009
1.37,-0.0140118595,-0.03844618654
1.38,-0.02721462346,-0.02973567677
1.39,-0.03596580708,-0.01687764099
1.4,-0.03913371351,-0.00190530664
1.41,-0.03644084382,0.0129207936
1.42,-0.0284656045,0.02544589353
1.43,-0.01652384447,0.03392221833
1.44,-0.002453639131,0.03723890235
1.45,0.01166196619,0.0350534687
1.46,0.02379372496,0.02781253979
1.47,0.03224575241,0.01666459039
1.48,0.0358800414,0.003281160344
1.49,0.03425895209,-0.01038643245
1.5,0.02769017214,-0.02238111865
1.51,0.01717126312,-0.03100867164
1.52,0.004243262457,-0.03506653521
1.53,-0.00922634892,-0.03400420856
1.54,-0.02130270317,-0.02799527059
1.55,-0.03025103579,-0.01791204724
1.56,-0.03477786212,-0.005205908197
1.57,-0.03421395652,0.008291997879
1.58,-0.02861398272,0.02062437358
1.59,-0.01875767835,0.02998286614
1.6,-0.006049914488,0.0349677832
1.61,0.007669615887,0.034796194
1.62,0.02038352106,0.02942762876
1.63,0.03018667612,0.01958658119
1.64,0.03556870546,0.006674581364
1.65,0.03564762967,-0.007419874793
1.66,0.03031825644,-0.02058987406
1.67,0.02028957539,-0.03082052408
1.68,0.007000709302,-0.03649641218
1.69,-0.007577109131,-0.03665924979
1.7,-0.02122713386,-0.03117403481
1.71,-0.03182178208,-0.02077409432
1.72,-0.03765528478,-0.006972835717
1.73,-0.03772202082,0.008149513557
1.74,-0.03189434881,0.02225560102
1.75,-0.02096767536,0.03311171382
1.76,-0.006560417958,0.0389439605
1.77,0.009120526726,0.03873252278
1.78,0.02361587679,0.03239428855
1.79,0.03460077299,0.02082039749
1.8,0.0402611728,0.005757715106
1.81,0.03959815385,-0.01045149401
1.82,0.03260815978,-0.02523353745
1.83,0.02030598091,-0.03619433878
1.84,0.00458225465,-0.04151137471
1.85,-0.01208551093,-0.04024148977
1.86,-0.027024486,-0.03249169108
1.87,-0.03779846362,-0.01942140447
1.88,-0.04260969513,-0.003071964663
1.89,-0.04060343669,0.013952155
1.9,-0.03202275913,0.02890054564
1.91,-0.01818509433,0.03932516044
1.92,-0.001281247155,0.04348583553
1.93,0.01597267391,0.04064496418
1.94,0.03077481199,0.03120065205
1.95,0.04069681469,0.0166339324
1.96,0.04408666292,-0.0007235913859
1.97,0.0403474029,-0.01806514962
1.98,0.03004408551,-0.03256633768
1.99,0.01481947418,-0.04184945182
2,-0.00286908636,-0.04437744895
2.01,-0.02014921094,-0.039711484
2.02,-0.03420386317,-0.02858832646
2.03,-0.04273478049,-0.01280381658
2.04,-0.04434189429,0.005079121449
2.05,-0.03875543534,0.0221500023
2.06,-0.02688183166,0.03562849138
2.07,-0.01065551169,0.04332111518
2.08,0.007278906848,0.04398121207
2.09,0.02400129218,0.03751250205
2.1,0.03679538006,0.02498276613
2.11,0.04359341153,0.008445799297
2.12,0.04331259402,-0.009398309523
2.13,0.03602821823,-0.02564777318
2.14,0.02295564928,-0.0376746485
2.15,0.00624527094,-0.04355269395
2.16,-0.01137457478,-0.04236734304
2.17,-0.0270467203,-0.03435764338
2.18,-0.03825173597,-0.02086822309
2.19,-0.04321511265,-0.004120927786
2.2,-0.04118884414,0.01315458401
2.21,-0.03256262981,0.02816920695
2.22,-0.01878849569,0.03852740261
2.23,-0.00213349924,0.04261075607
2.24,0.01469681763,0.03983040306
2.25,0.02900102564,0.03070905367
2.26,0.03851744971,0.01678182716
2.27,0.04178220333,0.0003348746853
2.28,0.03835285419,-0.01597313127
2.29,0.02886386541,-0.02954334134
2.3,0.01490792136,-0.03825209483
2.31,-0.001234427872,-0.0407826784
2.32,-0.0169703267,-0.03682177065
2.33,-0.02981296066,-0.02709182264
2.34,-0.03777481515,-0.01321766969
2.35,-0.03967360471,0.002547696615
2.36,-0.03530412689,0.0176913481
2.37,-0.02545186295,0.02984197674
2.38,-0.01174994065,0.03714041443
2.39,0.003594144214,0.03852138586
2.4,0.01815580669,0.03386437095
2.41,0.02967649305,0.02399323548
2.42,0.03641210246,0.01052858089
2.43,0.03739335669,-0.004380354588
2.44,0.03256003925,-0.01839947811
2.45,0.02275169588,-0.02937416794
2.46,0.009560039481,-0.03565750599
2.47,-0.00493063987,-0.03635303958
2.48,-0.01847245839,-0.0314372487
2.49,-0.02900046117,-0.02174622907
2.5,-0.03494373531,-0.008832098376
2.51,-0.03545506062,0.005285929319
2.52,-0.03052657715,0.01843581039
2.53,-0.02097684731,0.0286236832
2.54,-0.008314156747,0.03433186901
2.55,0.005500963008,0.03474027492
2.56,0.01835676525,0.02983994158
2.57,0.02830920469,0.02042398386
2.58,0.03387143475,0.007959364101
2.59,0.03423176738,-0.00563980634
2.6,0.02936906755,-0.01830281851
2.61,0.0200498516,-0.02811342171
2.62,0.00770864574,-0.03359560222
2.63,-0.005769993962,-0.03393239468
2.64,-0.01833532113,-0.02908599894
2.65,-0.02807823329,-0.01980187963
2.66,-0.03351782245,-0.007496355708
2.67,-0.03382439917,0.005955895465
2.68,-0.02894583815,0.01850335287
2.69,-0.01961801859,0.02822682884
2.7,-0.007256985986,0.03363052674
2.71,0.006252109092,0.03387136886
2.72,0.01883873069,0.02889157413
2.73,0.02856147891,0.01943337759
2.74,0.03390624693,0.006932119286
2.75,0.03402247649,-0.006697782482
2.76,0.02886050786,-0.01935292239
2.77,0.01918738677,-0.02906378134
2.78,0.006476690597,-0.03430117429
2.79,-0.007312701478,-0.03421856602
2.8,-0.02003640794,-0.02879148888
2.81,-0.02969746991,-0.01883052619
2.82,-0.03476079412,-0.005863653109
2.83,-0.03439933239,0.008095778008
2.84,-0.0286319913,0.02086068958
2.85,-0.01832966227,0.03041350092
2.86,-0.005086332642,0.03522688656
2.87,0.009026234557,0.03451062359
2.88,0.0217827525,0.02834402658
2.89,0.03115676464,0.01767119663
2.9,0.03564493633,0.004158076174
2.91,0.03451082896,-0.01006737941
2.92,0.02790802502,-0.02275138967
2.93,0.01686153716,-0.03187348976
2.94,0.00310920344,-0.03597089317
2.95,-0.01117246229,-0.03437542167
2.96,-0.02371449664,-0.02732410372
2.97,-0.03251827344,-0.01592480078
2.98,-0.03617629658,-0.001981687836
2.99,-0.0340989851,0.01229176547
3,-0.02661052947,0.02462627185
3.01,-0.0148980835,0.03305970563
3.02,-0.0008223520293,0.03625101244
3.03,0.01337988028,0.03369443138
3.04,0.02545325696,0.02579961632
3.05,0.03348376097,0.01382501386
3.06,0.03620319169,-0.0003243982145
3.07,0.03318955241,-0.01440208151
3.08,0.0249316967,-0.0261783246
3.09,0.01274857586,-0.03379447321
3.1,-0.00142320323,-0.03605648969
3.11,-0.01533884929,-0.0326214575
3.12,-0.02680203789,-0.02404810372
3.13,-0.0340118287,-0.01170429957
3.14,-0.03584500955,0.002452744027
3.15,-0.03202977722,0.01618787896
3.16,-0.02318425115,0.02734121678
3.17,-0.01071485432,0.03416724676
3.18,0.003408364937,0.03560678256
3.19,0.01696331356,0.03144969739
3.2,0.02782497988,0.02236387283
3.21,0.03429738481,0.009786851687
3.22,0.03537681554,-0.004301962339
3.23,0.0309059003,-0.01769236689
3.24,0.02159528971,-0.02828891788
3.25,0.008910312896,-0.03443725499
3.26,-0.005159204882,-0.03518078777
3.27,-0.01840990473,-0.03040833431
3.28,-0.02876833178,-0.02087024713
3.29,-0.03461372838,-0.008060837552
3.3,-0.03503036077,0.006014559889
3.31,-0.0299504352,0.01915185559
3.32,-0.02016545988,0.02929159567
3.33,-0.007204095999,0.03484042328
3.34,0.006904926788,0.03492079921
3.35,0.01994848321,0.02951003613
3.36,0.02987466238,0.0194465877
3.37,0.03511474198,0.006301922465
3.38,0.0348312348,-0.007862872247
3.39,0.02905279031,-0.020818551
3.4,0.01867400275,-0.03051753484
3.41,0.00531906175,-0.03541747916
3.42,-0.008910497904,-0.03472750014
3.43,-0.02176524974,-0.02853755857
3.44,-0.03120321164,-0.01780945888
3.45,-0.0357150311,-0.004229548777
3.46,-0.03456707999,0.0100548511
3.47,-0.02792293743,0.02277447635
3.48,-0.01682266304,0.03189923676
3.49,-0.003021782083,0.03596385219
3.5,0.01128553792,0.03430542949
3.51,0.02381569187,0.02717396018
3.52,0.0325616019,0.01569679255
3.53,0.03611649011,0.001701568633
3.54,0.03390273491,-0.01257486112
3.55,0.02626800809,-0.0248452103
3.56,0.01443218127,-0.03314042123
3.57,0.0002927282329,-0.03612832834
3.58,-0.01388043813,-0.03333015909
3.59,-0.02581143258,-0.02519911131
3.6,-0.03358657019,-0.01304768038
3.61,-0.03596409514,0.001164800493
3.62,-0.03257471824,0.01514991261
3.63,-0.02398006952,0.02666128939
3.64,-0.01157953513,0.03385837625
3.65,0.002619068327,0.03560326436
3.66,0.01632710375,0.03164215359
3.67,0.02734702134,0.02264213722
3.68,0.03392747784,0.01007795742
3.69,0.03504365474,-0.00401187035
3.7,0.0305574513,-0.01735877371
3.71,0.02123234839,-0.02783241591
3.72,0.008601867089,-0.03378311224
3.73,-0.005285390404,-0.03430279661
3.74,-0.0182011486,-0.02936298147
3.75,-0.02809772787,-0.01980885386
3.76,-0.03343432471,-0.007212486528
3.77,-0.03341693511,0.006388899453
3.78,-0.02811452594,0.01882539839
3.79,-0.01843487398,0.02814270872
3.8,-0.005966582717,0.032909871
3.81,0.007284704798,0.03243783446
3.82,0.01922144487,0.02687570826
3.83,0.02798742572,0.01717200767
3.84,0.03225587199,0.004910154666
3.85,0.03142780054,-0.007952675252
3.86,0.02571150183,-0.01939969514
3.87,0.01607367657,-0.02767082569
3.88,0.004073272273,-0.03153153685
3.89,-0.008392865328,-0.03045352257
3.9,-0.01939055477,-0.02468156257
3.91,-0.02724725538,-0.01517942803
3.92,-0.03080347106,-0.003466607161
3.93,-0.02957943476,0.008625997461
3.94,-0.02383411333,0.01924182728
3.95,-0.01451068894,0.026781363
3.96,-0.003079984425,0.0301392123
3.97,0.008691804233,0.02886131395
3.98,0.01901432656,0.02320101027
3.99,0.02634195463,0.01406837847
4,0.0296006851,0.002883055299
4.01,0.0283407683,-0.008645455073
4.02,0.02279446779,-0.01877619645
4.03,0.01383257661,-0.02599545718
4.04,0.00282797029,-0.02923823887
4.05,-0.008552473916,-0.02804114945
4.06,-0.01859653717,-0.02260572917
4.07,-0.02579964766,-0.01376423229
4.08,-0.02908584507,-0.002853740899
4.09,-0.02796525723,0.008482683201
4.1,-0.02260576833,0.01853897844
4.11,-0.01380869828,0.02579825348
4.12,-0.002891829436,0.02915789366
4.13,0.008503780082,0.02809501938
4.14,0.01865581832,0.02274791183
4.15,0.02601692282,0.01390071643
4.16,0.02944786189,0.00287240863
4.17,0.02839313783,-0.00867516303
4.18,0.02297209589,-0.01898327271
4.19,0.01397035498,-0.02646092074
4.2,0.002730688568,-0.02992894747
4.21,-0.009042585509,-0.02880651237
4.22,-0.0195382631,-0.02321033094
4.23,-0.02711473897,-0.01394932554
4.24,-0.03055657609,-0.002412717367
4.25,-0.02927109464,0.009634124434
4.26,-0.02339284536,0.02031702048
4.27,-0.0137770843,0.02794362924
4.28,-0.001880120693,0.03127252376
4.29,0.01045782313,0.02971770047
4.3,0.02129561343,0.02345432581
4.31,0.02889689365,0.01340614942
4.32,0.03201024953,0.001113348795
4.33,0.03007822506,-0.01150121084
4.34,0.02333966738,-0.02243232971
4.35,0.01280614311,-0.02991260418
4.36,0.0001131408463,-0.03270092388
4.37,-0.01273272507,-0.03029167066
4.38,-0.02367166776,-0.02300869504
4.39,-0.03092328978,-0.01196618819
4.4,-0.033279573,0.001099914784
4.41,-0.03030941432,0.01410488201
4.42,-0.02243941542,0.02494954015
4.43,-0.01089544619,0.03186203608
4.44,0.002487662051,0.03369074708
4.45,0.01555887062,0.03009921572
4.46,0.02619917209,0.02162950083
4.47,0.0326684005,0.009621766407
4.48,0.03389316591,-0.003998255918
4.49,0.02964758897,-0.01703010273
4.5,0.02059588301,-0.02735710639
4.51,0.008188605357,-0.03329356217
4.52,-0.005571230902,-0.03386289693
4.53,-0.018454153,-0.0289603282
4.54,-0.02836871441,-0.01937252837
4.55,-0.03370420456,-0.006650555172
4.56,-0.03359477357,0.007143227959
4.57,-0.02806116992,0.01977248163
4.58,-0.01800665781,0.0291926644
4.59,-0.005067966594,0.03388476317
4.6,0.008653779211,0.03310194953
4.61,0.02093735774,0.02698877518
4.62,0.02980391415,0.01655384089
4.63,0.03383785072,0.003501247631
4.64,0.03241368941,-0.0100505479
4.65,0.02579239764,-0.02191549449
4.66,0.01507251457,-0.03019496188
4.67,0.002005448526,-0.033582877
4.68,-0.01129348959,-0.03157169185
4.69,-0.02269005854,-0.02452674612
4.7,-0.03037529065,-0.01361853273
4.71,-0.03315308509,-0.0006257001943
4.72,-0.03062540337,0.01235753453
4.73,-0.0232466319,0.02326091083
4.74,-0.0122403349,0.03036915197
4.75,0.000606040282,0.03259140466
4.76,0.01323357469,0.02962688626
4.77,0.02364314751,0.02200199896
4.78,0.03021202544,0.01097523131
4.79,0.03194564938,-0.001672653782
4.8,0.02862583726,-0.01392774895
4.81,0.02083386657,-0.02386421078
4.82,0.009847146424,-0.02994623763
4.83,-0.002571854221,-0.03126364287
4.84,-0.01445922731,-0.02766530827
4.85,-0.02396000199,-0.01977157749
4.86,-0.02961630247,-0.008865967448
4.87,-0.03058883592,0.003314646231
4.88,-0.02677856364,0.01485687059
4.89,-0.01883155919,0.02397052907
4.9,-0.00802843361,0.02926454749
4.91,0.003922563006,0.02995688132
4.92,0.01515526057,0.02598733625
4.93,0.02393564457,0.01801759929
4.94,0.02892751418,0.007320309337
4.95,0.02939347539,-0.00442413629
4.96,0.0253015438,-0.01539064028
4.97,0.0173224384,-0.02389137574
4.98,0.006719436382,-0.02863348066
4.99,-0.004851114506,-0.02891358296
5,-0.0155972701,-0.02472032799
5.01,-0.02386722493,-0.01673032543
5.02,-0.02840127235,-0.006199178662
5.03,-0.02852196472,0.005234930923
5.04,-0.02423411227,0.01580460031
5.05,-0.01622008352,0.02388464885
5.06,-0.005731768874,0.02824033226
5.07,0.005603836749,0.02821475377
5.08,0.01603550384,0.02382726455
5.09,0.02395673601,0.01576821279
5.1,0.0281518472,0.005291135091
5.11,0.02798170739,-0.005980971201
5.12,0.02348091275,-0.0163056315
5.13,0.01535160777,-0.02408892593
5.14,0.004854913877,-0.02813059693
5.15,-0.006383467999,-0.02780870818
5.16,-0.01662377692,-0.02317549706
5.17,-0.0242804777,-0.01494958137
5.18,-0.02816712865,-0.004405519219
5.19,-0.02768010855,0.006822525445
5.2,-0.02289274159,0.01699299836
5.21,-0.01454503904,0.02452632033
5.22,-0.003930304571,0.02824986569
5.23,0.007304224402,0.02758059813
5.24,0.01741216024,0.02261686947
5.25,0.02481891116,0.0141248097
5.26,0.0283668306,0.003420999175
5.27,0.02749640329,-0.007830787357
5.28,0.02233504155,-0.01787754011
5.29,0.01367928313,-0.02514978742
5.3,0.002872696475,-0.02850678217
5.31,-0.008401944563,-0.02741577725
5.32,-0.01838419379,-0.02203714083
5.33,-0.02551060444,-0.01320160465
5.34,-0.02865970744,-0.002282708
5.35,-0.027328879,0.009016109846
5.36,-0.02171512823,0.01892686971
5.37,-0.01268672008,0.02589358817
5.38,-0.001649569129,0.02881674623
5.39,0.009671157096,0.02722724397
5.4,0.01950038996,0.02136224402
5.41,0.02629146246,0.0121305461
5.42,0.02896973175,0.000972403711
5.43,0.02710310353,-0.01036470783
5.44,0.02097231823,-0.02009954459
5.45,0.01152946953,-0.02669701762
5.46,0.0002507420833,-0.0291105884
5.47,-0.01109396502,-0.02694880555
5.48,-0.02071865129,-0.02053938987
5.49,-0.02710254781,-0.01088027352
5.5,-0.0292308294,0.0005152336264
5.51,-0.02675653216,0.01185523337
5.52,-0.02005773515,0.02135099622
5.53,-0.01018047174,0.02749939117
5.54,0.001324147212,0.02932134651
5.55,0.01264333201,0.0265184163
5.56,0.02198838293,0.01952229181
5.57,0.02787776219,0.009428928579
5.58,0.02937259546,-0.002172786923
5.59,0.02622704972,-0.01345112084
5.6,0.01892936463,-0.02262097686
5.61,0.008626574165,-0.02822698183
5.62,-0.003055581916,-0.0293751743
5.63,-0.01426932721,-0.02587627362
5.64,-0.02323755341,-0.0182774264
5.65,-0.02853610784,-0.007777000094
5.66,-0.02932069197,0.003964383446
5.67,-0.02546207069,0.01508678441
5.68,-0.01756780214,0.02382615776
5.69,-0.006886747751,0.02879486807
5.7,0.004888666748,0.02920275006
5.71,0.0158910961,0.02498334805
5.72,0.02437508508,0.0168050464
5.73,0.0289947241,0.005965167938
5.74,0.02901782784,-0.005816174669
5.75,0.02444241736,-0.01666964233
5.76,0.01599688589,-0.02487401313
5.77,0.005023822833,-0.02912985608
5.78,-0.006733926167,-0.02876587371
5.79,-0.01741076372,-0.02384503794
5.8,-0.02531507867,-0.01515368987
5.81,-0.02919786793,-0.004075498756
5.82,-0.02845046108,0.007629432079
5.83,-0.02319997514,0.01810491702
5.84,-0.01428752711,0.02569369378
5.85,-0.003132980573,0.02920006332
5.86,0.008491913406,0.02807845059
5.87,0.01874559451,0.02251812262
5.88,0.02600894381,0.0134109526
5.89,0.02914122301,0.002207789449
5.9,0.02765919583,-0.009313312044
5.91,0.02181132255,-0.01932984138
5.92,0.01253572141,-0.02626348665
5.93,0.001309095813,-0.02902890857
5.94,-0.01008892042,-0.0272034164
5.95,-0.0198582788,-0.02109107585
5.96,-0.02646296484,-0.0116716424
5.97,-0.02887240494,-0.0004429880348
5.98,-0.02672192376,0.01081752622
5.99,-0.02036735467,0.02033463088
6,-0.01082575844,0.02661503108
