"Freq [GHz]","re(S(Antenna1_1_p1,Antenna1_1_p1)) []","im(S(Antenna1_1_p1,Antenna1_1_p1)) []"
3,-0.023232216155668,-0.117224982909584
3.002,-0.0272563920732211,-0.115270281734069
3.004,-0.0311628848444616,-0.113142926868398
3.006,-0.0349440998089696,-0.110849355227762
3.008,-0.0385927774276539,-0.108396332435132
3.01,-0.0421020072433039,-0.105790935889535
3.012,-0.0454652409282113,-0.103040537224263
3.014,-0.0486763045731932,-0.100152784195791
3.016,-0.0517294099234188,-0.0971355821444695
3.018,-0.0546191648075072,-0.0939970749182787
3.02,-0.0573405826174462,-0.0907456254810113
3.022,-0.0598890907779203,-0.0873897961262647
3.024,-0.0622605382946824,-0.0839383283485196
3.026,-0.0644512023225983,-0.0804001225324012
3.028,-0.0664577937749488,-0.0767842173909514
3.03,-0.0682774618965031,-0.0730997692033943
3.032,-0.0699077979137294,-0.0693560310214641
3.034,-0.0713468376563326,-0.065562331745882
3.036,-0.0725930631850519,-0.0617280552070424
3.038,-0.073645403541349,-0.0578626192624749
3.04,-0.0745032343652491,-0.0539754549782317
3.042,-0.0751663767281597,-0.0500759859174833
3.044,-0.0756350948680014,-0.0461736075953189
3.046,-0.0759100931044232,-0.0422776671230298
3.048,-0.0759925117622559,-0.0383974431558277
3.05,-0.0758839222316803,-0.0345421260290013
3.052,-0.0755863211338446,-0.0307207983129641
3.054,-0.0751021236308737,-0.0269424156919872
3.056,-0.0744341558993677,-0.0232157882546541
3.058,-0.0735856467865846,-0.0195495622173142
3.06,-0.0725602186585578,-0.0159522021310584
3.062,-0.0713618775594013,-0.0124319735819945
3.064,-0.0698386668010224,-0.00921767882384959
3.066,-0.0681240599923731,-0.00618604560120074
3.068,-0.066279813617256,-0.00327162319089908
3.07,-0.0643124014695311,-0.000479770678538466
3.072,-0.0622285093843761,0.00218448546389863
3.074,-0.0600350186540045,0.00471645920378531
3.076,-0.0577389892759714,0.00711181192225119
3.078,-0.0553476430018786,0.00936655861320231
3.08,-0.0528683461239262,0.0114770732635986
3.082,-0.050308592226361,0.0134400933623122
3.084,-0.0476759847984252,0.0152527236455552
3.086,-0.0449782198089145,0.0169124389175321
3.088,-0.042223068229914,0.0184170861756229
3.09,-0.0394183586596858,0.0197648858200425
3.092,-0.0365719599643301,0.0209544320985612
3.094,-0.0336917640407295,0.0219846927374671
3.096,-0.030785668727915,0.0228550078005594
3.098,-0.027861560894343,0.023565087778515
3.1,-0.0249272997506665,0.024115010911512
3.102,-0.0219907004317876,0.0245052197884851
3.104,-0.0190595178033183,0.0247365172068398
3.106,-0.0161414306730257,0.0248100613668405
3.108,-0.0132440263309137,0.0247273603952226
3.11,-0.0103747853802816,0.0244902661828163
3.112,-0.00754106712370901,0.0241009676611402
3.114,-0.0047500952564483,0.0235619834429739
3.116,-0.00200894408815881,0.0228761539518585
3.118,0.000675474807697772,0.0220466329852844
3.12,0.00329642540915653,0.021076878755982
3.122,0.0058473595798294,0.0199706445652364
3.124,0.00832192885761607,0.0187319689614592
3.126,0.0105823591156897,0.0172930841163868
3.128,0.0126130433451934,0.015677411310191
3.13,0.0145381282908652,0.0139688346154934
3.132,0.016353920882546,0.0121731686087438
3.134,0.0180570195271984,0.0102963568456581
3.136,0.019644317257638,0.00834445806539828
3.138,0.0211130041756215,0.00632363255591198
3.14,0.0224605692682201,0.00424012852035052
3.142,0.0236848016474815,0.0021002686117257
3.144,0.024783791274228,-8.95633240023154E-05
3.146,0.0257559289973958,-0.00232293536241419
3.148,0.0265999062105725,-0.00459338038578165
3.15,0.0273147139972791,-0.00689440873591078
3.152,0.0278996417460438,-0.00921952062398493
3.154,0.0283542754653999,-0.0115622182752667
3.156,0.0286784956075663,-0.0139160178233182
3.158,0.0288724745977252,-0.0162744609249741
3.16,0.0289366740234765,-0.018631126104604
3.162,0.0288718415362103,-0.0209796398451595
3.164,0.0286790074528032,-0.0233136874545487
3.166,0.0283594811822169,-0.0256270235869449
3.168,0.0279148473572741,-0.0279134826663463
3.17,0.0273469618371489,-0.0301669890319827
3.172,0.026657947480973,-0.0323815668769449
3.174,0.0258501897374709,-0.0345513500726267
3.176,0.0249263321497891,-0.0366705918021526
3.178,0.0238892715787141,-0.0387336741058717
3.18,0.0227421533914131,-0.0407351173011761
3.182,0.0214883663167285,-0.0426695893473287
3.184,0.0201315373020583,-0.044531915203634
3.186,0.0186755259810309,-0.0463170860161657
3.188,0.0170875842956682,-0.0479603318943703
3.19,0.0153124784016172,-0.0493293337342509
3.192,0.0134742689204372,-0.0505959058795205
3.194,0.0115783588789516,-0.051757343896189
3.196,0.00963026457239144,-0.0528111890295645
3.198,0.0076356068935836,-0.0537552329457298
3.2,0.00560010250479291,-0.0545875223222783
3.202,0.00352955472710767,-0.0553063635456018
3.204,0.00142984418526531,-0.0559103271844217
3.206,-0.000693080863425299,-0.0563982523916863
3.208,-0.00283321454089684,-0.0567692511795514
3.21,-0.00498450372148688,-0.0570227125650416
3.212,-0.00714085879715893,-0.0571583064272942
3.214,-0.00929616487159105,-0.0571759871911203
3.216,-0.0114442933361048,-0.0570759971460963
3.218,-0.0135791139357472,-0.0568588695056094
3.22,-0.0156945071884587,-0.0565254309562978
3.222,-0.0177843773772766,-0.0560768038252234
3.224,-0.0198426657842692,-0.0555144076899041
3.226,-0.0218633644394934,-0.054839960485066
3.228,-0.023840530230849,-0.0540554788696311
3.23,-0.025768299333395,-0.0531632780180178
3.232,-0.0276409018996134,-0.0521659706412789
3.234,-0.0294526770953635,-0.0510664651858533
3.236,-0.031198088299972,-0.0498679633507211
3.238,-0.0328717383731232,-0.0485739565374399
3.24,-0.0344683851460447,-0.0471882216317915
3.242,-0.0359829568499509,-0.0457148157005286
3.244,-0.0374105674808851,-0.0441580698518336
3.246,-0.0387465321169855,-0.0425225820835156
3.248,-0.0399863819718208,-0.0408132092485559
3.25,-0.041125879225778,-0.0390350579832811
3.252,-0.0416062129565273,-0.0370726175890909
3.254,-0.041968365869302,-0.0351037891572113
3.256,-0.042212291068073,-0.0331350007603149
3.258,-0.0423382645696199,-0.0311726905949565
3.26,-0.0423468875839449,-0.0292232913045841
3.262,-0.0422390881563798,-0.0272932140103258
3.264,-0.0420161218790381,-0.0253888320498066
3.266,-0.0416795717918965,-0.0235164644918781
3.268,-0.0412313473566791,-0.021682359502327
3.27,-0.0406736825898177,-0.0198926775473728
3.272,-0.0400091331839869,-0.0181534746210549
3.274,-0.0392405727410273,-0.0164706853774651
3.276,-0.038371188092404,-0.0148501064772086
3.278,-0.0374044735566641,-0.0132973798895048
3.28,-0.0363442244166061,-0.0118179765469931
3.282,-0.0351945293020216,-0.0104171801805983
3.284,-0.033959761726885,-0.00910007143180293
3.286,-0.0326445707427204,-0.00787151245936346
3.288,-0.0312538706125564,-0.00673613185695381
3.29,-0.0297928297223551,-0.0056983101074492
3.292,-0.0282668585490849,-0.00476216560859982
3.294,-0.0266815969566729,-0.00393154124373712
3.296,-0.025042900572929,-0.00320999161991967
3.298,-0.0233568265621751,-0.00260077097459447
3.3,-0.0216296186097613,-0.00210682182045793
3.302,-0.019867691325876,-0.00173076437675353
3.304,-0.0180776140071207,-0.00147488678378527
3.306,-0.0162660938251768,-0.00134113614595236
3.308,-0.0144399585435985,-0.00133111050716013
3.31,-0.0126061387473084,-0.00144605164103257
3.312,-0.0107716496577688,-0.00168683884696067
3.314,-0.00894357259667731,-0.00205398362168264
3.316,-0.00712903613238232,-0.00254762533480597
3.318,-0.00533519697906591,-0.00316752788545837
3.32,-0.00356922068309468,-0.00391307730610044
3.322,-0.00183826215881083,-0.00478328044844353
3.324,-0.000149446159250237,-0.00577676456540256
3.326,0.00149015238519379,-0.00689177802206638
3.328,0.00307352789223365,-0.00812619193779506
3.33,0.00459376369010255,-0.00947750283074859
3.332,0.00604405142412437,-0.0109428363654105
3.334,0.00741771033603895,-0.0125189519429997
3.336,0.0087082062571194,-0.0142022484640502
3.338,0.009909170366541,-0.0159887708918832
3.34,0.0110144177269244,-0.0178742178652023
3.342,0.0120179652494186,-0.0198539502875909
3.344,0.0129140494711479,-0.0219230007412947
3.346,0.0136971437283046,-0.0240760839123198
3.348,0.0143619748586157,-0.0263076077835616
3.35,0.014903539397361,-0.0286116858024058
3.352,0.0153171191715658,-0.0309821497590078
3.354,0.0155982962074112,-0.0334125635312424
3.356,0.0157429670463464,-0.0358962376021466
3.358,0.0157473563357935,-0.0384262442355217
3.36,0.0156080296207461,-0.0409954334452411
3.362,0.0153219054829647,-0.0435964495357046
3.364,0.0148862667248619,-0.0462217483098038
3.366,0.0142987708355535,-0.0488636148707017
3.368,0.0135574595069234,-0.051514181928287
3.37,0.0126607673479236,-0.054165448627346
3.372,0.0116075295656846,-0.0568092998232851
3.374,0.0103969888123662,-0.0594375257686509
3.376,0.00870670283702192,-0.061932192047721
3.378,0.0065527086020949,-0.0642400905048849
3.38,0.00426626545448406,-0.0664487711603907
3.382,0.00185223094145482,-0.0685515278683113
3.384,-0.000684209248020075,-0.0705418921622763
3.386,-0.00333755276559213,-0.0724136492076193
3.388,-0.00610199289834154,-0.0741608531127165
3.39,-0.00897143163455946,-0.0757778416454346
3.392,-0.0119394933387311,-0.0772592503607554
3.394,-0.0149995392136631,-0.078600026055825
3.396,-0.0181446823774398,-0.0797954394688575
3.398,-0.0213678035326352,-0.0808410973785335
3.4,-0.0246615672549716,-0.0817329537707526
3.402,-0.0280184388083884,-0.0824673203798361
3.404,-0.0314307014432769,-0.0830408763215303
3.406,-0.0348904742244409,-0.0834506769154271
3.408,-0.0383897301851699,-0.0836941616447027
3.41,-0.0419203149936577,-0.0837691612313635
3.412,-0.0454739658378591,-0.083673903835505
3.414,-0.049042330694772,-0.0834070203073989
3.416,-0.0526169877700374,-0.0829675485215534
3.418,-0.056189465249688,-0.0823549367822285
3.42,-0.0597512611258354,-0.081569046230226
3.422,-0.0632938631650743,-0.0806101523911193
3.424,-0.0668087689560949,-0.079478945625438
3.426,-0.0702875059694373,-0.0781765307316626
3.428,-0.0737216515929904,-0.0767044254932353
3.43,-0.0771028530967366,-0.0750645583111284
3.432,-0.080422847475367,-0.0732592648638433
3.434,-0.0836734811403461,-0.0712912837970371
3.436,-0.0868467293507843,-0.0691637514652813
3.438,-0.08993471548008,-0.0668801957787553
3.44,-0.0929297298772266,-0.0644445290679493
3.442,-0.0958242484539285,-0.0618610400697182
3.444,-0.0986109508099498,-0.0591343850382582
3.446,-0.10128273805441,-0.0562695779247925
3.448,-0.103832749971056,-0.0532719798099452
3.45,-0.106254381825868,-0.0501472874029382
3.452,-0.108541300535692,-0.0469015208018824
3.454,-0.110687460256951,-0.043541010479535
3.456,-0.112687117393836,-0.040072383478973
3.458,-0.114534844845753,-0.0365025489936685
3.46,-0.116225545634147,-0.0328386831164685
3.462,-0.117754465799216,-0.0290882131319579
3.464,-0.119117206487359,-0.0252588010166356
3.466,-0.120309735270579,-0.021358326471252
3.468,-0.121328396699381,-0.017394869429543
3.47,-0.12216992193107,-0.0133766919674623
3.472,-0.122831437545629,-0.00931221990984347
3.474,-0.123310473501695,-0.0052100238572333
3.476,-0.123604970115412,-0.00107879997842688
3.478,-0.123713284205193,0.0030726496021031
3.48,-0.123634194245686,0.00723543667314302
3.482,-0.123366904574425,0.0114006070523696
3.484,-0.12291104872485,0.0155591608976935
3.486,-0.122266691669546,0.0197020731606209
3.488,-0.121434331177664,0.0238203141716512
3.49,-0.120414898190634,0.0279048702168338
3.492,-0.119209756220315,0.0319467642211212
3.494,-0.117820699703839,0.0359370763365767
3.496,-0.116249951509376,0.0398669644367974
3.498,-0.114500159367104,0.0437276845592372
3.5,-0.112574391369618,0.0475106111054037
3.502,-0.110031739635987,0.0508435035592108
3.504,-0.107355095853588,0.0540406276440465
3.506,-0.104551522731782,0.0570962087493983
3.508,-0.101628334751395,0.0600048316281258
3.51,-0.098593080043821,0.0627614513557393
3.512,-0.0954535220334832,0.0653614034732487
3.514,-0.0922176204371958,0.0678004131453916
3.516,-0.0888935119938507,0.0700746034662211
3.518,-0.0854894907876714,0.0721805027642414
3.52,-0.0820139883181169,0.0741150509094292
3.522,-0.078475553219344,0.0758756047946315
3.524,-0.0748828309219554,0.0774599426039737
3.526,-0.0712445429995983,0.0788662673310094
3.528,-0.0675694665087829,0.0800932090994701
3.53,-0.0638664131931424,0.0811398266095363
3.532,-0.0601442087331643,0.082005607482649
3.534,-0.0564116719791162,0.0826904677279288
3.536,-0.0526775942810084,0.08319475008333
3.538,-0.0489507189468008,0.0835192214247036
3.54,-0.0452397208658928,0.0836650691759731
3.542,-0.0415531863655899,0.0836338967536727
3.544,-0.0378995933090934,0.0834277180391083
3.546,-0.0342872915639534,0.0830489508814471
3.548,-0.0307244837431083,0.0825004097050604
3.55,-0.0272192064253884,0.0817852971544678
3.552,-0.0237793118152555,0.0809071948702841
3.554,-0.0204124498175035,0.0798700534095864
3.556,-0.017126050757543,0.0786781812741921
3.558,-0.0139273085778648,0.0773362331303755
3.56,-0.010823164701188,0.0758491972636392
3.562,-0.00782029254076706,0.0742223822422329
3.564,-0.00492508266827085,0.072461402843212
3.566,-0.00214362874958526,0.0705721652849596
3.568,0.000518285831145771,0.0685608518202166
3.57,0.00305520042901507,0.0664339047138415
3.572,0.00546198894720512,0.0641980095496909
3.574,0.00773387064712524,0.0618600780912267
3.576,0.00986642013984635,0.0594272306006782
3.578,0.0118555764889823,0.0569067777218514
3.58,0.013697651375304,0.0543062018819529
3.582,0.0153893362735545,0.0516331384081062
3.584,0.0169277087221529,0.0488953563155719
3.586,0.0183102375667188,0.0461007387620382
3.588,0.0195347872386682,0.0432572633637307
3.59,0.0205996209704757,0.0403729822974913
3.592,0.0215034030396323,0.0374560023073946
3.594,0.0222451999738099,0.0345144646489042
3.596,0.0228244807003138,0.0315565250280127
3.598,0.023241115703564,0.0285903335912538
3.6,0.0234953750750851,0.0256240150039147
3.602,0.0235879256513477,0.0226656487652031
3.604,0.0235198270057522,0.0197232496045234
3.606,0.0232925265421436,0.0168047483173794
3.608,0.0229078534984447,0.0139179727957308
3.61,0.0223680120603373,0.0110706295638747
3.612,0.0216755734464209,0.00827028564106951
3.614,0.0208334671078826,0.0055243510821626
3.616,0.0198449710075166,0.00284006186738453
3.618,0.0187137010448309,0.000224463592212683
3.62,0.0174435996560673,-0.00231560427225082
3.622,0.0160389235901602,-0.00477352336862397
3.624,0.0145042310039894,-0.00714291066349861
3.626,0.0126690229527474,-0.00918999738104284
3.628,0.0105716414337454,-0.0108847451739822
3.63,0.00840566482460777,-0.0124437440479736
3.632,0.00617868310938389,-0.0138649177777858
3.634,0.00389831483871858,-0.0151465963065806
3.636,0.001572185042702,-0.0162875130929675
3.638,-0.000792096602624312,-0.0172868011644264
3.64,-0.00318695714500697,-0.0181439879202055
3.642,-0.00560488124709429,-0.0188589885318829
3.644,-0.00803843149646247,-0.0194320981655054
3.646,-0.0104802679888959,-0.0198639829855195
3.648,-0.012923167139488,-0.0201556699276307
3.65,-0.015360039601991,-0.0203085354551861
3.652,-0.0177839472144391,-0.0203242931316275
3.654,-0.0201881188529476,-0.0202049803899408
3.656,-0.0225659651889375,-0.0199529442986646
3.658,-0.0249110921609275,-0.0195708266028258
3.66,-0.0272173131666722,-0.0190615480869003
3.662,-0.0294786599078604,-0.0184282924153778
3.664,-0.0316893918157426,-0.017674489544441
3.666,-0.0338440040719712,-0.016803798845374
3.668,-0.035937234062595,-0.0158200921062824
3.67,-0.0379640665185354,-0.0147274366431279
3.672,-0.0399197370828336,-0.0135300784336609
3.674,-0.0417997345233228,-0.0122324257981044
3.676,-0.0435998015588765,-0.0108390333981254
3.678,-0.045315934447643,-0.00935458704028005
3.68,-0.0469443813762648,-0.00778388923149807
3.682,-0.0484816397694616,-0.00613184566200434
3.684,-0.0499244527389191,-0.00440345280517833
3.686,-0.0512698047784938,-0.00260378665421654
3.688,-0.0525149168685919,-0.000737992732086488
3.69,-0.0536572413054618,0.00118872260557343
3.692,-0.054694456240286,0.00317109951496115
3.694,-0.0556244604576843,0.00520383070195353
3.696,-0.056445368272877,0.00728156614473115
3.698,-0.0571555050707897,0.009398916634212
3.7,-0.0577534034784347,0.0115504561949773
3.702,-0.0582378003937568,0.0137307235580558
3.704,-0.0586076352198403,0.0159342228534144
3.706,-0.0588620491031499,0.0181554237331718
3.708,-0.059000385678868,0.0203887611511685
3.71,-0.0590221930261078,0.0226286350685715
3.712,-0.0589272271518284,0.0248694103186896
3.714,-0.0587154567458495,0.027105416937372
3.716,-0.0583870693517702,0.0293309511727787
3.718,-0.0579424786913656,0.0315402775316667
3.72,-0.0573823330845929,0.033727631946745
3.722,-0.0567075246552475,0.0358872264334478
3.724,-0.0559191993149081,0.0380132553613761
3.726,-0.0550187669963615,0.0400999034265978
3.728,-0.0540079120332371,0.0421413554971757
3.73,-0.052888603395819,0.0441318083971091
3.732,-0.0516631043644616,0.0460654845648059
3.734,-0.0503339814417839,0.0479366475928232
3.736,-0.0489041121827536,0.049739619597447
3.738,-0.0473766916573454,0.0514688001811807
3.74,-0.0457552373229744,0.0531186869296609
3.742,-0.0440435920423785,0.0546838971680264
3.744,-0.0422459251458847,0.0561591907511726
3.746,-0.0403667312738387,0.0575394936782301
3.748,-0.0384108270040402,0.0588199221743234
3.75,-0.0363833451580942,0.0599958070222574
3.752,-0.0341548788933368,0.0605391975130397
3.754,-0.0319158042634887,0.0609582380066701
3.756,-0.0296727763194263,0.0612524689328333
3.758,-0.027432516941103,0.0614217675842529
3.76,-0.0252017969061767,0.0614663584627339
3.762,-0.0229874165907718,0.0613868222883926
3.764,-0.0207961854506958,0.0611841035354369
3.766,-0.0186349005131823,0.0608595163821863
3.768,-0.0165103239609878,0.060414748938053
3.77,-0.0144291601281378,0.0598518656752085
3.772,-0.0123980319990687,0.0591733080569666
3.774,-0.0104234574469226,0.0583818931980743
3.776,-0.00851182546267121,0.0574808108135936
3.778,-0.00666937239113721,0.0564736181426883
3.78,-0.00490215853225578,0.0553642332010799
3.782,-0.00321604519657835,0.0541569261311629
3.784,-0.0016166722635143,0.0528563089917234
3.786,-0.000109436589503381,0.0514673238298702
3.788,0.00130052877836936,0.0499952292663475
3.79,0.00260837443960375,0.0484455856518778
3.792,0.00380955337624626,0.0468242388868498
3.794,0.00489983851669013,0.0451373030096349
3.796,0.00587533916707118,0.0433911417203023
3.798,0.00673251606996304,0.04159234882676
3.8,0.00746819517925786,0.0397477279094646
3.802,0.00807958004844501,0.0378642710891506
3.804,0.00856426285698238,0.035949137210556
3.806,0.00892023399606376,0.0340096294201731
3.808,0.00914589023086475,0.0320531722876546
3.81,0.00924004144131715,0.0300872885668607
3.812,0.00920191593767814,0.0281195756767484
3.814,0.00879631216067314,0.0262294451324051
3.816,0.00818893993886564,0.0244021711307126
3.818,0.00746166376820455,0.0226244194433232
3.82,0.00661730839048507,0.0209029504710093
3.822,0.00565906528879204,0.0192443708919451
3.824,0.0045904839689423,0.0176551136482093
3.826,0.00341546204655294,0.0161414185257063
3.828,0.00213823431969255,0.0147093133678404
3.83,0.000763360867176197,0.0133645959706534
3.832,-0.000704285897531576,0.012112816754692
3.834,-0.00225953496707222,0.0109592621866954
3.836,-0.00389693141623852,0.00990893906215699
3.838,-0.00561075185437528,0.00896655961803328
3.84,-0.00739502059570794,0.0081365276032204
3.842,-0.0092435265297186,0.00742292520294566
3.844,-0.0111498406742463,0.00682950101191599
3.846,-0.0131073341845774,0.00635965891984226
3.848,-0.0151091970523512,0.00601644804191057
3.85,-0.0171484571086857,0.0058025536757644
3.852,-0.0192179995364648,0.00572028928569387
3.854,-0.0213105866972649,0.00577158955389416
3.856,-0.023418878238915,0.00595800451789574
3.858,-0.0255354514911602,0.00628069473257289
3.86,-0.0276528219703945,0.00674042759444233
3.862,-0.0297634640778616,0.00733757465534823
3.864,-0.0318598318226987,0.00807211012198421
3.866,-0.0339343795666101,0.00894361035712554
3.868,-0.03597958273242,0.00995125449783592
3.87,-0.037987958410187,0.0110938261453378
3.872,-0.0399520858060136,0.0123697161106619
3.874,-0.041864626498165,0.013776926179612
3.876,-0.0436622728325851,0.0154289992900248
3.878,-0.0453218830694314,0.0173144629637374
3.88,-0.0468879336812847,0.0193101689951317
