"Freq [GHz]","re(S(Antenna1_1_p1,Antenna1_1_p1)) []","im(S(Antenna1_1_p1,Antenna1_1_p1)) []"
3,0.00535092373863202,-0.065429488850504
3.002,0.0040744076772789,-0.0654385250969689
3.004,0.00279707292203842,-0.0654104292258679
3.006,0.00152021673753035,-0.0653451142142519
3.008,0.000245136899746128,-0.065242543543662
3.01,-0.00102687049760392,-0.0651027306221347
3.012,-0.00229451314861128,-0.064925738097563
3.014,-0.00355650454629317,-0.0647116770718909
3.016,-0.00481156589441878,-0.0644607062276695
3.018,-0.00605842791650724,-0.0641730308751787
3.02,-0.00729583255744623,-0.0638489019327113
3.022,-0.00852253457812026,-0.0634886148493647
3.024,-0.00973730304038236,-0.0630925084812196
3.026,-0.0109389226819983,-0.0626609639304012
3.028,-0.0121261951843488,-0.0621944033587514
3.03,-0.0132979403321031,-0.0616932887838943
3.032,-0.0144529970691294,-0.0611581208687641
3.034,-0.0155902244531326,-0.060589437712482
3.036,-0.0167085025129519,-0.0599878136513424
3.038,-0.017806733013349,-0.0593538580781749
3.04,-0.0188838401319491,-0.0586882142875317
3.042,-0.0199387710549597,-0.0579915583527833
3.044,-0.0209704964963014,-0.0572645980422189
3.046,-0.0219780111487232,-0.0565080717797298
3.048,-0.0229603340714559,-0.0557227476535277
3.05,-0.0239165090243803,-0.0549094224798013
3.052,-0.0248456047533446,-0.0540689209224641
3.054,-0.0257467152362837,-0.0532020946729872
3.056,-0.0266189598977148,-0.0523098216932541
3.058,-0.0274614837986146,-0.0513930055211142
3.06,-0.0282734578106778,-0.0504525746419584
3.062,-0.0290540787826013,-0.0494894819248945
3.064,-0.0297994821215224,-0.0485025127036496
3.066,-0.0305107706456731,-0.0474945081369007
3.068,-0.031188249999156,-0.0464672881839991
3.07,-0.0318312559047311,-0.0454219098874385
3.072,-0.0324391515290761,-0.0443594506350014
3.074,-0.0330113276337045,-0.0432810079381147
3.076,-0.0335472027717714,-0.0421876992681488
3.078,-0.0340462235375786,-0.0410806619450977
3.08,-0.0345078648777262,-0.0399610530732014
3.082,-0.034931630468661,-0.0388300495179878
3.084,-0.0353170531696252,-0.0376888479169448
3.086,-0.0356636955557145,-0.0365386647170679
3.088,-0.035971150537414,-0.0353807362310771
3.09,-0.0362390420713858,-0.0342163187026575
3.092,-0.0364670259686301,-0.0330466883726388
3.094,-0.0366547908018295,-0.031873141534233
3.096,-0.036802058917215,-0.0306969945685406
3.098,-0.036908587553043,-0.029519583946985
3.1,-0.0369741700653665,-0.028342266190588
3.102,-0.0369986372638876,-0.0271664177717149
3.104,-0.0369818588557183,-0.0259934349472602
3.106,-0.0369237449974257,-0.0248247335077195
3.108,-0.0368242479514137,-0.0236617484304074
3.11,-0.0366833638446816,-0.0225059334208037
3.112,-0.036501134523209,-0.0213587603288378
3.114,-0.0362776494963483,-0.0202217184249861
3.116,-0.0360130479636588,-0.0190963135218415
3.118,-0.0357075209131022,-0.0179840669266056
3.12,-0.0353613132811435,-0.016886514210388
3.122,-0.0349747261599706,-0.0158052037804636
3.124,-0.0345481190391839,-0.0147416952422408
3.126,-0.0340819824920103,-0.0136988787775132
3.128,-0.0335769953180066,-0.012678282595309
3.13,-0.0330336930350348,-0.0116801346497066
3.132,-0.032452681070154,-0.0107060000836562
3.134,-0.0318346331242016,-0.0097574445199419
3.136,-0.0311802932965619,-0.00883603101970172
3.138,-0.0304904780957785,-0.00794331676508802
3.14,-0.0297660783060799,-0.00708084946444948
3.142,-0.0290080606827185,-0.0062501634828743
3.144,-0.028217469441972,-0.00545277570220232
3.146,-0.0273954275168042,-0.00469018111951419
3.148,-0.0265431375455275,-0.00396384819478165
3.15,-0.0256618825620209,-0.00327521396361078
3.152,-0.0247530263554562,-0.00262567893328493
3.154,-0.0238180134709001,-0.00201660178446672
3.156,-0.0228583688196337,-0.00144929390631822
3.158,-0.0218756968734748,-0.000925013793274085
3.16,-0.0208716804171235,-0.00044496133890398
3.162,-0.0198480788373897,-1.02720638594586E-05
3.164,-0.0188067259285968,0.000377988680751284
3.166,-0.0177495272011831,0.000718831491255058
3.168,-0.0166784566811759,0.00101134862355371
3.17,-0.0155955531945711,0.00125471958891735
3.172,-0.014502916136167,0.00144821658555513
3.174,-0.0134027007265821,0.0015912097100733
3.176,-0.0122971127680869,0.00168317189894744
3.178,-0.0111884029149859,0.00172368354532835
3.18,-0.0100788604809169,0.00171243674002386
3.182,-0.00897080681117151,0.00164923908567132
3.184,-0.00786658825436174,0.00153401703586599
3.186,-0.00676856877336911,0.00136681871463432
3.188,-0.00567889839133176,0.00114782688192967
3.19,-0.00459949446608282,0.000877276457049108
3.192,-0.00353340309176277,0.000555507964279509
3.194,-0.00248299450674844,0.000183072397411052
3.196,-0.00145061584380856,-0.000239351043964528
3.198,-0.0004385825513164,-0.000710955976429779
3.2,0.000550830134192905,-0.00123081055917825
3.202,0.00151539559790767,-0.00179785992250178
3.204,0.00245294406806531,-0.00241092928762174
3.206,0.0033613705854747,-0.00306872775888629
3.208,0.00423864265190316,-0.00376985276365142
3.21,0.00508280749871312,-0.00451279510614158
3.212,0.00589199891724107,-0.00529594459659417
3.214,0.00666444359590895,-0.00611759620872026
3.216,0.00739846691969515,-0.00697595671569632
3.218,0.00809249818745281,-0.00786915174760944
3.22,0.00874507521384129,-0.00879523321059781
3.222,0.00935484828832345,-0.00975218700542342
3.224,0.00992058346963085,-0.010737940978804
3.226,0.0104411652031066,-0.011750373042066
3.228,0.010915598255851,-0.0127873193904611
3.23,0.011343008970805,-0.0138465827563878
3.232,0.0117226458491866,-0.0149259406320889
3.234,0.0120538794761365,-0.0160231533997233
3.236,0.012336201812528,-0.0171359723093911
3.238,0.0125692248799768,-0.0182621472495639
3.24,0.0127526788720553,-0.0193994342588615
3.242,0.0128864097299491,-0.0205456027327586
3.244,0.0129703762224149,-0.0216984422840836
3.246,0.0130046465753145,-0.0228557692215956
3.248,0.0129893946977792,-0.0240154326166559
3.25,0.012924896052322,-0.0251753199334811
3.252,0.0128071198359727,-0.0263331836047909
3.254,0.012640953717498,-0.0274868102754113
3.256,0.012426968165527,-0.0286342326301149
3.258,0.0121658161708801,-0.0297735396757565
3.26,0.0118582281904551,-0.0309028800417841
3.262,0.0115050070185202,-0.0320204648317258
3.264,0.0111070226258619,-0.0331245700364066
3.266,0.0106652070021035,-0.0342135385224781
3.268,0.0101805490377209,-0.035285781611827
3.27,0.00965408947528226,-0.0363397802728728
3.272,0.0090869159582131,-0.0373740859433549
3.274,0.00848015820297273,-0.0383873210080651
3.276,0.00783498331459597,-0.0393781789558086
3.278,0.00715259126473588,-0.0403454242400048
3.28,0.00643421054829389,-0.0412878918673931
3.282,0.00568109402927836,-0.0422044867419983
3.284,0.00489451498671501,-0.0430941827881029
3.286,0.00407576336681964,-0.0439560218766635
3.288,0.00322614224630362,-0.0447891125808538
3.29,0.00234696450804491,-0.0455926287813492
3.292,0.00143954973042507,-0.0463658081456998
3.294,0.000505221287734067,-0.0471079505009371
3.296,-0.000454696341298951,-0.0478184161201197
3.298,-0.00143888006149506,-0.0484966239397945
3.3,-0.00244601045176128,-0.0491420497266579
3.302,-0.00347477386477595,-0.0497542242073535
3.304,-0.0045238643433207,-0.0503327311759853
3.306,-0.00559198536207678,-0.0508772055920524
3.308,-0.00667785140279847,-0.0513873316801601
3.31,-0.00778018937150843,-0.0518628410400326
3.312,-0.00889773986876879,-0.0523035107777607
3.314,-0.0100292583187773,-0.0527091616632826
3.316,-0.0111735159705823,-0.053079656322506
3.318,-0.0123293007759659,-0.0534148974684584
3.32,-0.0134954181563947,-0.0537148261753004
3.322,-0.0146706916652108,-0.0539794202003435
3.324,-0.0158539635544502,-0.0542086923558026
3.326,-0.0170440952526062,-0.0544026889317664
3.328,-0.0182399677627664,-0.0545614881739951
3.33,-0.0194404819863975,-0.0546851988156486
3.332,-0.0206445589793756,-0.0547739586638105
3.334,-0.021851140148061,-0.0548279332414997
3.336,-0.0230591873892806,-0.0548473144854502
3.338,-0.024267683179959,-0.0548323194971832
3.34,-0.0254756306228756,-0.0547831893494723
3.342,-0.0266820534510815,-0.0547001879447409
3.344,-0.0278859959962521,-0.0545836009265247
3.346,-0.0290865231250954,-0.0544337346417298
3.348,-0.0302827201473843,-0.0542509151528916
3.35,-0.031473692698839,-0.0540354872993758
3.352,-0.0326585666018342,-0.0537878138062078
3.354,-0.0338364877072888,-0.0535082744391424
3.356,-0.0350066217213536,-0.0531972652053466
3.358,-0.0361681540174065,-0.0528551975973217
3.36,-0.0373202894378539,-0.0524824978805411
3.362,-0.0384622520876353,-0.0520796064215046
3.364,-0.0395932851205381,-0.0516469770567038
3.366,-0.0407126505229465,-0.0511850765005017
3.368,-0.0418196288942766,-0.050694383790787
3.37,-0.0429135192283764,-0.050175389770546
3.372,-0.0439936386972154,-0.0496285966052851
3.374,-0.0450593224384338,-0.0490545173334509
3.376,-0.0461077262988781,-0.048457698691721
3.378,-0.0471388556148051,-0.0478389631543849
3.38,-0.0481545257500159,-0.0471948698411907
3.382,-0.0491541597077452,-0.0465259019875113
3.384,-0.0501371922165201,-0.0458325514202763
3.386,-0.0511030696222921,-0.0451153186958193
3.388,-0.0520512498333415,-0.0443747132504165
3.39,-0.0529812023144595,-0.0436112535572346
3.392,-0.0538924081333211,-0.0428254672855554
3.394,-0.0547843600550231,-0.042017891455525
3.396,-0.0556565626864298,-0.0411890725862575
3.398,-0.0565085326669692,-0.0403395668296335
3.4,-0.0573397989047516,-0.0394699400880526
3.402,-0.0581499028555384,-0.0385807681091362
3.404,-0.0589383988420069,-0.0376726365555303
3.406,-0.0597048544103409,-0.0367461410445271
3.408,-0.0604488507207699,-0.0358018871537027
3.41,-0.0611699829689577,-0.0348404903909635
3.412,-0.0618678608339591,-0.033862576123705
3.414,-0.062542108948772,-0.0328687794663989
3.416,-0.0631923673896374,-0.0318597451222534
3.418,-0.063818292178788,-0.0308361271800286
3.42,-0.0644195557978354,-0.029798588860726
3.422,-0.0649958477043743,-0.0287478022162193
3.424,-0.0655468748497949,-0.027684447777538
3.426,-0.0660723621913373,-0.0266092141527626
3.428,-0.0665720531950904,-0.0255227975748353
3.43,-0.0670457103241366,-0.0244259013998284
3.432,-0.0674931155074669,-0.0233192355569433
3.434,-0.0679140705849461,-0.0222035159511371
3.436,-0.0683083977235843,-0.0210794638204813
3.438,-0.06867593980188,-0.0199478050509553
3.44,-0.0690165607560266,-0.0188092694507493
3.442,-0.0693301458865285,-0.0176645899867182
3.444,-0.0696166021191498,-0.0165145019880582
3.446,-0.0698758582195098,-0.0153597423183125
3.448,-0.0701078649561559,-0.0142010485221852
3.45,-0.070312595210068,-0.0130391579495602
3.452,-0.0704900440296922,-0.0118748068621324
3.454,-0.070640228627551,-0.010708729526925
3.456,-0.0707631883185364,-0.00954165730157305
3.458,-0.070858984398753,-0.00837431771626852
3.46,-0.0709276999629468,-0.00720743355736851
3.462,-0.0709694396625156,-0.0060417219575579
3.464,-0.0709843294029591,-0.00487789349813561
3.466,-0.0709725159816787,-0.00371665132735199
3.468,-0.0709341666674812,-0.00255869030084297
3.47,-0.0708694687241701,-0.00140469614866228
3.472,-0.0707786288787287,-0.000255344672443466
3.474,-0.0706618727370953,0.0008886990206667
3.476,-0.0705194441514122,0.00202678124527312
3.478,-0.0703516045400933,0.00315826042070309
3.48,-0.0701586321651863,0.00428250770664302
3.482,-0.0699408213705248,0.00539890758736963
3.484,-0.0696984817850502,0.00650685840319351
3.486,-0.0694319374946459,0.00760577282332087
3.488,-0.0691415261880644,0.00869507826125122
3.49,-0.0688275982806336,0.00977421722743379
3.492,-0.0684905160210151,0.0108426476205212
3.494,-0.0681306525860391,0.0118998429530767
3.496,-0.0677483911679758,0.0129452925132974
3.498,-0.0673441240598635,0.0139785014612372
3.5,-0.0669182517431782,0.0149989908587037
3.502,-0.0664681459132674,0.0160119734182108
3.504,-0.0659967220675379,0.0170110601887465
3.506,-0.0655044147515124,0.0179957826610983
3.508,-0.0649916653927551,0.0189656882070258
3.51,-0.064458921487381,0.0199203399179393
3.512,-0.0639066358111832,0.0208593163902487
3.514,-0.0633352656588958,0.0217822114581916
3.516,-0.0627452721153507,0.0226886338784211
3.518,-0.0621371193615714,0.0235782069658414
3.52,-0.0615112740188169,0.0244505681863292
3.522,-0.060868204534444,0.0253053687070315
3.524,-0.0602083806097554,0.0261422729084737
3.526,-0.0595322726764983,0.0269609578607094
3.528,-0.0588403514189829,0.0277611127672701
3.53,-0.0581330873490424,0.0285424383800363
3.532,-0.0574109504315643,0.029304646387749
3.534,-0.0566744097649762,0.0300474587833288
3.536,-0.0559239333159084,0.03077060721073
3.538,-0.0551599877114008,0.0314738322978036
3.54,-0.0543830380878928,0.0321568829757731
3.542,-0.0535935479989899,0.0328195157915727
3.544,-0.0527919793820934,0.0334614942144083
3.546,-0.0519787925846534,0.0340825879404471
3.548,-0.0511544464508083,0.0346825722003604
3.55,-0.0503193984682884,0.0352612270718678
3.552,-0.0494741049756555,0.0358183368008841
3.554,-0.0486190214303035,0.0363536891353764
3.556,-0.047754602737743,0.0368670746745821
3.558,-0.0468813036407648,0.0373582862377855
3.56,-0.045999579169088,0.0378271182555092
3.562,-0.0451098851505671,0.0382733661868419
3.564,-0.0442126787805708,0.038696825966572
3.566,-0.0433084192529853,0.0390972934854796
3.568,-0.0423975684494542,0.0394745641076266
3.57,-0.0414805916884849,0.0398284322284415
3.572,-0.0405579585327949,0.0401586908771909
3.574,-0.0396301436551748,0.0404651313686267
3.576,-0.0386976277617537,0.0407475430073782
3.578,-0.0377608985724177,0.0410057128491514
3.58,-0.036820451857596,0.0412394255249529
3.582,-0.0358767925305455,0.0414484631317062
3.584,-0.0349304357930471,0.0416326051954719
3.586,-0.0339819083362812,0.0417916287116382
3.588,-0.0330317495908318,0.0419253082698307
3.59,-0.0320805130285243,0.0420334162682913
3.592,-0.0311287675111677,0.0421157232242946
3.594,-0.0301770986843901,0.0421719981894042
3.596,-0.0292261104137862,0.0422020092748127
3.598,-0.028276426259436,0.0422055242960538
3.6,-0.0273286909849149,0.0421823115458147
3.602,-0.0263835720942523,0.0421321407022031
3.604,-0.0254417613933478,0.0420547838826234
3.606,-0.0245039765664564,0.0419500168533794
3.608,-0.0235709627606553,0.0418176204032308
3.61,-0.0226434941693427,0.0416573818932747
3.612,-0.0217223756026991,0.0414690969909695
3.614,-0.0208084440338374,0.0412525716015626
3.616,-0.0199025701060334,0.0410076240048845
3.618,-0.0190056595850791,0.0407340872088127
3.62,-0.0181186547389227,0.0404318115298492
3.622,-0.0172425356243698,0.040100667407676
3.624,-0.0163783212585106,0.0397405484650014
3.626,-0.0155277307015526,0.0393510485148572
3.628,-0.0146919193261546,0.0389322065004178
3.63,-0.0138713810639922,0.0384843677223264
3.632,-0.0130672917228161,0.0380075603847142
3.634,-0.0122808687250814,0.0375018546915194
3.636,-0.011513370979698,0.0369673674056325
3.638,-0.0107660984160243,0.0364042666531736
3.64,-0.010040391137507,0.0358127769599945
3.642,-0.00933762815099429,0.0351931845023171
3.644,-0.00865922562846247,0.0345458425487946
3.646,-0.00800663465399586,0.0338711770642805
3.648,-0.00738133841028797,0.0331696924389693
3.65,-0.00678484875909105,0.0324419772991139
3.652,-0.00621870217223909,0.0316887103476725
3.654,-0.00568445497144765,0.0309106661752592
3.656,-0.00518367783913752,0.0301087209732354
3.658,-0.0047179495694275,0.0292838580707742
3.66,-0.00428885003107222,0.0284371732108997
3.662,-0.00389795232876038,0.0275698794713222
3.664,-0.00354681415224256,0.026683311727019
3.666,-0.00323696831997125,0.025778930546266
3.668,-0.00296991253489498,0.0248583254041376
3.67,-0.00274709838603544,0.0239232170946021
3.672,-0.00256991964573356,0.0229754592183791
3.674,-0.00243969993202277,0.0220170386245256
3.676,-0.00235767982257651,0.0210500746854246
3.678,-0.00232500353084304,0.02007681729034
3.68,-0.00234270527036477,0.0190996434514019
3.682,-0.00241169545806157,0.0181210524275957
3.684,-0.00253274692341913,0.0171436592893217
3.686,-0.00270648131169376,0.0161701868634835
3.688,-0.00293335588129189,0.0152034560250135
3.69,-0.00321365091176178,0.0142463743254734
3.692,-0.00354745794548595,0.0133019229805612
3.694,-0.00393466909238426,0.0123731422700535
3.696,-0.004374967624877,0.0114631154376311
3.698,-0.00486782008698968,0.010574951217012
3.7,-0.00541247012533471,0.00971176513967731
3.702,-0.00600793423715678,0.00887665982195578
3.704,-0.00665299960014033,0.00807270445521439
3.706,-0.00734622412294993,0.00730291375567181
3.708,-0.00808593881906797,0.00657022665326853
3.71,-0.00887025256340779,0.00587748501867149
3.712,-0.00969705925162842,0.0052274127391896
3.714,-0.0105640473312495,0.004622595460872
3.716,-0.0114687116301702,0.00406546130887872
3.718,-0.0124083673570656,0.00355826289096672
3.72,-0.0133801661067529,0.00310306086644501
3.722,-0.0143811136577875,0.00270170933954776
3.724,-0.0154080893146181,0.00235584330237609
3.726,-0.0164578665148465,0.00206686831229783
3.728,-0.0175271343968171,0.00183595254477566
3.73,-0.018612520007149,0.00166402131870912
3.732,-0.0197106108186216,0.00155175413720593
3.734,-0.0208179772290239,0.00149958424012317
3.736,-0.0219311947195536,0.001507700617847
3.738,-0.0230468653665454,0.0015760523860807
3.74,-0.0241616384242744,0.00170435538446091
3.742,-0.0252722297224785,0.00189210082112636
3.744,-0.0263754396590847,0.00213856575887255
3.746,-0.0274681696026387,0.00244282521033006
3.748,-0.0285474365594402,0.00280376559572342
3.75,-0.0296103860002942,0.00322009930445742
3.752,-0.0306548124606368,0.00369392646943969
3.754,-0.0316773393746887,0.00422014732447014
3.756,-0.0326755540823263,0.00479703142523328
3.758,-0.033647204784103,0.00542273840535287
3.76,-0.0345902039133767,0.00609533419703386
3.762,-0.0355026298066718,0.00681280692469262
3.764,-0.0363827267881958,0.00757308229443694
3.766,-0.0372289038012823,0.00837403832878626
3.768,-0.0380397317315878,0.00921351931965304
3.77,-0.0388139395729378,0.0100893488983085
3.772,-0.0395504095900687,0.0109993421448667
3.774,-0.0402481716338226,0.0119413166839743
3.776,-0.0409063967597712,0.0129131027333336
3.778,-0.0415243902966372,0.0139125520924883
3.78,-0.0421015845006558,0.0149375460770999
3.782,-0.0426375309270784,0.0159860024173229
3.784,-0.0431318926346143,0.0170558811535934
3.786,-0.0435844363294034,0.0181451895729702
3.788,-0.0439950245456306,0.0192519862376075
3.79,-0.0443636079413962,0.0203743841636778
3.792,-0.0446902177858537,0.0215105532133498
3.794,-0.0449749586932099,0.0226587217653349
3.796,-0.0452180016562288,0.0238171777315023
3.798,-0.045419577416037,0.0249842689856599
3.8,-0.0455799701994421,0.0261584032717646
3.802,-0.045699511844955,0.0273380476556506
3.804,-0.0457785763324176,0.028521727581156
3.806,-0.0458175747223362,0.0297080255906731
3.808,-0.0458169505081353,0.0308955797640546
3.81,-0.0457771753774828,0.0320830819282607
3.812,-0.0456987453750219,0.0332692756849484
3.814,-0.0455800119302269,0.0344506853032051
3.816,-0.0454232153896344,0.0356273961528126
3.818,-0.0452296882498954,0.0367990317308232
3.82,-0.0450000174222149,0.0379645440486093
3.822,-0.044734799084408,0.0391229276479451
3.824,-0.0444346367835577,0.0402732172280093
3.826,-0.0441001398287471,0.0414144853007063
3.828,-0.0437319219547574,0.0425458398954404
3.83,-0.0433306002381238,0.0436664223281534
3.832,-0.0428967942460916,0.044775405050192
3.834,-0.0424311254000582,0.0458719895882954
3.836,-0.0419342165353185,0.046955404587057
3.838,-0.0414066916394653,0.0480249039601333
3.84,-0.0408491757523579,0.0490797651600204
3.842,-0.0402622950111186,0.0501192875696457
3.844,-0.0396466768242463,0.051142791021316
3.846,-0.0390029501602774,0.0521496144458423
3.848,-0.0383317459344512,0.0531391146544106
3.85,-0.0376336974821857,0.0541106652542644
3.852,-0.0369094411035648,0.0550636556991939
3.854,-0.0361596166664649,0.0559974904748942
3.856,-0.035384868256215,0.0569115884182957
3.858,-0.0345858448605602,0.0578053821690729
3.86,-0.0337632010758945,0.0586783177526423
3.862,-0.0329175978271616,0.0595298542917482
3.864,-0.0320497030870987,0.0603594638436842
3.866,-0.0311601925880101,0.0611666313591255
3.868,-0.03024975051322,0.0619508547609359
3.87,-0.029319070160987,0.0627116451362378
3.872,-0.0283688545694136,0.0634485270380619
3.874,-0.027399817096365,0.064161038891112
